[
    "1A 13 00 00 00 86 86 86 0F",
    "AD 01 B0 B0 AE",
    "AD 01 60 60 AE",
    "AD 01 20 20 AE",
    "AD 01 80 80 AE",
    "AD 01 70 70 AE",
    "A1 11 11 11 47",
    "1A FF FF FF 55 86 86 86 0F",
    "1A FF FF FF 55 86 86 86 0F",
    "1A FF FF FF 55 86 86 86 0F",
    "1A FF FF FF 55 86 86 86 0F",
    "1A FF FF FF 55 86 86 86 0F",
    "3A 50 57 52 20 4F 4E",
    "3A 50 57 52 20 4F 4E",
    "50 57 52 20 4F 4E",
    "50 57 52 20 4F 4E",
    "53 4F 55 52 43 45 3F",
    "53 4F 55 52 43 45 3F 0D",
    "50 57 52 20 4F 4E 0D",
    "A1 11 11 11 48",
    "1A 0D 01 01 01 FF 00 01 FF 00 01 FF 00 00 0F",
    "A1 11 11 11 49",
    "AE BE CE DE 50 57 52 20 4F 4E 0D",
    "AE BE CE DE 4D 55 54 45 20 4F 4E 0D",
    "AE BE CE DE 4D 55 54 45 20 4F 46 46 0D",
    "AE BE CE DE 50 57 52 20 4F 46 46 0D",
    "AE BE CE DE 4B 45 59 20 39 44 0D",
    "AE BE CE DE 53 4F 55 52 43 45 20 31 30 0D",
    "AE BE CE DE 53 4F 55 52 43 45 20 33 30 0D",
    "AE BE CE DE 4B 45 59 20 30 33 0D",
    "AE BE CE DE 4B 45 59 20 34 38 0D",
    "AE BE CE DE 4B 45 59 20 33 36 0D",
    "1A 22 33 62 25 86 86 86 0F",
    "1A 22 33 62 25 86 86 86 0F",
    "1A 22 33 62 25 86 86 86 0F",
    "1A 22 33 62 25 86 86 86 0F",
    "1A 22 33 62 25 86 86 86 0F",
    "1A 22 33 62 25 86 86 86 0F",
    "1A FF FF FF 04 86 86 86 0F",
    "1A FF FF FF 04 86 86 86 0F",
    "1A FF FF FF 04 86 86 86 0F",
    "1A FF FF FF 04 86 86 86 0F",
    "1A FF FF FF 04 86 86 86 0F",
    "1A 20 00 00 01 86 86 86 0F",
    "1A 15 00 00 01 86 86 86 0F",
    "1A 15 00 00 00 86 86 86 0F",
    "20 03 00 10 00 01 83 7E",
    "1A 20 00 00 00 86 86 86 0F",
    "1A 21 00 00 00 86 86 86 0F",
    "1A 21 00 00 01 86 86 86 0F",
    "17 03 00 00 00 02 C6 FD",
    "03 03 00 00 00 02 C5 E9",
    "03 03 00 10 00 01 84 2D",
    "1A 03 00 00 00 86 86 86 0F",
    "1A 03 00 00 01 86 86 86 0F",
    "03 03 00 00 00 03 04 29",
    "20 03 00 00 00 03 03 7A",
    "1A 22 00 00 00 86 86 86 0F",
    "1B 03 00 00 00 02 C6 31",
    "1A AA AA AA 88 FF B0 01 FF B0 01 0F",
    "1A AA AA AA 88 FF B0 01 FF B0 01 0F",
    "1A AA AA AA 88 FF B0 01 FF B0 01 0F",
    "1A AA AA AA 88 FF B0 01 FF B0 01 0F",
    "1A AA AA AA 88 FF 00 01 FF 00 01 0F",
    "1A AA AA AA 88 FF 00 01 FF 00 01 0F",
    "1A AA AA AA 88 FF B0 01 FF B0 01 0F",
    "1A AA AA AA 88 FF B0 01 FF B0 01 0F",
    "1A FF FF FF 58 86 86 86 0F",
    "1A FF FF FF 57 86 86 86 0F",
    "1A FF FF FF 56 86 86 86 0F",
    "1A 22 33 62 56 86 86 86 0F",
    "1A 03 00 00 00 02 C7 E0",
    "1A 22 33 62 5E 86 86 86 0F",
    "1A FF 01 FF FF FF 00 01 FF 00 01 FF 00 00 0F",
    "1A FF 01 FF FF FF 60 01 FF 60 01 FF 00 00 0F",
    "4D 55 54 45 20 4F 4E 0D",
    "4D 55 54 45 20 4F 46 46 0D",
    "4B 45 59 20 30 33 0D",
    "50 57 52 20 4F 46 46 0D",
    "1A 23 00 00 00 86 86 86 0F",
    "1A 24 00 00 00 86 86 86 0F",
    "1A 25 00 00 00 86 86 86 0F",
    "30 50 FA 01 01 01 01",
    "30 50 FA 01 02 01 02",
    "1A BB BB BB 01 01 00",
    "1A BB BB BB 01 02 00",
    "1A BB BB BB 01 03 00",
    "55 F5 40 00 00 00 00 8A",
    "55 32 32 00 00 00 01 BA",
    "55 32 31 00 00 00 01 B9",
    "A1 11 11 11 47",
    "1A BE B0 DC 0A 00 02 00",
    "1A BE B0 DC 0A 00 03 00",
    "1A BE B0 DC 0A 00 01 00",
    "02 AF 06 17 02 CE FF",
    "30 50 FA 05 01 01 05",
    "30 50 FA 05 02 01 06",
    "30 50 FA 05 03 01 07",
    "30 50 FA 05 04 01 00",
    "30 50 FA 01 03 01 03",
    "30 50 FA 01 04 01 04",
    "30 50 FA 05 05 01 01",
    "30 50 FA 05 06 01 02",
    "30 50 FA 05 07 01 03",
    "30 50 FA 05 08 01 0C",
    "30 50 FA 01 05 01 05",
    "30 50 FA 01 06 01 06",
    "30 50 FA 01 07 01 07",
    "30 50 FA 01 08 01 08",
    "30 50 FA 05 09 01 0D",
    "30 50 FA 05 0A 01 0E",
    "30 50 FA 01 09 01 09",
    "30 50 FA 01 0A 01 0A",
    "30 50 FA 05 0B 01 0F",
    "30 50 FA 05 0C 01 08",
    "30 50 FA 05 0D 01 09",
    "30 50 FA 05 0E 01 0A",
    "30 50 FA 05 0F 01 0B",
    "30 50 FA 05 10 01 14",
    "30 50 FA 05 11 01 15",
    "30 50 FA 05 12 01 16",
    "30 50 FA 05 13 01 17",
    "30 50 FA 05 14 01 10",
    "30 50 FA 05 15 01 11",
    "30 50 FA 05 16 01 12",
    "30 50 FA 05 17 01 13",
    "30 50 FA 05 18 01 1C",
    "30 50 FA 05 19 01 1D",
    "30 50 FA 05 1A 01 1E",
    "30 50 FA 05 1B 01 1F",
    "30 50 FA 05 1C 01 18",
    "30 50 FA 05 1D 01 19",
    "30 50 FA 05 1E 01 1A",
    "30 50 FA 05 1F 01 1B",
    "30 50 FA 05 20 01 24",
    "30 50 FA 05 21 01 25",
    "30 50 FA 05 22 01 26",
    "30 50 FA 05 23 01 27",
    "30 50 FA 05 24 01 20",
    "30 50 FA 05 25 01 21",
    "30 50 FA 05 26 01 22",
    "30 50 FA 05 27 01 23",
    "30 50 FA 05 28 01 2C",
    "30 50 FA 05 29 01 2D",
    "30 50 FA 05 2A 01 2E",
    "30 50 FA 05 2B 01 2F",
    "30 50 FA 05 2C 01 28",
    "30 50 FA 05 2D 01 29",
    "30 50 FA 05 2E 01 2A",
    "30 50 FA 05 2F 01 2B",
    "30 50 FA 05 30 01 34",
    "30 50 FA 05 31 01 35",
    "30 50 FA 05 32 01 36",
    "30 50 FA 05 33 01 37",
    "30 50 FA 05 34 01 30",
    "30 50 FA 05 35 01 31",
    "30 50 FA 05 36 01 32",
    "30 50 FA 05 37 01 33",
    "30 50 FA 05 38 01 3C",
    "30 50 FA 05 39 01 3D",
    "30 50 FA 05 3A 01 3E",
    "30 50 FA 05 3B 01 3F",
    "30 50 FA 05 3C 01 38",
    "30 50 FA 05 3D 01 39",
    "30 50 FA 05 3E 01 3A",
    "30 50 FA 05 3F 01 3B",
    "30 50 FA 05 40 01 44",
    "30 50 FA 05 41 01 45",
    "30 50 FA 05 42 01 46",
    "30 50 FA 05 43 01 47",
    "30 50 FA 05 44 01 40",
    "30 50 FA 05 45 01 41",
    "30 50 FA 05 46 01 42",
    "30 50 FA 05 47 01 43",
    "30 50 FA 05 48 01 4C",
    "30 50 FA 05 49 01 4D",
    "30 50 FA 05 4A 01 4E",
    "30 50 FA 01 3C 01 3C",
    "30 50 FA 01 14 01 14",
    "30 50 FA 01 0E 01 0E",
    "30 50 FA 01 48 01 48",
    "30 50 FA 01 47 01 47",
    "30 50 FA 01 46 01 46",
    "30 50 FA 01 4A 01 4A",
    "1A BE B0 DC 05 00 02 00",
    "1A BE B0 DC 05 00 02 00 0F",
    "1A BE B0 DC 05 00 01 00 0F",
    "1A BE B0 DC 05 00 03 00 0F",
    "1A BE B0 DC 05 00 03 00",
    "55 11 1D 03 01 7C 06",
    "55 11 1D 03 02 3C 07",
    "55 11 1D 03 03 FD C7",
    "55 12 13 03 01 1D 81",
    "55 12 13 03 02 5D 80",
    "55 12 12 03 01 4C 41",
    "55 12 12 03 02 0C 40",
    "55 12 12 03 03 CD 80"
]