2024-10-30 07:17:58.056 - 19 08 24 03 DD 00 00 00 01 (调用情景-离家（末）)
2024-10-30 07:17:58.585 - EE 00 00 B1 00 00 00 FF FC FF FF (情景执行提示)
2024-10-30 07:17:59.178 - 09 06 00 0F 02 02 38 20 (提示音咚)
2024-10-30 07:17:59.725 - 50 F7 01 (全屋影音全关)
2024-10-30 07:18:00.278 - 01 06 07 D0 FF 60 C8 9F (客厅空调关)
2024-10-30 07:18:00.823 - 01 06 07 D0 FF 60 C8 9F (客厅空调关)
2024-10-30 07:18:00.853 - 01 06 07 D0 FF 60 C8 9F (客厅空调关)
2024-10-30 07:18:01.422 - 01 06 07 D3 FF 60 38 9F (餐厅空调关)
2024-10-30 07:18:01.448 - 01 06 07 D3 FF 60 38 9F (餐厅空调关)
2024-10-30 07:18:02.020 - 01 06 07 D3 FF 60 38 9F (餐厅空调关)
2024-10-30 07:18:02.058 - 01 06 07 D3 FF 60 38 9F (餐厅空调关)
2024-10-30 07:18:02.645 - 01 06 07 D6 FF 60 28 9E (主卧空调关)
2024-10-30 07:18:02.681 - 01 06 07 D6 FF 60 28 9E (主卧空调关)
2024-10-30 07:18:03.216 - 01 06 07 D6 FF 60 28 9E (主卧空调关)
2024-10-30 07:18:03.245 - 01 06 07 D6 FF 60 28 9E (主卧空调关)
2024-10-30 07:18:03.815 - 01 06 07 D9 FF 60 18 9D (次卧空调关)
2024-10-30 07:18:03.843 - 01 06 07 D9 FF 60 18 9D (次卧空调关)
2024-10-30 07:18:04.415 - 01 06 07 D9 FF 60 18 9D (次卧空调关)
2024-10-30 07:18:04.449 - 01 06 07 D9 FF 60 18 9D (次卧空调关)
2024-10-30 07:18:05.010 - 01 06 07 DC FF 60 08 9C (书房空调关)
2024-10-30 07:18:05.042 - 01 06 07 DC FF 60 08 9C (书房空调关)
2024-10-30 07:18:05.608 - 01 06 07 DC FF 60 08 9C (书房空调关)
2024-10-30 07:18:05.641 - 01 06 07 DC FF 60 08 9C (书房空调关)
2024-10-30 07:18:06.206 - 09 06 00 0F 02 02 38 20 (提示音咚)
2024-10-30 07:18:06.758 - 1A FF FF FF 56 00 00 00 0F (人体感应地址-内卫, 关闭内卫感应)
2024-10-30 07:18:07.352 - 1A FF FF FF 55 00 00 00 0F (人体感应地址-外卫, 关闭外卫感应)
2024-10-30 07:18:07.448 - BC BC
2024-10-30 07:18:07.928 - 1A FF FF FF 57 00 00 00 0F (人体感应地址-厨房, 关闭厨房感应)
2024-10-30 07:18:08.497 - 1A FF FF FF 58 00 00 00 0F (人体感应地址-茶吧, 关闭茶吧感应)
2024-10-30 07:18:08.549 - BC BC
2024-10-30 07:18:09.096 - 1A 20 07 00 93 00 01 00 0F (自保持开关地址-设备区顶, 设备区顶灯关)
2024-10-30 07:18:10.142 - 1A 20 07 01 40 00 01 00 0F (自保持开关地址-内卫顶灯, 内卫顶灯关)
2024-10-30 07:18:11.188 - 1A 20 07 01 55 00 01 00 0F (自保持开关地址-主卧顶灯, 主卧顶灯只关)
2024-10-30 07:18:12.237 - 1A 20 07 00 42 00 01 00 0F (自保持开关地址-外卫顶灯, 外卫顶灯关)
2024-10-30 07:18:13.284 - 55 0D 31 00 00 00 01 94 (书房顶灯只关)
2024-10-30 07:18:14.332 - 55 0A 31 00 00 00 01 91 (厨房顶灯一关)
2024-10-30 07:18:15.376 - 55 0A 31 00 00 00 02 92 (厨房顶灯二关)
2024-10-30 07:18:16.421 - 55 0B 31 00 00 00 01 92 (厨房风扇只关)
2024-10-30 07:18:17.466 - 55 0C 31 00 00 00 01 93 (餐厅顶灯关)
2024-10-30 07:18:18.517 - 1A 20 07 01 30 00 01 00 0F (自保持开关地址-西阳顶灯, 西阳顶灯关)
2024-10-30 07:18:19.561 - 1A 18 05 21 89 00 01 00 0F (自保持开关地址-客厅顶灯, 客厅顶灯一关)
2024-10-30 07:18:20.607 - 1A 18 05 01 94 00 01 00 0F (自保持开关地址-客厅顶灯, 客厅顶灯二关)
2024-10-30 07:18:21.656 - 1A 20 07 00 70 00 01 00 0F (自保持开关地址-次卧顶灯, 次卧顶灯只关)
2024-10-30 07:18:22.700 - 1A 18 05 10 31 00 01 00 0F (自保持开关地址-门厅顶灯, 门厅顶灯关)
2024-10-30 07:18:23.748 - 1A FF FF FF 04 00 03 02 (继电器地址-东阳衣架, 东阳衣架照明关)
2024-10-30 07:18:24.297 - 09 06 00 0F 02 02 38 20 (提示音咚)
2024-10-30 07:18:24.840 - A5 00 A6 FE 01 AA (餐厅窗帘开)
2024-10-30 07:18:25.392 - FF FF FF FF 0A 00 01 00 (继电器地址-东阳窗帘, 东阳窗帘开)
2024-10-30 07:18:25.939 - 1A BE B0 DC 04 00 01 00 (继电器地址-西阳窗帘, 西阳窗帘开)
2024-10-30 07:18:26.490 - FF FF FF FF 0E 00 01 00 (继电器地址-西阳小窗帘, 西阳小窗帘开)
2024-10-30 07:18:27.040 - 1A 22 33 62 0F 00 00 01 0F (正反转地址-内卫卷帘, 内卫卷帘升)
2024-10-30 07:18:27.580 - A5 00 52 FE 01 AA (主卧窗帘开)
2024-10-30 07:18:28.129 - A5 00 53 FF 00 AA (主卧纱帘开)
2024-10-30 07:18:28.678 - A5 00 76 FE 01 AA (次卧窗帘开)
2024-10-30 07:18:29.229 - A5 00 21 FE 01 AA (次卧纱帘开)
2024-10-30 07:18:29.776 - A5 00 D2 FE 01 AA 22 0D (书房窗帘开)
2024-10-30 07:18:30.323 - 1A BE B0 DC 09 00 01 00 (继电器地址-客厅窗帘, 客厅窗帘开)
2024-10-30 07:18:30.922 - 1A BE B0 DC 0A 00 02 00 (继电器地址-客厅纱帘, 客厅纱帘开)
2024-10-30 07:18:31.522 - 09 06 00 0F 02 02 38 20 (提示音咚)
2024-10-30 07:18:32.173 - 1A FF FF FF 04 (继电器地址-东阳衣架)
2024-10-30 07:18:32.569 - 1A EC A0 DC 02 00 00 00 0F (自保持开关地址-天花12V供电, 天花12V 供电关)
2024-10-30 07:18:33.114 - 1A EC A0 DC 02 00 00 00 0F (自保持开关地址-天花12V供电, 天花12V 供电关)
2024-10-30 07:18:33.666 - 1A EC A0 DC 01 00 00 00 0F (自保持开关地址-电视、设备12V供电, 12V 电视供电关)
2024-10-30 07:18:34.210 - 1A EC A0 DC 01 00 00 00 0F (自保持开关地址-电视、设备12V供电, 12V 电视供电关)
2024-10-30 07:18:34.759 - 1A EC A0 DC 04 00 01 00 0F (自保持开关地址-次卧西阳内外卫供电, 内卫外卫关)
2024-10-30 07:18:35.309 - 1A EC A0 DC 04 00 01 00 0F (自保持开关地址-次卧西阳内外卫供电, 内卫外卫关)
2024-10-30 07:18:36.849 - 1A BB BB BB 01 02 00 (开水器电源关)
2024-10-30 07:18:49.952 - 09 06 00 0F 02 02 38 20 (提示音咚)
2024-10-30 07:18:50.501 - 1A 27 89 12 AA 00 00 00 0F (状态寄存器地址, 无人状态)
2024-10-30 07:18:51.096 - 1A 27 89 12 AA 00 00 00 0F (状态寄存器地址, 无人状态)
2024-10-30 07:18:51.644 - A1 11 11 11 4D (天花供电关闭确认)
2024-10-30 07:18:51.870 - 1A EC A0 DC 02 86 86 86 0F (查询天花供电状态, 自保持开关地址-天花12V供电)
2024-10-30 07:18:52.301 - 1A EC A0 DC 02 00 01 0F (自保持开关地址-天花12V供电)
2024-10-30 07:18:54.682 - A1 11 11 11 4E (卫生供电关闭确认)
2024-10-30 07:18:54.906 - 1A EC A0 DC 04 86 86 86 0F (查询卫生间供电状态, 自保持开关地址-次卧西阳内外卫供电)
2024-10-30 07:18:55.340 - 1A EC A0 DC 04 01 00 0F (自保持开关地址-次卧西阳内外卫供电)
2024-10-30 07:18:57.723 - A1 11 11 11 4F (电视供电关闭确认)
2024-10-30 07:18:57.946 - 1A EC A0 DC 01 86 86 86 0F (查询电视供电状态, 自保持开关地址-电视、设备12V供电)
2024-10-30 07:18:58.379 - 1A EC A0 DC 01 00 01 0F (自保持开关地址-电视、设备12V供电)
2024-10-30 07:19:00.763 - 09 06 00 0F 02 02 38 20 (提示音咚)
2024-10-30 07:19:01.363 - 09 06 00 0F 02 02 38 20 (提示音咚)
2024-10-30 07:19:01.911 - EE 00 00 B1 00 00 02 FF FC FF FF (情景完成返回主页)
2024-10-30 07:19:03.004 - BA BA EE EE BA BA (离家设置信科变量)
2024-10-30 07:19:04.051 - A1 11 11 11 46 (天热离家遮阳)
2024-10-30 07:19:04.272 - 1A 27 89 12 AA 86 86 86 0F (查询寄存器状态, 状态寄存器地址)
2024-10-30 07:19:04.657 - 1A 27 89 12 AA 00 00 00 00 00 00 00 00 00 00 00 00 00 00 00 00 0F (状态寄存器地址)
2024-10-30 07:19:07.907 - 1A BE B0 DC 03 FC (继电器地址-西阳天幕)
2024-10-30 07:19:08.043 - FF
2024-10-30 07:30:47.704 - 1A BE B0 DC 0A (继电器地址-客厅纱帘)
2024-10-30 07:30:47.843 - FF
2024-10-30 07:36:43.552 - 1A BE B0 DC 01 (继电器地址-回水泵点动)
2024-10-30 08:27:28.102 - FF FF FF FF 0A (继电器地址-东阳窗帘)
2024-10-30 08:27:28.235 - FF
2024-10-30 09:03:59.445 - 1A BE B0 DC 04 FC (继电器地址-西阳窗帘)
2024-10-30 09:03:59.581 - FF
2024-10-30 09:50:58.392 - FF FF FF FF 0E (继电器地址-西阳小窗帘)
2024-10-30 10:12:10.373 - 1A BE B0 DC 02 (正反转地址-外卫卷帘)
2024-10-30 10:12:10.513 - FF
2024-10-30 10:24:01.758 - 1A BE B0 DC 09 (继电器地址-客厅窗帘)
2024-10-30 10:39:29.425 - 1A FF FF FF 04 (继电器地址-东阳衣架)
2024-10-30 10:39:58.067 - 1A BE B0 DC 03 FE (继电器地址-西阳天幕)
2024-10-30 10:39:58.202 - FF
2024-10-30 10:51:25.518 - 1A BE B0 DC 0A FD (继电器地址-客厅纱帘)
2024-10-30 10:51:25.652 - FF
2024-10-30 10:57:20.310 - 1A BE B0 DC 01 (继电器地址-回水泵点动)
2024-10-30 11:49:31.120 - FF FF FF FF 0A (继电器地址-东阳窗帘)
2024-10-30 11:49:31.257 - FF
2024-10-30 12:20:28.018 - FF
2024-10-30 12:23:31.959 - 1A BE B0 DC 04 (继电器地址-西阳窗帘)
2024-10-30 12:23:32.094 - FF
2024-10-30 13:11:28.234 - FF FF FF FF 0E FC (继电器地址-西阳小窗帘)
2024-10-30 13:11:28.368 - FF
2024-10-30 13:32:29.421 - 1A BE B0 DC 02 (正反转地址-外卫卷帘)
2024-10-30 13:32:29.557 - FF
2024-10-30 13:44:10.743 - 1A BE B0 DC 09 FC (继电器地址-客厅窗帘)
2024-10-30 14:00:14.353 - 1A FF FF FF 04 (继电器地址-东阳衣架)
2024-10-30 14:00:14.488 - FC
2024-10-30 14:00:47.915 - 1A BE B0 DC 03 (继电器地址-西阳天幕)
2024-10-30 14:00:48.051 - FF
2024-10-30 14:12:03.591 - 1A BE B0 DC 0A (继电器地址-客厅纱帘)
2024-10-30 14:12:03.726 - FF
2024-10-30 14:17:56.573 - 1A BE B0 DC 01 FE (继电器地址-回水泵点动)
2024-10-30 14:17:56.708 - FF
2024-10-30 15:09:29.478 - FF FF FF FF 0A (继电器地址-东阳窗帘)
2024-10-30 15:43:04.319 - 1A BE B0 DC 04 (继电器地址-西阳窗帘)
2024-10-30 15:43:04.457 - FF
2024-10-30 15:45:51.490 - FF
2024-10-30 16:29:39.876 - FF
2024-10-30 16:31:25.169 - FF FF FF FF 0E (继电器地址-西阳小窗帘)
2024-10-30 16:31:25.307 - FC
2024-10-30 16:52:47.316 - 1A BE B0 DC 02 (正反转地址-外卫卷帘)
2024-10-30 17:04:20.011 - 1A BE B0 DC 09 (继电器地址-客厅窗帘)
2024-10-30 17:04:20.145 - FF
2024-10-30 17:09:45.113 - FE
2024-10-30 17:20:59.364 - 1A FF FF FF 04 FE (继电器地址-东阳衣架)
2024-10-30 17:21:37.477 - 1A BE B0 DC 03 FD (继电器地址-西阳天幕)
2024-10-30 17:21:37.612 - FF
2024-10-30 17:32:41.933 - 1A BE B0 DC 0A FF (继电器地址-客厅纱帘)
2024-10-30 17:38:32.548 - 1A BE B0 DC 01 FC (继电器地址-回水泵点动)
2024-10-30 17:38:32.685 - FE
2024-10-30 18:30:01.215 - FF FF FF FF 0A FC (继电器地址-东阳窗帘)
2024-10-30 18:30:01.350 - FF
2024-10-30 19:02:36.830 - 1A BE B0 DC 04 FE (继电器地址-西阳窗帘)
2024-10-30 19:51:23.201 - FF FF FF FF 0E FD (继电器地址-西阳小窗帘)
2024-10-30 19:51:23.336 - FF
2024-10-30 20:02:37.773 - FF
2024-10-30 20:13:05.888 - 1A BE B0 DC 02 (正反转地址-外卫卷帘)
2024-10-30 20:13:06.024 - FF
2024-10-30 20:24:29.044 - 1A BE B0 DC 09 FC (继电器地址-客厅窗帘)
2024-10-30 20:24:29.177 - FE
2024-10-30 20:41:43.796 - 1A FF FF FF 04 (继电器地址-东阳衣架)
2024-10-30 20:41:43.932 - FF
2024-10-30 20:42:27.404 - 1A BE B0 DC 03 (继电器地址-西阳天幕)
2024-10-30 20:42:27.539 - FF
2024-10-30 20:53:20.325 - 1A BE B0 DC 0A FE (继电器地址-客厅纱帘)
2024-10-30 20:53:20.461 - FF
2024-10-30 20:55:58.918 - FF
2024-10-30 20:59:09.343 - 1A BE B0 DC 01 FC (继电器地址-回水泵点动)
2024-10-30 20:59:09.478 - FE
2024-10-30 21:51:02.159 - FF FF FF FF 0A FC (继电器地址-东阳窗帘)
2024-10-30 21:51:02.294 - FF
2024-10-30 22:21:48.916 - FF
2024-10-30 22:24:40.702 - 1A BE B0 DC 04 (继电器地址-西阳窗帘)
2024-10-30 22:24:40.836 - FF
2024-10-30 22:27:18.836 - FF
2024-10-30 22:40:45.029 - 1B 03 00 00 00 02 C6 31 (查询室外光线)
2024-10-30 22:40:45.050 - 1B 03 04 00 00 00 00 41 F2 (室外光线返回)
2024-10-30 22:40:45.826 - 1A EC A0 DC 02 00 00 01 0F (自保持开关地址-天花12V供电, 天花12V 供电开)
2024-10-30 22:40:46.406 - 1A AA AA AA 88 (调光器地址-茶吧灯带)
2024-10-30 22:40:46.525 - F4
2024-10-30 22:40:46.533 - 60 01 FF 00 00 0F
2024-10-30 22:40:47.524 - 19 08 24 03 DD 00 0D 00 01 (调用情景-信科调用进门暗)
2024-10-30 22:40:49.584 - 1A FF 01 FF FF FF 60 01 FF 60 01 FF 00 00 0F (调光器地址-公共区域统配地址)
2024-10-30 22:40:51.671 - 1A EC A0 DC 01 00 00 01 0F (自保持开关地址-电视、设备12V供电, 12V 电视供电开)
2024-10-30 22:40:52.219 - 1A EC A0 DC 01 00 00 01 0F (自保持开关地址-电视、设备12V供电, 12V 电视供电开)
2024-10-30 22:40:52.767 - 1A EC A0 DC 04 00 01 01 0F (自保持开关地址-次卧西阳内外卫供电, 内卫外卫开)
2024-10-30 22:40:53.316 - 1A EC A0 DC 04 00 01 01 0F (自保持开关地址-次卧西阳内外卫供电, 内卫外卫开)
2024-10-30 22:40:53.861 - 1A BB BB BB 01 01 00 (开水器电源开)
2024-10-30 22:40:55.410 - 1A 27 89 12 AA 00 00 01 0F (状态寄存器地址, 有人状态)
2024-10-30 22:40:55.956 - 1A 27 89 12 AA 00 00 01 0F (状态寄存器地址, 有人状态)
2024-10-30 22:40:56.504 - 1A BE B0 DC 01 00 01 00 (继电器地址-回水泵点动, 回水泵点动)
2024-10-30 22:40:57.054 - 1A FF FF FF 56 00 00 01 0F (人体感应地址-内卫, 打开内卫感应)
2024-10-30 22:40:57.602 - 1A FF FF FF 55 00 00 01 0F (人体感应地址-外卫, 打开外卫感应)
2024-10-30 22:40:57.697 - BC BC
2024-10-30 22:40:58.149 - 1A FF FF FF 57 00 00 01 0F (人体感应地址-厨房, 打开厨房感应)
2024-10-30 22:40:58.697 - 1A FF FF FF 58 00 00 01 0F (人体感应地址-茶吧, 打开茶吧感应)
2024-10-30 22:40:58.750 - BC BC
2024-10-30 22:40:59.295 - 1A BE B0 DC 01 00 01 00 (继电器地址-回水泵点动, 回水泵点动)
2024-10-30 22:40:59.844 - A5 00 B7 FF 00 AA 22 0D (书房纱帘关)
2024-10-30 22:41:00.440 - A5 00 A2 FF 00 AA (餐厅纱帘关)
2024-10-30 22:41:00.987 - 09 06 00 0F 02 01 78 21 (提示音叮)
2024-10-30 22:41:01.537 - 09 06 00 0F 02 01 78 21 (提示音叮)
2024-10-30 22:41:02.089 - EE 00 00 B1 00 00 02 FF FC FF FF (情景完成返回主页)
2024-10-30 22:41:02.680 - A1 11 11 11 50 (天花供电打开确认)
2024-10-30 22:41:02.903 - 1A EC A0 DC 02 86 86 86 0F (查询天花供电状态, 自保持开关地址-天花12V供电)
2024-10-30 22:41:03.336 - 1A EC A0 DC 02 01 01 0F (自保持开关地址-天花12V供电)
2024-10-30 22:41:03.999 - EE 00 6E B1 01 00 08 FF FC FF FF
2024-10-30 22:41:04.461 - 1A BE B0 DC 0A 00 01 00 (继电器地址-客厅纱帘, 客厅纱帘关)
2024-10-30 22:41:05.221 - A1 11 11 11 51 (卫生供电打开确认)
2024-10-30 22:41:05.449 - 1A EC A0 DC 04 86 86 86 0F (查询卫生间供电状态, 自保持开关地址-次卧西阳内外卫供电)
2024-10-30 22:41:05.880 - 1A EC A0 DC 04 01 01 0F (自保持开关地址-次卧西阳内外卫供电)
2024-10-30 22:41:07.762 - A1 11 11 11 52 (电视供电打开确认)
2024-10-30 22:41:07.985 - 1A EC A0 DC 01 86 86 86 0F (查询电视供电状态, 自保持开关地址-电视、设备12V供电)
2024-10-30 22:41:08.418 - 1A EC A0 DC 01 01 01 0F (自保持开关地址-电视、设备12V供电)
2024-10-30 22:41:12.795 - A1 11 11 11 47 (天热回家开帘)
2024-10-30 22:41:13.020 - 1A 27 89 12 AA 86 86 86 0F (查询寄存器状态, 状态寄存器地址)
2024-10-30 22:41:13.402 - 1A 27 89 12 AA 01 00 00 00 00 00 00 00 00 00 00 00 00 00 00 00 0F (状态寄存器地址)
2024-10-30 22:42:03.403 - 19 08 24 03 DD 00 41 00 01 (调用情景-主卧照明电视)
2024-10-30 22:42:03.926 - EE 00 00 B1 00 00 00 FF FC FF FF (情景执行提示)
2024-10-30 22:42:04.522 - 09 06 00 0F 02 01 78 21 (提示音叮)
2024-10-30 22:42:05.063 - 50 F0 05 (开主卧影视)
2024-10-30 22:42:05.612 - 50 F0 04 (开内卫影视)
2024-10-30 22:42:06.165 - 1A FF FF FF 56 00 00 00 0F (人体感应地址-内卫, 关闭内卫感应)
2024-10-30 22:42:06.715 - 1A 22 33 62 0F 00 02 01 0F (正反转地址-内卫卷帘, 内卫卷帘降)
2024-10-30 22:42:07.258 - A5 00 53 FE 01 AA (主卧纱帘关)
2024-10-30 22:42:07.311 - 55 00 53 02 02 22 02 2F AA 55 00 53 02 02 22 02 2F AA (主卧纱帘电机状态返回)
2024-10-30 22:42:08.356 - A5 00 52 FF 00 AA (主卧窗帘关)
2024-10-30 22:42:09.411 - 1A 0C 02 04 FF FF 45 01 FF 45 01 FF 00 00 0F (主卧调光微光)
2024-10-30 22:42:15.489 - 1A 0C 02 08 01 FF 45 01 FF 45 01 FF 00 00 0F (调光器地址-内卫射灯, 内卫射灯微光)
2024-10-30 22:42:16.078 - 50 F1 25 (主卧—有线2)
2024-10-30 22:42:16.625 - 50 F1 24 (内卫—有线2)
2024-10-30 22:42:18.175 - 55 00 53 00 00 0C 02 2F AA 55 00 53 00 00 0C 02 2F AA (主卧纱帘电机状态返回)
2024-10-30 22:42:18.669 - AF BF CF DF C2 21 (有线2/快捷-凤凰卫视)
2024-10-30 22:42:19.409 - FF
2024-10-30 22:42:20.715 - 1A FF FF FF 60 0B 01 01 0F (红外总线地址-主卧发射设备, 主卧电视电源)
2024-10-30 22:42:21.231 - F0 0B 01 08
2024-10-30 22:42:28.740 - 09 06 00 0F 02 02 38 20 (提示音咚)
2024-10-30 22:42:29.341 - EE 00 00 B1 00 00 02 FF FC FF FF (情景完成返回主页)
2024-10-30 22:42:31.230 - 19 08 24 03 CC 00 C0 00 01
2024-10-30 22:42:31.282 - 1A 0C 02 08 01 FF 45 01 FF 45 01 FF 00 00 0F (调光器地址-内卫射灯, 内卫射灯微光)
2024-10-30 22:43:35.075 - 19 08 24 03 CC 01 CC 00 01 (调用茶吧感应灯开的按键)
2024-10-30 22:43:35.104 - 1A AA AA AA 88 FF B0 01 FF B0 01 0F (调光器地址-茶吧灯带, 茶吧灯带明亮)
2024-10-30 22:43:50.575 - 19 08 24 03 CC 00 D3 00 01 (调用厨房感应灯开的按键)
2024-10-30 22:43:50.609 - 55 0A 32 00 00 00 01 92 55 0A 32 00 00 00 02 93 (厨房顶灯一开, 厨房顶灯二开)
2024-10-30 22:44:02.626 - 19 08 24 03 CC 01 CD 00 01 (调用茶吧感应灯关的按键)
2024-10-30 22:44:02.659 - 1A AA AA AA 88 FF 00 01 FF 00 01 0F (调光器地址-茶吧灯带, 茶吧灯带关闭)
2024-10-30 22:49:03.219 - 19 08 24 03 CC 01 CC 00 01 (调用茶吧感应灯开的按键)
2024-10-30 22:49:03.251 - 1A AA AA AA 88 FF B0 01 FF B0 01 0F (调光器地址-茶吧灯带, 茶吧灯带明亮)
2024-10-30 22:49:41.267 - 19 08 24 03 CC 00 D4 00 01 (调用厨房感应灯关的按键)
2024-10-30 22:49:41.298 - 55 0A 31 00 00 00 01 91 55 0A 31 00 00 00 02 92 (厨房顶灯一关, 厨房顶灯二关)
2024-10-30 22:49:43.768 - 19 08 24 03 CC 00 D3 00 01 (调用厨房感应灯开的按键)
2024-10-30 22:49:43.821 - 55 0A 32 00 00 00 01 92 55 0A 32 00 00 00 02 93 (厨房顶灯一开, 厨房顶灯二开)
2024-10-30 22:49:57.367 - 19 08 24 03 CC 01 CD 00 01 (调用茶吧感应灯关的按键)
2024-10-30 22:49:57.419 - 1A AA AA AA 88 FF 00 01 FF 00 01 0F (调光器地址-茶吧灯带, 茶吧灯带关闭)
2024-10-30 22:51:15.520 - 19 08 24 03 CC 01 CC 00 01 (调用茶吧感应灯开的按键)
2024-10-30 22:51:15.552 - 1A AA AA AA 88 FF B0 01 FF B0 01 0F (调光器地址-茶吧灯带, 茶吧灯带明亮)
2024-10-30 22:52:08.625 - 19 08 24 03 CC 01 CD 00 01 (调用茶吧感应灯关的按键)
2024-10-30 22:52:08.657 - 1A AA AA AA 88 FF 00 01 FF 00 01 0F (调光器地址-茶吧灯带, 茶吧灯带关闭)
2024-10-30 22:54:58.462 - 19 08 24 03 CC 01 CC 00 01 (调用茶吧感应灯开的按键)
2024-10-30 22:54:58.491 - 1A AA AA AA 88 FF B0 01 FF B0 01 0F (调光器地址-茶吧灯带, 茶吧灯带明亮)
2024-10-30 22:55:07.906 - 19 08 24 03 CC 00 D4 00 01 (调用厨房感应灯关的按键)
2024-10-30 22:55:07.940 - 55 0A 31 00 00 00 01 91 55 0A 31 00 00 00 02 92 (厨房顶灯一关, 厨房顶灯二关)
2024-10-30 22:55:10.485 - 19 08 24 03 CC 01 CD 00 01 (调用茶吧感应灯关的按键)
2024-10-30 22:55:10.515 - 1A AA AA AA 88 FF 00 01 FF 00 01 0F (调光器地址-茶吧灯带, 茶吧灯带关闭)
2024-10-30 23:04:09.047 - 19 08 24 03 CC 01 CC 00 01 (调用茶吧感应灯开的按键)
2024-10-30 23:04:09.079 - 1A AA AA AA 88 FF B0 01 FF B0 01 0F (调光器地址-茶吧灯带, 茶吧灯带明亮)
2024-10-30 23:04:11.475 - 19 08 24 03 CC 00 D3 00 01 (调用厨房感应灯开的按键)
2024-10-30 23:04:11.510 - 55 0A 32 00 00 00 01 92 55 0A 32 00 00 00 02 93 (厨房顶灯一开, 厨房顶灯二开)
2024-10-30 23:04:21.071 - 19 08 24 03 CC 01 CD 00 01 (调用茶吧感应灯关的按键)
2024-10-30 23:04:21.102 - 1A AA AA AA 88 FF 00 01 FF 00 01 0F (调光器地址-茶吧灯带, 茶吧灯带关闭)
2024-10-30 23:04:40.609 - 19 08 24 03 CC 01 CC 00 01 (调用茶吧感应灯开的按键)
2024-10-30 23:04:40.642 - 1A AA AA AA 88 FF B0 01 FF B0 01 0F (调光器地址-茶吧灯带, 茶吧灯带明亮)
2024-10-30 23:04:56.140 - 19 08 24 03 CC 01 CD 00 01 (调用茶吧感应灯关的按键)
2024-10-30 23:04:56.171 - 1A AA AA AA 88 FF 00 01 FF 00 01 0F (调光器地址-茶吧灯带, 茶吧灯带关闭)
2024-10-30 23:05:20.108 - 19 08 24 03 CC 00 D4 00 01 (调用厨房感应灯关的按键)
2024-10-30 23:05:20.155 - 55 0A 31 00 00 00 01 91 55 0A 31 00 00 00 02 92 (厨房顶灯一关, 厨房顶灯二关)
2024-10-30 23:12:18.466 - FF FF FF FF 0E (继电器地址-西阳小窗帘)
2024-10-30 23:12:18.604 - FE
2024-10-30 23:16:29.010 - 19 08 24 03 CC 01 CC 00 01 (调用茶吧感应灯开的按键)
2024-10-30 23:16:29.060 - 1A AA AA AA 88 FF B0 01 FF B0 01 0F (调光器地址-茶吧灯带, 茶吧灯带明亮)
2024-10-30 23:16:31.434 - 19 08 24 03 CC 00 D3 00 01 (调用厨房感应灯开的按键)
2024-10-30 23:16:31.485 - 55 0A 32 00 00 00 01 92 55 0A 32 00 00 00 02 93 (厨房顶灯一开, 厨房顶灯二开)
2024-10-30 23:16:41.532 - 19 08 24 03 CC 01 CD 00 01 (调用茶吧感应灯关的按键)
2024-10-30 23:16:41.565 - 1A AA AA AA 88 FF 00 01 FF 00 01 0F (调光器地址-茶吧灯带, 茶吧灯带关闭)
2024-10-30 23:16:44.036 - 19 08 24 03 CC 01 CC 00 01 (调用茶吧感应灯开的按键)
2024-10-30 23:16:44.069 - 1A AA AA AA 88 FF B0 01 FF B0 01 0F (调光器地址-茶吧灯带, 茶吧灯带明亮)
2024-10-30 23:16:45.530 - 19 08 24 03 DD 00 65 00 01 (调用情景-厨房照明全开)
2024-10-30 23:16:46.057 - EE 00 00 B1 00 00 00 FF FC FF FF (情景执行提示)
2024-10-30 23:16:46.652 - 09 06 00 0F 02 01 78 21 (提示音叮)
2024-10-30 23:16:47.700 - 1A FF FF FF 57 00 00 00 0F (人体感应地址-厨房, 关闭厨房感应)
2024-10-30 23:16:48.746 - 55 0A 32 00 00 00 01 92 (厨房顶灯一开)
2024-10-30 23:16:49.791 - 55 0A 32 00 00 00 02 93 (厨房顶灯二开)
2024-10-30 23:16:50.838 - 09 06 00 0F 02 02 38 20 (提示音咚)
2024-10-30 23:16:51.390 - EE 00 00 B1 00 00 02 FF FC FF FF (情景完成返回主页)
2024-10-30 23:16:56.572 - 19 08 24 03 CC 01 CD 00 01 (调用茶吧感应灯关的按键)
2024-10-30 23:16:56.602 - 1A AA AA AA 88 FF 00 01 FF 00 01 0F (调光器地址-茶吧灯带, 茶吧灯带关闭)
2024-10-30 23:18:57.309 - 19 08 24 03 CC 01 CC 00 01 (调用茶吧感应灯开的按键)
2024-10-30 23:18:57.340 - 1A AA AA AA 88 FF B0 01 FF B0 01 0F (调光器地址-茶吧灯带, 茶吧灯带明亮)
2024-10-30 23:19:18.352 - 19 08 24 03 CC 01 CD 00 01 (调用茶吧感应灯关的按键)
2024-10-30 23:19:18.379 - 1A AA AA AA 88 FF 00 01 FF 00 01 0F (调光器地址-茶吧灯带, 茶吧灯带关闭)
2024-10-30 23:19:54.923 - 19 08 24 03 CC 01 CC 00 01 (调用茶吧感应灯开的按键)
2024-10-30 23:19:54.951 - 1A AA AA AA 88 FF B0 01 FF B0 01 0F (调光器地址-茶吧灯带, 茶吧灯带明亮)
2024-10-30 23:20:34.500 - 19 08 24 03 CC 01 CD 00 01 (调用茶吧感应灯关的按键)
2024-10-30 23:20:34.532 - 1A AA AA AA 88 FF 00 01 FF 00 01 0F (调光器地址-茶吧灯带, 茶吧灯带关闭)
2024-10-30 23:21:07.064 - 19 08 24 03 CC 01 CC 00 01 (调用茶吧感应灯开的按键)
2024-10-30 23:21:07.096 - 1A AA AA AA 88 FF B0 01 FF B0 01 0F (调光器地址-茶吧灯带, 茶吧灯带明亮)
2024-10-30 23:21:14.078 - 19 08 24 03 CC 01 CD 00 01 (调用茶吧感应灯关的按键)
2024-10-30 23:21:14.110 - 1A AA AA AA 88 FF 00 01 FF 00 01 0F (调光器地址-茶吧灯带, 茶吧灯带关闭)
2024-10-30 23:21:24.852 - FF
2024-10-30 23:21:38.628 - 19 08 24 03 CC 01 CC 00 01 (调用茶吧感应灯开的按键)
2024-10-30 23:21:38.675 - 1A AA AA AA 88 FF B0 01 FF B0 01 0F (调光器地址-茶吧灯带, 茶吧灯带明亮)
2024-10-30 23:22:07.906 - FF
2024-10-30 23:23:13.818 - 19 08 24 03 CC 01 CD 00 01 (调用茶吧感应灯关的按键)
2024-10-30 23:23:13.846 - 1A AA AA AA 88 FF 00 01 FF 00 01 0F (调光器地址-茶吧灯带, 茶吧灯带关闭)
2024-10-30 23:32:27.952 - 19 08 24 03 DD 00 1B 00 01 (调用情景-外卫使用)
2024-10-30 23:32:28.515 - EE 00 00 B1 00 00 00 FF FC FF FF (情景执行提示)
2024-10-30 23:32:29.108 - 09 06 00 0F 02 01 78 21 (提示音叮)
2024-10-30 23:32:29.657 - 1A BE B0 DC 02 00 01 00 (正反转地址-外卫卷帘, 外卫卷帘降)
2024-10-30 23:32:30.201 - 50 F0 03 (开外卫影视)
2024-10-30 23:32:30.754 - 1A FF FF FF 55 00 00 00 0F (人体感应地址-外卫, 关闭外卫感应)
2024-10-30 23:32:31.309 - 1A 0D 01 07 01 FF 45 01 FF 45 01 FF 00 00 0F (调光器地址-外卫射灯, 外卫感应灯开)
2024-10-30 23:32:33.394 - 1A BE B0 DC 01 00 01 00 (继电器地址-回水泵点动, 回水泵点动)
2024-10-30 23:32:34.440 - 1A BE B0 DC 01 00 01 00 (继电器地址-回水泵点动, 回水泵点动)
2024-10-30 23:32:35.487 - 1A BE B0 DC 01 00 01 00 (继电器地址-回水泵点动, 回水泵点动)
2024-10-30 23:32:36.526 - 50 F1 43 (外卫—CH4)
2024-10-30 23:32:53.526 - A1 11 11 11 11 05 (外卫使用浴霸判断)
2024-10-30 23:32:53.749 - 13 03 00 00 00 02 C7 79 (查询外卫温湿度)
2024-10-30 23:32:53.771 - 13 03 04 02 67 00 E3 39 DC (外卫温湿度返回)
2024-10-30 23:32:55.570 - 09 06 00 0F 02 02 38 20 (提示音咚)
2024-10-30 23:32:57.617 - EE 00 00 B1 00 00 02 FF FC FF FF (情景完成返回主页)
2024-10-30 23:34:52.203 - 1A BE B0 DC 02 (正反转地址-外卫卷帘)
2024-10-30 23:46:38.611 - FF
2024-10-30 23:47:18.090 - 19 08 24 03 DD 00 1C 00 01 (调用情景-外卫使用完毕)
2024-10-30 23:47:18.639 - EE 00 00 B1 00 00 00 FF FC FF FF (情景执行提示)
2024-10-30 23:47:19.234 - 09 06 00 0F 02 01 78 21 (提示音叮)
2024-10-30 23:47:19.790 - 1A 0D 01 07 01 FF 00 01 FF 00 01 FF 00 00 0F (调光器地址-外卫射灯, 外卫感应灯关)
2024-10-30 23:47:20.376 - 50 F5 03 (关外卫影视)
2024-10-30 23:47:20.929 - 1A 20 07 00 42 00 01 00 0F (自保持开关地址-外卫顶灯, 外卫顶灯关)
2024-10-30 23:47:21.478 - 1A FF FF FF 55 00 00 01 0F (人体感应地址-外卫, 打开外卫感应)
2024-10-30 23:47:21.532 - BC BC
2024-10-30 23:47:21.841 - 19 08 24 03 CC 01 52 00 01 (调用外卫感应灯开的按键)
2024-10-30 23:47:21.896 - 1A 0D 01 07 01 FF 45 01 FF 45 01 FF 00 00 0F (调光器地址-外卫射灯, 外卫感应灯开)
2024-10-30 23:47:24.348 - 09 06 00 0F 02 02 38 20 (提示音咚)
2024-10-30 23:47:24.921 - EE 00 00 B1 00 00 02 FF FC FF FF (情景完成返回主页)
2024-10-30 23:47:31.562 - 19 08 24 03 CC 01 53 00 01 (调用外卫感应灯关的按键)
2024-10-30 23:47:31.594 - 1A 0D 01 07 01 FF 00 01 FF 00 01 FF 00 00 0F (调光器地址-外卫射灯, 外卫感应灯关)
2024-10-30 23:48:23.020 - 1A BE B0 DC 09 (继电器地址-客厅窗帘)
2024-10-30 23:48:27.857 - FF
2024-10-31 00:04:21.206 - 1A FF FF FF 04 FE (继电器地址-东阳衣架)
2024-10-31 00:04:22.452 - 1A BE B0 DC 03 (继电器地址-西阳天幕)
2024-10-31 00:04:22.588 - FF
2024-10-31 00:15:20.141 - 1A BE B0 DC 0A FE (继电器地址-客厅纱帘)
2024-10-31 00:17:30.637 - 19 08 24 03 DD 00 13 00 01 (调用情景-公共区域关)
2024-10-31 00:17:31.206 - EE 00 00 B1 00 00 00 FF FC FF FF (情景执行提示)
2024-10-31 00:17:31.801 - 09 06 00 0F 02 01 78 21 (提示音叮)
2024-10-31 00:17:32.398 - 55 0B 31 00 00 00 01 92 (厨房风扇只关)
2024-10-31 00:17:33.448 - 01 06 07 D3 FF 60 38 9F (餐厅空调关)
2024-10-31 00:17:33.480 - 01 06 07 D3 FF 60 38 9F (餐厅空调关)
2024-10-31 00:17:34.542 - 01 06 07 D0 FF 60 C8 9F (客厅空调关)
2024-10-31 00:17:34.569 - 01 06 07 D0 FF 60 C8 9F (客厅空调关)
2024-10-31 00:17:38.625 - 50 F5 02 (关厨房影视)
2024-10-31 00:17:39.672 - 50 F5 01 (关餐厅影视)
2024-10-31 00:17:40.718 - 50 F5 08 (关客厅影视)
2024-10-31 00:17:41.766 - 50 F5 03 (关外卫影视)
2024-10-31 00:17:42.817 - 55 0A 31 00 00 00 01 91 (厨房顶灯一关)
2024-10-31 00:17:43.863 - 55 0A 31 00 00 00 02 92 (厨房顶灯二关)
2024-10-31 00:17:44.909 - 55 0C 31 00 00 00 01 93 (餐厅顶灯关)
2024-10-31 00:17:45.955 - 1A 18 05 10 31 00 01 00 0F (自保持开关地址-门厅顶灯, 门厅顶灯关)
2024-10-31 00:17:47.003 - 1A 20 07 00 42 00 01 00 0F (自保持开关地址-外卫顶灯, 外卫顶灯关)
2024-10-31 00:17:48.048 - 1A 18 05 21 89 00 01 00 0F (自保持开关地址-客厅顶灯, 客厅顶灯一关)
2024-10-31 00:17:49.095 - 1A 18 05 01 94 00 01 00 0F (自保持开关地址-客厅顶灯, 客厅顶灯二关)
2024-10-31 00:17:50.141 - 1A 20 07 01 30 00 01 00 0F (自保持开关地址-西阳顶灯, 西阳顶灯关)
2024-10-31 00:17:51.195 - 1A FF 01 FF FF FF 00 01 FF 00 01 FF 00 00 0F (调光器地址-公共区域统配地址, 公共区域灯光全关)
2024-10-31 00:17:52.286 - 09 06 00 0F 02 02 38 20 (提示音咚)
2024-10-31 00:17:54.329 - EE 00 00 B1 00 00 02 FF FC FF FF (情景完成返回主页)
2024-10-31 00:18:17.428 - FF
2024-10-31 00:18:24.349 - 19 08 24 03 CC 01 CD 00 01 (调用茶吧感应灯关的按键)
2024-10-31 00:18:24.395 - 1A AA AA AA 88 FF 00 01 FF 00 01 0F (调光器地址-茶吧灯带, 茶吧灯带关闭)
2024-10-31 00:18:46.308 - 19 08 24 03
2024-10-31 00:18:46.334 - CA B1 BC E4 B8 FC D0 C2 32 30 32 34 31 30 33 31 30 30 31 39 32 33 34
2024-10-31 00:18:56.794 - 19 08 24 03 CC 01 52 00 01 (调用外卫感应灯开的按键)
2024-10-31 00:18:56.976 - 1A 0D 01 07 01 FF 45 01 FF 45 01 FF 00 00 0F (调光器地址-外卫射灯, 外卫感应灯开)
2024-10-31 00:19:05.429 - 19 08 24 03 CC 01 CC 00 01 (调用茶吧感应灯开的按键)
2024-10-31 00:19:05.464 - 1A AA AA AA 88 FF B0 01 FF B0 01 0F (调光器地址-茶吧灯带, 茶吧灯带明亮)
2024-10-31 00:19:11.824 - 19 08 24 03 CC 01 53 00 01 (调用外卫感应灯关的按键)
2024-10-31 00:19:11.882 - 1A 0D 01 07 01 FF 00 01 FF 00 01 FF 00 00 0F (调光器地址-外卫射灯, 外卫感应灯关)
2024-10-31 00:19:38.280 - 19 08 24 03 DD 00 65 00 01 (调用情景-厨房照明全开)
2024-10-31 00:19:38.887 - EE 00 00 B1 00 00 00 FF FC FF FF (情景执行提示)
2024-10-31 00:19:39.579 - 09 06 00 0F 02 01 78 21 (提示音叮)
2024-10-31 00:19:40.733 - 1A FF FF FF 57 00 00 00 0F (人体感应地址-厨房, 关闭厨房感应)
2024-10-31 00:19:40.747 - BC BC
2024-10-31 00:19:41.929 - 55 0A 32 00 00 00 01 92 (厨房顶灯一开)
2024-10-31 00:19:43.117 - 55 0A 32 00 00 00 02 93 (厨房顶灯二开)
2024-10-31 00:19:44.325 - 09 06 00 0F 02 02 38 20 (提示音咚)
2024-10-31 00:19:44.991 - EE 00 00 B1 00 00 02 FF FC FF FF (情景完成返回主页)
2024-10-31 00:19:47.280 - 19 08 24 03 DD 00 67 00 01 (调用情景-厨房停止使用)
2024-10-31 00:19:47.964 - EE 00 00 B1 00 00 00 FF FC FF FF (情景执行提示)
2024-10-31 00:19:48.583 - 09 06 00 0F 02 01 78 21 (提示音叮)
2024-10-31 00:19:49.240 - 50 F5 02 (关厨房影视)
2024-10-31 00:19:50.423 - 55 0A 31 00 00 00 01 91 (厨房顶灯一关)
2024-10-31 00:19:51.609 - 55 0A 31 00 00 00 02 92 (厨房顶灯二关)
2024-10-31 00:19:52.792 - 55 0B 31 00 00 00 01 92 (厨房风扇只关)
2024-10-31 00:19:54.007 - 1A FF FF FF 57 00 00 01 0F (人体感应地址-厨房, 打开厨房感应)
2024-10-31 00:19:55.191 - 09 06 00 0F 02 02 38 20 (提示音咚)
2024-10-31 00:19:55.855 - EE 00 00 B1 00 00 02 FF FC FF FF (情景完成返回主页)
2024-10-31 00:20:03.548 - 19 08 24 03 CC 01 CD 00 01 (调用茶吧感应灯关的按键)
2024-10-31 00:20:03.625 - 1A AA AA AA 88 FF 00 01 FF 00 01 0F (调光器地址-茶吧灯带, 茶吧灯带关闭)
2024-10-31 00:20:27.190 - 19 08 24 03 CC 00 D4 00 01 (调用厨房感应灯关的按键)
2024-10-31 00:20:27.263 - 55 0A 31 00 00 00 01 91 55 0A 31 00 00 00 02 92 (厨房顶灯一关, 厨房顶灯二关)
2024-10-31 00:21:03.551 - 55 0A 32 00 00 00 01 92 (厨房顶灯一开)
2024-10-31 00:21:04.564 - 55 0A 31 00 00 00 01 91 (厨房顶灯一关)
2024-10-31 00:21:36.173 - 1A BE B0 DC 01 FC (继电器地址-回水泵点动)
2024-10-31 00:21:36.308 - FF
2024-10-31 00:22:18.310 - 19 08 24 03 DD 00 4F 00 01 (调用情景-内卫使用完毕)
2024-10-31 00:22:19.035 - EE 00 00 B1 00 00 00 FF FC FF FF (情景执行提示)
2024-10-31 00:22:19.697 - 09 06 00 0F 02 01 78 21 (提示音叮)
2024-10-31 00:22:20.393 - 1A 0C 02 08 01 FF 00 01 FF 00 01 FF 00 00 0F (调光器地址-内卫射灯, 内卫感应灯关)
2024-10-31 00:22:24.596 - 50 F5 04 (关内卫影视)
2024-10-31 00:22:25.258 - 1A 20 07 01 40 00 01 00 0F (自保持开关地址-内卫顶灯, 内卫顶灯关)
2024-10-31 00:22:25.954 - 1A FF FF FF 56 00 00 01 0F (人体感应地址-内卫, 打开内卫感应)
2024-10-31 00:22:26.016 - BC BC
2024-10-31 00:22:26.323 - 19 08 24 03 CC 01 54 00 01 (调用内卫感应灯开的按键)
2024-10-31 00:22:26.483 - 1A 0C 02 08 01 FF 45 01 FF 45 01 FF 00 00 0F (调光器地址-内卫射灯, 内卫射灯微光)
2024-10-31 00:22:28.872 - 09 06 00 0F 02 02 38 20 (提示音咚)
2024-10-31 00:22:29.472 - EE 00 00 B1 00 00 02 FF FC FF FF (情景完成返回主页)
2024-10-31 00:22:42.054 - 19 08 24 03 CC 01 55 00 01 (调用内卫感应灯关的按键)
2024-10-31 00:22:42.090 - 1A 0C 02 08 01 FF 00 01 FF 00 01 FF 00 00 0F (调光器地址-内卫射灯, 内卫感应灯关)
2024-10-31 00:24:22.755 - 19 08 24 03 CC 01 54 00 01 (调用内卫感应灯开的按键)
2024-10-31 00:24:22.789 - 1A 0C 02 08 01 FF 45 01 FF 45 01 FF 00 00 0F (调光器地址-内卫射灯, 内卫射灯微光)
2024-10-31 00:24:44.300 - 19 08 24 03 CC 01 55 00 01 (调用内卫感应灯关的按键)
2024-10-31 00:24:44.340 - 1A 0C 02 08 01 FF 00 01 FF 00 01 FF 00 00 0F (调光器地址-内卫射灯, 内卫感应灯关)
2024-10-31 00:34:45.860 - 19 08 24 03 DD 00 4B 00 01 (调用情景-主卧睡觉)
2024-10-31 00:34:46.364 - EE 00 00 B1 00 00 00 FF FC FF FF (情景执行提示)
2024-10-31 00:34:46.963 - 09 06 00 0F 02 01 78 21 (提示音叮)
2024-10-31 00:34:47.502 - 50 F5 04 (关内卫影视)
2024-10-31 00:34:48.104 - A5 00 53 FE 01 AA (主卧纱帘关)
2024-10-31 00:34:49.150 - A5 00 52 FF 00 AA (主卧窗帘关)
2024-10-31 00:34:50.199 - 1A 22 33 62 0F 00 02 01 0F (正反转地址-内卫卷帘, 内卫卷帘降)
2024-10-31 00:34:51.246 - 1A 20 07 01 40 00 01 00 0F (自保持开关地址-内卫顶灯, 内卫顶灯关)
2024-10-31 00:34:52.294 - 1A 20 07 01 55 00 01 00 0F (自保持开关地址-主卧顶灯, 主卧顶灯只关)
2024-10-31 00:34:52.840 - 1A FF FF FF 56 00 00 01 0F (人体感应地址-内卫, 打开内卫感应)
2024-10-31 00:34:52.856 - BC BC
2024-10-31 00:34:56.439 - 1A 0C 02 08 01 FF 00 01 FF 00 01 FF 00 00 0F (调光器地址-内卫射灯, 内卫感应灯关)
2024-10-31 00:34:57.038 - 1A 0C 02 04 01 FF 00 01 FF 00 01 FF 00 00 0F (调光器地址-主卧筒灯, 主卧筒灯关闭)
2024-10-31 00:34:57.635 - 1A 0C 02 04 03 FF 00 01 FF 00 01 FF 00 00 0F (调光器地址-主卧灯带, 主卧灯带关闭)
2024-10-31 00:34:58.236 - 1A 0C 02 04 04 FF 00 01 FF 00 01 FF 00 00 0F (调光器地址-主卧南阅, 主卧南阅关闭)
2024-10-31 00:34:58.831 - 1A 0C 02 04 05 FF 00 01 FF 00 01 FF 00 00 0F (调光器地址-主卧北阅, 主卧北阅关闭)
2024-10-31 00:34:59.428 - 1A 0C 02 04 02 FF 00 01 FF 00 01 FF 00 00 0F (调光器地址-主卧过道, 主卧过道关闭)
2024-10-31 00:35:00.019 - 09 06 00 0F 02 02 38 20 (提示音咚)
2024-10-31 00:35:00.573 - EE 00 00 B1 00 00 02 FF FC FF FF (情景完成返回主页)
2024-10-31 00:58:23.962 - 19 08 24 03 CC 01 52 00 01 (调用外卫感应灯开的按键)
2024-10-31 00:58:24.014 - 1A 0D 01 07 01 FF 45 01 FF 45 01 FF 00 00 0F (调光器地址-外卫射灯, 外卫感应灯开)
2024-10-31 00:58:30.974 - 19 08 24 03 CC 01 53 00 01 (调用外卫感应灯关的按键)
2024-10-31 00:58:31.007 - 1A 0D 01 07 01 FF 00 01 FF 00 01 FF 00 00 0F (调光器地址-外卫射灯, 外卫感应灯关)
2024-10-31 01:15:41.786 - FF FF FF FF 0A FC (继电器地址-东阳窗帘)
2024-10-31 01:15:41.918 - FF
2024-10-31 01:22:15.523 - FF
2024-10-31 01:32:49.313 - FF
2024-10-31 01:48:21.605 - 1A BE B0 DC 04 (继电器地址-西阳窗帘)
2024-10-31 01:48:21.740 - FF
2024-10-31 02:23:59.934 - FF
2024-10-31 02:35:16.956 - FF FF FF FF 0E FC (继电器地址-西阳小窗帘)
2024-10-31 02:35:17.089 - FF
2024-10-31 02:57:24.885 - 1A BE B0 DC 02 FC (正反转地址-外卫卷帘)
2024-10-31 02:59:25.333 - 50 F7 01 (全屋影音全关)
2024-10-31 03:10:15.121 - 1A BE B0 DC 09 FE (继电器地址-客厅窗帘)
2024-10-31 03:25:26.707 - 1A BE B0 DC 03 (继电器地址-西阳天幕)
2024-10-31 03:25:26.842 - FF
2024-10-31 03:25:40.214 - 1A FF FF FF 04 (继电器地址-东阳衣架)
2024-10-31 03:25:40.353 - FF
2024-10-31 03:37:34.543 - 1A BE B0 DC 0A (继电器地址-客厅纱帘)
2024-10-31 03:37:34.677 - FE
2024-10-31 03:43:32.831 - 1A BE B0 DC 01 (继电器地址-回水泵点动)
2024-10-31 03:43:32.966 - FF
2024-10-31 04:11:03.616 - FF
2024-10-31 04:35:39.745 - FF FF FF FF 0A FE (继电器地址-东阳窗帘)
2024-10-31 04:49:00.919 - FF
2024-10-31 05:07:52.699 - 1A BE B0 DC 04 (继电器地址-西阳窗帘)
2024-10-31 05:07:52.837 - FF
2024-10-31 05:35:59.428 - FF
2024-10-31 05:46:10.268 - FF
2024-10-31 05:47:16.683 - FF
2024-10-31 05:55:14.554 - FF FF FF FF 0E FC (继电器地址-西阳小窗帘)
2024-10-31 06:04:57.893 - FF
2024-10-31 06:15:00.220 - FF
2024-10-31 06:17:43.772 - 1A BE B0 DC 02 (正反转地址-外卫卷帘)
2024-10-31 06:17:43.908 - FE
2024-10-31 06:30:24.599 - 1A BE B0 DC 09 FE (继电器地址-客厅窗帘)
2024-10-31 06:44:25.366 - EE 00 00 B1 00 00 00 FF FC FF FF (情景执行提示)
2024-10-31 06:44:25.966 - 09 06 00 0F 02 01 78 21 (提示音叮)
2024-10-31 06:44:26.555 - 50 F0 04 (开内卫影视)
2024-10-31 06:44:27.105 - 50 F0 05 (开主卧影视)
2024-10-31 06:44:27.656 - A5 00 53 FE 01 AA (主卧纱帘关)
2024-10-31 06:44:28.204 - A5 00 53 FE 01 AA (主卧纱帘关)
2024-10-31 06:44:28.750 - A5 00 52 FE 01 AA (主卧窗帘开)
2024-10-31 06:44:29.797 - A5 00 52 FE 01 AA (主卧窗帘开)
2024-10-31 06:44:30.848 - 1A 22 33 62 0F 00 02 01 0F (正反转地址-内卫卷帘, 内卫卷帘降)
2024-10-31 06:44:31.397 - 1A FF FF FF 56 00 00 00 0F (人体感应地址-内卫, 关闭内卫感应)
2024-10-31 06:44:31.504 - BC BC
2024-10-31 06:44:31.945 - 1A 20 07 01 55 00 01 00 0F (自保持开关地址-主卧顶灯, 主卧顶灯只关)
2024-10-31 06:44:32.996 - 1A 0C 02 08 01 FF F0 01 FF F0 01 FF 00 00 0F (调光器地址-内卫射灯, 内卫射灯明亮)
2024-10-31 06:44:33.594 - 1A 0C 02 04 01 FF 00 01 FF 00 01 FF 00 00 0F (调光器地址-主卧筒灯, 主卧筒灯关闭)
2024-10-31 06:44:34.194 - 1A 0C 02 04 03 FF 45 01 FF 45 01 FF 00 00 0F (调光器地址-主卧灯带, 主卧灯带微光)
2024-10-31 06:44:34.791 - 1A 0C 02 04 02 FF F0 01 FF 00 01 FF 00 00 0F (调光器地址-主卧过道, 主卧过道暖光)
2024-10-31 06:44:35.388 - 1A 0C 02 04 05 FF 00 01 FF 00 01 FF 00 00 0F (调光器地址-主卧北阅, 主卧北阅关闭)
2024-10-31 06:44:35.988 - 1A 0C 02 04 04 FF 00 01 FF 00 01 FF 00 00 0F (调光器地址-主卧南阅, 主卧南阅关闭)
2024-10-31 06:44:37.074 - 50 F1 24 (内卫—有线2)
2024-10-31 06:44:38.118 - 50 F1 25 (主卧—有线2)
2024-10-31 06:44:39.169 - AF BF CF DF C2 21 (有线2/快捷-凤凰卫视)
2024-10-31 06:44:39.719 - 1A FF FF FF 60 0B 01 01 0F (红外总线地址-主卧发射设备, 主卧电视电源)
2024-10-31 06:44:40.238 - F0 0B 01 08
2024-10-31 06:44:40.766 - 1A BE B0 DC 01 00 01 00 (继电器地址-回水泵点动, 回水泵点动)
2024-10-31 06:44:42.193 - 55 20 20 00 00 0F 02 16 AA 55 20 20 00 00 0F 02 16 AA (主卧窗帘电机状态返回)
2024-10-31 06:44:44.881 - 09 06 00 0F 02 02 38 20 (提示音咚)
2024-10-31 06:44:45.454 - EE 00 00 B1 00 00 02 FF FC FF FF (情景完成返回主页)
2024-10-31 06:44:46.547 - A1 11 11 11 11 01 (内卫浴霸取暖判断)
2024-10-31 06:44:46.774 - 14 03 00 00 00 02 C6 CE (查询内卫温湿度)
2024-10-31 06:44:46.794 - 14 03 04 02 9F 00 E1 4F 2C (内卫温湿度返回)
2024-10-31 06:46:16.030 - 1A BE B0 DC 03 (继电器地址-西阳天幕)
2024-10-31 06:46:16.165 - FE
2024-10-31 06:46:24.095 - 1A FF FF FF 04 (继电器地址-东阳衣架)
2024-10-31 06:46:24.230 - FF
2024-10-31 06:58:42.286 - 1A BE B0 DC 0A (继电器地址-客厅纱帘)
2024-10-31 07:04:41.403 - 1A BE B0 DC 01 FC (继电器地址-回水泵点动)
2024-10-31 07:05:16.772 - 1A BE B0 DC 01 00 01 00 (继电器地址-回水泵点动, 回水泵点动)
2024-10-31 07:05:19.692 - 1A BE B0 DC 01 00 01 00 (继电器地址-回水泵点动, 回水泵点动)
2024-10-31 07:13:30.105 - 19 08 24 03 DD 00 40 00 01 (调用情景-离开主卧)
2024-10-31 07:13:30.695 - EE 00 00 B1 00 00 00 FF FC FF FF (情景执行提示)
2024-10-31 07:13:31.261 - 09 06 00 0F 02 01 78 21 (提示音叮)
2024-10-31 07:13:31.803 - 50 F5 05 (关主卧影视)
2024-10-31 07:13:32.350 - 50 F5 04 (关内卫影视)
2024-10-31 07:13:32.904 - 01 06 07 D6 FF 60 28 9E (主卧空调关)
2024-10-31 07:13:32.933 - 01 06 07 D6 FF 60 28 9E (主卧空调关)
2024-10-31 07:13:33.500 - A5 00 52 FE 01 AA (主卧窗帘开)
2024-10-31 07:13:34.546 - A5 00 52 FE 01 AA (主卧窗帘开)
2024-10-31 07:13:35.594 - A5 00 53 FF 00 AA (主卧纱帘开)
2024-10-31 07:13:35.641 - 55 00 53 01 00 0C 02 2F AA 55 00 53 01 00 0C 02 2F AA (主卧纱帘电机状态返回)
2024-10-31 07:13:36.190 - A5 00 53 FF 00 AA (主卧纱帘开)
2024-10-31 07:13:36.742 - 1A 22 33 62 0F 00 00 01 0F (正反转地址-内卫卷帘, 内卫卷帘升)
2024-10-31 07:13:37.457 - 55 20 20 00 00 0F 02 16 AA 55 20 20 00 00 0F 02 16 AA (主卧窗帘电机状态返回)
2024-10-31 07:13:37.788 - 1A 20 07 01 40 00 01 00 0F (自保持开关地址-内卫顶灯, 内卫顶灯关)
2024-10-31 07:13:38.835 - 1A 20 07 01 55 00 01 00 0F (自保持开关地址-主卧顶灯, 主卧顶灯只关)
2024-10-31 07:13:39.389 - 1A 0C 02 08 01 FF 00 01 FF 00 01 FF 00 00 0F (调光器地址-内卫射灯, 内卫感应灯关)
2024-10-31 07:13:39.983 - 1A FF FF FF 56 00 00 01 0F (人体感应地址-内卫, 打开内卫感应)
2024-10-31 07:13:40.392 - 19 08 24 03 CC 01 54 00 01 (调用内卫感应灯开的按键)
2024-10-31 07:13:40.447 - 1A 0C 02 08 01 FF 45 01 FF 45 01 FF 00 00 0F (调光器地址-内卫射灯, 内卫射灯微光)
2024-10-31 07:13:40.545 - 19 08 24 03 CC 01 CC 00 01 (调用茶吧感应灯开的按键)
2024-10-31 07:13:43.879 - 1A 0C 02 04 FF FF 00 01 FF 00 01 FF 00 00 0F (主卧调光全关)
2024-10-31 07:13:44.969 - 09 06 00 0F 02 02 38 20 (提示音咚)
2024-10-31 07:13:45.518 - EE 00 00 B1 00 00 02 FF FC FF FF (情景完成返回主页)
2024-10-31 07:13:46.173 - 55 00 53 00 02 22 02 2F AA 55 00 53 00 02 22 02 2F AA (主卧纱帘电机状态返回)
2024-10-31 07:14:12.039 - 19 08 24 03 CC 00 D3 00 01 (调用厨房感应灯开的按键)
2024-10-31 07:14:12.090 - 55 0A 32 00 00 00 01 92 55 0A 32 00 00 00 02 93 (厨房顶灯一开, 厨房顶灯二开)
2024-10-31 07:14:25.687 - 19 08 24 03 CC 01 55 00 01 (调用内卫感应灯关的按键)
2024-10-31 07:14:25.718 - 1A 0C 02 08 01 FF 00 01 FF 00 01 FF 00 00 0F (调光器地址-内卫射灯, 内卫感应灯关)
2024-10-31 07:14:56.127 - 19 08 24 03 CC 00 D4 00 01 (调用厨房感应灯关的按键)
2024-10-31 07:14:56.162 - 55 0A 31 00 00 00 01 91 55 0A 31 00 00 00 02 92 (厨房顶灯一关, 厨房顶灯二关)
2024-10-31 07:14:57.633 - 19 08 24 03 CC 00 D3 00 01 (调用厨房感应灯开的按键)
2024-10-31 07:14:57.664 - 55 0A 32 00 00 00 01 92 55 0A 32 00 00 00 02 93 (厨房顶灯一开, 厨房顶灯二开)
2024-10-31 07:15:10.231 - 19 08 24 03 CC 01 CD 00 01 (调用茶吧感应灯关的按键)
2024-10-31 07:15:10.256 - 1A AA AA AA 88 FF 00 01 FF 00 01 0F (调光器地址-茶吧灯带, 茶吧灯带关闭)
2024-10-31 07:15:12.229 - 19 08 24 03 CC 01 CC 00 01 (调用茶吧感应灯开的按键)
2024-10-31 07:15:12.279 - 1A AA AA AA 88 FF B0 01 FF B0 01 0F (调光器地址-茶吧灯带, 茶吧灯带明亮)
2024-10-31 07:15:28.330 - 19 08 24 03 CC 01 54 00 01 (调用内卫感应灯开的按键)
2024-10-31 07:15:28.363 - 1A 0C 02 08 01 FF 45 01 FF 45 01 FF 00 00 0F (调光器地址-内卫射灯, 内卫射灯微光)
2024-10-31 07:15:37.279 - 19 08 24 03 CC 01 CD 00 01 (调用茶吧感应灯关的按键)
2024-10-31 07:15:37.310 - 1A AA AA AA 88 FF 00 01 FF 00 01 0F (调光器地址-茶吧灯带, 茶吧灯带关闭)
2024-10-31 07:15:49.372 - 19 08 24 03 CC 01 55 00 01 (调用内卫感应灯关的按键)
2024-10-31 07:15:49.404 - 1A 0C 02 08 01 FF 00 01 FF 00 01 FF 00 00 0F (调光器地址-内卫射灯, 内卫感应灯关)
2024-10-31 07:16:36.897 - 19 08 24 03 CC 01 CC 00 01 (调用茶吧感应灯开的按键)
2024-10-31 07:16:36.930 - 1A AA AA AA 88 FF B0 01 FF B0 01 0F (调光器地址-茶吧灯带, 茶吧灯带明亮)
2024-10-31 07:16:45.342 - 19 08 24 03 CC 00 D4 00 01 (调用厨房感应灯关的按键)
2024-10-31 07:16:45.375 - 55 0A 31 00 00 00 01 91 55 0A 31 00 00 00 02 92 (厨房顶灯一关, 厨房顶灯二关)
2024-10-31 07:16:48.421 - 19 08 24 03 CC 01 CD 00 01 (调用茶吧感应灯关的按键)
2024-10-31 07:16:48.452 - 1A AA AA AA 88 FF 00 01 FF 00 01 0F (调光器地址-茶吧灯带, 茶吧灯带关闭)
2024-10-31 07:16:48.623 - 19 08 24 03 DD 00 00 00 01 (调用情景-离家（末）)
2024-10-31 07:17:03.271 - 19 08 24 03 DD 00 00 00 01 (调用情景-离家（末）)
2024-10-31 07:17:03.809 - EE 00 00 B1 00 00 00 FF FC FF FF (情景执行提示)
2024-10-31 07:17:04.404 - 09 06 00 0F 02 02 38 20 (提示音咚)
2024-10-31 07:17:04.947 - 50 F7 01 (全屋影音全关)
2024-10-31 07:17:05.551 - 01 06 07 D0 FF 60 C8 9F (客厅空调关)
2024-10-31 07:17:05.587 - 01 06 07 D0 FF 60 C8 9F (客厅空调关)
2024-10-31 07:17:06.150 - 01 06 07 D0 FF 60 C8 9F (客厅空调关)
2024-10-31 07:17:06.181 - 01 06 07 D0 FF 60 C8 9F (客厅空调关)
2024-10-31 07:17:06.746 - 01 06 07 D3 FF 60 38 9F (餐厅空调关)
2024-10-31 07:17:06.776 - 01 06 07 D3 FF 60 38 9F (餐厅空调关)
2024-10-31 07:17:07.343 - 01 06 07 D3 FF 60 38 9F (餐厅空调关)
2024-10-31 07:17:07.372 - 01 06 07 D3 FF 60 38 9F (餐厅空调关)
2024-10-31 07:17:07.944 - 01 06 07 D6 FF 60 28 9E (主卧空调关)
2024-10-31 07:17:07.979 - 01 06 07 D6 FF 60 28 9E (主卧空调关)
2024-10-31 07:17:08.540 - 01 06 07 D6 FF 60 28 9E (主卧空调关)
2024-10-31 07:17:08.574 - 01 06 07 D6 FF 60 28 9E (主卧空调关)
2024-10-31 07:17:09.141 - 01 06 07 D9 FF 60 18 9D (次卧空调关)
2024-10-31 07:17:09.168 - 01 06 07 D9 FF 60 18 9D (次卧空调关)
2024-10-31 07:17:09.735 - 01 06 07 D9 FF 60 18 9D (次卧空调关)
2024-10-31 07:17:09.766 - 01 06 07 D9 FF 60 18 9D (次卧空调关)
2024-10-31 07:17:10.336 - 01 06 07 DC FF 60 08 9C (书房空调关)
2024-10-31 07:17:10.360 - 01 06 07 DC FF 60 08 9C (书房空调关)
2024-10-31 07:17:10.939 - 01 06 07 DC FF 60 08 9C (书房空调关)
2024-10-31 07:17:10.967 - 01 06 07 DC FF 60 08 9C (书房空调关)
2024-10-31 07:17:11.531 - 09 06 00 0F 02 02 38 20 (提示音咚)
2024-10-31 07:17:12.078 - 1A FF FF FF 56 00 00 00 0F (人体感应地址-内卫, 关闭内卫感应)
2024-10-31 07:17:12.628 - 1A FF FF FF 55 00 00 00 0F (人体感应地址-外卫, 关闭外卫感应)
2024-10-31 07:17:12.724 - BC BC
2024-10-31 07:17:13.175 - 1A FF FF FF 57 00 00 00 0F (人体感应地址-厨房, 关闭厨房感应)
2024-10-31 07:17:13.726 - 1A FF FF FF 58 00 00 00 0F (人体感应地址-茶吧, 关闭茶吧感应)
2024-10-31 07:17:13.774 - BC BC
2024-10-31 07:17:14.323 - 1A 20 07 00 93 00 01 00 0F (自保持开关地址-设备区顶, 设备区顶灯关)
2024-10-31 07:17:15.369 - 1A 20 07 01 40 00 01 00 0F (自保持开关地址-内卫顶灯, 内卫顶灯关)
2024-10-31 07:17:16.417 - 1A 20 07 01 55 00 01 00 0F (自保持开关地址-主卧顶灯, 主卧顶灯只关)
2024-10-31 07:17:17.465 - 1A 20 07 00 42 00 01 00 0F (自保持开关地址-外卫顶灯, 外卫顶灯关)
2024-10-31 07:17:18.508 - 55 0D 31 00 00 00 01 94 (书房顶灯只关)
2024-10-31 07:17:19.553 - 55 0A 31 00 00 00 01 91 (厨房顶灯一关)
2024-10-31 07:17:20.600 - 55 0A 31 00 00 00 02 92 (厨房顶灯二关)
2024-10-31 07:17:21.649 - 55 0B 31 00 00 00 01 92 (厨房风扇只关)
2024-10-31 07:17:22.691 - 55 0C 31 00 00 00 01 93 (餐厅顶灯关)
2024-10-31 07:17:23.740 - 1A 20 07 01 30 00 01 00 0F (自保持开关地址-西阳顶灯, 西阳顶灯关)
2024-10-31 07:17:24.789 - 1A 18 05 21 89 00 01 00 0F (自保持开关地址-客厅顶灯, 客厅顶灯一关)
2024-10-31 07:17:25.835 - 1A 18 05 01 94 00 01 00 0F (自保持开关地址-客厅顶灯, 客厅顶灯二关)
2024-10-31 07:17:26.880 - 1A 20 07 00 70 00 01 00 0F (自保持开关地址-次卧顶灯, 次卧顶灯只关)
2024-10-31 07:17:27.928 - 1A 18 05 10 31 00 01 00 0F (自保持开关地址-门厅顶灯, 门厅顶灯关)
2024-10-31 07:17:28.970 - 1A FF FF FF 04 00 03 02 (继电器地址-东阳衣架, 东阳衣架照明关)
2024-10-31 07:17:29.520 - 09 06 00 0F 02 02 38 20 (提示音咚)
2024-10-31 07:17:30.065 - A5 00 A6 FE 01 AA (餐厅窗帘开)
2024-10-31 07:17:30.616 - FF FF FF FF 0A 00 01 00 (继电器地址-东阳窗帘, 东阳窗帘开)
2024-10-31 07:17:31.166 - 1A BE B0 DC 04 00 01 00 (继电器地址-西阳窗帘, 西阳窗帘开)
2024-10-31 07:17:31.713 - FF FF FF FF 0E 00 01 00 (继电器地址-西阳小窗帘, 西阳小窗帘开)
2024-10-31 07:17:32.264 - 1A 22 33 62 0F 00 00 01 0F (正反转地址-内卫卷帘, 内卫卷帘升)
2024-10-31 07:17:32.807 - A5 00 52 FE 01 AA (主卧窗帘开)
2024-10-31 07:17:33.439 - A5 00 53 FF 00 AA (主卧纱帘开)
2024-10-31 07:17:34.001 - A5 00 76 FE 01 AA (次卧窗帘开)
2024-10-31 07:17:34.553 - A5 00 21 FE 01 AA (次卧纱帘开)
2024-10-31 07:17:35.103 - A5 00 D2 FE 01 AA 22 0D (书房窗帘开)
2024-10-31 07:17:35.649 - 1A BE B0 DC 09 00 01 00 (继电器地址-客厅窗帘, 客厅窗帘开)
2024-10-31 07:17:36.199 - 1A BE B0 DC 0A 00 02 00 (继电器地址-客厅纱帘, 客厅纱帘开)
2024-10-31 07:17:36.746 - 09 06 00 0F 02 02 38 20 (提示音咚)
2024-10-31 07:17:37.792 - 1A EC A0 DC 02 00 00 00 0F (自保持开关地址-天花12V供电, 天花12V 供电关)
2024-10-31 07:17:38.342 - 1A EC A0 DC 02 00 00 00 0F (自保持开关地址-天花12V供电, 天花12V 供电关)
2024-10-31 07:17:38.891 - 1A EC A0 DC 01 00 00 00 0F (自保持开关地址-电视、设备12V供电, 12V 电视供电关)
2024-10-31 07:17:39.439 - 1A EC A0 DC 01 00 00 00 0F (自保持开关地址-电视、设备12V供电, 12V 电视供电关)
2024-10-31 07:17:39.987 - 1A EC A0 DC 04 00 01 00 0F (自保持开关地址-次卧西阳内外卫供电, 内卫外卫关)
2024-10-31 07:17:40.537 - 1A EC A0 DC 04 00 01 00 0F (自保持开关地址-次卧西阳内外卫供电, 内卫外卫关)
2024-10-31 07:17:42.077 - 1A BB BB BB 01 02 00 (开水器电源关)
2024-10-31 07:17:55.131 - 09 06 00 0F 02 02 38 20 (提示音咚)
2024-10-31 07:17:55.685 - 1A 27 89 12 AA 00 00 00 0F (状态寄存器地址, 无人状态)
2024-10-31 07:17:56.228 - 1A 27 89 12 AA 00 00 00 0F (状态寄存器地址, 无人状态)
2024-10-31 07:17:56.770 - A1 11 11 11 4D (天花供电关闭确认)
2024-10-31 07:17:56.994 - 1A EC A0 DC 02 86 86 86 0F (查询天花供电状态, 自保持开关地址-天花12V供电)
2024-10-31 07:17:57.428 - 1A EC A0 DC 02 00 01 0F (自保持开关地址-天花12V供电)
2024-10-31 07:17:59.810 - A1 11 11 11 4E (卫生供电关闭确认)
2024-10-31 07:18:00.040 - 1A EC A0 DC 04 86 86 86 0F (查询卫生间供电状态, 自保持开关地址-次卧西阳内外卫供电)
2024-10-31 07:18:00.473 - 1A EC A0 DC 04 01 00 0F (自保持开关地址-次卧西阳内外卫供电)
2024-10-31 07:18:02.852 - A1 11 11 11 4F (电视供电关闭确认)
2024-10-31 07:18:03.078 - 1A EC A0 DC 01 86 86 86 0F (查询电视供电状态, 自保持开关地址-电视、设备12V供电)
2024-10-31 07:18:03.514 - 1A EC A0 DC 01 00 01 0F (自保持开关地址-电视、设备12V供电)
2024-10-31 07:18:05.898 - 09 06 00 0F 02 02 38 20 (提示音咚)
2024-10-31 07:18:06.444 - 09 06 00 0F 02 02 38 20 (提示音咚)
2024-10-31 07:18:06.996 - EE 00 00 B1 00 00 02 FF FC FF FF (情景完成返回主页)
2024-10-31 07:18:08.084 - BA BA EE EE BA BA (离家设置信科变量)
2024-10-31 07:18:09.129 - A1 11 11 11 46 (天热离家遮阳)
2024-10-31 07:18:09.354 - 1A 27 89 12 AA 86 86 86 0F (查询寄存器状态, 状态寄存器地址)
2024-10-31 07:18:09.736 - 1A 27 89 12 AA 00 00 00 00 00 00 00 00 00 00 00 00 00 00 00 00 0F (状态寄存器地址)
2024-10-31 07:26:13.947 - FF
2024-10-31 07:56:42.053 - FF FF FF FF 0A (继电器地址-东阳窗帘)
2024-10-31 07:56:42.189 - FF
2024-10-31 08:28:19.460 - 1A BE B0 DC 04 (继电器地址-西阳窗帘)
2024-10-31 08:28:19.598 - FF
2024-10-31 09:16:13.764 - FF FF FF FF 0E FC (继电器地址-西阳小窗帘)
2024-10-31 09:16:13.900 - FE
2024-10-31 09:38:21.919 - 1A BE B0 DC 02 FE (正反转地址-外卫卷帘)
2024-10-31 09:38:22.052 - FF
2024-10-31 09:51:14.659 - 1A BE B0 DC 09 (继电器地址-客厅窗帘)
2024-10-31 10:07:06.036 - 1A BE B0 DC 03 (继电器地址-西阳天幕)
2024-10-31 10:07:06.169 - FF
2024-10-31 10:07:36.722 - 1A FF FF FF 04 FC (继电器地址-东阳衣架)
2024-10-31 10:19:33.906 - 1A BE B0 DC 0A FC (继电器地址-客厅纱帘)
2024-10-31 10:19:34.041 - FF
2024-10-31 10:25:29.443 - 1A BE B0 DC 01 FC (继电器地址-回水泵点动)
2024-10-31 10:25:29.578 - FF
2024-10-31 10:44:13.071 - FF
2024-10-31 11:16:39.710 - FF FF FF FF 0A FC (继电器地址-东阳窗帘)
2024-10-31 11:16:39.843 - FF
2024-10-31 11:47:50.459 - 1A BE B0 DC 04 (继电器地址-西阳窗帘)
2024-10-31 11:47:50.594 - FE
2024-10-31 12:26:25.213 - FF
2024-10-31 12:36:11.338 - FF FF FF FF 0E (继电器地址-西阳小窗帘)
2024-10-31 12:43:55.322 - FF
2024-10-31 12:58:40.511 - 1A BE B0 DC 02 (正反转地址-外卫卷帘)
2024-10-31 12:58:40.643 - FC
2024-10-31 13:11:22.997 - 1A BE B0 DC 09 FC (继电器地址-客厅窗帘)
2024-10-31 13:11:23.133 - FF
2024-10-31 13:27:56.092 - 1A BE B0 DC 03 FE (继电器地址-西阳天幕)
2024-10-31 13:28:20.950 - 1A FF FF FF 04 FC (继电器地址-东阳衣架)
2024-10-31 13:40:10.968 - 1A BE B0 DC 0A FE (继电器地址-客厅纱帘)
2024-10-31 13:46:06.181 - 1A BE B0 DC 01 (继电器地址-回水泵点动)
2024-10-31 14:13:55.579 - FF
2024-10-31 14:37:29.605 - FF FF FF FF 0A FE (继电器地址-东阳窗帘)
2024-10-31 14:37:29.740 - FF
2024-10-31 15:07:21.366 - 1A BE B0 DC 04 (继电器地址-西阳窗帘)
2024-10-31 15:07:21.499 - FF
2024-10-31 15:56:08.450 - FF FF FF FF 0E FF (继电器地址-西阳小窗帘)
2024-10-31 15:56:08.584 - FC
2024-10-31 16:18:59.146 - 1A BE B0 DC 02 (正反转地址-外卫卷帘)
2024-10-31 16:31:31.804 - 1A BE B0 DC 09 (继电器地址-客厅窗帘)
2024-10-31 16:48:46.718 - 1A BE B0 DC 03 (继电器地址-西阳天幕)
2024-10-31 16:49:05.271 - 1A FF FF FF 04 FC (继电器地址-东阳衣架)
2024-10-31 17:00:47.970 - 1A BE B0 DC 0A FF (继电器地址-客厅纱帘)
2024-10-31 17:00:48.104 - FF
2024-10-31 17:06:43.085 - 1A BE B0 DC 01 (继电器地址-回水泵点动)
2024-10-31 17:06:43.222 - FE
2024-10-31 17:13:39.213 - FF
2024-10-31 17:26:00.336 - FF
2024-10-31 17:57:27.308 - FF FF FF FF 0A (继电器地址-东阳窗帘)
2024-10-31 17:57:27.443 - FF
2024-10-31 18:26:52.326 - 1A BE B0 DC 04 (继电器地址-西阳窗帘)
2024-10-31 18:26:52.458 - FF
2024-10-31 19:15:54.059 - FF
2024-10-31 19:16:05.272 - FF FF FF FF 0E (继电器地址-西阳小窗帘)
2024-10-31 19:16:05.406 - FE
2024-10-31 19:39:17.380 - 1A BE B0 DC 02 FF (正反转地址-外卫卷帘)
2024-10-31 19:51:40.441 - 1A BE B0 DC 09 FF (继电器地址-客厅窗帘)
2024-10-31 19:51:40.575 - FF
2024-10-31 20:06:30.802 - FF
2024-10-31 20:09:36.769 - 1A BE B0 DC 03 FF (继电器地址-西阳天幕)
2024-10-31 20:09:36.905 - FF
2024-10-31 20:09:48.955 - 1A FF FF FF 04 (继电器地址-东阳衣架)
2024-10-31 20:09:49.089 - FE
2024-10-31 20:21:25.722 - 1A BE B0 DC 0A (继电器地址-客厅纱帘)
2024-10-31 20:21:25.858 - FC
2024-10-31 20:27:20.185 - 1A BE B0 DC 01 (继电器地址-回水泵点动)
2024-10-31 21:21:39.518 - FF
2024-10-31 21:21:54.728 - FF
2024-10-31 21:41:17.342 - FF FF FF FF 0A FD (继电器地址-东阳窗帘)
2024-10-31 21:46:50.896 - 1A BE B0 DC 04 (继电器地址-西阳窗帘)
2024-10-31 22:25:31.885 - FF
2024-10-31 22:36:46.426 - FF FF FF FF 0E (继电器地址-西阳小窗帘)
2024-10-31 22:59:35.930 - 1A BE B0 DC 02 (正反转地址-外卫卷帘)
2024-10-31 23:12:44.746 - 1A BE B0 DC 09 FC (继电器地址-客厅窗帘)
2024-10-31 23:12:44.881 - FF
2024-10-31 23:27:50.374 - FF
2024-10-31 23:30:26.219 - 1A BE B0 DC 03 FD (继电器地址-西阳天幕)
2024-10-31 23:30:26.357 - FF
2024-10-31 23:30:32.611 - 1A FF FF FF 04 (继电器地址-东阳衣架)
2024-10-31 23:42:03.392 - 1A BE B0 DC 0A (继电器地址-客厅纱帘)
2024-10-31 23:42:03.528 - FF
2024-10-31 23:47:57.585 - 1A BE B0 DC 01 FC (继电器地址-回水泵点动)
2024-10-31 23:47:57.720 - FF
2024-10-31 23:52:04.941 - FF
2024-11-01 01:01:15.361 - FF FF FF FF 0A (继电器地址-东阳窗帘)
2024-11-01 01:06:21.881 - 1A BE B0 DC 04 FC (继电器地址-西阳窗帘)
2024-11-01 01:06:22.016 - FE
2024-11-01 01:56:42.306 - FF FF FF FF 0E FC (继电器地址-西阳小窗帘)
2024-11-01 01:56:42.440 - FE
2024-11-01 02:19:54.153 - 1A BE B0 DC 02 (正反转地址-外卫卷帘)
2024-11-01 02:19:54.289 - FE
2024-11-01 02:32:53.459 - 1A BE B0 DC 09 FE (继电器地址-客厅窗帘)
2024-11-01 02:32:53.595 - FF
2024-11-01 02:51:15.708 - 1A BE B0 DC 03 (继电器地址-西阳天幕)
2024-11-01 02:51:16.335 - 1A FF FF FF 04 FC (继电器地址-东阳衣架)
2024-11-01 02:51:16.470 - FE
2024-11-01 02:59:21.913 - 50 F7 01 (全屋影音全关)
2024-11-01 03:02:41.071 - 1A BE B0 DC 0A (继电器地址-客厅纱帘)
2024-11-01 03:02:41.209 - FF
2024-11-01 03:08:34.770 - 1A BE B0 DC 01 FC (继电器地址-回水泵点动)
2024-11-01 03:08:34.904 - FE
2024-11-01 03:22:01.033 - FF
2024-11-01 04:25:52.671 - 1A BE B0 DC 04 (继电器地址-西阳窗帘)
2024-11-01 04:25:52.809 - FF
2024-11-01 04:27:43.062 - FF FF FF FF 0A FD (继电器地址-东阳窗帘)
2024-11-01 04:27:43.194 - FF
2024-11-01 04:29:25.438 - FF
2024-11-01 05:16:38.855 - FF FF FF FF 0E (继电器地址-西阳小窗帘)
2024-11-01 05:16:38.990 - FF
2024-11-01 05:40:11.731 - 1A BE B0 DC 02 (正反转地址-外卫卷帘)
2024-11-01 05:40:11.865 - FF
2024-11-01 05:53:01.663 - 1A BE B0 DC 09 FC (继电器地址-客厅窗帘)
2024-11-01 05:53:01.796 - FF
2024-11-01 06:11:59.550 - 1A FF FF FF 04 (继电器地址-东阳衣架)
2024-11-01 06:12:04.746 - 1A BE B0 DC 03 (继电器地址-西阳天幕)
2024-11-01 06:19:33.898 - FF
2024-11-01 06:23:18.964 - 1A BE B0 DC 0A FE (继电器地址-客厅纱帘)
2024-11-01 06:23:19.102 - FE
2024-11-01 06:29:11.923 - 1A BE B0 DC 01 FF (继电器地址-回水泵点动)
2024-11-01 06:29:12.063 - FF
2024-11-01 07:02:32.783 - FF
2024-11-01 07:45:23.284 - 1A BE B0 DC 04 FE (继电器地址-西阳窗帘)
2024-11-01 07:45:23.425 - FF
2024-11-01 07:47:41.512 - FF FF FF FF 0A (继电器地址-东阳窗帘)
2024-11-01 07:47:41.646 - FC
2024-11-01 08:36:35.469 - FF FF FF FF 0E (继电器地址-西阳小窗帘)
2024-11-01 09:00:28.978 - 1A BE B0 DC 02 (正反转地址-外卫卷帘)
2024-11-01 09:13:09.821 - 1A BE B0 DC 09 (继电器地址-客厅窗帘)
2024-11-01 09:13:09.952 - FF
2024-11-01 09:32:42.937 - 1A FF FF FF 04 FE (继电器地址-东阳衣架)
2024-11-01 09:32:43.072 - FE
2024-11-01 09:32:53.913 - 1A BE B0 DC 03 (继电器地址-西阳天幕)
2024-11-01 09:32:54.049 - FF
2024-11-01 09:43:56.398 - 1A BE B0 DC 0A FE (继电器地址-客厅纱帘)
2024-11-01 09:43:56.536 - FF
2024-11-01 09:49:48.395 - 1A BE B0 DC 01 FE (继电器地址-回水泵点动)
2024-11-01 09:49:48.529 - FF
2024-11-01 10:07:03.573 - FF
2024-11-01 10:41:00.305 - FF
2024-11-01 11:04:53.364 - 1A BE B0 DC 04 FC (继电器地址-西阳窗帘)
2024-11-01 11:04:53.497 - FE
2024-11-01 11:08:33.789 - FF FF FF FF 0A (继电器地址-东阳窗帘)
2024-11-01 11:08:33.923 - FF
2024-11-01 11:56:31.501 - FF FF FF FF 0E (继电器地址-西阳小窗帘)
2024-11-01 11:56:31.640 - FF
2024-11-01 12:20:46.819 - 1A BE B0 DC 02 FC (正反转地址-外卫卷帘)
2024-11-01 12:20:46.952 - FF
2024-11-01 12:33:18.095 - 1A BE B0 DC 09 (继电器地址-客厅窗帘)
2024-11-01 12:53:26.139 - 1A FF FF FF 04 (继电器地址-东阳衣架)
2024-11-01 12:53:43.283 - 1A BE B0 DC 03 (继电器地址-西阳天幕)
2024-11-01 12:53:43.420 - FF
2024-11-01 12:54:10.780 - FF
2024-11-01 13:04:33.118 - 1A BE B0 DC 0A FC (继电器地址-客厅纱帘)
2024-11-01 13:04:33.253 - FF
2024-11-01 13:10:24.810 - 1A BE B0 DC 01 (继电器地址-回水泵点动)
2024-11-01 13:10:24.941 - FF
2024-11-01 14:24:23.452 - 1A BE B0 DC 04 FC (继电器地址-西阳窗帘)
2024-11-01 14:24:23.587 - FF
2024-11-01 14:28:46.088 - FF FF FF FF 0A (继电器地址-东阳窗帘)
2024-11-01 14:44:38.975 - FF
2024-11-01 14:59:32.655 - FF
2024-11-01 15:16:27.551 - FF FF FF FF 0E FC (继电器地址-西阳小窗帘)
2024-11-01 15:16:27.688 - FF
2024-11-01 15:26:18.155 - FF
2024-11-01 15:41:04.322 - 1A BE B0 DC 02 (正反转地址-外卫卷帘)
2024-11-01 15:41:04.456 - FF
2024-11-01 15:53:26.590 - 1A BE B0 DC 09 FE (继电器地址-客厅窗帘)
2024-11-01 15:53:26.725 - FE
2024-11-01 16:13:42.207 - FF
2024-11-01 16:14:09.616 - 1A FF FF FF 04 FC (继电器地址-东阳衣架)
2024-11-01 16:14:32.641 - 1A BE B0 DC 03 (继电器地址-西阳天幕)
2024-11-01 16:25:09.813 - 1A BE B0 DC 0A FE (继电器地址-客厅纱帘)
2024-11-01 16:25:09.945 - FF
2024-11-01 16:31:00.335 - 1A BE B0 DC 01 (继电器地址-回水泵点动)
2024-11-01 16:53:50.793 - FF
2024-11-01 17:02:44.150 - FF
2024-11-01 17:20:38.259 - FF
2024-11-01 17:43:53.597 - 1A BE B0 DC 04 FE (继电器地址-西阳窗帘)
2024-11-01 17:48:43.931 - FF FF FF FF 0A FC (继电器地址-东阳窗帘)
2024-11-01 17:48:44.069 - FF
2024-11-01 18:36:23.796 - FF FF FF FF 0E (继电器地址-西阳小窗帘)
2024-11-01 19:00:49.193 - FF
2024-11-01 19:01:21.874 - 1A BE B0 DC 02 FD (正反转地址-外卫卷帘)
2024-11-01 19:13:34.730 - 1A BE B0 DC 09 (继电器地址-客厅窗帘)
2024-11-01 19:19:19.370 - 1B 03 00 00 00 02 C6 31 (查询室外光线)
2024-11-01 19:19:19.391 - 1B 03 04 00 00 00 00 41 F2 (室外光线返回)
2024-11-01 19:19:20.167 - 1A EC A0 DC 02 00 00 01 0F (自保持开关地址-天花12V供电, 天花12V 供电开)
2024-11-01 19:19:20.754 - 1A AA AA AA 88 (调光器地址-茶吧灯带)
2024-11-01 19:19:20.874 - F8
2024-11-01 19:19:21.865 - 19 08 24 03 DD 00 0D 00 01 (调用情景-信科调用进门暗)
2024-11-01 19:19:23.933 - 1A FF 01 FF FF FF 60 01 FF 60 01 FF 00 00 0F (调光器地址-公共区域统配地址)
2024-11-01 19:19:26.021 - 1A EC A0 DC 01 00 00 01 0F (自保持开关地址-电视、设备12V供电, 12V 电视供电开)
2024-11-01 19:19:26.565 - 1A EC A0 DC 01 00 00 01 0F (自保持开关地址-电视、设备12V供电, 12V 电视供电开)
2024-11-01 19:19:27.113 - 1A EC A0 DC 04 00 01 01 0F (自保持开关地址-次卧西阳内外卫供电, 内卫外卫开)
2024-11-01 19:19:27.665 - 1A EC A0 DC 04 00 01 01 0F (自保持开关地址-次卧西阳内外卫供电, 内卫外卫开)
2024-11-01 19:19:28.209 - 1A BB BB BB 01 01 00 (开水器电源开)
2024-11-01 19:19:29.760 - 1A 27 89 12 AA 00 00 01 0F (状态寄存器地址, 有人状态)
2024-11-01 19:19:30.305 - 1A 27 89 12 AA 00 00 01 0F (状态寄存器地址, 有人状态)
2024-11-01 19:19:30.852 - 1A BE B0 DC 01 00 01 00 (继电器地址-回水泵点动, 回水泵点动)
2024-11-01 19:19:31.402 - 1A FF FF FF 56 00 00 01 0F (人体感应地址-内卫, 打开内卫感应)
2024-11-01 19:19:31.949 - 1A FF FF FF 55 00 00 01 0F (人体感应地址-外卫, 打开外卫感应)
2024-11-01 19:19:32.048 - BC BC
2024-11-01 19:19:32.499 - 1A FF FF FF 57 00 00 01 0F (人体感应地址-厨房, 打开厨房感应)
2024-11-01 19:19:33.045 - 1A FF FF FF 58 00 00 01 0F (人体感应地址-茶吧, 打开茶吧感应)
2024-11-01 19:19:33.096 - BC BC
2024-11-01 19:19:33.642 - 1A BE B0 DC 01 00 01 00 (继电器地址-回水泵点动, 回水泵点动)
2024-11-01 19:19:34.190 - A5 00 B7 FF 00 AA 22 0D (书房纱帘关)
2024-11-01 19:19:34.739 - A5 00 A2 FF 00 AA (餐厅纱帘关)
2024-11-01 19:19:35.290 - 09 06 00 0F 02 01 78 21 (提示音叮)
2024-11-01 19:19:35.838 - 09 06 00 0F 02 01 78 21 (提示音叮)
2024-11-01 19:19:36.386 - EE 00 00 B1 00 00 02 FF FC FF FF (情景完成返回主页)
2024-11-01 19:19:36.979 - A1 11 11 11 50 (天花供电打开确认)
2024-11-01 19:19:37.209 - 1A EC A0 DC 02 86 86 86 0F (查询天花供电状态, 自保持开关地址-天花12V供电)
2024-11-01 19:19:37.643 - 1A EC A0 DC 02 01 01 0F (自保持开关地址-天花12V供电)
2024-11-01 19:19:39.520 - A1 11 11 11 51 (卫生供电打开确认)
2024-11-01 19:19:39.743 - 1A EC A0 DC 04 86 86 86 0F (查询卫生间供电状态, 自保持开关地址-次卧西阳内外卫供电)
2024-11-01 19:19:40.173 - 1A EC A0 DC 04 01 01 0F (自保持开关地址-次卧西阳内外卫供电)
2024-11-01 19:19:42.063 - A1 11 11 11 52 (电视供电打开确认)
2024-11-01 19:19:42.290 - 1A EC A0 DC 01 86 86 86 0F (查询电视供电状态, 自保持开关地址-电视、设备12V供电)
2024-11-01 19:19:42.722 - 1A EC A0 DC 01 01 01 0F (自保持开关地址-电视、设备12V供电)
2024-11-01 19:19:45.808 - EE 00 6E B1 01 00 03 FF FC FF FF
2024-11-01 19:19:46.434 - EE 00 6E B1 01 00 08 FF FC FF FF
2024-11-01 19:19:46.973 - 1A BE B0 DC 0A 00 01 00 (继电器地址-客厅纱帘, 客厅纱帘关)
2024-11-01 19:19:47.094 - A1 11 11 11 47 (天热回家开帘)
2024-11-01 19:19:47.321 - 1A 27 89 12 AA 86 86 86 0F (查询寄存器状态, 状态寄存器地址)
2024-11-01 19:19:47.703 - 1A 27 89 12 AA 01 00 00 00 00 00 00 00 00 00 00 00 00 00 00 00 0F (状态寄存器地址)
2024-11-01 19:19:58.657 - 19 08 24 03 CC 01 CC 00 01 (调用茶吧感应灯开的按键)
2024-11-01 19:19:58.706 - 1A AA AA AA 88 FF B0 01 FF B0 01 0F (调光器地址-茶吧灯带, 茶吧灯带明亮)
2024-11-01 19:20:22.222 - 19 08 24 03 CC 00 D3 00 01 (调用厨房感应灯开的按键)
2024-11-01 19:20:22.259 - 55 0A 32 00 00 00 01 92 55 0A 32 00 00 00 02 93 (厨房顶灯一开, 厨房顶灯二开)
2024-11-01 19:21:04.805 - 19 08 24 03 CC 00 D4 00 01 (调用厨房感应灯关的按键)
2024-11-01 19:21:04.841 - 55 0A 31 00 00 00 01 91 55 0A 31 00 00 00 02 92 (厨房顶灯一关, 厨房顶灯二关)
2024-11-01 19:21:05.291 - 19 08 24 03 CC 01 CD 00 01 (调用茶吧感应灯关的按键)
2024-11-01 19:21:05.322 - 1A AA AA AA 88 FF 00 01 FF 00 01 0F (调光器地址-茶吧灯带, 茶吧灯带关闭)
2024-11-01 19:21:32.420 - 1A 20 07 01 55 00 01 02 0F (自保持开关地址-主卧顶灯, 主卧顶灯开关)
2024-11-01 19:21:58.189 - FF
2024-11-01 19:26:48.072 - 1A 20 07 01 55 00 01 02 0F (自保持开关地址-主卧顶灯, 主卧顶灯开关)
2024-11-01 19:27:31.752 - 1A 20 07 01 55 00 01 02 0F (自保持开关地址-主卧顶灯, 主卧顶灯开关)
2024-11-01 19:27:49.129 - 1A 20 07 01 55 00 01 02 0F (自保持开关地址-主卧顶灯, 主卧顶灯开关)
2024-11-01 19:28:10.280 - FF
2024-11-01 19:28:38.098 - 19 08 24 03 CC 01 54 00 01 (调用内卫感应灯开的按键)
2024-11-01 19:28:38.152 - 1A 0C 02 08 01 FF 45 01 FF 45 01 FF 00 00 0F (调光器地址-内卫射灯, 内卫射灯微光)
2024-11-01 19:33:04.071 - 19 08 24 03 DD 00 1B 00 01 (调用情景-外卫使用)
2024-11-01 19:33:04.602 - EE 00 00 B1 00 00 00 FF FC FF FF (情景执行提示)
2024-11-01 19:33:05.195 - 09 06 00 0F 02 01 78 21 (提示音叮)
2024-11-01 19:33:05.742 - 1A BE B0 DC 02 00 01 00 (正反转地址-外卫卷帘, 外卫卷帘降)
2024-11-01 19:33:06.337 - 50 F0 03 (开外卫影视)
2024-11-01 19:33:06.890 - 1A FF FF FF 55 00 00 00 0F (人体感应地址-外卫, 关闭外卫感应)
2024-11-01 19:33:07.445 - 1A 0D 01 07 01 FF 45 01 FF 45 01 FF 00 00 0F (调光器地址-外卫射灯, 外卫感应灯开)
2024-11-01 19:33:09.533 - 1A BE B0 DC 01 00 01 00 (继电器地址-回水泵点动, 回水泵点动)
2024-11-01 19:33:10.579 - 1A BE B0 DC 01 00 01 00 (继电器地址-回水泵点动, 回水泵点动)
2024-11-01 19:33:11.627 - 1A BE B0 DC 01 00 01 00 (继电器地址-回水泵点动, 回水泵点动)
2024-11-01 19:33:12.665 - 50 F1 43 (外卫—CH4)
2024-11-01 19:33:29.667 - A1 11 11 11 11 05 (外卫使用浴霸判断)
2024-11-01 19:33:29.890 - 13 03 00 00 00 02 C7 79 (查询外卫温湿度)
2024-11-01 19:33:29.912 - 13 03 04 02 B4 00 DC 88 35 (外卫温湿度返回)
2024-11-01 19:33:31.761 - 09 06 00 0F 02 02 38 20 (提示音咚)
2024-11-01 19:33:33.855 - EE 00 00 B1 00 00 02 FF FC FF FF (情景完成返回主页)
2024-11-01 19:33:42.906 - 1A 22 33 62 0F 00 02 01 0F (正反转地址-内卫卷帘, 内卫卷帘降)
2024-11-01 19:33:52.971 - 19 08 24 03 DD 00 1B 00 01 (调用情景-外卫使用)
2024-11-01 19:33:53.491 - EE 00 00 B1 00 00 00 FF FC FF FF (情景执行提示)
2024-11-01 19:33:54.089 - 09 06 00 0F 02 01 78 21 (提示音叮)
2024-11-01 19:33:54.636 - 1A BE B0 DC 02 00 01 00 (正反转地址-外卫卷帘, 外卫卷帘降)
2024-11-01 19:33:55.177 - 50 F0 03 (开外卫影视)
2024-11-01 19:33:55.736 - 1A FF FF FF 55 00 00 00 0F (人体感应地址-外卫, 关闭外卫感应)
2024-11-01 19:33:55.746 - BC BC
2024-11-01 19:33:56.336 - 1A 0D 01 07 01 FF 45 01 FF 45 01 FF 00 00 0F (调光器地址-外卫射灯, 外卫感应灯开)
2024-11-01 19:33:58.426 - 1A BE B0 DC 01 00 01 00 (继电器地址-回水泵点动, 回水泵点动)
2024-11-01 19:33:59.473 - 1A BE B0 DC 01 00 01 00 (继电器地址-回水泵点动, 回水泵点动)
2024-11-01 19:34:00.522 - 1A BE B0 DC 01 00 01 00 (继电器地址-回水泵点动, 回水泵点动)
2024-11-01 19:34:01.562 - 50 F1 43 (外卫—CH4)
2024-11-01 19:34:18.557 - A1 11 11 11 11 05 (外卫使用浴霸判断)
2024-11-01 19:34:18.783 - 13 03 00 00 00 02 C7 79 (查询外卫温湿度)
2024-11-01 19:34:18.803 - 13 03 04 02 B4 00 DC 88 35 (外卫温湿度返回)
2024-11-01 19:34:20.601 - 09 06 00 0F 02 02 38 20 (提示音咚)
2024-11-01 19:34:22.648 - EE 00 00 B1 00 00 02 FF FC FF FF (情景完成返回主页)
2024-11-01 19:35:22.211 - 1A BE B0 DC 03 FE (继电器地址-西阳天幕)
2024-11-01 19:35:22.346 - FF
2024-11-01 19:35:28.183 - 1A FF FF FF 04 (继电器地址-东阳衣架)
2024-11-01 19:36:26.052 - 19 08 24 03 CC 01 55 00 01 (调用内卫感应灯关的按键)
2024-11-01 19:36:26.104 - 1A 0C 02 08 01 FF 00 01 FF 00 01 FF 00 00 0F (调光器地址-内卫射灯, 内卫感应灯关)
2024-11-01 19:36:34.195 - 19 08 24 03 DD 00 1A 00 01 (调用情景-客厅电视播放)
2024-11-01 19:36:34.760 - EE 00 00 B1 00 00 00 FF FC FF FF (情景执行提示)
2024-11-01 19:36:35.360 - 09 06 00 0F 02 01 78 21 (提示音叮)
2024-11-01 19:36:35.928 - 50 F0 08 (开客厅影视)
2024-11-01 19:36:44.974 - 50 F1 28 (客厅—有线2)
2024-11-01 19:36:45.527 - 09 06 00 0F 02 01 78 21 (提示音叮)
2024-11-01 19:36:46.077 - EE 00 00 B1 00 00 02 FF FC FF FF (情景完成返回主页)
2024-11-01 19:38:38.318 - 19 08 24 03 CC 01 54 00 01 (调用内卫感应灯开的按键)
2024-11-01 19:38:38.352 - 1A 0C 02 08 01 FF 45 01 FF 45 01 FF 00 00 0F (调光器地址-内卫射灯, 内卫射灯微光)
2024-11-01 19:38:59.859 - 19 08 24 03 CC 01 55 00 01 (调用内卫感应灯关的按键)
2024-11-01 19:38:59.896 - 1A 0C 02 08 01 FF 00 01 FF 00 01 FF 00 00 0F (调光器地址-内卫射灯, 内卫感应灯关)
2024-11-01 19:47:42.761 - 1A BE B0 DC 0A (继电器地址-客厅纱帘)
2024-11-01 19:47:42.894 - FF
2024-11-01 19:49:52.974 - 19 08 24 03 DD 00 41 00 01 (调用情景-主卧照明电视)
2024-11-01 19:49:53.515 - EE 00 00 B1 00 00 00 FF FC FF FF (情景执行提示)
2024-11-01 19:49:54.108 - 09 06 00 0F 02 01 78 21 (提示音叮)
2024-11-01 19:49:54.651 - 50 F0 05 (开主卧影视)
2024-11-01 19:49:55.202 - 50 F0 04 (开内卫影视)
2024-11-01 19:49:55.758 - 1A FF FF FF 56 00 00 00 0F (人体感应地址-内卫, 关闭内卫感应)
2024-11-01 19:49:56.304 - 1A 22 33 62 0F 00 02 01 0F (正反转地址-内卫卷帘, 内卫卷帘降)
2024-11-01 19:49:56.848 - A5 00 53 FE 01 AA (主卧纱帘关)
2024-11-01 19:49:56.900 - 55 00 53 02 02 22 02 2F AA 55 00 53 02 02 22 02 2F AA (主卧纱帘电机状态返回)
2024-11-01 19:49:57.944 - A5 00 52 FF 00 AA (主卧窗帘关)
2024-11-01 19:49:59.001 - 1A 0C 02 04 FF FF 45 01 FF 45 01 FF 00 00 0F (主卧调光微光)
2024-11-01 19:50:05.083 - 1A 0C 02 08 01 FF 45 01 FF 45 01 FF 00 00 0F (调光器地址-内卫射灯, 内卫射灯微光)
2024-11-01 19:50:05.668 - 50 F1 25 (主卧—有线2)
2024-11-01 19:50:06.214 - 50 F1 24 (内卫—有线2)
2024-11-01 19:50:06.242 - 19 08 24 03 CC 01 CC 00 01 (调用茶吧感应灯开的按键)
2024-11-01 19:50:06.352 - 1A AA AA AA 88 FF B0 01 FF B0 01 0F (调光器地址-茶吧灯带, 茶吧灯带明亮)
2024-11-01 19:50:08.084 - 55 00 53 00 00 0C 02 2F AA 55 00 53 00 00 0C 02 2F AA (主卧纱帘电机状态返回)
2024-11-01 19:50:08.309 - AF BF CF DF C2 21 (有线2/快捷-凤凰卫视)
2024-11-01 19:50:09.718 - 55 20 20 00 02 09 02 16 AA 55 20 20 00 02 09 02 16 AA (主卧窗帘电机状态返回)
2024-11-01 19:50:10.358 - 1A FF FF FF 60 0B 01 01 0F (红外总线地址-主卧发射设备, 主卧电视电源)
2024-11-01 19:50:10.878 - F0 0B 01 08
2024-11-01 19:50:18.380 - 09 06 00 0F 02 02 38 20 (提示音咚)
2024-11-01 19:50:18.983 - EE 00 00 B1 00 00 02 FF FC FF FF (情景完成返回主页)
2024-11-01 19:52:20.006 - 19 08 24 03 CC 01 CD 00 01 (调用茶吧感应灯关的按键)
2024-11-01 19:52:20.056 - 1A AA AA AA 88 FF 00 01 FF 00 01 0F (调光器地址-茶吧灯带, 茶吧灯带关闭)
2024-11-01 19:52:51.574 - 19 08 24 03 DD 00 1C 00 01 (调用情景-外卫使用完毕)
2024-11-01 19:52:52.085 - EE 00 00 B1 00 00 00 FF FC FF FF (情景执行提示)
2024-11-01 19:52:52.678 - 09 06 00 0F 02 01 78 21 (提示音叮)
2024-11-01 19:52:53.238 - 1A 0D 01 07 01 FF 00 01 FF 00 01 FF 00 00 0F (调光器地址-外卫射灯, 外卫感应灯关)
2024-11-01 19:52:53.822 - 50 F5 03 (关外卫影视)
2024-11-01 19:52:54.400 - 1A 20 07 00 42 00 01 00 0F (自保持开关地址-外卫顶灯, 外卫顶灯关)
2024-11-01 19:52:54.975 - 1A FF FF FF 55 00 00 01 0F (人体感应地址-外卫, 打开外卫感应)
2024-11-01 19:52:55.069 - BC BC
2024-11-01 19:52:57.518 - 09 06 00 0F 02 02 38 20 (提示音咚)
2024-11-01 19:52:58.069 - EE 00 00 B1 00 00 02 FF FC FF FF (情景完成返回主页)
2024-11-01 19:54:56.252 - 1A BE B0 DC 01 (继电器地址-回水泵点动)
2024-11-01 20:00:45.506 - 19 08 24 03 CC 00 D3 00 01 (调用厨房感应灯开的按键)
2024-11-01 20:00:45.559 - 55 0A 32 00 00 00 01 92 55 0A 32 00 00 00 02 93 (厨房顶灯一开, 厨房顶灯二开)
2024-11-01 20:01:34.602 - 19 08 24 03 CC 00 D4 00 01 (调用厨房感应灯关的按键)
2024-11-01 20:01:34.656 - 55 0A 31 00 00 00 01 91 55 0A 31 00 00 00 02 92 (厨房顶灯一关, 厨房顶灯二关)
2024-11-01 20:03:56.283 - FF
2024-11-01 20:06:26.479 - FF
2024-11-01 20:10:11.908 - FF
2024-11-01 20:15:15.065 - FF
2024-11-01 20:31:18.054 - FF
2024-11-01 20:49:00.314 - FF
2024-11-01 20:49:31.589 - FF
2024-11-01 20:58:03.338 - FF
2024-11-01 21:00:56.521 - FF
2024-11-01 21:05:13.414 - FF
2024-11-01 21:06:23.179 - 1A BE B0 DC 04 (继电器地址-西阳窗帘)
2024-11-01 21:07:17.703 - FF
2024-11-01 21:10:33.560 - FF FF
2024-11-01 21:11:31.989 - FF FF FF FF 0A FC (继电器地址-东阳窗帘)
2024-11-01 21:12:42.514 - FF
2024-11-01 21:15:34.568 - FF
2024-11-01 21:16:02.865 - FF
2024-11-01 21:17:45.413 - FF
2024-11-01 21:21:05.542 - FF
2024-11-01 21:21:54.634 - 19 08 24 03 CC 01 CC 00 01 (调用茶吧感应灯开的按键)
2024-11-01 21:21:54.694 - 1A AA AA AA 88 FF B0 01 FF B0 01 0F (调光器地址-茶吧灯带, 茶吧灯带明亮)
2024-11-01 21:22:17.618 - 19 08 24 03 CC 00 D3 00 01 (调用厨房感应灯开的按键)
2024-11-01 21:22:17.652 - 55 0A 32 00 00 00 01 92 55 0A 32 00 00 00 02 93 (厨房顶灯一开, 厨房顶灯二开)
2024-11-01 21:22:30.204 - 19 08 24 03 CC 01 CD 00 01 (调用茶吧感应灯关的按键)
2024-11-01 21:22:30.237 - 1A AA AA AA 88 FF 00 01 FF 00 01 0F (调光器地址-茶吧灯带, 茶吧灯带关闭)
2024-11-01 21:23:06.279 - 19 08 24 03 CC 01 CC 00 01 (调用茶吧感应灯开的按键)
2024-11-01 21:23:06.335 - 1A AA AA AA 88 FF B0 01 FF B0 01 0F (调光器地址-茶吧灯带, 茶吧灯带明亮)
2024-11-01 21:23:17.983 - 19 08 24 03 CC 00 C0 00 01
2024-11-01 21:23:18.020 - 1A 0C 02 08 01 FF 45 01 FF 45 01 FF 00 00 0F (调光器地址-内卫射灯, 内卫射灯微光)
2024-11-01 21:23:19.302 - 19 08 24 03 CC 01 CD 00 01 (调用茶吧感应灯关的按键)
2024-11-01 21:23:19.333 - 1A AA AA AA 88 FF 00 01 FF 00 01 0F (调光器地址-茶吧灯带, 茶吧灯带关闭)
2024-11-01 21:23:44.792 - 19 08 24 03 CC 00 D4 00 01 (调用厨房感应灯关的按键)
2024-11-01 21:23:44.826 - 55 0A 31 00 00 00 01 91 55 0A 31 00 00 00 02 92 (厨房顶灯一关, 厨房顶灯二关)
2024-11-01 21:24:03.392 - 19 08 24 03 CC 01 CC 00 01 (调用茶吧感应灯开的按键)
2024-11-01 21:24:03.422 - 1A AA AA AA 88 FF B0 01 FF B0 01 0F (调光器地址-茶吧灯带, 茶吧灯带明亮)
2024-11-01 21:24:09.842 - 19 08 24 03 CC 00 D3 00 01 (调用厨房感应灯开的按键)
2024-11-01 21:24:09.875 - 55 0A 32 00 00 00 01 92 55 0A 32 00 00 00 02 93 (厨房顶灯一开, 厨房顶灯二开)
2024-11-01 21:24:11.111 - FF
2024-11-01 21:24:22.929 - 19 08 24 03 CC 01 CD 00 01 (调用茶吧感应灯关的按键)
2024-11-01 21:24:23.007 - 1A AA AA AA 88 FF 00 01 FF 00 01 0F (调光器地址-茶吧灯带, 茶吧灯带关闭)
2024-11-01 21:26:56.734 - 19 08 24 03 CC 01 CC 00 01 (调用茶吧感应灯开的按键)
2024-11-01 21:26:56.781 - 1A AA AA AA 88 FF B0 01 FF B0 01 0F (调光器地址-茶吧灯带, 茶吧灯带明亮)
2024-11-01 21:27:18.779 - 19 08 24 03 CC 01 CD 00 01 (调用茶吧感应灯关的按键)
2024-11-01 21:27:18.806 - 1A AA AA AA 88 FF 00 01 FF 00 01 0F (调光器地址-茶吧灯带, 茶吧灯带关闭)
2024-11-01 21:37:06.587 - 55 0B 30 00 00 00 01 91
2024-11-01 21:37:07.942 - 19 08 24 03 CC 01 CC 00 01 (调用茶吧感应灯开的按键)
2024-11-01 21:37:07.990 - 1A AA AA AA 88 FF B0 01 FF B0 01 0F (调光器地址-茶吧灯带, 茶吧灯带明亮)
2024-11-01 21:38:06.984 - 19 08 24 03 CC 00 D4 00 01 (调用厨房感应灯关的按键)
2024-11-01 21:38:07.025 - 55 0A 31 00 00 00 01 91 55 0A 31 00 00 00 02 92 (厨房顶灯一关, 厨房顶灯二关)
2024-11-01 21:38:13.068 - 19 08 24 03 CC 01 CD 00 01 (调用茶吧感应灯关的按键)
2024-11-01 21:38:13.098 - 1A AA AA AA 88 FF 00 01 FF 00 01 0F (调光器地址-茶吧灯带, 茶吧灯带关闭)
2024-11-01 21:42:16.474 - 19 08 24 03 CC 00 D3 00 01 (调用厨房感应灯开的按键)
2024-11-01 21:42:16.510 - 55 0A 32 00 00 00 01 92 55 0A 32 00 00 00 02 93 (厨房顶灯一开, 厨房顶灯二开)
2024-11-01 21:42:52.045 - 19 08 24 03 CC 00 D4 00 01 (调用厨房感应灯关的按键)
2024-11-01 21:42:52.083 - 55 0A 31 00 00 00 01 91 55 0A 31 00 00 00 02 92 (厨房顶灯一关, 厨房顶灯二关)
2024-11-01 21:45:08.086 - FF
2024-11-01 21:48:34.717 - 19 08 24 03 CC 00 D3 00 01 (调用厨房感应灯开的按键)
2024-11-01 21:48:34.770 - 55 0A 32 00 00 00 01 92 55 0A 32 00 00 00 02 93 (厨房顶灯一开, 厨房顶灯二开)
2024-11-01 21:49:00.986 - FF
2024-11-01 21:50:09.405 - 19 08 24 03 CC 00 D4 00 01 (调用厨房感应灯关的按键)
2024-11-01 21:50:09.437 - 55 0A 31 00 00 00 01 91 55 0A 31 00 00 00 02 92 (厨房顶灯一关, 厨房顶灯二关)
2024-11-01 21:50:43.974 - 19 08 24 03 CC 00 D3 00 01 (调用厨房感应灯开的按键)
2024-11-01 21:50:44.025 - 55 0A 32 00 00 00 01 92 55 0A 32 00 00 00 02 93 (厨房顶灯一开, 厨房顶灯二开)
2024-11-01 21:51:19.542 - 19 08 24 03 CC 00 D4 00 01 (调用厨房感应灯关的按键)
2024-11-01 21:51:19.580 - 55 0A 31 00 00 00 01 91 55 0A 31 00 00 00 02 92 (厨房顶灯一关, 厨房顶灯二关)
2024-11-01 21:51:51.604 - 19 08 24 03 CC 00 D3 00 01 (调用厨房感应灯开的按键)
2024-11-01 21:51:51.642 - 55 0A 32 00 00 00 01 92 55 0A 32 00 00 00 02 93 (厨房顶灯一开, 厨房顶灯二开)
2024-11-01 21:52:26.676 - 19 08 24 03 CC 00 D4 00 01 (调用厨房感应灯关的按键)
2024-11-01 21:52:26.709 - 55 0A 31 00 00 00 01 91 55 0A 31 00 00 00 02 92 (厨房顶灯一关, 厨房顶灯二关)
2024-11-01 21:53:11.116 - FF
2024-11-01 21:54:10.379 - 19 08 24 03 CC 00 D3 00 01 (调用厨房感应灯开的按键)
2024-11-01 21:54:10.430 - 55 0A 32 00 00 00 01 92 55 0A 32 00 00 00 02 93 (厨房顶灯一开, 厨房顶灯二开)
2024-11-01 21:54:45.950 - 19 08 24 03 CC 00 D4 00 01 (调用厨房感应灯关的按键)
2024-11-01 21:54:46.001 - 55 0A 31 00 00 00 01 91 55 0A 31 00 00 00 02 92 (厨房顶灯一关, 厨房顶灯二关)
2024-11-01 21:55:42.563 - 19 08 24 03 CC 00 D3 00 01 (调用厨房感应灯开的按键)
2024-11-01 21:55:42.593 - 55 0A 32 00 00 00 01 92 55 0A 32 00 00 00 02 93 (厨房顶灯一开, 厨房顶灯二开)
2024-11-01 21:56:25.144 - 19 08 24 03 CC 00 D4 00 01 (调用厨房感应灯关的按键)
2024-11-01 21:56:25.188 - 55 0A 31 00 00 00 01 91 55 0A 31 00 00 00 02 92 (厨房顶灯一关, 厨房顶灯二关)
2024-11-01 21:56:26.422 - FF
2024-11-01 21:56:43.179 - 19 08 24 03 CC 00 D3 00 01 (调用厨房感应灯开的按键)
2024-11-01 21:56:43.236 - 55 0A 32 00 00 00 01 92 55 0A 32 00 00 00 02 93 (厨房顶灯一开, 厨房顶灯二开)
2024-11-01 21:56:44.467 - FF
2024-11-01 21:57:18.246 - 19 08 24 03 CC 00 D4 00 01 (调用厨房感应灯关的按键)
2024-11-01 21:57:18.282 - 55 0A 31 00 00 00 01 91 55 0A 31 00 00 00 02 92 (厨房顶灯一关, 厨房顶灯二关)
2024-11-01 21:58:53.433 - 19 08 24 03 CC 00 D3 00 01 (调用厨房感应灯开的按键)
2024-11-01 21:58:53.488 - 55 0A 32 00 00 00 01 92 55 0A 32 00 00 00 02 93 (厨房顶灯一开, 厨房顶灯二开)
2024-11-01 21:59:16.047 - FF FF FF FF 0E (继电器地址-西阳小窗帘)
2024-11-01 21:59:16.187 - FE
2024-11-01 22:00:18.099 - 19 08 24 03 CC 00 D4 00 01 (调用厨房感应灯关的按键)
2024-11-01 22:00:18.153 - 55 0A 31 00 00 00 01 91 55 0A 31 00 00 00 02 92 (厨房顶灯一关, 厨房顶灯二关)
2024-11-01 22:01:35.754 - 19 08 24 03 CC 00 D3 00 01 (调用厨房感应灯开的按键)
2024-11-01 22:01:35.805 - 55 0A 32 00 00 00 01 92 55 0A 32 00 00 00 02 93 (厨房顶灯一开, 厨房顶灯二开)
2024-11-01 22:02:23.849 - 19 08 24 03 CC 00 D4 00 01 (调用厨房感应灯关的按键)
2024-11-01 22:02:23.882 - 55 0A 31 00 00 00 01 91 55 0A 31 00 00 00 02 92 (厨房顶灯一关, 厨房顶灯二关)
2024-11-01 22:03:38.995 - 19 08 24 03 CC 00 D3 00 01 (调用厨房感应灯开的按键)
2024-11-01 22:03:39.029 - 55 0A 32 00 00 00 01 92 55 0A 32 00 00 00 02 93 (厨房顶灯一开, 厨房顶灯二开)
2024-11-01 22:04:19.074 - 19 08 24 03 CC 00 D4 00 01 (调用厨房感应灯关的按键)
2024-11-01 22:04:19.110 - 55 0A 31 00 00 00 01 91 55 0A 31 00 00 00 02 92 (厨房顶灯一关, 厨房顶灯二关)
2024-11-01 22:14:54.010 - FF
2024-11-01 22:17:04.666 - 19 08 24 03 CC 01 CC 00 01 (调用茶吧感应灯开的按键)
2024-11-01 22:17:04.718 - 1A AA AA AA 88 FF B0 01 FF B0 01 0F (调光器地址-茶吧灯带, 茶吧灯带明亮)
2024-11-01 22:17:09.087 - 19 08 24 03 CC 00 D3 00 01 (调用厨房感应灯开的按键)
2024-11-01 22:17:09.140 - 55 0A 32 00 00 00 01 92 55 0A 32 00 00 00 02 93 (厨房顶灯一开, 厨房顶灯二开)
2024-11-01 22:17:24.207 - 19 08 24 03 CC 01 CD 00 01 (调用茶吧感应灯关的按键)
2024-11-01 22:17:24.236 - 1A AA AA AA 88 FF 00 01 FF 00 01 0F (调光器地址-茶吧灯带, 茶吧灯带关闭)
2024-11-01 22:18:53.126 - 55 0B 30 00 00 00 01 91
2024-11-01 22:18:59.895 - 19 08 24 03 CC 01 CC 00 01 (调用茶吧感应灯开的按键)
2024-11-01 22:18:59.944 - 1A AA AA AA 88 FF B0 01 FF B0 01 0F (调光器地址-茶吧灯带, 茶吧灯带明亮)
2024-11-01 22:19:14.923 - 19 08 24 03 CC 01 CD 00 01 (调用茶吧感应灯关的按键)
2024-11-01 22:19:14.956 - 1A AA AA AA 88 FF 00 01 FF 00 01 0F (调光器地址-茶吧灯带, 茶吧灯带关闭)
2024-11-01 22:19:49.903 - 19 08 24 03 CC 00 D4 00 01 (调用厨房感应灯关的按键)
2024-11-01 22:19:49.938 - 55 0A 31 00 00 00 01 91 55 0A 31 00 00 00 02 92 (厨房顶灯一关, 厨房顶灯二关)
2024-11-01 22:23:54.143 - FF
2024-11-01 22:24:24.651 - 1A BE B0 DC 02 FC (正反转地址-外卫卷帘)
2024-11-01 22:24:24.784 - FE
2024-11-01 22:32:02.059 - FF
2024-11-01 22:37:13.054 - 1A BE B0 DC 09 FF (继电器地址-客厅窗帘)
2024-11-01 22:48:17.326 - FF
2024-11-01 22:56:10.431 - 1A FF FF FF 04 (继电器地址-东阳衣架)
2024-11-01 22:56:46.867 - 1A BE B0 DC 03 FC (继电器地址-西阳天幕)
2024-11-01 22:56:47.002 - FF
2024-11-01 23:07:46.668 - 19 08 24 03 CC 01 CC 00 01 (调用茶吧感应灯开的按键)
2024-11-01 23:07:46.717 - 1A AA AA AA 88 FF B0 01 FF B0 01 0F (调光器地址-茶吧灯带, 茶吧灯带明亮)
2024-11-01 23:07:48.560 - 19 08 24 03 CC 00 D3 00 01 (调用厨房感应灯开的按键)
2024-11-01 23:07:48.614 - 55 0A 32 00 00 00 01 92 55 0A 32 00 00 00 02 93 (厨房顶灯一开, 厨房顶灯二开)
2024-11-01 23:07:59.693 - 19 08 24 03 CC 01 CD 00 01 (调用茶吧感应灯关的按键)
2024-11-01 23:07:59.724 - 1A AA AA AA 88 FF 00 01 FF 00 01 0F (调光器地址-茶吧灯带, 茶吧灯带关闭)
2024-11-01 23:08:13.220 - 19 08 24 03 CC 01 CC 00 01 (调用茶吧感应灯开的按键)
2024-11-01 23:08:13.250 - 1A AA AA AA 88 FF B0 01 FF B0 01 0F (调光器地址-茶吧灯带, 茶吧灯带明亮)
2024-11-01 23:08:18.294 - FF
2024-11-01 23:08:23.086 - 19 08 24 03 DD 00 13 00 01 (调用情景-公共区域关)
2024-11-01 23:08:23.631 - EE 00 00 B1 00 00 00 FF FC FF FF (情景执行提示)
2024-11-01 23:08:24.228 - 09 06 00 0F 02 01 78 21 (提示音叮)
2024-11-01 23:08:24.775 - 55 0B 31 00 00 00 01 92 (厨房风扇只关)
2024-11-01 23:08:25.821 - 01 06 07 D3 FF 60 38 9F (餐厅空调关)
2024-11-01 23:08:25.854 - 01 06 07 D3 FF 60 38 9F (餐厅空调关)
2024-11-01 23:08:26.918 - 01 06 07 D0 FF 60 C8 9F (客厅空调关)
2024-11-01 23:08:26.956 - 01 06 07 D0 FF 60 C8 9F (客厅空调关)
2024-11-01 23:08:31.005 - 50 F5 02 (关厨房影视)
2024-11-01 23:08:32.049 - 50 F5 01 (关餐厅影视)
2024-11-01 23:08:33.097 - 50 F5 08 (关客厅影视)
2024-11-01 23:08:34.143 - 50 F5 03 (关外卫影视)
2024-11-01 23:08:35.192 - 55 0A 31 00 00 00 01 91 (厨房顶灯一关)
2024-11-01 23:08:36.241 - 55 0A 31 00 00 00 02 92 (厨房顶灯二关)
2024-11-01 23:08:37.286 - 55 0C 31 00 00 00 01 93 (餐厅顶灯关)
2024-11-01 23:08:38.336 - 1A 18 05 10 31 00 01 00 0F (自保持开关地址-门厅顶灯, 门厅顶灯关)
2024-11-01 23:08:39.382 - 1A 20 07 00 42 00 01 00 0F (自保持开关地址-外卫顶灯, 外卫顶灯关)
2024-11-01 23:08:40.427 - 1A 18 05 21 89 00 01 00 0F (自保持开关地址-客厅顶灯, 客厅顶灯一关)
2024-11-01 23:08:41.475 - 1A 18 05 01 94 00 01 00 0F (自保持开关地址-客厅顶灯, 客厅顶灯二关)
2024-11-01 23:08:42.520 - 1A 20 07 01 30 00 01 00 0F (自保持开关地址-西阳顶灯, 西阳顶灯关)
2024-11-01 23:08:43.573 - 1A FF 01 FF FF FF 00 01 FF 00 01 FF 00 00 0F (调光器地址-公共区域统配地址, 公共区域灯光全关)
2024-11-01 23:08:44.664 - 09 06 00 0F 02 02 38 20 (提示音咚)
2024-11-01 23:08:46.708 - EE 00 00 B1 00 00 02 FF FC FF FF (情景完成返回主页)
2024-11-01 23:08:54.703 - 19 08 24 03 CC 00 D4 00 01 (调用厨房感应灯关的按键)
2024-11-01 23:08:54.756 - 55 0A 31 00 00 00 01 91 55 0A 31 00 00 00 02 92 (厨房顶灯一关, 厨房顶灯二关)
2024-11-01 23:08:55.308 - 19 08 24 03 CC 01 CD 00 01 (调用茶吧感应灯关的按键)
2024-11-01 23:08:55.339 - 1A AA AA AA 88 FF 00 01 FF 00 01 0F (调光器地址-茶吧灯带, 茶吧灯带关闭)
2024-11-01 23:10:28.788 - 1A BE B0 DC 0A (继电器地址-客厅纱帘)
2024-11-01 23:12:49.035 - FF
2024-11-01 23:14:06.945 - FF
2024-11-01 23:14:43.228 - 19 08 24 03 DD 00 4F 00 01 (调用情景-内卫使用完毕)
2024-11-01 23:14:43.788 - EE 00 00 B1 00 00 00 FF FC FF FF (情景执行提示)
2024-11-01 23:14:44.381 - 09 06 00 0F 02 01 78 21 (提示音叮)
2024-11-01 23:14:44.938 - 1A 0C 02 08 01 FF 00 01 FF 00 01 FF 00 00 0F (调光器地址-内卫射灯, 内卫感应灯关)
2024-11-01 23:14:49.012 - 50 F5 04 (关内卫影视)
2024-11-01 23:14:49.566 - 1A 20 07 01 40 00 01 00 0F (自保持开关地址-内卫顶灯, 内卫顶灯关)
2024-11-01 23:14:50.117 - 1A FF FF FF 56 00 00 01 0F (人体感应地址-内卫, 打开内卫感应)
2024-11-01 23:14:50.222 - BC BC
2024-11-01 23:14:50.527 - 19 08 24 03 CC 01 54 00 01 (调用内卫感应灯开的按键)
2024-11-01 23:14:50.582 - 1A 0C 02 08 01 FF 45 01 FF 45 01 FF 00 00 0F (调光器地址-内卫射灯, 内卫射灯微光)
2024-11-01 23:14:53.009 - 09 06 00 0F 02 02 38 20 (提示音咚)
2024-11-01 23:14:53.560 - EE 00 00 B1 00 00 02 FF FC FF FF (情景完成返回主页)
2024-11-01 23:15:26.802 - 19 08 24 03 CC 01 55 00 01 (调用内卫感应灯关的按键)
2024-11-01 23:15:26.835 - 1A 0C 02 08 01 FF 00 01 FF 00 01 FF 00 00 0F (调光器地址-内卫射灯, 内卫感应灯关)
2024-11-01 23:15:35.169 - FF
2024-11-01 23:16:51.759 - 1A BE B0 DC 01 FD (继电器地址-回水泵点动)
2024-11-01 23:16:51.895 - FF
2024-11-01 23:17:10.008 - 19 08 24 03 CC 01 54 00 01 (调用内卫感应灯开的按键)
2024-11-01 23:17:10.058 - 1A 0C 02 08 01 FF 45 01 FF 45 01 FF 00 00 0F (调光器地址-内卫射灯, 内卫射灯微光)
2024-11-01 23:17:31.546 - 19 08 24 03 CC 01 55 00 01 (调用内卫感应灯关的按键)
2024-11-01 23:17:31.598 - 1A 0C 02 08 01 FF 00 01 FF 00 01 FF 00 00 0F (调光器地址-内卫射灯, 内卫感应灯关)
2024-11-01 23:43:23.105 - FF
2024-11-02 00:07:31.903 - FF
2024-11-02 00:07:33.366 - FF
2024-11-02 00:22:59.778 - 19 08 24 03 CC 01 54 00 01 (调用内卫感应灯开的按键)
2024-11-02 00:22:59.827 - 1A 0C 02 08 01 FF 45 01 FF 45 01 FF 00 00 0F (调光器地址-内卫射灯, 内卫射灯微光)
2024-11-02 00:24:11.419 - 19 08 24 03 CC 01 55 00 01 (调用内卫感应灯关的按键)
2024-11-02 00:24:11.470 - 1A 0C 02 08 01 FF 00 01 FF 00 01 FF 00 00 0F (调光器地址-内卫射灯, 内卫感应灯关)
2024-11-02 00:25:30.617 - 19 08 24 03 DD 00 4B 00 01 (调用情景-主卧睡觉)
2024-11-02 00:25:31.151 - EE 00 00 B1 00 00 00 FF FC FF FF (情景执行提示)
2024-11-02 00:25:31.747 - 09 06 00 0F 02 01 78 21 (提示音叮)
2024-11-02 00:25:32.290 - 50 F5 04 (关内卫影视)
2024-11-02 00:25:32.840 - A5 00 53 FE 01 AA (主卧纱帘关)
2024-11-02 00:25:33.886 - A5 00 52 FF 00 AA (主卧窗帘关)
2024-11-02 00:25:34.937 - 1A 22 33 62 0F 00 02 01 0F (正反转地址-内卫卷帘, 内卫卷帘降)
2024-11-02 00:25:35.984 - 1A 20 07 01 40 00 01 00 0F (自保持开关地址-内卫顶灯, 内卫顶灯关)
2024-11-02 00:25:37.030 - 1A 20 07 01 55 00 01 00 0F (自保持开关地址-主卧顶灯, 主卧顶灯只关)
2024-11-02 00:25:37.578 - 1A FF FF FF 56 00 00 01 0F (人体感应地址-内卫, 打开内卫感应)
2024-11-02 00:25:37.592 - BC BC
2024-11-02 00:25:41.176 - 1A 0C 02 08 01 FF 00 01 FF 00 01 FF 00 00 0F (调光器地址-内卫射灯, 内卫感应灯关)
2024-11-02 00:25:41.774 - 1A 0C 02 04 01 FF 00 01 FF 00 01 FF 00 00 0F (调光器地址-主卧筒灯, 主卧筒灯关闭)
2024-11-02 00:25:42.372 - 1A 0C 02 04 03 FF 00 01 FF 00 01 FF 00 00 0F (调光器地址-主卧灯带, 主卧灯带关闭)
2024-11-02 00:25:42.971 - 1A 0C 02 04 04 FF 00 01 FF 00 01 FF 00 00 0F (调光器地址-主卧南阅, 主卧南阅关闭)
2024-11-02 00:25:43.567 - 1A 0C 02 04 05 FF 00 01 FF 00 01 FF 00 00 0F (调光器地址-主卧北阅, 主卧北阅关闭)
2024-11-02 00:25:44.165 - 1A 0C 02 04 02 FF 00 01 FF 00 01 FF 00 00 0F (调光器地址-主卧过道, 主卧过道关闭)
2024-11-02 00:25:44.757 - 09 06 00 0F 02 02 38 20 (提示音咚)
2024-11-02 00:25:45.393 - EE 00 00 B1 00 00 02 FF FC FF FF (情景完成返回主页)
2024-11-02 00:26:38.778 - 1A BE B0 DC 04 (继电器地址-西阳窗帘)
2024-11-02 00:26:38.914 - FF
2024-11-02 00:32:37.048 - FF FF FF FF 0A FE (继电器地址-东阳窗帘)
2024-11-02 00:32:37.179 - FE
2024-11-02 01:19:02.405 - 19 08 24 03 CC 01 54 00 01 (调用内卫感应灯开的按键)
2024-11-02 01:19:02.458 - 1A 0C 02 08 01 FF 45 01 FF 45 01 FF 00 00 0F (调光器地址-内卫射灯, 内卫射灯微光)
2024-11-02 01:20:21.444 - FF FF FF FF 0E FC (继电器地址-西阳小窗帘)
2024-11-02 01:20:21.577 - FE
2024-11-02 01:20:42.102 - 19 08 24 03 CC 01 55 00 01 (调用内卫感应灯关的按键)
2024-11-02 01:20:42.154 - 1A 0C 02 08 01 FF 00 01 FF 00 01 FF 00 00 0F (调光器地址-内卫射灯, 内卫感应灯关)
2024-11-02 01:22:23.303 - 19 08 24 03 CC 01 54 00 01 (调用内卫感应灯开的按键)
2024-11-02 01:22:23.352 - 1A 0C 02 08 01 FF 45 01 FF 45 01 FF 00 00 0F (调光器地址-内卫射灯, 内卫射灯微光)
2024-11-02 01:22:43.841 - 19 08 24 03 CC 01 55 00 01 (调用内卫感应灯关的按键)
2024-11-02 01:22:43.874 - 1A 0C 02 08 01 FF 00 01 FF 00 01 FF 00 00 0F (调光器地址-内卫射灯, 内卫感应灯关)
2024-11-02 01:45:22.336 - 1A BE B0 DC 02 (正反转地址-外卫卷帘)
2024-11-02 01:45:22.471 - FF
2024-11-02 01:58:14.616 - 1A BE B0 DC 09 FC (继电器地址-客厅窗帘)
2024-11-02 01:58:14.751 - FF
2024-11-02 02:17:35.508 - 1A BE B0 DC 03 FC (继电器地址-西阳天幕)
2024-11-02 02:17:35.643 - FF
2024-11-02 02:18:29.172 - 1A FF FF FF 04 (继电器地址-东阳衣架)
2024-11-02 02:32:25.212 - 1A BE B0 DC 0A (继电器地址-客厅纱帘)
2024-11-02 02:38:22.681 - 1A BE B0 DC 01 (继电器地址-回水泵点动)
2024-11-02 02:59:18.739 - 50 F7 01 (全屋影音全关)
2024-11-02 03:46:07.744 - 1A BE B0 DC 04 (继电器地址-西阳窗帘)
2024-11-02 03:46:07.879 - FE
2024-11-02 03:52:34.362 - FF FF FF FF 0A FC (继电器地址-东阳窗帘)
2024-11-02 04:40:16.993 - FF FF FF FF 0E FE (继电器地址-西阳小窗帘)
2024-11-02 04:40:17.128 - FF
2024-11-02 05:01:14.640 - 19 08 24 03 CC 01 54 00 01 (调用内卫感应灯开的按键)
2024-11-02 05:01:14.691 - 1A 0C 02 08 01 FF 45 01 FF 45 01 FF 00 00 0F (调光器地址-内卫射灯, 内卫射灯微光)
2024-11-02 05:03:19.385 - 19 08 24 03 CC 01 55 00 01 (调用内卫感应灯关的按键)
2024-11-02 05:03:19.438 - 1A 0C 02 08 01 FF 00 01 FF 00 01 FF 00 00 0F (调光器地址-内卫射灯, 内卫感应灯关)
2024-11-02 05:05:02.087 - 19 08 24 03 CC 01 54 00 01 (调用内卫感应灯开的按键)
2024-11-02 05:05:02.122 - 1A 0C 02 08 01 FF 45 01 FF 45 01 FF 00 00 0F (调光器地址-内卫射灯, 内卫射灯微光)
2024-11-02 05:05:23.127 - 19 08 24 03 CC 01 55 00 01 (调用内卫感应灯关的按键)
2024-11-02 05:05:23.162 - 1A 0C 02 08 01 FF 00 01 FF 00 01 FF 00 00 0F (调光器地址-内卫射灯, 内卫感应灯关)
2024-11-02 05:05:39.431 - 1A BE B0 DC 02 (正反转地址-外卫卷帘)
2024-11-02 05:05:39.568 - FF
2024-11-02 05:18:20.883 - 1A BE B0 DC 09 (继电器地址-客厅窗帘)
2024-11-02 05:18:21.022 - FF
2024-11-02 05:38:24.272 - 1A BE B0 DC 03 (继电器地址-西阳天幕)
2024-11-02 05:38:24.407 - FF
2024-11-02 05:39:09.968 - 1A FF FF FF 04 (继电器地址-东阳衣架)
2024-11-02 05:53:02.664 - 1A BE B0 DC 0A (继电器地址-客厅纱帘)
2024-11-02 05:58:58.201 - 1A BE B0 DC 01 (继电器地址-回水泵点动)
2024-11-02 06:20:42.759 - FF
2024-11-02 06:57:21.849 - 19 08 24 03 CC 01 54 00 01 (调用内卫感应灯开的按键)
2024-11-02 06:57:21.901 - 1A 0C 02 08 01 FF 45 01 FF 45 01 FF 00 00 0F (调光器地址-内卫射灯, 内卫射灯微光)
2024-11-02 06:58:49.521 - 19 08 24 03 CC 01 55 00 01 (调用内卫感应灯关的按键)
2024-11-02 06:58:49.556 - 1A 0C 02 08 01 FF 00 01 FF 00 01 FF 00 00 0F (调光器地址-内卫射灯, 内卫感应灯关)
2024-11-02 07:00:29.717 - 19 08 24 03 CC 01 54 00 01 (调用内卫感应灯开的按键)
2024-11-02 07:00:29.768 - 1A 0C 02 08 01 FF 45 01 FF 45 01 FF 00 00 0F (调光器地址-内卫射灯, 内卫射灯微光)
2024-11-02 07:00:50.760 - 19 08 24 03 CC 01 55 00 01 (调用内卫感应灯关的按键)
2024-11-02 07:00:50.794 - 1A 0C 02 08 01 FF 00 01 FF 00 01 FF 00 00 0F (调光器地址-内卫射灯, 内卫感应灯关)
2024-11-02 07:05:36.577 - 1A BE B0 DC 04 FE (继电器地址-西阳窗帘)
2024-11-02 07:05:36.710 - FF
2024-11-02 07:13:08.818 - FF FF FF FF 0A FE (继电器地址-东阳窗帘)
2024-11-02 07:49:52.067 - FF
2024-11-02 08:00:11.828 - FF FF FF FF 0E (继电器地址-西阳小窗帘)
2024-11-02 08:00:11.964 - FE
2024-11-02 08:12:55.156 - 19 08 24 03 DD 00 4A 00 01 (调用情景-主卧起床)
2024-11-02 08:12:55.690 - EE 00 00 B1 00 00 00 FF FC FF FF (情景执行提示)
2024-11-02 08:12:56.285 - 09 06 00 0F 02 01 78 21 (提示音叮)
2024-11-02 08:12:56.828 - 50 F0 04 (开内卫影视)
2024-11-02 08:12:57.377 - 50 F0 05 (开主卧影视)
2024-11-02 08:12:57.928 - A5 00 53 FE 01 AA (主卧纱帘关)
2024-11-02 08:12:58.474 - A5 00 53 FE 01 AA (主卧纱帘关)
2024-11-02 08:12:59.023 - A5 00 52 FE 01 AA (主卧窗帘开)
2024-11-02 08:13:00.070 - A5 00 52 FE 01 AA (主卧窗帘开)
2024-11-02 08:13:01.119 - 1A 22 33 62 0F 00 02 01 0F (正反转地址-内卫卷帘, 内卫卷帘降)
2024-11-02 08:13:02.166 - 1A FF FF FF 56 00 00 00 0F (人体感应地址-内卫, 关闭内卫感应)
2024-11-02 08:13:02.269 - BC BC
2024-11-02 08:13:03.213 - 1A 20 07 01 55 00 01 00 0F (自保持开关地址-主卧顶灯, 主卧顶灯只关)
2024-11-02 08:13:04.264 - 1A 0C 02 08 01 FF 45 01 FF 45 01 FF 00 00 0F (调光器地址-内卫射灯, 内卫射灯微光)
2024-11-02 08:13:05.362 - 1A 0C 02 04 01 FF 45 01 FF 45 01 FF 00 00 0F (调光器地址-主卧筒灯, 主卧筒灯微光)
2024-11-02 08:13:05.960 - 1A 0C 02 04 03 FF 45 01 FF 45 01 FF 00 00 0F (调光器地址-主卧灯带, 主卧灯带微光)
2024-11-02 08:13:06.559 - 1A 0C 02 04 02 FF 45 01 FF 45 01 FF 00 00 0F (调光器地址-主卧过道, 主卧过道微光)
2024-11-02 08:13:07.143 - 50 F1 25 (主卧—有线2)
2024-11-02 08:13:07.722 - 50 F1 24 (内卫—有线2)
2024-11-02 08:13:08.790 - AF BF CF DF C2 21 (有线2/快捷-凤凰卫视)
2024-11-02 08:13:09.342 - 1A FF FF FF 60 0B 01 01 0F (红外总线地址-主卧发射设备, 主卧电视电源)
2024-11-02 08:13:09.860 - F0 0B 01 08
2024-11-02 08:13:13.077 - 55 20 20 00 00 0F 02 16 AA 55 20 20 00 00 0F 02 16 AA (主卧窗帘电机状态返回)
2024-11-02 08:13:14.378 - 09 06 00 0F 02 02 38 20 (提示音咚)
2024-11-02 08:13:14.930 - EE 00 00 B1 00 00 02 FF FC FF FF (情景完成返回主页)
2024-11-02 08:13:15.523 - A1 11 11 11 11 01 (内卫浴霸取暖判断)
2024-11-02 08:13:15.752 - 14 03 00 00 00 02 C6 CE (查询内卫温湿度)
2024-11-02 08:13:15.774 - 14 03 04 02 C7 00 D9 CF 2D (内卫温湿度返回)
2024-11-02 08:14:38.704 - FF
2024-11-02 08:26:09.583 - 1A BE B0 DC 02 (正反转地址-外卫卷帘)
2024-11-02 08:26:25.217 - FF
2024-11-02 08:39:05.583 - 1A BE B0 DC 09 FC (继电器地址-客厅窗帘)
2024-11-02 08:39:05.717 - FF
2024-11-02 08:43:52.224 - 1A BE B0 DC 01 00 01 00 (继电器地址-回水泵点动, 回水泵点动)
2024-11-02 08:43:53.669 - 1A BE B0 DC 01 00 01 00 (继电器地址-回水泵点动, 回水泵点动)
2024-11-02 08:45:13.909 - EE 00 6E B1 01 00 03 FF FC FF FF
2024-11-02 08:45:14.680 - EE 00 6E B1 01 00 08 FF FC FF FF
2024-11-02 08:45:15.230 - 1A BE B0 DC 0A 00 02 00 (继电器地址-客厅纱帘, 客厅纱帘开)
2024-11-02 08:45:28.594 - 19 08 24 03 CC 01 CC 00 01 (调用茶吧感应灯开的按键)
2024-11-02 08:45:28.648 - 1A AA AA AA 88 FF B0 01 FF B0 01 0F (调光器地址-茶吧灯带, 茶吧灯带明亮)
2024-11-02 08:45:41.225 - 19 08 24 03 CC 00 D3 00 01 (调用厨房感应灯开的按键)
2024-11-02 08:45:41.260 - 55 0A 32 00 00 00 01 92 55 0A 32 00 00 00 02 93 (厨房顶灯一开, 厨房顶灯二开)
2024-11-02 08:46:08.174 - 19 08 24 03 CC 01 CD 00 01 (调用茶吧感应灯关的按键)
2024-11-02 08:46:08.206 - 1A AA AA AA 88 FF 00 01 FF 00 01 0F (调光器地址-茶吧灯带, 茶吧灯带关闭)
2024-11-02 08:46:10.679 - 19 08 24 03 CC 01 CC 00 01 (调用茶吧感应灯开的按键)
2024-11-02 08:46:10.712 - 1A AA AA AA 88 FF B0 01 FF B0 01 0F (调光器地址-茶吧灯带, 茶吧灯带明亮)
2024-11-02 08:47:15.812 - 19 08 24 03 CC 01 CD 00 01 (调用茶吧感应灯关的按键)
2024-11-02 08:47:15.839 - 1A AA AA AA 88 FF 00 01 FF 00 01 0F (调光器地址-茶吧灯带, 茶吧灯带关闭)
2024-11-02 08:50:06.145 - 19 08 24 03 CC 01 CC 00 01 (调用茶吧感应灯开的按键)
2024-11-02 08:50:06.174 - 1A AA AA AA 88 FF B0 01 FF B0 01 0F (调光器地址-茶吧灯带, 茶吧灯带明亮)
2024-11-02 08:50:37.706 - 19 08 24 03 CC 01 CD 00 01 (调用茶吧感应灯关的按键)
2024-11-02 08:50:37.734 - 1A AA AA AA 88 FF 00 01 FF 00 01 0F (调光器地址-茶吧灯带, 茶吧灯带关闭)
2024-11-02 08:51:05.761 - 19 08 24 03 CC 01 CC 00 01 (调用茶吧感应灯开的按键)
2024-11-02 08:51:05.792 - 1A AA AA AA 88 FF B0 01 FF B0 01 0F (调光器地址-茶吧灯带, 茶吧灯带明亮)
2024-11-02 08:51:56.463 - 19 08 24 03 CC 00 D4 00 01 (调用厨房感应灯关的按键)
2024-11-02 08:51:56.497 - 55 0A 31 00 00 00 01 91 55 0A 31 00 00 00 02 92 (厨房顶灯一关, 厨房顶灯二关)
2024-11-02 08:51:56.964 - 19 08 24 03 CC 00 D3 00 01 (调用厨房感应灯开的按键)
2024-11-02 08:51:56.999 - 55 0A 32 00 00 00 01 92 55 0A 32 00 00 00 02 93 (厨房顶灯一开, 厨房顶灯二开)
2024-11-02 08:52:09.891 - 19 08 24 03 CC 01 CD 00 01 (调用茶吧感应灯关的按键)
2024-11-02 08:52:09.917 - 1A AA AA AA 88 FF 00 01 FF 00 01 0F (调光器地址-茶吧灯带, 茶吧灯带关闭)
2024-11-02 08:58:01.083 - 19 08 24 03 CC 01 CC 00 01 (调用茶吧感应灯开的按键)
2024-11-02 08:58:01.112 - 1A AA AA AA 88 FF B0 01 FF B0 01 0F (调光器地址-茶吧灯带, 茶吧灯带明亮)
2024-11-02 08:58:39.657 - 19 08 24 03 CC 01 CD 00 01 (调用茶吧感应灯关的按键)
2024-11-02 08:58:39.689 - 1A AA AA AA 88 FF 00 01 FF 00 01 0F (调光器地址-茶吧灯带, 茶吧灯带关闭)
2024-11-02 09:00:07.912 - 1A FF FF FF 04 FE (继电器地址-东阳衣架)
2024-11-02 09:00:08.049 - FE
2024-11-02 09:00:09.877 - 1A BE B0 DC 03 (继电器地址-西阳天幕)
2024-11-02 09:00:10.010 - FC
2024-11-02 09:00:57.932 - 19 08 24 03 CC 01 CC 00 01 (调用茶吧感应灯开的按键)
2024-11-02 09:00:57.979 - 1A AA AA AA 88 FF B0 01 FF B0 01 0F (调光器地址-茶吧灯带, 茶吧灯带明亮)
2024-11-02 09:01:11.052 - 19 08 24 03 CC 00 D4 00 01 (调用厨房感应灯关的按键)
2024-11-02 09:01:11.106 - 55 0A 31 00 00 00 01 91 55 0A 31 00 00 00 02 92 (厨房顶灯一关, 厨房顶灯二关)
2024-11-02 09:01:50.127 - 19 08 24 03 CC 00 D3 00 01 (调用厨房感应灯开的按键)
2024-11-02 09:01:50.163 - 55 0A 32 00 00 00 01 92 55 0A 32 00 00 00 02 93 (厨房顶灯一开, 厨房顶灯二开)
2024-11-02 09:02:00.554 - 19 08 24 03 CC 01 CD 00 01 (调用茶吧感应灯关的按键)
2024-11-02 09:02:00.586 - 1A AA AA AA 88 FF 00 01 FF 00 01 0F (调光器地址-茶吧灯带, 茶吧灯带关闭)
2024-11-02 09:02:58.170 - 19 08 24 03 CC 01 CC 00 01 (调用茶吧感应灯开的按键)
2024-11-02 09:02:58.200 - 1A AA AA AA 88 FF B0 01 FF B0 01 0F (调光器地址-茶吧灯带, 茶吧灯带明亮)
2024-11-02 09:03:16.705 - 19 08 24 03 CC 01 CD 00 01 (调用茶吧感应灯关的按键)
2024-11-02 09:03:16.736 - 1A AA AA AA 88 FF 00 01 FF 00 01 0F (调光器地址-茶吧灯带, 茶吧灯带关闭)
2024-11-02 09:03:31.738 - 19 08 24 03 CC 01 CC 00 01 (调用茶吧感应灯开的按键)
2024-11-02 09:03:31.766 - 1A AA AA AA 88 FF B0 01 FF B0 01 0F (调光器地址-茶吧灯带, 茶吧灯带明亮)
2024-11-02 09:03:55.281 - 19 08 24 03 CC 01 CD 00 01 (调用茶吧感应灯关的按键)
2024-11-02 09:03:55.312 - 1A AA AA AA 88 FF 00 01 FF 00 01 0F (调光器地址-茶吧灯带, 茶吧灯带关闭)
2024-11-02 09:05:38.485 - 19 08 24 03 CC 01 CC 00 01 (调用茶吧感应灯开的按键)
2024-11-02 09:05:38.516 - 1A AA AA AA 88 FF B0 01 FF B0 01 0F (调光器地址-茶吧灯带, 茶吧灯带明亮)
2024-11-02 09:05:54.517 - 19 08 24 03 CC 01 CD 00 01 (调用茶吧感应灯关的按键)
2024-11-02 09:05:54.549 - 1A AA AA AA 88 FF 00 01 FF 00 01 0F (调光器地址-茶吧灯带, 茶吧灯带关闭)
2024-11-02 09:06:17.654 - 19 08 24 03 CC 00 D4 00 01 (调用厨房感应灯关的按键)
2024-11-02 09:06:17.690 - 55 0A 31 00 00 00 01 91 55 0A 31 00 00 00 02 92 (厨房顶灯一关, 厨房顶灯二关)
2024-11-02 09:14:05.551 - 1A BE B0 DC 0A (继电器地址-客厅纱帘)
2024-11-02 09:19:25.232 - FF
2024-11-02 09:20:04.267 - 1A BE B0 DC 01 (继电器地址-回水泵点动)
2024-11-02 09:20:04.403 - FE
2024-11-02 09:24:47.251 - 19 08 24 03 CC 01 CC 00 01 (调用茶吧感应灯开的按键)
2024-11-02 09:24:47.301 - 1A AA AA AA 88 FF B0 01 FF B0 01 0F (调光器地址-茶吧灯带, 茶吧灯带明亮)
2024-11-02 09:24:48.336 - 19 08 24 03 CC 00 D3 00 01 (调用厨房感应灯开的按键)
2024-11-02 09:24:48.390 - 55 0A 32 00 00 00 01 92 55 0A 32 00 00 00 02 93 (厨房顶灯一开, 厨房顶灯二开)
2024-11-02 09:25:00.280 - 19 08 24 03 CC 01 CD 00 01 (调用茶吧感应灯关的按键)
2024-11-02 09:25:00.308 - 1A AA AA AA 88 FF 00 01 FF 00 01 0F (调光器地址-茶吧灯带, 茶吧灯带关闭)
2024-11-02 09:27:10.534 - 19 08 24 03 CC 01 CC 00 01 (调用茶吧感应灯开的按键)
2024-11-02 09:27:10.564 - 1A AA AA AA 88 FF B0 01 FF B0 01 0F (调光器地址-茶吧灯带, 茶吧灯带明亮)
2024-11-02 09:27:31.073 - 19 08 24 03 CC 01 CD 00 01 (调用茶吧感应灯关的按键)
2024-11-02 09:27:31.106 - 1A AA AA AA 88 FF 00 01 FF 00 01 0F (调光器地址-茶吧灯带, 茶吧灯带关闭)
2024-11-02 09:27:37.589 - 19 08 24 03 CC 01 CC 00 01 (调用茶吧感应灯开的按键)
2024-11-02 09:27:37.617 - 1A AA AA AA 88 FF B0 01 FF B0 01 0F (调光器地址-茶吧灯带, 茶吧灯带明亮)
2024-11-02 09:28:07.646 - 19 08 24 03 CC 01 CD 00 01 (调用茶吧感应灯关的按键)
2024-11-02 09:28:07.677 - 1A AA AA AA 88 FF 00 01 FF 00 01 0F (调光器地址-茶吧灯带, 茶吧灯带关闭)
2024-11-02 09:28:18.249 - 19 08 24 03 CC 00 D4 00 01 (调用厨房感应灯关的按键)
2024-11-02 09:28:18.283 - 55 0A 31 00 00 00 01 91 55 0A 31 00 00 00 02 92 (厨房顶灯一关, 厨房顶灯二关)
2024-11-02 09:28:24.181 - 19 08 24 03 CC 01 CC 00 01 (调用茶吧感应灯开的按键)
2024-11-02 09:28:24.208 - 1A AA AA AA 88 FF B0 01 FF B0 01 0F (调光器地址-茶吧灯带, 茶吧灯带明亮)
2024-11-02 09:29:27.804 - 19 08 24 03 CC 01 CD 00 01 (调用茶吧感应灯关的按键)
2024-11-02 09:29:27.835 - 1A AA AA AA 88 FF 00 01 FF 00 01 0F (调光器地址-茶吧灯带, 茶吧灯带关闭)
2024-11-02 09:47:37.543 - 19 08 24 03 DD 00 40 00 01 (调用情景-离开主卧)
2024-11-02 09:47:38.074 - EE 00 00 B1 00 00 00 FF FC FF FF (情景执行提示)
2024-11-02 09:47:38.670 - 09 06 00 0F 02 01 78 21 (提示音叮)
2024-11-02 09:47:39.212 - 50 F5 05 (关主卧影视)
2024-11-02 09:47:39.760 - 50 F5 04 (关内卫影视)
2024-11-02 09:47:40.316 - 01 06 07 D6 FF 60 28 9E (主卧空调关)
2024-11-02 09:47:40.340 - 01 06 07 D6 FF 60 28 9E (主卧空调关)
2024-11-02 09:47:40.911 - A5 00 52 FE 01 AA (主卧窗帘开)
2024-11-02 09:47:42.008 - A5 00 52 FE 01 AA (主卧窗帘开)
2024-11-02 09:47:43.130 - A5 00 53 FF 00 AA (主卧纱帘开)
2024-11-02 09:47:43.182 - 55 00 53 01 00 0C 02 2F AA 55 00 53 01 00 0C 02 2F AA (主卧纱帘电机状态返回)
2024-11-02 09:47:43.701 - A5 00 53 FF 00 AA (主卧纱帘开)
2024-11-02 09:47:43.732 - FF FB
2024-11-02 09:47:44.304 - 1A 22 33 62 0F 00 00 01 0F (正反转地址-内卫卷帘, 内卫卷帘升)
2024-11-02 09:47:45.351 - 1A 20 07 01 40 00 01 00 0F (自保持开关地址-内卫顶灯, 内卫顶灯关)
2024-11-02 09:47:45.402 - 55 20 20 00 00 0E 02 16 AA 55 20 20 00 (主卧窗帘电机状态返回)
2024-11-02 09:47:46.447 - 1A 20 07 01 55 00 01 00 0F (自保持开关地址-主卧顶灯, 主卧顶灯只关)
2024-11-02 09:47:47.001 - 1A 0C 02 08 01 FF 00 01 FF 00 01 FF 00 00 0F (调光器地址-内卫射灯, 内卫感应灯关)
2024-11-02 09:47:47.590 - 1A FF FF FF 56 00 00 01 0F (人体感应地址-内卫, 打开内卫感应)
2024-11-02 09:47:47.980 - 19 08 24 03 CC 01 54 00 01 (调用内卫感应灯开的按键)
2024-11-02 09:47:48.032 - 1A 0C 02 08 01 FF 45 01 FF 45 01 FF 00 00 0F (调光器地址-内卫射灯, 内卫射灯微光)
2024-11-02 09:47:49.479 - 19 08 24 03 CC 01 CC 00 01 (调用茶吧感应灯开的按键)
2024-11-02 09:47:49.557 - 1A AA AA AA 88 FF B0 01 FF B0 01 0F (调光器地址-茶吧灯带, 茶吧灯带明亮)
2024-11-02 09:47:51.997 - 1A 0C 02 04 FF FF 00 01 FF 00 01 FF 00 00 0F (主卧调光全关)
2024-11-02 09:47:53.181 - 09 06 00 0F 02 02 38 20 (提示音咚)
2024-11-02 09:47:53.842 - EE 00 00 B1 00 00 02 FF FC FF FF (情景完成返回主页)
2024-11-02 09:47:55.337 - 55 00 53 00 02 23 02 2F AA 55 00 53 00 02 23 02 2F AA (主卧纱帘电机状态返回)
2024-11-02 09:47:56.533 - 55 00 53 00 02 22 02 2F AA 55 00 53 00 02 22 02 2F AA (主卧纱帘电机状态返回)
2024-11-02 09:48:26.147 - 19 08 24 03 CC 00 D3 00 01 (调用厨房感应灯开的按键)
2024-11-02 09:48:26.297 - 55 0A 32 00 00 00 01 92 55 0A 32 00 00 00 02 93 (厨房顶灯一开, 厨房顶灯二开)
2024-11-02 09:48:33.280 - 19 08 24 03 CC 01 55 00 01 (调用内卫感应灯关的按键)
2024-11-02 09:48:33.331 - 1A 0C 02 08 01 FF 00 01 FF 00 01 FF 00 00 0F (调光器地址-内卫射灯, 内卫感应灯关)
2024-11-02 09:49:10.735 - 19 08 24 03 CC 00 D4 00 01 (调用厨房感应灯关的按键)
2024-11-02 09:49:10.812 - 55 0A 31 00 00 00 01 91 55 0A 31 00 00 00 02 92 (厨房顶灯一关, 厨房顶灯二关)
2024-11-02 09:49:25.265 - 19 08 24 03 CC 00 D3 00 01 (调用厨房感应灯开的按键)
2024-11-02 09:49:25.337 - 55 0A 32 00 00 00 01 92 55 0A 32 00 00 00 02 93 (厨房顶灯一开, 厨房顶灯二开)
2024-11-02 09:49:36.905 - 19 08 24 03 CC 01 54 00 01 (调用内卫感应灯开的按键)
2024-11-02 09:49:36.955 - 1A 0C 02 08 01 FF 45 01 FF 45 01 FF 00 00 0F (调光器地址-内卫射灯, 内卫射灯微光)
2024-11-02 09:49:58.949 - 19 08 24 03 CC 01 55 00 01 (调用内卫感应灯关的按键)
2024-11-02 09:49:58.997 - 1A 0C 02 08 01 FF 00 01 FF 00 01 FF 00 00 0F (调光器地址-内卫射灯, 内卫感应灯关)
2024-11-02 09:50:06.345 - 19 08 24 03 CC 00 D4 00 01 (调用厨房感应灯关的按键)
2024-11-02 09:50:06.384 - 55 0A 31 00 00 00 01 91 55 0A 31 00 00 00 02 92 (厨房顶灯一关, 厨房顶灯二关)
2024-11-02 09:50:49.835 - 19 08 24 03 CC 01 CD 00 01 (调用茶吧感应灯关的按键)
2024-11-02 09:50:49.909 - 1A AA AA AA 88 FF 00 01 FF 00 01 0F (调光器地址-茶吧灯带, 茶吧灯带关闭)
2024-11-02 10:13:20.501 - 19 08 24 03 CC 01 CC 00 01 (调用茶吧感应灯开的按键)
2024-11-02 10:13:20.571 - 1A AA AA AA 88 FF B0 01 FF B0 01 0F (调光器地址-茶吧灯带, 茶吧灯带明亮)
2024-11-02 10:13:22.593 - 19 08 24 03 CC 00 D3 00 01 (调用厨房感应灯开的按键)
2024-11-02 10:13:22.680 - 55 0A 32 00 00 00 01 92 55 0A 32 00 00 00 02 93 (厨房顶灯一开, 厨房顶灯二开)
2024-11-02 10:13:33.528 - 19 08 24 03 CC 01 CD 00 01 (调用茶吧感应灯关的按键)
2024-11-02 10:13:33.618 - 1A AA AA AA 88 FF 00 01 FF 00 01 0F (调光器地址-茶吧灯带, 茶吧灯带关闭)
2024-11-02 10:13:36.534 - 19 08 24 03 CC 01 CC 00 01 (调用茶吧感应灯开的按键)
2024-11-02 10:13:36.609 - 1A AA AA AA 88 FF B0 01 FF B0 01 0F (调光器地址-茶吧灯带, 茶吧灯带明亮)
2024-11-02 10:13:46.759 - 19 08 24 03 CC 01 54 00 01 (调用内卫感应灯开的按键)
2024-11-02 10:13:46.812 - 1A 0C 02 08 01 FF 45 01 FF 45 01 FF 00 00 0F (调光器地址-内卫射灯, 内卫射灯微光)
2024-11-02 10:13:48.557 - 19 08 24 03 CC 01 CD 00 01 (调用茶吧感应灯关的按键)
2024-11-02 10:13:48.639 - 1A AA AA AA 88 FF 00 01 FF 00 01 0F (调光器地址-茶吧灯带, 茶吧灯带关闭)
2024-11-02 10:14:11.306 - 19 08 24 03 CC 01 55 00 01 (调用内卫感应灯关的按键)
2024-11-02 10:14:11.365 - 1A 0C 02 08 01 FF 00 01 FF 00 01 FF 00 00 0F (调光器地址-内卫射灯, 内卫感应灯关)
2024-11-02 10:14:14.709 - 19 08 24 03 CC 00 D4 00 01 (调用厨房感应灯关的按键)
2024-11-02 10:14:14.777 - 55 0A 31 00 00 00 01 91 55 0A 31 00 00 00 02 92 (厨房顶灯一关, 厨房顶灯二关)
2024-11-02 10:14:45.875 - 19 08 24 03 CC 01 54 00 01 (调用内卫感应灯开的按键)
2024-11-02 10:14:45.978 - 1A 0C 02 08 01 FF 45 01 FF 45 01 FF 00 00 0F (调光器地址-内卫射灯, 内卫射灯微光)
2024-11-02 10:15:09.921 - 19 08 24 03 CC 01 55 00 01 (调用内卫感应灯关的按键)
2024-11-02 10:15:10.010 - 1A 0C 02 08 01 FF 00 01 FF 00 01 FF 00 00 0F (调光器地址-内卫射灯, 内卫感应灯关)
2024-11-02 10:16:54.128 - 19 08 24 03 CC 01 54 00 01 (调用内卫感应灯开的按键)
2024-11-02 10:16:54.176 - 1A 0C 02 08 01 FF 45 01 FF 45 01 FF 00 00 0F (调光器地址-内卫射灯, 内卫射灯微光)
2024-11-02 10:17:14.668 - 19 08 24 03 CC 01 55 00 01 (调用内卫感应灯关的按键)
2024-11-02 10:17:14.756 - 1A 0C 02 08 01 FF 00 01 FF 00 01 FF 00 00 0F (调光器地址-内卫射灯, 内卫感应灯关)
2024-11-02 10:25:32.686 - 1A BE B0 DC 04 FC (继电器地址-西阳窗帘)
2024-11-02 10:28:48.833 - 19 08 24 03 CC 01 CC 00 01 (调用茶吧感应灯开的按键)
2024-11-02 10:28:48.980 - 1A AA AA AA 88 FF B0 01 FF B0 01 0F (调光器地址-茶吧灯带, 茶吧灯带明亮)
2024-11-02 10:28:52.432 - 19 08 24 03 CC 00 D3 00 01 (调用厨房感应灯开的按键)
2024-11-02 10:28:52.501 - 55 0A 32 00 00 00 01 92 55 0A 32 00 00 00 02 93 (厨房顶灯一开, 厨房顶灯二开)
2024-11-02 10:30:13.215 - FF FF
2024-11-02 10:32:29.273 - 19 08 24 03 CC 01 CD 00 01 (调用茶吧感应灯关的按键)
2024-11-02 10:32:29.448 - 1A AA AA AA 88 FF 00 01 FF 00 01 0F (调光器地址-茶吧灯带, 茶吧灯带关闭)
2024-11-02 10:32:43.302 - 19 08 24 03 CC 01 CC 00 01 (调用茶吧感应灯开的按键)
2024-11-02 10:32:43.370 - 1A AA AA AA 88 FF B0 01 FF B0 01 0F (调光器地址-茶吧灯带, 茶吧灯带明亮)
2024-11-02 10:34:08.659 - FF FF FF FF 0A FE (继电器地址-东阳窗帘)
2024-11-02 10:34:44.038 - 19 08 24 03 CC 01 CD 00 01 (调用茶吧感应灯关的按键)
2024-11-02 10:34:44.163 - 1A AA AA AA 88 FF 00 01 FF 00 01 0F (调光器地址-茶吧灯带, 茶吧灯带关闭)
2024-11-02 10:35:34.637 - 19 08 24 03 CC 01 CC 00 01 (调用茶吧感应灯开的按键)
2024-11-02 10:35:34.722 - 1A AA AA AA 88 FF B0 01 FF B0 01 0F (调光器地址-茶吧灯带, 茶吧灯带明亮)
2024-11-02 10:36:19.533 - 1A 22 33 62 4F 00 02 01 0F (正反转地址-厨房卷帘一, 厨房卷帘三升)
2024-11-02 10:36:22.349 - 1A 22 33 62 4F 00 00 01 0F (正反转地址-厨房卷帘一, 厨房卷帘三降)
2024-11-02 10:37:03.417 - 19 08 24 03 CC 00 D4 00 01 (调用厨房感应灯关的按键)
2024-11-02 10:37:03.527 - 55 0A 31 00 00 00 01 91 55 0A 31 00 00 00 02 92 (厨房顶灯一关, 厨房顶灯二关)
2024-11-02 10:37:40.387 - 19 08 24 03 CC 01 CD 00 01 (调用茶吧感应灯关的按键)
2024-11-02 10:37:40.468 - 1A AA AA AA 88 FF 00 01 FF 00 01 0F (调光器地址-茶吧灯带, 茶吧灯带关闭)
2024-11-02 11:09:18.131 - 19 08 24 03 CC 01 CC 00 01 (调用茶吧感应灯开的按键)
2024-11-02 11:09:18.226 - 1A AA AA AA 88 FF B0 01 FF B0 01 0F (调光器地址-茶吧灯带, 茶吧灯带明亮)
2024-11-02 11:09:21.226 - 19 08 24 03 CC 00 D3 00 01 (调用厨房感应灯开的按键)
2024-11-02 11:09:21.329 - 55 0A 32 00 00 00 01 92 55 0A 32 00 00 00 02 93 (厨房顶灯一开, 厨房顶灯二开)
2024-11-02 11:09:37.877 - 19 08 24 03 CC 01 54 00 01 (调用内卫感应灯开的按键)
2024-11-02 11:09:37.972 - 1A 0C 02 08 01 FF 45 01 FF 45 01 FF 00 00 0F (调光器地址-内卫射灯, 内卫射灯微光)
2024-11-02 11:09:40.175 - 19 08 24 03 CC 01 CD 00 01 (调用茶吧感应灯关的按键)
2024-11-02 11:09:40.220 - 1A AA AA AA 88 FF 00 01 FF 00 01 0F (调光器地址-茶吧灯带, 茶吧灯带关闭)
2024-11-02 11:10:03.928 - 19 08 24 03 CC 01 55 00 01 (调用内卫感应灯关的按键)
2024-11-02 11:10:04.031 - 1A 0C 02 08 01 FF 00 01 FF 00 01 FF 00 00 0F (调光器地址-内卫射灯, 内卫感应灯关)
2024-11-02 11:10:05.435 - 19 08 24 03 CC 01 54 00 01 (调用内卫感应灯开的按键)
2024-11-02 11:10:05.476 - 1A 0C 02 08 01 FF 45 01 FF 45 01 FF 00 00 0F (调光器地址-内卫射灯, 内卫射灯微光)
2024-11-02 11:10:06.815 - 19 08 24 03 CC 00 D4 00 01 (调用厨房感应灯关的按键)
2024-11-02 11:10:06.919 - 55 0A 31 00 00 00 01 91 55 0A 31 00 00 00 02 92 (厨房顶灯一关, 厨房顶灯二关)
2024-11-02 11:10:17.251 - 19 08 24 03 CC 01 CC 00 01 (调用茶吧感应灯开的按键)
2024-11-02 11:10:17.294 - 1A AA AA AA 88 FF B0 01 FF B0 01 0F (调光器地址-茶吧灯带, 茶吧灯带明亮)
2024-11-02 11:10:19.339 - 19 08 24 03 CC 00 D3 00 01 (调用厨房感应灯开的按键)
2024-11-02 11:10:19.442 - 55 0A 32 00 00 00 01 92 55 0A 32 00 00 00 02 93 (厨房顶灯一开, 厨房顶灯二开)
2024-11-02 11:10:30.774 - 19 08 24 03 CC 01 CD 00 01 (调用茶吧感应灯关的按键)
2024-11-02 11:10:30.873 - 1A AA AA AA 88 FF 00 01 FF 00 01 0F (调光器地址-茶吧灯带, 茶吧灯带关闭)
2024-11-02 11:10:32.782 - 19 08 24 03 CC 01 CC 00 01 (调用茶吧感应灯开的按键)
2024-11-02 11:10:32.842 - 1A AA AA AA 88 FF B0 01 FF B0 01 0F (调光器地址-茶吧灯带, 茶吧灯带明亮)
2024-11-02 11:10:44.014 - 19 08 24 03 CC 01 54 00 01 (调用内卫感应灯开的按键)
2024-11-02 11:10:44.103 - 1A 0C 02 08 01 FF 45 01 FF 45 01 FF 00 00 0F (调光器地址-内卫射灯, 内卫射灯微光)
2024-11-02 11:10:45.808 - 19 08 24 03 CC 01 CD 00 01 (调用茶吧感应灯关的按键)
2024-11-02 11:10:45.855 - 1A AA AA AA 88 FF 00 01 FF 00 01 0F (调光器地址-茶吧灯带, 茶吧灯带关闭)
2024-11-02 11:11:12.441 - 19 08 24 03 CC 00 D4 00 01 (调用厨房感应灯关的按键)
2024-11-02 11:11:12.496 - 55 0A 31 00 00 00 01 91 55 0A 31 00 00 00 02 92 (厨房顶灯一关, 厨房顶灯二关)
2024-11-02 11:11:17.575 - 19 08 24 03 CC 01 55 00 01 (调用内卫感应灯关的按键)
2024-11-02 11:11:17.630 - 1A 0C 02 08 01 FF 00 01 FF 00 01 FF 00 00 0F (调光器地址-内卫射灯, 内卫感应灯关)
2024-11-02 11:11:18.577 - 19 08 24 03 CC 01 54 00 01 (调用内卫感应灯开的按键)
2024-11-02 11:11:18.652 - 1A 0C 02 08 01 FF 45 01 FF 45 01 FF 00 00 0F (调光器地址-内卫射灯, 内卫射灯微光)
2024-11-02 11:12:53.057 - 19 08 24 03 CC 01 CC 00 01 (调用茶吧感应灯开的按键)
2024-11-02 11:12:53.132 - 1A AA AA AA 88 FF B0 01 FF B0 01 0F (调光器地址-茶吧灯带, 茶吧灯带明亮)
2024-11-02 11:13:05.290 - 19 08 24 03 CC 01 55 00 01 (调用内卫感应灯关的按键)
2024-11-02 11:13:05.343 - 1A 0C 02 08 01 FF 00 01 FF 00 01 FF 00 00 0F (调光器地址-内卫射灯, 内卫感应灯关)
2024-11-02 11:14:42.778 - 19 08 24 03 CC 01 CD 00 01 (调用茶吧感应灯关的按键)
2024-11-02 11:14:42.851 - 1A AA AA AA 88 FF 00 01 FF 00 01 0F (调光器地址-茶吧灯带, 茶吧灯带关闭)
2024-11-02 11:14:46.991 - 19 08 24 03 CC 01 54 00 01 (调用内卫感应灯开的按键)
2024-11-02 11:14:47.070 - 1A 0C 02 08 01 FF 45 01 FF 45 01 FF 00 00 0F (调光器地址-内卫射灯, 内卫射灯微光)
2024-11-02 11:15:08.032 - 19 08 24 03 CC 01 55 00 01 (调用内卫感应灯关的按键)
2024-11-02 11:15:08.114 - 1A 0C 02 08 01 FF 00 01 FF 00 01 FF 00 00 0F (调光器地址-内卫射灯, 内卫感应灯关)
2024-11-02 11:20:19.467 - FF FF FF FF 0E FC (继电器地址-西阳小窗帘)
2024-11-02 11:20:19.602 - FF
2024-11-02 11:47:23.929 - 1A BE B0 DC 02 FC (正反转地址-外卫卷帘)
2024-11-02 11:59:15.265 - 1A BE B0 DC 09 (继电器地址-客厅窗帘)
2024-11-02 12:16:40.300 - 19 08 24 03 CC 01 54 00 01 (调用内卫感应灯开的按键)
2024-11-02 12:16:40.430 - 1A 0C 02 08 01 FF 45 01 FF 45 01 FF 00 00 0F (调光器地址-内卫射灯, 内卫射灯微光)
2024-11-02 12:19:13.101 - 19 08 24 03 CC 01 55 00 01 (调用内卫感应灯关的按键)
2024-11-02 12:19:13.164 - 1A 0C 02 08 01 FF 00 01 FF 00 01 FF 00 00 0F (调光器地址-内卫射灯, 内卫感应灯关)
2024-11-02 12:20:53.798 - 19 08 24 03 CC 01 54 00 01 (调用内卫感应灯开的按键)
2024-11-02 12:20:53.897 - 1A 0C 02 08 01 FF 45 01 FF 45 01 FF 00 00 0F (调光器地址-内卫射灯, 内卫射灯微光)
2024-11-02 12:21:14.840 - 19 08 24 03 CC 01 55 00 01 (调用内卫感应灯关的按键)
2024-11-02 12:21:14.902 - 1A 0C 02 08 01 FF 00 01 FF 00 01 FF 00 00 0F (调光器地址-内卫射灯, 内卫感应灯关)
2024-11-02 12:21:40.408 - 1A FF FF FF 04 FE (继电器地址-东阳衣架)
2024-11-02 12:21:40.543 - FF
2024-11-02 12:21:41.409 - 1A BE B0 DC 03 (继电器地址-西阳天幕)
2024-11-02 12:35:29.826 - 1A BE B0 DC 0A (继电器地址-客厅纱帘)
2024-11-02 12:35:29.959 - FF
2024-11-02 12:41:28.414 - 1A BE B0 DC 01 FE (继电器地址-回水泵点动)
2024-11-02 13:45:09.880 - 1A BE B0 DC 04 (继电器地址-西阳窗帘)
2024-11-02 13:45:10.013 - FF
2024-11-02 13:46:09.368 - 19 08 24 03 CC 01 54 00 01 (调用内卫感应灯开的按键)
2024-11-02 13:46:09.493 - 1A 0C 02 08 01 FF 45 01 FF 45 01 FF 00 00 0F (调光器地址-内卫射灯, 内卫射灯微光)
2024-11-02 13:46:58.887 - 19 08 24 03 CC 01 3E 00 01
2024-11-02 13:49:06.718 - 19 08 24 03 CC 01 55 00 01 (调用内卫感应灯关的按键)
2024-11-02 13:49:06.752 - 1A 0C 02 08 01 FF 00 01 FF 00 01 FF 00 00 0F (调光器地址-内卫射灯, 内卫感应灯关)
2024-11-02 13:51:27.741 - 19 08 24 03 CC 01 52 00 01 (调用外卫感应灯开的按键)
2024-11-02 13:51:27.775 - 1A 0D 01 07 01 FF 45 01 FF 45 01 FF 00 00 0F (调光器地址-外卫射灯, 外卫感应灯开)
2024-11-02 13:52:03.812 - 19 08 24 03 CC 01 53 00 01 (调用外卫感应灯关的按键)
2024-11-02 13:52:03.846 - 1A 0D 01 07 01 FF 00 01 FF 00 01 FF 00 00 0F (调光器地址-外卫射灯, 外卫感应灯关)
2024-11-02 13:52:42.490 - 19 08 24 03 CC 01 CC 00 01 (调用茶吧感应灯开的按键)
2024-11-02 13:52:42.520 - 1A AA AA AA 88 FF B0 01 FF B0 01 0F (调光器地址-茶吧灯带, 茶吧灯带明亮)
2024-11-02 13:53:01.546 - 19 08 24 03 CC 00 D3 00 01 (调用厨房感应灯开的按键)
2024-11-02 13:53:01.582 - 55 0A 32 00 00 00 01 92 55 0A 32 00 00 00 02 93 (厨房顶灯一开, 厨房顶灯二开)
2024-11-02 13:53:10.549 - 19 08 24 03 CC 01 CD 00 01 (调用茶吧感应灯关的按键)
2024-11-02 13:53:10.575 - 1A AA AA AA 88 FF 00 01 FF 00 01 0F (调光器地址-茶吧灯带, 茶吧灯带关闭)
2024-11-02 13:53:55.134 - 19 08 24 03 CC 01 CC 00 01 (调用茶吧感应灯开的按键)
2024-11-02 13:53:55.164 - 1A AA AA AA 88 FF B0 01 FF B0 01 0F (调光器地址-茶吧灯带, 茶吧灯带明亮)
2024-11-02 13:54:06.658 - 19 08 24 03 CC 01 CD 00 01 (调用茶吧感应灯关的按键)
2024-11-02 13:54:06.687 - 1A AA AA AA 88 FF 00 01 FF 00 01 0F (调光器地址-茶吧灯带, 茶吧灯带关闭)
2024-11-02 13:54:33.227 - 19 08 24 03 CC 00 D4 00 01 (调用厨房感应灯关的按键)
2024-11-02 13:54:33.263 - 55 0A 31 00 00 00 01 91 55 0A 31 00 00 00 02 92 (厨房顶灯一关, 厨房顶灯二关)
2024-11-02 13:54:57.601 - FF FF FF FF 0A (继电器地址-东阳窗帘)
2024-11-02 14:12:48.369 - 19 08 24 03 CC 01 CC 00 01 (调用茶吧感应灯开的按键)
2024-11-02 14:12:48.417 - 1A AA AA AA 88 FF B0 01 FF B0 01 0F (调光器地址-茶吧灯带, 茶吧灯带明亮)
2024-11-02 14:12:59.911 - 19 08 24 03 CC 00 D3 00 01 (调用厨房感应灯开的按键)
2024-11-02 14:12:59.966 - 55 0A 32 00 00 00 01 92 55 0A 32 00 00 00 02 93 (厨房顶灯一开, 厨房顶灯二开)
2024-11-02 14:13:12.420 - 19 08 24 03 CC 01 CD 00 01 (调用茶吧感应灯关的按键)
2024-11-02 14:13:12.449 - 1A AA AA AA 88 FF 00 01 FF 00 01 0F (调光器地址-茶吧灯带, 茶吧灯带关闭)
2024-11-02 14:13:18.931 - 19 08 24 03 CC 01 CC 00 01 (调用茶吧感应灯开的按键)
2024-11-02 14:13:18.960 - 1A AA AA AA 88 FF B0 01 FF B0 01 0F (调光器地址-茶吧灯带, 茶吧灯带明亮)
2024-11-02 14:13:25.906 - 19 08 24 03 DD 00 00 00 01 (调用情景-离家（末）)
2024-11-02 14:13:26.412 - EE 00 00 B1 00 00 00 FF FC FF FF (情景执行提示)
2024-11-02 14:13:27.004 - 09 06 00 0F 02 02 38 20 (提示音咚)
2024-11-02 14:13:27.546 - 50 F7 01 (全屋影音全关)
2024-11-02 14:13:28.102 - 01 06 07 D0 FF 60 C8 9F (客厅空调关)
2024-11-02 14:13:28.131 - 01 06 07 D0 FF 60 C8 9F (客厅空调关)
2024-11-02 14:13:28.699 - 01 06 07 D0 FF 60 C8 9F (客厅空调关)
2024-11-02 14:13:28.727 - 01 06 07 D0 FF 60 C8 9F (客厅空调关)
2024-11-02 14:13:29.296 - 01 06 07 D3 FF 60 38 9F (餐厅空调关)
2024-11-02 14:13:29.330 - 01 06 07 D3 FF 60 38 9F (餐厅空调关)
2024-11-02 14:13:29.894 - 01 06 07 D3 FF 60 38 9F (餐厅空调关)
2024-11-02 14:13:29.927 - 01 06 07 D3 FF 60 38 9F (餐厅空调关)
2024-11-02 14:13:30.492 - 01 06 07 D6 FF 60 28 9E (主卧空调关)
2024-11-02 14:13:30.523 - 01 06 07 D6 FF 60 28 9E (主卧空调关)
2024-11-02 14:13:31.090 - 01 06 07 D6 FF 60 28 9E (主卧空调关)
2024-11-02 14:13:31.117 - 01 06 07 D6 FF 60 28 9E (主卧空调关)
2024-11-02 14:13:31.689 - 01 06 07 D9 FF 60 18 9D (次卧空调关)
2024-11-02 14:13:31.724 - 01 06 07 D9 FF 60 18 9D (次卧空调关)
2024-11-02 14:13:32.289 - 01 06 07 D9 FF 60 18 9D (次卧空调关)
2024-11-02 14:13:32.320 - 01 06 07 D9 FF 60 18 9D (次卧空调关)
2024-11-02 14:13:32.456 - 19 08 24 03 CC 01 CD 00 01 (调用茶吧感应灯关的按键)
2024-11-02 14:13:32.506 - 1A AA AA AA 88 FF 00 01 FF 00 01 0F (调光器地址-茶吧灯带, 茶吧灯带关闭)
2024-11-02 14:13:32.906 - 01 06 07 DC FF 60 08 9C (书房空调关)
2024-11-02 14:13:32.936 - 01 06 07 DC FF 60 08 9C (书房空调关)
2024-11-02 14:13:33.533 - 01 06 07 DC FF 60 08 9C (书房空调关)
2024-11-02 14:13:33.567 - 01 06 07 DC FF 60 08 9C (书房空调关)
2024-11-02 14:13:34.128 - 09 06 00 0F 02 02 38 20 (提示音咚)
2024-11-02 14:13:34.683 - 1A FF FF FF 56 00 00 00 0F (人体感应地址-内卫, 关闭内卫感应)
2024-11-02 14:13:35.230 - 1A FF FF FF 55 00 00 00 0F (人体感应地址-外卫, 关闭外卫感应)
2024-11-02 14:13:35.322 - BC BC
2024-11-02 14:13:35.774 - 1A FF FF FF 57 00 00 00 0F (人体感应地址-厨房, 关闭厨房感应)
2024-11-02 14:13:36.322 - 1A FF FF FF 58 00 00 00 0F (人体感应地址-茶吧, 关闭茶吧感应)
2024-11-02 14:13:36.375 - BC BC
2024-11-02 14:13:36.920 - 1A 20 07 00 93 00 01 00 0F (自保持开关地址-设备区顶, 设备区顶灯关)
2024-11-02 14:13:37.970 - 1A 20 07 01 40 00 01 00 0F (自保持开关地址-内卫顶灯, 内卫顶灯关)
2024-11-02 14:13:39.017 - 1A 20 07 01 55 00 01 00 0F (自保持开关地址-主卧顶灯, 主卧顶灯只关)
2024-11-02 14:13:40.061 - 1A 20 07 00 42 00 01 00 0F (自保持开关地址-外卫顶灯, 外卫顶灯关)
2024-11-02 14:13:41.108 - 55 0D 31 00 00 00 01 94 (书房顶灯只关)
2024-11-02 14:13:42.152 - 55 0A 31 00 00 00 01 91 (厨房顶灯一关)
2024-11-02 14:13:43.249 - 55 0A 31 00 00 00 02 92 (厨房顶灯二关)
2024-11-02 14:13:44.296 - 55 0B 31 00 00 00 01 92 (厨房风扇只关)
2024-11-02 14:13:45.340 - 55 0C 31 00 00 00 01 93 (餐厅顶灯关)
2024-11-02 14:13:46.387 - 1A 20 07 01 30 00 01 00 0F (自保持开关地址-西阳顶灯, 西阳顶灯关)
2024-11-02 14:13:47.436 - 1A 18 05 21 89 00 01 00 0F (自保持开关地址-客厅顶灯, 客厅顶灯一关)
2024-11-02 14:13:48.480 - 1A 18 05 01 94 00 01 00 0F (自保持开关地址-客厅顶灯, 客厅顶灯二关)
2024-11-02 14:13:49.527 - 1A 20 07 00 70 00 01 00 0F (自保持开关地址-次卧顶灯, 次卧顶灯只关)
2024-11-02 14:13:50.592 - 1A 18 05 10 31 00 01 00 0F (自保持开关地址-门厅顶灯, 门厅顶灯关)
2024-11-02 14:13:51.671 - 1A FF FF FF 04 00 03 02 (继电器地址-东阳衣架, 东阳衣架照明关)
2024-11-02 14:13:52.219 - 09 06 00 0F 02 02 38 20 (提示音咚)
2024-11-02 14:13:52.765 - A5 00 A6 FE 01 AA (餐厅窗帘开)
2024-11-02 14:13:53.316 - FF FF FF FF 0A 00 01 00 (继电器地址-东阳窗帘, 东阳窗帘开)
2024-11-02 14:13:53.864 - 1A BE B0 DC 04 00 01 00 (继电器地址-西阳窗帘, 西阳窗帘开)
2024-11-02 14:13:54.460 - FF FF FF FF 0E 00 01 00 (继电器地址-西阳小窗帘, 西阳小窗帘开)
2024-11-02 14:13:55.008 - 1A 22 33 62 0F 00 00 01 0F (正反转地址-内卫卷帘, 内卫卷帘升)
2024-11-02 14:13:55.552 - A5 00 52 FE 01 AA (主卧窗帘开)
2024-11-02 14:13:56.100 - A5 00 53 FF 00 AA (主卧纱帘开)
2024-11-02 14:13:56.653 - A5 00 76 FE 01 AA (次卧窗帘开)
2024-11-02 14:13:57.198 - A5 00 21 FE 01 AA (次卧纱帘开)
2024-11-02 14:13:57.752 - A5 00 D2 FE 01 AA 22 0D (书房窗帘开)
