2024-10-17 20:10:45.757 - 19 08 24 03 CC 01 CC 00 01 (调用茶吧感应灯开的按键)
2024-10-17 20:10:45.810 - 1A AA AA AA 88 FF B0 01 FF B0 01 0F (调光器地址-茶吧灯带, 茶吧灯带明亮)
2024-10-17 20:11:29.342 - 19 08 24 03 CC 01 CD 00 01 (调用茶吧感应灯关的按键)
2024-10-17 20:11:29.394 - 1A AA AA AA 88 FF 00 01 FF 00 01 0F (调光器地址-茶吧灯带, 茶吧灯带关闭)
2024-10-17 20:17:07.758 - FF
2024-10-17 20:29:32.293 - 1A BE B0 DC 04 (继电器地址-西阳窗帘)
2024-10-17 20:29:32.431 - FF
2024-10-17 20:34:00.228 - FF FF FF FF 0E FE (继电器地址-西阳小窗帘)
2024-10-17 20:35:54.500 - 19 08 24 03 DD 00 3B 00 01 (调用情景-书房照明关帘)
2024-10-17 20:35:55.038 - EE 00 00 B1 00 00 00 FF FC FF FF (情景执行提示)
2024-10-17 20:35:55.631 - 09 06 00 0F 02 01 78 21 (提示音叮)
2024-10-17 20:35:56.183 - 1A 0A 04 06 01 FF F0 01 FF F0 01 FF 00 00 0F (调光器地址-书房射灯, 书房射灯明亮)
2024-10-17 20:36:00.266 - A5 00 B7 FF 00 AA 22 0D (书房纱帘关)
2024-10-17 20:36:01.309 - A5 00 D2 FF 00 AA 22 0C (书房窗帘关)
2024-10-17 20:36:01.364 - 55 00 D2 01 00 0D 01 0B AA 55 00 D2 01 00 0D 01 0B AA (书房窗帘电机状态返回)
2024-10-17 20:36:02.410 - 09 06 00 0F 02 02 38 20 (提示音咚)
2024-10-17 20:36:02.958 - EE 00 00 B1 00 00 02 FF FC FF FF (情景完成返回主页)
2024-10-17 20:36:10.533 - 55 00 D2 00 00 FE 01 0B AA 55 00 D2 00 00 FE 01 0B AA (书房窗帘电机状态返回)
2024-10-17 20:40:09.782 - 1A BE B0 DC 02 (正反转地址-外卫卷帘)
2024-10-17 20:40:09.915 - FE
2024-10-17 20:48:03.268 - 1A BE B0 DC 09 FC (继电器地址-客厅窗帘)
2024-10-17 20:48:03.401 - FF
2024-10-17 20:51:13.700 - 1A BE B0 DC 0A (继电器地址-客厅纱帘)
2024-10-17 20:52:21.893 - 1A BE B0 DC 03 (继电器地址-西阳天幕)
2024-10-17 20:54:17.200 - 1A BE B0 DC 01 (继电器地址-回水泵点动)
2024-10-17 20:54:17.337 - FE
2024-10-17 20:58:55.020 - FF FF FF FF 0A (继电器地址-东阳窗帘)
2024-10-17 20:58:55.157 - FE
2024-10-17 20:59:32.534 - 19 08 24 03 CC 01 CC 00 01 (调用茶吧感应灯开的按键)
2024-10-17 20:59:32.583 - 1A AA AA AA 88 FF B0 01 FF B0 01 0F (调光器地址-茶吧灯带, 茶吧灯带明亮)
2024-10-17 20:59:34.033 - 19 08 24 03 DD 00 3A 00 01 (调用情景-离开书房)
2024-10-17 20:59:34.570 - EE 00 00 B1 00 00 00 FF FC FF FF (情景执行提示)
2024-10-17 20:59:35.163 - 09 06 00 0F 02 01 78 21 (提示音叮)
2024-10-17 20:59:35.710 - 01 06 07 DC FF 60 08 9C (书房空调关)
2024-10-17 20:59:35.737 - 01 06 07 DC FF 60 08 9C (书房空调关)
2024-10-17 20:59:36.306 - 50 F5 07 (关书房影视)
2024-10-17 20:59:36.854 - A5 00 D2 FE 01 AA 22 0D (书房窗帘开)
2024-10-17 20:59:36.909 - 55 00 D2 02 00 FE 01 0B AA 55 00 D2 02 00 FE 01 0B AA (书房窗帘电机状态返回)
2024-10-17 20:59:37.965 - A5 00 B7 FF 00 AA 22 0D (书房纱帘关)
2024-10-17 20:59:39.048 - 55 0D 31 00 00 00 01 94 (书房顶灯只关)
2024-10-17 20:59:40.103 - 1A 0A 04 06 01 FF 00 01 FF 00 01 FF 00 00 0F (调光器地址-书房射灯, 书房射灯关闭)
2024-10-17 20:59:44.185 - 09 06 00 0F 02 02 38 20 (提示音咚)
2024-10-17 20:59:44.235 - 55 00 D2 FC (书房窗帘电机状态返回)
2024-10-17 20:59:44.582 - 19 08 24 03 CC 01 CD 00 01 (调用茶吧感应灯关的按键)
2024-10-17 20:59:44.629 - 1A AA AA AA 88 FF 00 01 FF 00 01 0F (调光器地址-茶吧灯带, 茶吧灯带关闭)
2024-10-17 20:59:45.034 - EE 00 00 B1 00 00 02 FF FC FF FF (情景完成返回主页)
2024-10-17 20:59:54.622 - EE 00 6E B1 01 00 03 FF FC FF FF
2024-10-17 20:59:55.175 - EE 00 6E B1 01 00 08 FF FC FF FF
2024-10-17 20:59:55.628 - 1A BE B0 DC 0A 00 01 00 (继电器地址-客厅纱帘, 客厅纱帘关)
2024-10-17 21:00:00.391 - 19 08 24 03 DD 00 42 00 01 (调用情景-主卧电视空调)
2024-10-17 21:00:00.929 - EE 00 00 B1 00 00 00 FF FC FF FF (情景执行提示)
2024-10-17 21:00:01.522 - 09 06 00 0F 02 01 78 21 (提示音叮)
2024-10-17 21:00:02.066 - 50 F0 05 (开主卧影视)
2024-10-17 21:00:03.110 - 50 F0 04 (开内卫影视)
2024-10-17 21:00:03.666 - 1A FF FF FF 56 00 00 00 0F (人体感应地址-内卫, 关闭内卫感应)
2024-10-17 21:00:04.215 - 1A 22 33 62 0F 00 02 01 0F (正反转地址-内卫卷帘, 内卫卷帘降)
2024-10-17 21:00:04.760 - A5 00 53 FE 01 AA (主卧纱帘关)
2024-10-17 21:00:04.816 - 55 00 53 02 02 23 02 2F AA 55 00 53 02 02 23 E2 (主卧纱帘电机状态返回)
2024-10-17 21:00:05.856 - A5 00 52 FF 00 AA (主卧窗帘关)
2024-10-17 21:00:06.913 - 1A 0C 02 04 FF FF 45 01 FF 45 01 FF 00 00 0F (主卧调光微光)
2024-10-17 21:00:10.996 - 1A 0C 02 08 01 FF 45 01 FF 45 01 FF 00 00 0F (调光器地址-内卫射灯, 内卫射灯微光)
2024-10-17 21:00:11.581 - 50 F1 25 (主卧—有线2)
2024-10-17 21:00:12.132 - A1 11 11 11 42 (主卧空调自动开)
2024-10-17 21:00:12.360 - 19 08 24 03 F0 BB 78 02 02 00
2024-10-17 21:00:12.411 - 23 AA 56 02 15 00 0B 18 0A 11 04 73 65 6F 6B 65 6E 64
2024-10-17 21:00:12.680 - 50 F1 24 (内卫—有线2)
2024-10-17 21:00:13.371 - 01 10 07 D6 00 03 06 70 61 00 02 00 F0 0F 3E (主卧空调冷24度)
2024-10-17 21:00:13.414 - 01 10 07 D6 00 03 06 70 61 00 02 00 F0 0F 3E (主卧空调冷24度)
2024-10-17 21:00:14.775 - AF BF CF DF C2 21 (有线2/快捷-凤凰卫视)
2024-10-17 21:00:16.872 - 1A FF FF FF 60 0B 01 01 0F (红外总线地址-主卧发射设备, 主卧电视电源)
2024-10-17 21:00:17.389 - F0 0B 01 08
2024-10-17 21:00:17.598 - 55 00 53 00 00 0C 02 2F AA 55 00 53 00 00 0C 02 2F AA (主卧纱帘电机状态返回)
2024-10-17 21:00:18.132 - 55 20 20 00 02 09 02 16 AA 55 20 20 00 02 09 02 16 AA (主卧窗帘电机状态返回)
2024-10-17 21:00:24.946 - 09 06 00 0F 02 02 38 20 (提示音咚)
2024-10-17 21:00:25.496 - EE 00 00 B1 00 00 02 FF FC FF FF (情景完成返回主页)
2024-10-17 21:12:22.592 - 1A FF FF FF 04 (继电器地址-东阳衣架)
2024-10-17 21:12:22.729 - FF
2024-10-17 21:13:24.570 - 19 08 24 03 DD 00 1B 00 01 (调用情景-外卫使用)
2024-10-17 21:13:25.095 - EE 00 00 B1 00 00 00 FF FC FF FF (情景执行提示)
2024-10-17 21:13:25.693 - 09 06 00 0F 02 01 78 21 (提示音叮)
2024-10-17 21:13:26.238 - 1A BE B0 DC 02 00 01 00 (正反转地址-外卫卷帘, 外卫卷帘降)
2024-10-17 21:13:26.781 - 50 F0 03 (开外卫影视)
2024-10-17 21:13:27.385 - 1A FF FF FF 55 00 00 00 0F (人体感应地址-外卫, 关闭外卫感应)
2024-10-17 21:13:27.939 - 1A 0D 01 07 01 FF 45 01 FF 45 01 FF 00 00 0F (调光器地址-外卫射灯, 外卫感应灯开)
2024-10-17 21:13:30.026 - 1A BE B0 DC 01 00 01 00 (继电器地址-回水泵点动, 回水泵点动)
2024-10-17 21:13:31.072 - 1A BE B0 DC 01 00 01 00 (继电器地址-回水泵点动, 回水泵点动)
2024-10-17 21:13:32.120 - 1A BE B0 DC 01 00 01 00 (继电器地址-回水泵点动, 回水泵点动)
2024-10-17 21:13:33.159 - 50 F1 43 (外卫—CH4)
2024-10-17 21:13:50.159 - A1 11 11 11 11 05 (外卫使用浴霸判断)
2024-10-17 21:13:50.380 - 13 03 00 00 00 02 C7 79 (查询外卫温湿度)
2024-10-17 21:13:50.404 - 13 03 04 02 24 00 F9 49 C3 (外卫温湿度返回)
2024-10-17 21:13:52.204 - 09 06 00 0F 02 02 38 20 (提示音咚)
2024-10-17 21:13:54.248 - EE 00 00 B1 00 00 02 FF FC FF FF (情景完成返回主页)
