2024-10-18 09:53:13.566 - 1A BE B0 DC 04 (继电器地址-西阳窗帘)
2024-10-18 09:53:13.700 - FF
2024-10-18 09:57:26.060 - FF FF FF FF 0E FC (继电器地址-西阳小窗帘)
2024-10-18 10:05:43.747 - 1A BE B0 DC 02 (正反转地址-外卫卷帘)
2024-10-18 10:05:43.884 - FF
2024-10-18 10:06:13.255 - 1A 13 00 00 00 86 86 86 0F (调用查询模块-外卫测温转换, 外卫温湿度虚拟地址)
2024-10-18 10:06:13.479 - 13 03 00 00 00 02 C7 79 (查询外卫温湿度)
2024-10-18 10:06:13.500 - 13 03 04 02 71 01 08 99 C7 (外卫温湿度返回)
2024-10-18 10:06:14.504 - 1A 13 00 00 00 00 00 01 00 00 01 00 00 01 01 08 01 02 71 01 00 00 01 00 00 01 0F (外卫温湿度虚拟地址)
2024-10-18 10:11:36.213 - 1A BE B0 DC 09 FC (继电器地址-客厅窗帘)
2024-10-18 10:15:50.711 - 1A BE B0 DC 03 FC (继电器地址-西阳天幕)
2024-10-18 10:15:50.846 - FF
2024-10-18 10:17:50.198 - 1A BE B0 DC 0A (继电器地址-客厅纱帘)
2024-10-18 10:20:57.884 - 1A BE B0 DC 01 FC (继电器地址-回水泵点动)
2024-10-18 10:20:58.016 - FF
2024-10-18 10:22:23.478 - FF FF FF FF 0A (继电器地址-东阳窗帘)
2024-10-18 10:22:23.612 - FC
2024-10-18 10:37:00.235 - 1A FF FF FF 04 (继电器地址-东阳衣架)
2024-10-18 10:37:00.369 - 03
2024-10-18 12:24:12.608 - 19 08 24 03 CC 00 D3 00 01 (调用厨房感应灯开的按键)
2024-10-18 12:24:12.661 - 55 0A 32 00 00 00 01 92 55 0A 32 00 00 00 02 93 (厨房顶灯一开, 厨房顶灯二开)
2024-10-18 12:24:47.677 - 19 08 24 03 CC 00 D4 00 01 (调用厨房感应灯关的按键)
2024-10-18 12:24:47.733 - 55 0A 31 00 00 00 01 91 55 0A 31 00 00 00 02 92 (厨房顶灯一关, 厨房顶灯二关)
2024-10-18 12:28:18.558 - 19 08 24 03 CC 01 CC 00 01 (调用茶吧感应灯开的按键)
2024-10-18 12:28:18.588 - 1A AA AA AA 88 FF B0 01 FF B0 01 0F (调光器地址-茶吧灯带, 茶吧灯带明亮)
2024-10-18 12:28:30.080 - 19 08 24 03 CC 01 CD 00 01 (调用茶吧感应灯关的按键)
2024-10-18 12:28:30.113 - 1A AA AA AA 88 FF 00 01 FF 00 01 0F (调光器地址-茶吧灯带, 茶吧灯带关闭)
2024-10-18 13:12:34.827 - 19 08 24 03 CC 00 D3 00 01 (调用厨房感应灯开的按键)
2024-10-18 13:12:34.861 - 55 0A 32 00 00 00 01 92 55 0A 32 00 00 00 02 93 (厨房顶灯一开, 厨房顶灯二开)
2024-10-18 13:13:01.900 - 1A BE B0 DC 04 (继电器地址-西阳窗帘)
2024-10-18 13:13:10.394 - 19 08 24 03 CC 00 D4 00 01 (调用厨房感应灯关的按键)
2024-10-18 13:13:10.455 - 55 0A 31 00 00 00 01 91 55 0A 31 00 00 00 02 92 (厨房顶灯一关, 厨房顶灯二关)
2024-10-18 13:17:24.961 - FF FF FF FF 0E (继电器地址-西阳小窗帘)
2024-10-18 13:17:25.102 - FF
2024-10-18 13:26:07.183 - 1A BE B0 DC 02 (正反转地址-外卫卷帘)
2024-10-18 13:26:07.319 - FE
2024-10-18 13:31:54.291 - 1A BE B0 DC 09 FF (继电器地址-客厅窗帘)
2024-10-18 13:31:54.426 - FF
2024-10-18 13:36:43.377 - 1A BE B0 DC 03 (继电器地址-西阳天幕)
2024-10-18 13:36:43.512 - FF
2024-10-18 13:38:19.384 - 1A BE B0 DC 0A FC (继电器地址-客厅纱帘)
2024-10-18 13:38:19.517 - FE
2024-10-18 13:41:40.701 - 1A BE B0 DC 01 (继电器地址-回水泵点动)
2024-10-18 13:41:40.834 - FF
2024-10-18 13:45:14.963 - FF FF FF FF 0A (继电器地址-东阳窗帘)
2024-10-18 13:45:15.098 - FF
2024-10-18 13:46:49.347 - 19 08 24 03 CC 01 CC 00 01 (调用茶吧感应灯开的按键)
2024-10-18 13:46:49.395 - 1A AA AA AA 88 FF B0 01 FF B0 01 0F (调光器地址-茶吧灯带, 茶吧灯带明亮)
2024-10-18 13:49:25.153 - 19 08 24 03 CC 01 CD 00 01 (调用茶吧感应灯关的按键)
2024-10-18 13:49:25.206 - 1A AA AA AA 88 FF 00 01 FF 00 01 0F (调光器地址-茶吧灯带, 茶吧灯带关闭)
2024-10-18 13:54:49.295 - 19 08 24 03 CC 01 CC 00 01 (调用茶吧感应灯开的按键)
2024-10-18 13:54:49.324 - 1A AA AA AA 88 FF B0 01 FF B0 01 0F (调光器地址-茶吧灯带, 茶吧灯带明亮)
2024-10-18 13:58:05.807 - 1A FF FF FF 04 FE (继电器地址-东阳衣架)
2024-10-18 13:58:05.944 - FC
2024-10-18 13:58:27.225 - 19 08 24 03 CC 01 CD 00 01 (调用茶吧感应灯关的按键)
2024-10-18 13:58:27.271 - 1A AA AA AA 88 FF 00 01 FF 00 01 0F (调光器地址-茶吧灯带, 茶吧灯带关闭)
2024-10-18 14:22:09.026 - 19 08 24 03 CC 01 CC 00 01 (调用茶吧感应灯开的按键)
2024-10-18 14:22:09.076 - 1A AA AA AA 88 FF B0 01 FF B0 01 0F (调光器地址-茶吧灯带, 茶吧灯带明亮)
2024-10-18 14:22:35.097 - 19 08 24 03 CC 00 D3 00 01 (调用厨房感应灯开的按键)
2024-10-18 14:22:35.132 - 55 0A 32 00 00 00 01 92 55 0A 32 00 00 00 02 93 (厨房顶灯一开, 厨房顶灯二开)
2024-10-18 14:22:40.086 - 19 08 24 03 CC 01 CD 00 01 (调用茶吧感应灯关的按键)
2024-10-18 14:22:40.120 - 1A AA AA AA 88 FF 00 01 FF 00 01 0F (调光器地址-茶吧灯带, 茶吧灯带关闭)
2024-10-18 14:23:23.693 - 19 08 24 03 CC 00 D4 00 01 (调用厨房感应灯关的按键)
2024-10-18 14:23:23.729 - 55 0A 31 00 00 00 01 91 55 0A 31 00 00 00 02 92 (厨房顶灯一关, 厨房顶灯二关)
2024-10-18 14:23:33.712 - 19 08 24 03 CC 00 D3 00 01 (调用厨房感应灯开的按键)
2024-10-18 14:23:33.747 - 55 0A 32 00 00 00 01 92 55 0A 32 00 00 00 02 93 (厨房顶灯一开, 厨房顶灯二开)
2024-10-18 14:25:14.910 - 19 08 24 03 CC 00 D4 00 01 (调用厨房感应灯关的按键)
2024-10-18 14:25:14.945 - 55 0A 31 00 00 00 01 91 55 0A 31 00 00 00 02 92 (厨房顶灯一关, 厨房顶灯二关)
2024-10-18 14:25:37.455 - 19 08 24 03 CC 00 D3 00 01 (调用厨房感应灯开的按键)
2024-10-18 14:25:37.490 - 55 0A 32 00 00 00 01 92 55 0A 32 00 00 00 02 93 (厨房顶灯一开, 厨房顶灯二开)
2024-10-18 14:27:21.159 - 19 08 24 03 CC 00 D4 00 01 (调用厨房感应灯关的按键)
2024-10-18 14:27:21.192 - 55 0A 31 00 00 00 01 91 55 0A 31 00 00 00 02 92 (厨房顶灯一关, 厨房顶灯二关)
2024-10-18 14:28:19.273 - 19 08 24 03 CC 00 D3 00 01 (调用厨房感应灯开的按键)
2024-10-18 14:28:19.309 - 55 0A 32 00 00 00 01 92 55 0A 32 00 00 00 02 93 (厨房顶灯一开, 厨房顶灯二开)
2024-10-18 14:29:12.878 - 19 08 24 03 CC 00 D4 00 01 (调用厨房感应灯关的按键)
2024-10-18 14:29:12.912 - 55 0A 31 00 00 00 01 91 55 0A 31 00 00 00 02 92 (厨房顶灯一关, 厨房顶灯二关)
2024-10-18 14:29:38.931 - 19 08 24 03 CC 00 D3 00 01 (调用厨房感应灯开的按键)
2024-10-18 14:29:38.963 - 55 0A 32 00 00 00 01 92 55 0A 32 00 00 00 02 93 (厨房顶灯一开, 厨房顶灯二开)
2024-10-18 14:30:49.067 - 19 08 24 03 CC 00 D4 00 01 (调用厨房感应灯关的按键)
2024-10-18 14:30:49.101 - 55 0A 31 00 00 00 01 91 55 0A 31 00 00 00 02 92 (厨房顶灯一关, 厨房顶灯二关)
2024-10-18 14:30:52.073 - 19 08 24 03 CC 00 D3 00 01 (调用厨房感应灯开的按键)
2024-10-18 14:30:52.111 - 55 0A 32 00 00 00 01 92 55 0A 32 00 00 00 02 93 (厨房顶灯一开, 厨房顶灯二开)
2024-10-18 14:31:27.643 - 19 08 24 03 CC 00 D4 00 01 (调用厨房感应灯关的按键)
2024-10-18 14:31:27.677 - 55 0A 31 00 00 00 01 91 55 0A 31 00 00 00 02 92 (厨房顶灯一关, 厨房顶灯二关)
2024-10-18 14:57:35.791 - FF
2024-10-18 16:33:00.191 - 1A BE B0 DC 04 FC (继电器地址-西阳窗帘)
2024-10-18 16:33:00.327 - FE
2024-10-18 16:36:29.877 - 19 08 24 03 CC 00 D3 00 01 (调用厨房感应灯开的按键)
2024-10-18 16:36:29.931 - 55 0A 32 00 00 00 01 92 55 0A 32 00 00 00 02 93 (厨房顶灯一开, 厨房顶灯二开)
2024-10-18 16:37:04.951 - 19 08 24 03 CC 00 D4 00 01 (调用厨房感应灯关的按键)
2024-10-18 16:37:04.998 - 55 0A 31 00 00 00 01 91 55 0A 31 00 00 00 02 92 (厨房顶灯一关, 厨房顶灯二关)
2024-10-18 16:37:25.606 - FF FF FF FF 0E FC (继电器地址-西阳小窗帘)
2024-10-18 16:37:25.740 - FF
2024-10-18 16:43:32.207 - 19 08 24 03 CC 00 D3 00 01 (调用厨房感应灯开的按键)
2024-10-18 16:43:32.258 - 55 0A 32 00 00 00 01 92 55 0A 32 00 00 00 02 93 (厨房顶灯一开, 厨房顶灯二开)
2024-10-18 16:44:07.277 - 19 08 24 03 CC 00 D4 00 01 (调用厨房感应灯关的按键)
2024-10-18 16:44:07.329 - 55 0A 31 00 00 00 01 91 55 0A 31 00 00 00 02 92 (厨房顶灯一关, 厨房顶灯二关)
2024-10-18 16:46:30.825 - 1A BE B0 DC 02 (正反转地址-外卫卷帘)
2024-10-18 16:46:30.962 - FF
2024-10-18 16:52:15.775 - 1A BE B0 DC 09 FC (继电器地址-客厅窗帘)
2024-10-18 16:57:37.203 - 1A BE B0 DC 03 FC (继电器地址-西阳天幕)
2024-10-18 16:57:37.341 - FF
2024-10-18 16:58:48.347 - 1A BE B0 DC 0A (继电器地址-客厅纱帘)
2024-10-18 16:58:48.482 - FF
2024-10-18 17:02:24.845 - 1A BE B0 DC 01 FC (继电器地址-回水泵点动)
2024-10-18 17:02:24.982 - FF
2024-10-18 17:05:24.561 - FF FF FF FF 0A (继电器地址-东阳窗帘)
2024-10-18 17:05:24.697 - FF
2024-10-18 17:05:40.046 - 47 45 54 20 2F 20 48 54 54 50 2F 31 2E 31 0D 0A 55 73 65 72 2D 41 67 65 6E 74 3A 20 63 75 72 6C
2024-10-18 17:05:40.082 - 2F 37 2E 32 39 2E 30 0D 0A 48 6F 73 74 3A 20 31 31 35 2E 32 33 39 2E 32 33 33 2E 31 34 32 0D 0A
2024-10-18 17:05:40.097 - 41 63 63 65 70 74 3A 20 2A 2F 2A 0D 0A 0D 0A
2024-10-18 17:05:49.114 - 0D 0A 0D 0A
2024-10-18 17:05:58.225 - 16 03 03 00 AC 01 00 00 A8 03 03 65 82 9E AD 47 11 CD E1 5D CF C7 DE C2 FA AA 01 BD 9E 90 05 08 (区域高光指令（AD+区域+暖光+冷光+AE）)
2024-10-18 17:05:58.260 - 57 40 FF F3 D5 C6 1D 1D FF 10 0D 00 00 2A C0 2C C0 2B C0 30 C0 2F 00 9F 00 9E C0 24 C0 23 C0 28
2024-10-18 17:05:58.289 - C0 27 C0 0A C0 09 C0 14 C0 13 00 9D 00 9C 00 3D 00 3C 00 35 00 2F 00 0A 01 00 00 55 00 05 00 05
2024-10-18 17:05:58.323 - 01 00 00 00 00 00 0A 00 08 00 06 00 1D 00 17 00 18 00 0B 00 02 01 00 00 0D 00 1A 00 18 08 04 08
2024-10-18 17:05:58.355 - 05 08 06 04 01 05 01 02 01 04 03 05 03 02 03 02 02 06 01 06 03 00 23 00 00 00 10 00 0B 00 09 08
2024-10-18 17:05:58.376 - 68 74 74 70 2F 31 2E 31 00 17 00 00 FF 01 00 01 00
2024-10-18 17:06:07.306 - 16 03 01 00 EE 01 00 00 EA 03 03 10 B8 00 3B AE 60 99 89 A8 58 6C 46 EA 39 3E 23 27 1F FC 83 D3
2024-10-18 17:06:07.341 - 0F 1F E2 D1 DE FC 37 CA E4 8B F9 20 45 A9 52 C9 B4 58 F9 8C 18 5F 42 6B 3F 54 7C 08 7F C2 D3 A6
2024-10-18 17:06:07.372 - B0 D0 3A 15 2B 38 0D 0D 1E D1 3E 86 00 26 C0 2F C0 30 C0 2B C0 2C CC A8 CC A9 C0 13 C0 09 C0 14
2024-10-18 17:06:07.407 - C0 0A 00 9C 00 9D 00 2F 00 35 C0 12 00 0A 13 01 13 03 13 02 01 00 00 7B 00 05 00 05 01 00 00 00
2024-10-18 17:06:07.439 - 00 00 0A 00 0A 00 08 00 1D 00 17 00 18 00 19 00 0B 00 02 01 00 00 0D 00 1A 00 18 08 04 04 03 08
2024-10-18 17:06:07.474 - 07 08 05 08 06 04 01 05 01 06 01 05 03 06 03 02 01 02 03 FF 01 00 01 00 00 12 00 00 00 2B 00 09
2024-10-18 17:06:07.510 - 08 03 04 03 03 03 02 03 01 00 33 00 26 00 24 00 1D 00 20 3E 73 A2 CE 4F 1B 50 F8 78 23 F6 11 6C
2024-10-18 17:06:07.529 - 26 ED C1 F4 71 A0 F2 3D 91 4F 39 86 2C EA 03 44 43 9F 34
2024-10-18 17:06:16.358 - 4F 50 54 49 4F 4E 53 20 2F 20 48 54 54 50 2F 31 2E 30 0D 0A 0D 0A
2024-10-18 17:06:25.457 - 4F 50 54 49 4F 4E 53 20 2F 20 52 54 53 50 2F 31 2E 30 0D 0A 0D 0A
2024-10-18 17:06:34.664 - 80 00 00 28 72 FE 1D 13 00 00 00 00 00 00 00 02 00 01 86 A0 00 01 97 7C 00 00 00 00 00 00 00 00
2024-10-18 17:06:34.678 - 00 00 00 00 00 00 00 00 00 00 00 00
2024-10-18 17:06:43.731 - 50 52 49 20 2A 20 48 54 54 50 2F 32 2E 30 0D 0A 0D 0A 53 4D 0D 0A 0D 0A 00 00 00 04 00 00 00 00
2024-10-18 17:06:43.736 - 00
2024-10-18 17:06:52.850 - 00 1E 00 06 01 00 00 01 00 00 00 00 00 00 07 76 65 72 73 69 6F 6E 04 62 69 6E 64 00 00 10 00 03
2024-10-18 17:07:01.930 - 00 2A 28 FF 01 20 00 01 00 00 00 00 00 01 03 77 77 77 05 62 61 69 64 75 03 63 6F 6D 00 00 01 00
2024-10-18 17:07:01.944 - 01 00 00 29 10 00 00 00 00 00 00 00
2024-10-18 17:07:11.005 - 00 0C 00 00 10 00 00 00 00 00 00 00 00 00
2024-10-18 17:07:19.233 - EE 00 00 B1 00 00 00 FF FC FF FF (情景执行提示)
2024-10-18 17:07:19.824 - 09 06 00 0F 02 01 78 21 (提示音叮)
2024-10-18 17:07:20.038 - 41 4D 51 50 00 00 09 01
2024-10-18 17:07:20.373 - A1 11 11 11 40 (客厅空调自动开)
2024-10-18 17:07:20.591 - 19 08 24 03 F0 BB 78 02 02 00
2024-10-18 17:07:20.660 - 23 AA 56 02 11 07 14 18 0A 12 05 73 65 6F 6B 65 6E 64
2024-10-18 17:07:21.601 - 01 10 07 D0 00 03 06 70 61 00 02 00 FA 6F 26 (客厅空调冷25度)
2024-10-18 17:07:21.643 - 01 10 07 D0 00 03 06 70 61 00 02 00 FA 6F 26 (客厅空调冷25度)
2024-10-18 17:07:23.168 - 01 01 00 00 00 00
2024-10-18 17:07:24.409 - A1 11 11 11 41 (餐厅空调自动开)
2024-10-18 17:07:24.634 - 19 08 24 03 F0 BB 78 02 02 00
2024-10-18 17:07:24.684 - 23 AA 56 02 11 07 18 18 0A 12 05 73 65 6F 6B 65 6E 64
2024-10-18 17:07:25.645 - 01 10 07 D3 00 03 06 70 61 00 02 00 FA 9F 29 (餐厅空调冷25度)
2024-10-18 17:07:25.682 - 01 10 07 D3 00 03 06 70 61 00 02 00 FA 9F 29 (餐厅空调冷25度)
2024-10-18 17:07:27.073 - 74 33 20 31 32 2E 31 2E 32 0A 41 53 3A 32 30 34 38 0A 48 4C 3A 31 39 0A 0A
2024-10-18 17:07:28.443 - A1 11 11 11 42 (主卧空调自动开)
2024-10-18 17:07:28.665 - 19 08 24 03 F0 BB 78 02 02 00
2024-10-18 17:07:28.714 - 23 AA 56 02 11 07 1C 18 0A 12 05 73 65 6F 6B 65 6E 64
2024-10-18 17:07:29.675 - 01 10 07 D6 00 03 06 70 61 00 02 00 F0 0F 3E (主卧空调冷24度)
2024-10-18 17:07:29.711 - 01 10 07 D6 00 03 06 70 61 00 02 00 F0 0F 3E (主卧空调冷24度)
2024-10-18 17:07:30.491 - 09 06 00 0F 02 02 38 20 (提示音咚)
2024-10-18 17:07:31.043 - EE 00 00 B1 00 00 02 FF FC FF FF (情景完成返回主页)
2024-10-18 17:07:31.254 - 48 45 4C 50 0D 0A
2024-10-18 17:07:34.962 - 1A FF 03 00 00 86 86 86 0F (调用查询模块-主卧空调开关查询, 主卧空调虚拟地址)
2024-10-18 17:07:35.182 - 01 04 07 DC 00 01 F1 44 (查询主卧空调开关状态)
2024-10-18 17:07:35.209 - 01 04 02 70 01 5D 30
2024-10-18 17:07:36.183 - 1A FF 03 00 00 01 00 0F (主卧空调虚拟地址)
2024-10-18 17:07:36.292 - 1A FF 04 00 00 86 86 86 0F (调用查询模块-次卧空调开关查询, 次卧空调虚拟地址)
2024-10-18 17:07:36.516 - 01 04 07 E2 00 01 90 88 (查询次卧空调开关状态)
2024-10-18 17:07:36.542 - 01 04 02 70 00 9C F0
2024-10-18 17:07:37.523 - 1A FF 04 00 00 00 00 0F (次卧空调虚拟地址)
2024-10-18 17:07:37.662 - 1A FF 05 00 00 86 86 86 0F (调用查询模块-书房空调开关查询, 书房空调虚拟地址)
2024-10-18 17:07:37.854 - 16 03 00 00 53 01 00 00 4F 03 00 3F 47 D7 F7 BA 2C EE EA B2 60 7E F3 00 FD 82 7B B9 D5 96 C8 77
2024-10-18 17:07:37.887 - 9B E6 C4 DB 3C 3D DB 6F EF 10 6E 00 00 28 00 16 00 13 00 0A 00 66 00 05 00 04 00 65 00 64 00 63
2024-10-18 17:07:37.916 - 00 62 00 61 00 60 00 15 00 12 00 09 00 14 00 11 00 08 00 06 00 03 01 00
2024-10-18 17:07:38.893 - 1A FF 05 00 00 53 00 0F (书房空调虚拟地址)
2024-10-18 17:07:38.997 - 1A FF 02 00 00 86 86 86 0F (调用查询模块-餐厅空调开关查询, 餐厅空调虚拟地址)
2024-10-18 17:07:39.225 - 01 04 07 D6 00 01 D1 46 (查询餐厅空调开关状态)
2024-10-18 17:07:39.246 - 01 04 02 70 01 5D 30
2024-10-18 17:07:40.229 - 1A FF 02 00 00 01 00 0F (餐厅空调虚拟地址)
2024-10-18 17:07:40.368 - 1A FF 01 00 00 86 86 86 0F (调用查询模块-客厅空调开关查询, 客厅空调虚拟地址)
2024-10-18 17:07:40.598 - 01 04 07 D0 00 01 31 47 (查询客厅空调开关状态)
2024-10-18 17:07:40.621 - 01 04 02 70 01 5D 30
2024-10-18 17:07:41.601 - 1A FF 01 00 00 01 00 0F (客厅空调虚拟地址)
2024-10-18 17:07:41.703 - 03 00 00 2A 25 E0 00 00 00 00 00 43 6F 6F 6B 69 65 3A 20 6D 73 74 73 68 61 73 6B 3F 6E 6D 61 B8
2024-10-18 17:07:41.715 - CF F7 04 08 00 03 00 00 00
2024-10-18 17:07:43.707 - 1A 11 00 00 00 86 86 86 0F (调用查询模块-次卧测温转换, 次卧温湿度虚拟地址)
2024-10-18 17:07:43.927 - 11 03 00 00 00 02 C6 9B (查询次卧温湿度)
2024-10-18 17:07:43.947 - 11 03 04 02 7E 01 15 4A 0D (次卧温湿度返回)
2024-10-18 17:07:44.950 - 1A 11 00 00 00 00 00 01 00 00 01 00 00 01 01 15 01 02 7E 01 00 00 01 00 00 01 0F (次卧温湿度虚拟地址)
2024-10-18 17:07:45.056 - 1A 12 00 00 00 86 86 86 0F (调用查询模块-书房测温转换, 书房温湿度虚拟地址)
2024-10-18 17:07:45.280 - 12 03 00 00 00 02 C6 A8 (查询书房温湿度)
2024-10-18 17:07:45.301 - 12 03 04 02 BA 01 0E 78 FB (书房温湿度返回)
2024-10-18 17:07:46.304 - 1A 12 00 00 00 00 00 01 00 00 01 00 00 01 01 0E 01 02 BA 01 00 00 01 00 00 01 0F (书房温湿度虚拟地址)
2024-10-18 17:07:46.447 - 1A 13 00 00 00 86 86 86 0F (调用查询模块-外卫测温转换, 外卫温湿度虚拟地址)
2024-10-18 17:07:46.499 - 03 00 00 13 0E E0 00 00 00 00 00 01 00 08 00 00 00 00 00
2024-10-18 17:07:46.674 - 13 03 00 00 00 02 C7 79 (查询外卫温湿度)
2024-10-18 17:07:46.697 - 13 03 04 02 85 01 13 98 3E (外卫温湿度返回)
2024-10-18 17:07:47.698 - 1A 13 00 00 00 00 00 01 00 00 01 00 00 01 01 13 01 02 85 01 00 00 01 00 00 01 0F (外卫温湿度虚拟地址)
2024-10-18 17:07:47.806 - 1A 14 00 00 00 86 86 86 0F (调用查询模块-内卫测温转换, 内卫温湿度虚拟地址)
2024-10-18 17:07:48.027 - 14 03 00 00 00 02 C6 CE (查询内卫温湿度)
2024-10-18 17:07:48.051 - 14 03 04 02 E0 01 0C BF 29 (内卫温湿度返回)
2024-10-18 17:07:49.052 - 1A 14 00 00 00 00 00 01 00 00 01 00 00 01 01 0C 01 02 E0 01 00 00 01 00 00 01 0F (内卫温湿度虚拟地址)
2024-10-18 17:07:49.156 - 1A 15 00 00 00 86 86 86 0F (调用查询模块-客厅测温转换, 客厅温湿度虚拟地址)
2024-10-18 17:07:49.257 - 16 03 00 00 69 01 00 00 65 03 03 55 1C A7 E4 72 61 6E 64 6F 6D 31 72 61 6E 64 6F 6D 32 72 61 6E
2024-10-18 17:07:49.290 - 64 6F 6D 33 72 61 6E 64 6F 6D 34 00 00 0C 00 2F 00 0A 00 13 00 39 00 04 00 FF 01 00 00 30 00 0D
2024-10-18 17:07:49.322 - 00 2C 00 2A 00 01 00 03 00 02 06 01 06 03 06 02 02 01 02 03 02 02 03 01 03 03 03 02 04 01 04 03
2024-10-18 17:07:49.339 - 04 02 01 01 01 03 01 02 05 01 05 03 05 02
2024-10-18 17:07:50.404 - 1A 15 00 00 00 00 00 01 00 00 01 00 00 01 01 00 01 00 69 01 00 00 01 00 00 01 0F (客厅温湿度虚拟地址)
2024-10-18 17:07:50.510 - 1A 16 00 00 00 86 86 86 0F (调用查询模块-机柜测温转换, 机柜温湿度虚拟地址)
2024-10-18 17:07:50.737 - 16 03 00 00 00 02 C7 2C (查询机柜温湿度)
2024-10-18 17:07:51.760 - 1A 16 00 00 00 00 00 01 00 00 01 00 00 01 86 86 01 00 00 01 00 00 01 00 00 01 0F (机柜温湿度虚拟地址)
2024-10-18 17:07:51.865 - 1A 0E 00 00 00 86 86 86 0F (调用查询模块-厨房测温转换, 厨房温湿度虚拟地址)
2024-10-18 17:07:52.091 - 0E 03 00 00 00 02 C4 F4 (查询厨房温湿度)
2024-10-18 17:07:52.111 - 0E 03 04 02 89 01 0E 55 35 (厨房温湿度返回)
2024-10-18 17:07:53.115 - 1A 0E 00 00 00 00 00 01 00 00 01 00 00 01 01 0E 01 02 89 01 00 00 01 00 00 01 0F (厨房温湿度虚拟地址)
2024-10-18 17:07:53.219 - 1A 0F 00 00 00 86 86 86 0F (调用查询模块-餐厅测温转换, 餐厅温湿度虚拟地址)
2024-10-18 17:07:53.367 - 00 00 00 71 6A 81 6E 30 81 6B A1 03 02 01 05 A2 03 02 01 0A A4 81 5E 30 5C A0 07 03 05 00 50 80
2024-10-18 17:07:53.404 - 00 10 A2 04 1B 02 4E 4D A3 17 30 15 A0 03 02 01 00 A1 0E 30 0C 1B 06 6B 72 62 74 67 74 1B 02 4E
2024-10-18 17:07:53.437 - 4D A5 11 18 0F 31 39 37 30 30 31 30 31 30 30 30 30 30 30 5A A7 06 02 04 1F 1E B9 D9 A8 17 30 15
2024-10-18 17:07:53.457 - 02 01 12 02 01 11 02 01 10 02 01 17 02 01 01 02 01 03 02 01 02
2024-10-18 17:07:54.468 - 1A 0F 00 00 00 00 00 01 00 00 01 00 00 01 81 6E 01 71 6A 01 00 00 01 00 00 01 0F (餐厅温湿度虚拟地址)
2024-10-18 17:07:54.616 - 1A 20 00 00 00 86 86 86 0F (调用查询模块-阳台测温湿气压转换, 阳台温湿气压虚拟地址)
2024-10-18 17:07:54.840 - 20 03 00 00 00 03 03 7A (查询阳台温湿度气压)
2024-10-18 17:07:54.857 - 20 03 06 01 40 02 22 27 2E 8F 64 (阳台温湿度返回)
2024-10-18 17:07:55.360 - 1A 20 00 00 00 00 00 01 00 00 01 00 00 01 01 40 01 02 22 01 27 2E 01 00 00 01 0F (阳台温湿气压虚拟地址)
2024-10-18 17:07:55.465 - 1A 21 00 00 00 86 86 86 0F (调用查询模块-储藏室测温湿气压转换, 储藏室温湿气压虚拟地址)
2024-10-18 17:07:55.689 - 21 03 00 00 00 03 02 AB (查询储藏室温湿度气压)
2024-10-18 17:07:55.712 - 21 03 06 01 13 02 C8 27 2E 27 0C (储藏室温湿度返回)
2024-10-18 17:07:56.211 - 1A 21 00 00 00 00 00 01 00 00 01 00 00 01 01 13 01 02 C8 01 27 2E 01 00 00 01 0F (储藏室温湿气压虚拟地址)
2024-10-18 17:07:56.320 - 1A 22 00 00 00 86 86 86 0F (调用查询模块-室外测温湿气压转换, 室外温湿气压虚拟地址)
2024-10-18 17:07:56.545 - 22 03 00 00 00 03 02 98 (查询室外温湿度气压)
2024-10-18 17:07:56.563 - 22 03 06 01 23 02 A3 27 2C 83 E5 (室外温湿度返回)
2024-10-18 17:07:57.064 - 1A 22 00 00 00 00 00 01 00 00 01 00 00 01 01 23 01 02 A3 01 27 2C 01 00 00 01 0F (室外温湿气压虚拟地址)
2024-10-18 17:07:57.189 - 1A 10 00 00 00 86 86 86 0F (调用查询模块-主卧测温转换, 主卧温湿度虚拟地址)
2024-10-18 17:07:57.263 - 00 00 00 B4 FE 53 4D 42 40 00 00 00 00 00 00 00 00 00 00 00 00 00 00 00 00 00 00 00 00 00 00 00
2024-10-18 17:07:57.293 - 00 00 00 00 00 00 00 00 00 00 00 00 00 00 00 00 00 00 00 00 31 32 33 34 35 36 37 38 39 30 31 32
2024-10-18 17:07:57.326 - 33 34 35 36 24 00 05 00 01 00 00 00 00 00 00 00 31 32 33 34 35 36 37 38 39 30 31 32 33 34 35 36
2024-10-18 17:07:57.362 - 70 00 00 00 02 00 00 00 02 02 10 02 00 03 02 03 11 03 00 00 02 00 06 00 00 00 00 00 02 00 02 00
2024-10-18 17:07:57.394 - 01 00 00 00 01 00 2C 00 00 00 00 00 02 00 02 00 01 00 01 00 20 00 01 00 00 00 00 00 00 00 00 00
2024-10-18 17:07:57.424 - 00 00 00 00 00 00 00 00 01 00 00 00 00 00 00 00 00 00 00 00 00 00 00 00
2024-10-18 17:07:57.434 - 1D 03 F8
2024-10-18 17:07:58.441 - 1A 10 00 00 00 00 00 01 00 00 01 00 00 01 53 4D 01 B4 FE 01 00 00 01 00 00 01 0F (主卧温湿度虚拟地址)
2024-10-18 17:08:00.007 - 00 00 00 A4 FF 53 4D 42 72 00 00 00 00 08 01 40 00 00 00 00 00 00 00 00 00 00 00 00 00 00 40 06
2024-10-18 17:08:00.041 - 00 00 01 00 00 81 00 02 50 43 20 4E 45 54 57 4F 52 4B 20 50 52 4F 47 52 41 4D 20 31 2E 30 00 02
2024-10-18 17:08:00.075 - 4D 49 43 52 4F 53 4F 46 54 20 4E 45 54 57 4F 52 4B 53 20 31 2E 30 33 00 02 4D 49 43 52 4F 53 4F
2024-10-18 17:08:00.109 - 46 54 20 4E 45 54 57 4F 52 4B 53 20 33 2E 30 00 02 4C 41 4E 4D 41 4E 31 2E 30 00 02 4C 4D 31 2E
2024-10-18 17:08:00.144 - 32 58 30 30 32 00 02 53 61 6D 62 61 00 02 4E 54 20 4C 41 4E 4D 41 4E 20 31 2E 30 00 02 4E 54 20
2024-10-18 17:08:00.150 - 4C 4D 20 30 2E 31 32 00
2024-10-18 17:08:09.047 - 6C 00 0B 00 00 00 00 00 00 00 00 00
2024-10-18 17:08:18.124 - 47 45 54 20 2F 6E 69 63 65 25 32 30 70 6F 72 74 73 25 32 43 2F 54 72 69 25 36 45 69 74 79 2E 74
2024-10-18 17:08:18.150 - 78 74 25 32 65 62 61 6B 20 48 54 54 50 2F 31 2E 30 0D 0A 0D 0A
2024-10-18 17:08:27.183 - 01 64 65 66 61 75 6C 74 0A
2024-10-18 17:08:36.298 - F9 BE B4 D9 76 65 72 73 69 6F 6E 00 00 00 00 00 66 00 00 00 47 48 C3 13 7F 11 01 00 0D 00 00 00
2024-10-18 17:08:36.325 - 00 00 00 00 06 09 3D 5A 00 00 00 00 09 00 00 00 00 00 00 00 00 00 00 00 00 00 00 00 00 00 FF FF
2024-10-18 17:08:36.361 - 59 4B 49 0B 20 8D 0D 00 00 00 00 00 00 00 00 00 00 00 00 00 00 00 00 00 00 00 00 00 00 00 00 00
2024-10-18 17:08:36.394 - 7F C4 A3 41 FC 04 E7 E4 10 2F 53 61 74 6F 73 68 69 3A 30 2E 31 35 2E 31 2F 00 00 00 00 01
2024-10-18 17:08:45.401 - 30 84 00 00 00 2D 02 01 07 63 84 00 00 00 24 04 00 0A 01 00 0A 01 00 02 01 00 02 01 64 01 01 00
2024-10-18 17:08:45.418 - 87 0B 6F 62 6A 65 63 74 43 6C 61 73 73 30 84 00 00 00 00
2024-10-18 17:08:54.444 - 30 0C 02 01 01 60 07 02 01 02 04 00 80 00
2024-10-18 17:09:03.528 - 4F 50 54 49 4F 4E 53 20 73 69 70 3A 6E 6D 20 53 49 50 2F 32 2E 30 0D 0A 56 69 61 3A 20 53 49 50
2024-10-18 17:09:03.566 - 2F 32 2E 30 2F 54 43 50 20 6E 6D 3B 62 72 61 6E 63 68 3D 66 6F 6F 0D 0A 46 72 6F 6D 3A 20 3C 73
2024-10-18 17:09:03.597 - 69 70 3A 6E 6D 40 6E 6D 3E 3B 74 61 67 3D 72 6F 6F 74 0D 0A 54 6F 3A 20 3C 73 69 70 3A 6E 6D 32
2024-10-18 17:09:03.632 - 40 6E 6D 32 3E 0D 0A 43 61 6C 6C 2D 49 44 3A 20 35 30 30 30 30 0D 0A 43 53 65 71 3A 20 34 32 20
2024-10-18 17:09:03.661 - 4F 50 54 49 4F 4E 53 0D 0A 4D 61 78 2D 46 6F 72 77 61 72 64 73 3A 20 37 30 0D 0A 43 6F 6E 74 65
2024-10-18 17:09:03.695 - 6E 74 2D 4C 65 6E 67 74 68 3A 20 30 0D 0A 43 6F 6E 74 61 63 74 3A 20 3C 73 69 70 3A 6E 6D 40 6E
2024-10-18 17:09:03.728 - 6D 3E 0D 0A 41 63 63 65 70 74 3A 20 61 70 70 6C 69 63 61 74 69 6F 6E 2F 73 64 70 0D 0A 0D 0A
2024-10-18 17:09:15.617 - 49 4E 56 49 54 45 53 20 73 69 70 3A 6E 6D 20 53 49 50 2F 32 2E 30 0D 0A 56 69 61 3A 20 53 49 50
2024-10-18 17:09:15.650 - 2F 32 2E 30 2F 54 43 50 20 6E 6D 3B 62 72 61 6E 63 68 3D 66 6F 6F 0D 0A 46 72 6F 6D 3A 20 3C 73
2024-10-18 17:09:15.683 - 69 70 3A 6E 6D 40 6E 6D 3E 3B 74 61 67 3D 72 6F 6F 74 0D 0A 54 6F 3A 20 3C 73 69 70 3A 6E 6D 32
2024-10-18 17:09:15.717 - 40 6E 6D 32 3E 0D 0A 43 61 6C 6C 2D 49 44 3A 20 35 30 30 30 30 0D 0A 43 53 65 71 3A 20 34 32 20
2024-10-18 17:09:15.750 - 4F 50 54 49 4F 4E 53 0D 0A 4D 61 78 2D 46 6F 72 77 61 72 64 73 3A 20 37 30 0D 0A 43 6F 6E 74 65
2024-10-18 17:09:15.786 - 6E 74 2D 4C 65 6E 67 74 68 3A 20 30 0D 0A 43 6F 6E 74 61 63 74 3A 20 3C 73 69 70 3A 6E 6D 40 6E
2024-10-18 17:09:15.818 - 6D 3E 0D 0A 41 63 63 65 70 74 3A 20 61 70 70 6C 69 63 61 74 69 6F 6E 2F 73 64 70 0D 0A 0D 0A
2024-10-18 17:09:27.686 - 54 4E 4D 50 04 00 00 00 54 4E 4D 45 00 00 04 00
2024-10-18 17:09:36.775 - 03 00 00 0B 06 E0 00 00 00 00 00
2024-10-18 17:09:45.864 - 06 83 A4 4A 6F 69 6E C3 A5 4E 6F 64 65 73 01 AC 55 73 65 72 53 74 61 74 65 4C 65 6E 00 87 A4 41
2024-10-18 17:09:45.899 - 64 64 72 B0 00 00 00 00 00 00 00 00 00 00 FF FF C0 A8 38 01 AB 49 6E 63 61 72 6E 61 74 69 6F 6E
2024-10-18 17:09:45.934 - 01 A4 4D 65 74 61 C0 A4 4E 61 6D 65 AF 44 45 53 4B 54 4F 50 2D 4E 52 38 54 54 56 52 A4 50 6F 72
2024-10-18 17:09:45.958 - 74 CD 1F 0A A5 53 74 61 74 65 00 A3 56 73 6E A6 01 05 02 00 00 00
2024-10-18 17:09:54.960 - 12 02 69 6E 64 65 78 00 00 00 00 00 00 00 00 80 00 00 00 00
2024-10-18 17:10:04.016 - 3C 3F 78 6D 6C 20 76 65 72 73 69 6F 6E 3D 27 31 2E 30 27 3F 3E 3C 73 74 72 65 61 6D 3A 73 74 72
2024-10-18 17:10:04.049 - 65 61 6D 20 78 6D 6C 6E 73 3A 73 74 72 65 61 6D 3D 27 68 74 74 70 3A 2F 2F 65 74 68 65 72 78 2E
2024-10-18 17:10:04.085 - 6A 61 62 62 65 72 2E 6F 72 67 2F 73 74 72 65 61 6D 73 27 20 78 6D 6C 6E 73 3D 27 6A 61 62 62 65
2024-10-18 17:10:04.117 - 72 3A 63 6C 69 65 6E 74 27 20 78 6D 6C 3A 6C 61 6E 67 3D 27 72 75 2D 52 55 27 20 74 6F 3D 27 2E
2024-10-18 17:10:04.134 - 27 20 76 65 72 73 69 6F 6E 3D 27 31 2E 30 27 3E
2024-10-18 17:10:13.076 - 00 9C 00 01 1A 2B 3C 4D 00 01 00 00 01 00 00 00 00 00 00 01 00 00 00 01 FF FF 00 01 6E 6F 6E 65
2024-10-18 17:10:13.109 - 00 00 00 00 00 00 00 00 00 00 00 00 00 00 00 00 00 00 00 00 00 00 00 00 00 00 00 00 00 00 00 00
2024-10-18 17:10:13.143 - 00 00 00 00 00 00 00 00 00 00 00 00 00 00 00 00 00 00 00 00 00 00 00 00 00 00 00 00 70 70 61 70
2024-10-18 17:10:13.179 - 00 00 00 00 00 00 00 00 00 00 00 00 00 00 00 00 00 00 00 00 00 00 00 00 00 00 00 00 00 00 00 00
2024-10-18 17:10:13.206 - 00 00 00 00 00 00 00 00 00 00 00 00 00 00 00 00 00 00 00 00 00 00 00 00 00 00 00 00
2024-10-18 17:10:22.193 - 81 78 17 01 23 00 00 00 2E CA 3D 08 BA BA BD 24 00 D6 27 FF F5 DD F9 F1 89 B7 F3 B8 17 A8 F7 57
2024-10-18 17:10:22.203 - 1D 45 05 24 65 A5 56 C7 3E 5C DC
2024-10-18 17:10:31.329 - 23 00 00 00 12 21 10 03 1A 06 3A 36 32 37 31 30 2A 0D 66 64 31 33 35 67 65 40 26 79 74 5F 30 32
2024-10-18 17:10:31.336 - 06 31 32 33 34 35 36
2024-10-18 17:10:40.419 - 00 00 00 0A 00 12 00 00 7F FF FF F8 00 00
2024-10-18 17:10:49.519 - 7B 22 69 64 22 3A 31 2C 22 6A 73 6F 6E 72 70 63 22 3A 22 32 2E 30 22 2C 22 6D 65 74 68 6F 64 22
2024-10-18 17:10:49.550 - 3A 22 6C 6F 67 69 6E 22 2C 22 70 61 72 61 6D 73 22 3A 7B 22 6C 6F 67 69 6E 22 3A 22 59 4F 55 52
2024-10-18 17:10:49.588 - 5F 57 41 4C 4C 45 54 5F 41 44 44 52 45 53 53 22 2C 22 70 61 73 73 22 3A 22 78 22 2C 22 61 67 65
2024-10-18 17:10:49.621 - 6E 74 22 3A 22 58 4D 52 69 67 2F 36 2E 32 30 2E 30 2D 43 33 50 6F 6F 6C 22 2C 22 61 6C 67 6F 22
2024-10-18 17:10:49.653 - 3A 5B 22 63 6E 2F 31 22 5D 2C 22 61 6C 67 6F 2D 70 65 72 66 22 3A 7B 22 63 6E 2F 31 22 3A 36 33
2024-10-18 17:10:49.677 - 2E 33 32 30 33 38 32 32 33 32 34 38 39 37 36 7D 7D 7D 0A
2024-10-18 17:11:06.861 - 45 58 41 4D 50 4C 45 2E 43 4F 4D 0D 0A
2024-10-18 17:11:15.967 - A0 05 00 60 00 00 00 00 00 00 00 00 00 00 00 00 00 00 00 00 00 00 00 00 05 02 00 01 00 00 A1 AA
2024-10-18 17:11:25.112 - F1 F5 EA F5 00 00 5D 00 00 00 00 00 00 00 00 00 49 00 00 00 32 32 33 2E 37 35 2E 31 32 33 2E 37
2024-10-18 17:11:25.145 - 31 09 49 50 09 55 53 45 52 09 4C 4F 47 4F 4E 09 51 57 52 74 61 57 34 3D 09 51 57 52 74 61 57 34
2024-10-18 17:11:25.177 - 3D 09 09 36 35 35 33 36 09 55 54 46 2D 38 09 38 30 35 33 30 36 33 36 37 09 31 0A 0A 0A
2024-10-18 17:11:34.262 - 00 00 00 19 61 0A 07 34 2E 36 2E 32 2E 33 10 06 22 09 38 37 39 38 33 30 36 36 38 30 01
2024-10-18 17:11:43.346 - 32 57 00 00 00 01 32 43 00 00 00 77 78 5E 00 6A 00 95 FF 32 4A 00 00 00 01 00 00 00 60 7B 22 40
2024-10-18 17:11:43.382 - 74 69 6D 65 73 74 61 6D 70 22 3A 22 32 30 32 33 2D 31 31 2D 31 30 54 31 36 3A 33 31 3A 31 39 2E
2024-10-18 17:11:43.420 - 33 35 34 39 36 33 34 2B 30 38 3A 30 30 22 2C 22 6D 65 73 73 61 67 65 22 3A 22 74 22 2C 22 6F 66
2024-10-18 17:11:43.449 - 66 73 65 74 22 3A 31 30 30 30 2C 22 74 79 70 65 22 3A 22 66 69 6C 65 62 65 61 74 22 7D 03 00 36
2024-10-18 17:11:43.450 - 8A 1B 7F
2024-10-18 17:11:52.403 - 00 00 00 6D 00 00 00 69 7B 22 63 6F 64 65 22 3A 31 30 35 2C 22 6C 61 6E 67 75 61 67 65 22 3A 22
2024-10-18 17:11:52.437 - 47 4F 22 2C 22 76 65 72 73 69 6F 6E 22 3A 33 31 37 2C 22 6F 70 61 71 75 65 22 3A 32 2C 22 66 6C
2024-10-18 17:11:52.469 - 61 67 22 3A 30 2C 22 72 65 6D 61 72 6B 22 3A 22 22 2C 22 65 78 74 46 69 65 6C 64 73 22 3A 7B 22
2024-10-18 17:11:52.488 - 74 6F 70 69 63 22 3A 22 54 42 57 31 30 32 22 7D 7D
2024-10-18 17:12:01.546 - 48 45 4C 46 3B 00 00 00 00 00 00 00 FF FF FF 7F FF FF FF 7F 00 00 00 00 00 00 00 00 1B 00 00 00
2024-10-18 17:12:01.575 - 6F 70 63 2E 74 63 70 3A 2F 2F 38 35 2E 32 31 34 2E 31 32 36 2E 33 3A 34 38 34 30
2024-10-18 17:12:10.573 - 00 01 00 01 00 00 00 01 00 00 00 00
2024-10-18 17:12:19.673 - 29 00 00 00 00 00 00 00 7B 22 54 79 70 65 22 3A 22 41 75 74 68 22 2C 22 50 61 79 6C 6F 61 64 22
2024-10-18 17:12:19.690 - 3A 7B 22 56 65 72 73 69 6F 6E 22 3A 22 32 22 7D 7D
2024-10-18 17:12:28.770 - 00 00 00 06 00 00 00 30 2E 32 36 2E 30 07 00 00 00 30 2E 32 36 2E 31 30 32 30 32 63 62 39 36 32
2024-10-18 17:12:28.792 - 61 63 35 39 30 37 35 62 39 36 34 62 30 37 31 35 32 64 32 33 34 62 37 30
2024-10-18 17:12:37.856 - 86 74 00 00 00 05 00 2B 0E 01 00
2024-10-18 17:12:46.942 - 03 00 00 16 11 E0 00 00 00 14 00 C1 02 01 00 C2 02 01 02 C0 01 0A
2024-10-18 17:12:56.013 - 44 6D 64 54 00 00 00 17 00 00 00 01 00 00 00 00 11 11 00 FF 01 FF 13
2024-10-18 17:13:05.133 - 3A 00 00 00 2F 00 00 00 02 00 00 40 02 0F 00 01 00 3D 05 00 00 00 00 00 00 00 00 00 00 00 00 2F
2024-10-18 17:13:05.163 - 00 00 00 00 00 00 00 00 00 40 1F 00 00 00 00 00 00 00 00 00 00 00 00 00 00 00 00 00
2024-10-18 17:13:14.219 - 4A 52 4D 49 00 02 4B
2024-10-18 17:13:23.304 - 01 00 00 FD CE FA 0B B0 A0 00 00 00 4D 4D 53 14 00 00 00 00 00 00 00 00 00 00 00 00 00 00 00 12
2024-10-18 17:13:23.337 - 00 00 00 01 00 03 00 F0 F0 F0 F0 0B 00 04 00 1C 00 03 00 4E 00 53 00 50 00 6C 00 61 00 79 00 65
2024-10-18 17:13:23.371 - 00 72 00 2F 00 39 00 2E 00 30 00 2E 00 30 00 2E 00 32 00 39 00 38 00 30 00 3B 00 20 00 7B 00 30
2024-10-18 17:13:23.405 - 00 30 00 30 00 30 00 41 00 41 00 30 00 30 00 2D 00 30 00 41 00 30 00 30 00 2D 00 30 00 30 00 61
2024-10-18 17:13:23.438 - 00 30 00 2D 00 41 00 41 00 30 00 41 00 2D 00 30 00 30 00 30 00 30 00 41 00 30 00 41 00 41 00 30
2024-10-18 17:13:23.455 - 00 41 00 41 00 30 00 7D 00 00 00 E0 6D DF 5F
2024-10-18 17:13:32.418 - 00 5A 00 00 01 00 00 00 01 36 01 2C 00 00 08 00 7F FF 7F 08 00 00 00 01 00 20 00 3A 00 00 00 00
2024-10-18 17:13:32.452 - 00 00 00 00 00 00 00 00 00 00 00 00 34 E6 00 00 00 01 00 00 00 00 00 00 00 00 28 43 4F 4E 4E 45
2024-10-18 17:13:32.481 - 43 54 5F 44 41 54 41 3D 28 43 4F 4D 4D 41 4E 44 3D 76 65 72 73 69 6F 6E 29 29
2024-10-18 17:13:41.489 - 05 04 00 01 02 80 05 01 00 03 0A 67 6F 6F 67 6C 65 2E 63 6F 6D 00 50 47 45 54 20 2F 20 48 54 54
2024-10-18 17:13:41.500 - 50 2F 31 2E 30 0D 0A 0D 0A
2024-10-18 17:13:50.816 - 04 01 00 16 7F 00 00 01 72 6F 6F 74 00
2024-10-18 17:13:59.911 - 12 01 00 34 00 00 00 00 00 00 15 00 06 01 00 1B 00 01 02 00 1C 00 0C 03 00 28 00 04 FF 08 00 01
2024-10-18 17:13:59.934 - 55 00 00 00 4D 53 53 51 4C 53 65 72 76 65 72 00 48 0F 00 00
2024-10-18 17:14:08.969 - 73 74 61 74 73 0D 0A
2024-10-18 17:14:18.105 - 01 C2 00 00 00 04 00 00 B6 01 00 00 53 51 4C 44 42 32 52 41 00 01 00 00 04 01 01 00 05 00 1D 00
2024-10-18 17:14:18.141 - 88 00 00 00 01 00 00 80 00 00 00 01 09 00 00 00 01 00 00 40 00 00 00 01 09 00 00 00 01 00 00 40
2024-10-18 17:14:18.172 - 00 00 00 01 08 00 00 00 04 00 00 40 00 00 00 01 04 00 00 00 01 00 00 40 00 00 00 40 04 00 00 00
2024-10-18 17:14:18.204 - 04 00 00 40 00 00 00 01 04 00 00 00 04 00 00 40 00 00 00 01 04 00 00 00 04 00 00 40 00 00 00 01
2024-10-18 17:14:18.238 - 04 00 00 00 02 00 00 40 00 00 00 01 04 00 00 00 04 00 00 40 00 00 00 01 00 00 00 00 01 00 00 40
2024-10-18 17:14:18.271 - 00 00 00 00 04 00 00 00 04 00 00 80 00 00 00 01 04 00 00 00 04 00 00 80 00 00 00 01 04 00 00 00
2024-10-18 17:14:18.305 - 03 00 00 80 00 00 00 01 04 00 00 00 04 00 00 80 00 00 00 01 08 00 00 00 01 00 00 40 00 00 00 01
2024-10-18 17:14:18.339 - 04 00 00 00 04 00 00 40 00 00 00 01 10 00 00 00 01 00 00 80 00 00 00 01 10 00 00 00 01 00 00 80
2024-10-18 17:14:18.370 - 00 00 00 01 04 00 00 00 04 00 00 40 00 00 00 01 09 00 00 00 01 00 00 40 00 00 00 01 09 00 00 00
2024-10-18 17:14:18.403 - 01 00 00 80 00 00 00 01 04 00 00 00 03 00 00 80 00 00 00 01 00 00 00 00 00 00 00 00 00 00 00 00
2024-10-18 17:14:18.439 - 01 04 00 00 01 00 00 80 00 00 00 01 00 00 00 00 00 00 00 00 00 00 00 00 00 00 00 00 00 00 00 00
2024-10-18 17:14:18.471 - 00 00 00 00 00 00 00 00 01 00 00 40 00 00 00 01 00 00 00 00 01 00 00 40 00 00 00 00 20 20 20 20
2024-10-18 17:14:18.504 - 20 20 20 20 00 00 00 00 00 00 00 00 00 00 00 00 00 00 00 00 01 00 FF 00 00 00 00 00 00 00 00 00
2024-10-18 17:14:18.536 - 00 00 00 00 00 00 00 00 00 00 00 00 E4 04 00 00 00 00 00 00 00 00 00 00 00 00 00 00 00 00 00 00
2024-10-18 17:14:18.542 - 00 7F
2024-10-18 17:14:27.151 - 00 03 00 01 00 00 00 00 00 00 00 02 00 00 00 00 0F 00
2024-10-18 17:14:36.235 - 41 00 00 00 3A 30 00 00 FF FF FF FF D4 07 00 00 00 00 00 00 74 65 73 74 2E 24 63 6D 64 00 00 00
2024-10-18 17:14:36.268 - 00 00 FF FF FF FF 1B 00 00 00 01 73 65 72 76 65 72 53 74 61 74 75 73 00 00 00 00 00 00 00 F0 3F
2024-10-18 17:14:36.274 - 00
2024-10-18 17:14:45.331 - 2A 31 0D 0A 24 34 0D 0A 69 6E 66 6F 0D 0A
2024-10-18 17:14:54.460 - FE 01
2024-10-18 17:15:03.533 - 47 49 4F 50 01 00 01 00 24 00 00 00 00 00 00 00 01 00 00 00 01 00 00 00 06 00 00 00 61 62 63 64
2024-10-18 17:15:03.551 - 65 66 00 00 04 00 00 00 67 65 74 00 00 00 00 00
2024-10-18 17:15:12.587 - 10 10 00 04 4D 51 54 54 04 02 00 1E 00 04 6E 6D 61 70
2024-10-18 17:15:21.694 - 43 4E 58 4E 00 00 00 01 00 10 00 00 07 00 00 00 32 02 00 00 BC B1 A7 B1 68 6F 73 74 3A 3A 00
2024-10-18 17:19:15.201 - 1A FF FF FF 04 FD (继电器地址-东阳衣架)
2024-10-18 17:19:15.339 - 00
2024-10-18 17:59:00.122 - 19 08 24 03 DD 00 02 00 01 (调用情景-进门（暗）)
2024-10-18 17:59:00.649 - 1A FF 01 FF FF FF 45 01 FF 45 01 FF 00 00 0F (调光器地址-公共区域统配地址, 公共区域微光)
2024-10-18 17:59:01.244 - 1A EC A0 DC 02 00 00 01 0F (自保持开关地址-天花12V供电, 天花12V 供电开)
2024-10-18 17:59:01.797 - 1A FF 01 FF FF FF 45 01 FF 45 01 FF 00 00 0F (调光器地址-公共区域统配地址, 公共区域微光)
2024-10-18 17:59:02.892 - EE 00 00 B1 00 00 00 FF FC FF FF (情景执行提示)
2024-10-18 17:59:03.483 - 1A EC A0 DC 01 00 00 01 0F (自保持开关地址-电视、设备12V供电, 12V 电视供电开)
2024-10-18 17:59:04.033 - 1A EC A0 DC 01 00 00 01 0F (自保持开关地址-电视、设备12V供电, 12V 电视供电开)
2024-10-18 17:59:04.582 - 1A EC A0 DC 04 00 01 01 0F (自保持开关地址-次卧西阳内外卫供电, 内卫外卫开)
2024-10-18 17:59:05.129 - 1A EC A0 DC 04 00 01 01 0F (自保持开关地址-次卧西阳内外卫供电, 内卫外卫开)
2024-10-18 17:59:05.673 - 1A BB BB BB 01 01 00 (开水器电源开)
2024-10-18 17:59:07.219 - 1A 27 89 12 AA 00 00 01 0F (状态寄存器地址, 有人状态)
2024-10-18 17:59:07.771 - 1A 27 89 12 AA 00 00 01 0F (状态寄存器地址, 有人状态)
2024-10-18 17:59:08.316 - 1A FF FF FF 56 00 00 01 0F (人体感应地址-内卫, 打开内卫感应)
2024-10-18 17:59:08.330 - BC BC
2024-10-18 17:59:08.942 - 1A FF FF FF 55 00 00 01 0F (人体感应地址-外卫, 打开外卫感应)
2024-10-18 17:59:08.957 - BC BC
2024-10-18 17:59:09.513 - 1A FF FF FF 57 00 00 01 0F (人体感应地址-厨房, 打开厨房感应)
2024-10-18 17:59:09.526 - BC BC
2024-10-18 17:59:10.110 - 1A FF FF FF 58 00 00 01 0F (人体感应地址-茶吧, 打开茶吧感应)
2024-10-18 17:59:10.126 - BC BC
2024-10-18 17:59:10.711 - 1A BE B0 DC 01 00 01 00 (继电器地址-回水泵点动, 回水泵点动)
2024-10-18 17:59:11.305 - 1A BE B0 DC 01 00 01 00 (继电器地址-回水泵点动, 回水泵点动)
2024-10-18 17:59:11.860 - A5 00 B7 FF 00 AA 22 0D (书房纱帘关)
2024-10-18 17:59:12.399 - A5 00 A2 FF 00 AA (餐厅纱帘关)
2024-10-18 17:59:12.950 - 09 06 00 0F 02 01 78 21 (提示音叮)
2024-10-18 17:59:13.359 - 19 08 24 03 DD 00 11 00 01 (调用情景-客餐厅空调关)
2024-10-18 17:59:13.500 - 09 06 00 0F 02 01 78 21 (提示音叮)
2024-10-18 17:59:14.048 - EE 00 00 B1 00 00 02 FF FC FF FF (情景完成返回主页)
2024-10-18 17:59:14.640 - A1 11 11 11 50 (天花供电打开确认)
2024-10-18 17:59:14.864 - 1A EC A0 DC 02 86 86 86 0F (查询天花供电状态, 自保持开关地址-天花12V供电)
2024-10-18 17:59:15.297 - 1A EC A0 DC 02 01 01 0F (自保持开关地址-天花12V供电)
2024-10-18 17:59:17.681 - A1 11 11 11 51 (卫生供电打开确认)
2024-10-18 17:59:17.909 - 1A EC A0 DC 04 86 86 86 0F (查询卫生间供电状态, 自保持开关地址-次卧西阳内外卫供电)
2024-10-18 17:59:18.342 - 1A EC A0 DC 04 01 01 0F (自保持开关地址-次卧西阳内外卫供电)
2024-10-18 17:59:20.719 - A1 11 11 11 52 (电视供电打开确认)
2024-10-18 17:59:20.948 - 1A EC A0 DC 01 86 86 86 0F (查询电视供电状态, 自保持开关地址-电视、设备12V供电)
2024-10-18 17:59:21.379 - 1A EC A0 DC 01 01 01 0F (自保持开关地址-电视、设备12V供电)
2024-10-18 17:59:23.759 - A1 11 11 11 47 (天热回家开帘)
2024-10-18 17:59:23.986 - 1A 27 89 12 AA 86 86 86 0F (查询寄存器状态, 状态寄存器地址)
2024-10-18 17:59:24.355 - 1A 27 89 12 AA 01 E0 0F (状态寄存器地址)
2024-10-18 17:59:24.367 - 00 B1 00 00 00 FF FC FF FF 00 00 00 0F
2024-10-18 17:59:24.958 - 09 06 00 0F 02 01 78 21 (提示音叮)
2024-10-18 17:59:25.504 - 01 06 07 D0 FF 60 C8 9F (客厅空调关)
2024-10-18 17:59:25.539 - 01 06 07 D0 FF 60 C8 9F (客厅空调关)
2024-10-18 17:59:29.592 - 01 06 07 D3 FF 60 38 9F (餐厅空调关)
2024-10-18 17:59:29.624 - 01 06 07 D3 FF 60 38 9F (餐厅空调关)
2024-10-18 17:59:33.678 - 09 06 00 0F 02 02 38 20 (提示音咚)
2024-10-18 17:59:34.229 - EE 00 00 B1 00 00 02 FF FC FF FF (情景完成返回主页)
2024-10-18 17:59:39.217 - 19 08 24 03 CC 01 1B 00 01
2024-10-18 17:59:39.263 - 01 06 07 D6 FF 60 28 9E (主卧空调关)
2024-10-18 17:59:50.898 - 19 08 24 03 DD 00 1A 00 01 (调用情景-客厅电视播放)
2024-10-18 17:59:51.419 - EE 00 00 B1 00 00 00 FF FC FF FF (情景执行提示)
2024-10-18 17:59:52.015 - 09 06 00 0F 02 01 78 21 (提示音叮)
2024-10-18 17:59:52.558 - 50 F0 08 (开客厅影视)
2024-10-18 17:59:56.488 - 19 08 24 03 CC 01 CC 00 01 (调用茶吧感应灯开的按键)
2024-10-18 17:59:56.520 - 1A AA AA AA 88 FF B0 01 FF B0 01 0F (调光器地址-茶吧灯带, 茶吧灯带明亮)
2024-10-18 18:00:01.630 - 50 F1 28 (客厅—有线2)
2024-10-18 18:00:02.185 - 09 06 00 0F 02 01 78 21 (提示音叮)
2024-10-18 18:00:02.476 - 19 08 24 03 CC 00 D3 00 01 (调用厨房感应灯开的按键)
2024-10-18 18:00:02.533 - 55 0A 32 00 00 00 01 92 55 0A 32 00 00 00 02 93 (厨房顶灯一开, 厨房顶灯二开)
2024-10-18 18:00:02.937 - EE 00 00 B1 00 00 02 FF FC FF FF (情景完成返回主页)
2024-10-18 18:00:37.570 - 19 08 24 03 CC 01 CD 00 01 (调用茶吧感应灯关的按键)
2024-10-18 18:00:37.598 - 1A AA AA AA 88 FF 00 01 FF 00 01 0F (调光器地址-茶吧灯带, 茶吧灯带关闭)
2024-10-18 18:05:09.609 - 19 08 24 03 CC 01 CC 00 01 (调用茶吧感应灯开的按键)
2024-10-18 18:05:09.634 - 1A AA AA AA 88 FF B0 01 FF B0 01 0F (调光器地址-茶吧灯带, 茶吧灯带明亮)
2024-10-18 18:05:22.129 - 19 08 24 03 CC 01 CD 00 01 (调用茶吧感应灯关的按键)
2024-10-18 18:05:22.160 - 1A AA AA AA 88 FF 00 01 FF 00 01 0F (调光器地址-茶吧灯带, 茶吧灯带关闭)
2024-10-18 18:05:24.131 - 19 08 24 03 CC 01 CC 00 01 (调用茶吧感应灯开的按键)
2024-10-18 18:05:24.165 - 1A AA AA AA 88 FF B0 01 FF B0 01 0F (调光器地址-茶吧灯带, 茶吧灯带明亮)
2024-10-18 18:05:48.655 - 19 08 24 03 CC 00 D4 00 01 (调用厨房感应灯关的按键)
2024-10-18 18:05:48.692 - 55 0A 31 00 00 00 01 91 55 0A 31 00 00 00 02 92 (厨房顶灯一关, 厨房顶灯二关)
2024-10-18 18:05:57.197 - 19 08 24 03 CC 01 CD 00 01 (调用茶吧感应灯关的按键)
2024-10-18 18:05:57.231 - 1A AA AA AA 88 FF 00 01 FF 00 01 0F (调光器地址-茶吧灯带, 茶吧灯带关闭)
2024-10-18 18:06:43.276 - 19 08 24 03 CC 01 54 00 01 (调用内卫感应灯开的按键)
2024-10-18 18:06:43.309 - 1A 0C 02 08 01 FF 45 01 FF 45 01 FF 00 00 0F (调光器地址-内卫射灯, 内卫射灯微光)
2024-10-18 18:07:54.416 - 19 08 24 03 CC 01 55 00 01 (调用内卫感应灯关的按键)
2024-10-18 18:07:54.448 - 1A 0C 02 08 01 FF 00 01 FF 00 01 FF 00 00 0F (调光器地址-内卫射灯, 内卫感应灯关)
2024-10-18 18:08:06.955 - 19 08 24 03 CC 01 CC 00 01 (调用茶吧感应灯开的按键)
2024-10-18 18:08:06.984 - 1A AA AA AA 88 FF B0 01 FF B0 01 0F (调光器地址-茶吧灯带, 茶吧灯带明亮)
2024-10-18 18:08:22.959 - 19 08 24 03 CC 00 D3 00 01 (调用厨房感应灯开的按键)
2024-10-18 18:08:22.993 - 55 0A 32 00 00 00 01 92 55 0A 32 00 00 00 02 93 (厨房顶灯一开, 厨房顶灯二开)
2024-10-18 18:08:34.510 - 19 08 24 03 CC 01 CD 00 01 (调用茶吧感应灯关的按键)
2024-10-18 18:08:34.541 - 1A AA AA AA 88 FF 00 01 FF 00 01 0F (调光器地址-茶吧灯带, 茶吧灯带关闭)
2024-10-18 18:08:51.040 - 19 08 24 03 CC 01 CC 00 01 (调用茶吧感应灯开的按键)
2024-10-18 18:08:51.073 - 1A AA AA AA 88 FF B0 01 FF B0 01 0F (调光器地址-茶吧灯带, 茶吧灯带明亮)
2024-10-18 18:09:13.083 - 19 08 24 03 CC 01 CD 00 01 (调用茶吧感应灯关的按键)
2024-10-18 18:09:13.116 - 1A AA AA AA 88 FF 00 01 FF 00 01 0F (调光器地址-茶吧灯带, 茶吧灯带关闭)
2024-10-18 18:11:33.362 - 19 08 24 03 CC 01 CC 00 01 (调用茶吧感应灯开的按键)
2024-10-18 18:11:33.391 - 1A AA AA AA 88 FF B0 01 FF B0 01 0F (调光器地址-茶吧灯带, 茶吧灯带明亮)
2024-10-18 18:11:45.385 - 19 08 24 03 CC 01 CD 00 01 (调用茶吧感应灯关的按键)
2024-10-18 18:11:45.415 - 1A AA AA AA 88 FF 00 01 FF 00 01 0F (调光器地址-茶吧灯带, 茶吧灯带关闭)
2024-10-18 18:12:17.924 - 19 08 24 03 CC 00 D4 00 01 (调用厨房感应灯关的按键)
2024-10-18 18:12:17.955 - 55 0A 31 00 00 00 01 91 55 0A 31 00 00 00 02 92 (厨房顶灯一关, 厨房顶灯二关)
2024-10-18 18:57:37.315 - 19 08 24 03 CC 01 CC 00 01 (调用茶吧感应灯开的按键)
2024-10-18 18:57:37.343 - 1A AA AA AA 88 FF B0 01 FF B0 01 0F (调光器地址-茶吧灯带, 茶吧灯带明亮)
2024-10-18 18:57:44.777 - 19 08 24 03 CC 00 D3 00 01 (调用厨房感应灯开的按键)
2024-10-18 18:57:44.810 - 55 0A 32 00 00 00 01 92 55 0A 32 00 00 00 02 93 (厨房顶灯一开, 厨房顶灯二开)
2024-10-18 18:57:54.872 - 19 08 24 03 CC 01 52 00 01 (调用外卫感应灯开的按键)
2024-10-18 18:57:54.905 - 1A 0D 01 07 01 FF 45 01 FF 45 01 FF 00 00 0F (调光器地址-外卫射灯, 外卫感应灯开)
2024-10-18 18:58:02.366 - 19 08 24 03 CC 01 CD 00 01 (调用茶吧感应灯关的按键)
2024-10-18 18:58:02.399 - 1A AA AA AA 88 FF 00 01 FF 00 01 0F (调光器地址-茶吧灯带, 茶吧灯带关闭)
2024-10-18 18:58:23.854 - 19 08 24 03 CC 00 D4 00 01 (调用厨房感应灯关的按键)
2024-10-18 18:58:23.917 - 55 0A 31 00 00 00 01 91 55 0A 31 00 00 00 02 92 (厨房顶灯一关, 厨房顶灯二关)
2024-10-18 18:58:32.953 - 19 08 24 03 CC 01 53 00 01 (调用外卫感应灯关的按键)
2024-10-18 18:58:32.985 - 1A 0D 01 07 01 FF 00 01 FF 00 01 FF 00 00 0F (调光器地址-外卫射灯, 外卫感应灯关)
2024-10-18 19:14:44.371 - 19 08 24 03 CC 01 52 00 01 (调用外卫感应灯开的按键)
2024-10-18 19:14:44.402 - 1A 0D 01 07 01 FF 45 01 FF 45 01 FF 00 00 0F (调光器地址-外卫射灯, 外卫感应灯开)
2024-10-18 19:14:51.356 - 19 08 24 03 CC 01 CC 00 01 (调用茶吧感应灯开的按键)
2024-10-18 19:14:51.387 - 1A AA AA AA 88 FF B0 01 FF B0 01 0F (调光器地址-茶吧灯带, 茶吧灯带明亮)
2024-10-18 19:15:42.959 - 19 08 24 03 CC 01 CD 00 01 (调用茶吧感应灯关的按键)
2024-10-18 19:15:42.988 - 1A AA AA AA 88 FF 00 01 FF 00 01 0F (调光器地址-茶吧灯带, 茶吧灯带关闭)
2024-10-18 19:18:32.317 - 19 08 24 03 CC 01 53 00 01 (调用外卫感应灯关的按键)
2024-10-18 19:18:32.353 - 1A 0D 01 07 01 FF 00 01 FF 00 01 FF 00 00 0F (调光器地址-外卫射灯, 外卫感应灯关)
2024-10-18 19:28:35.439 - 19 08 24 03 CC 01 54 00 01 (调用内卫感应灯开的按键)
2024-10-18 19:28:35.473 - 1A 0C 02 08 01 FF 45 01 FF 45 01 FF 00 00 0F (调光器地址-内卫射灯, 内卫射灯微光)
2024-10-18 19:28:37.047 - 1A 20 07 00 93 00 01 02 0F (自保持开关地址-设备区顶, 设备区顶灯开关)
2024-10-18 19:29:15.263 - 1A 20 07 00 93 00 01 02 0F (自保持开关地址-设备区顶, 设备区顶灯开关)
2024-10-18 19:29:34.556 - 19 08 24 03 CC 01 55 00 01 (调用内卫感应灯关的按键)
2024-10-18 19:29:34.590 - 1A 0C 02 08 01 FF 00 01 FF 00 01 FF 00 00 0F (调光器地址-内卫射灯, 内卫感应灯关)
2024-10-18 19:31:20.764 - 19 08 24 03 CC 01 54 00 01 (调用内卫感应灯开的按键)
2024-10-18 19:31:20.799 - 1A 0C 02 08 01 FF 45 01 FF 45 01 FF 00 00 0F (调光器地址-内卫射灯, 内卫射灯微光)
2024-10-18 19:31:41.304 - 19 08 24 03 CC 01 55 00 01 (调用内卫感应灯关的按键)
2024-10-18 19:31:41.337 - 1A 0C 02 08 01 FF 00 01 FF 00 01 FF 00 00 0F (调光器地址-内卫射灯, 内卫感应灯关)
2024-10-18 19:53:19.646 - 1A BE B0 DC 04 (继电器地址-西阳窗帘)
2024-10-18 19:58:24.720 - FF FF FF FF 0E FC (继电器地址-西阳小窗帘)
2024-10-18 19:58:24.856 - FE
2024-10-18 20:07:37.099 - 1A BE B0 DC 02 FC (正反转地址-外卫卷帘)
2024-10-18 20:14:09.871 - 1A BE B0 DC 09 FF (继电器地址-客厅窗帘)
2024-10-18 20:14:10.006 - FF
2024-10-18 20:18:55.125 - 1A BE B0 DC 03 (继电器地址-西阳天幕)
2024-10-18 20:18:55.262 - FF
2024-10-18 20:19:42.098 - 1A BE B0 DC 0A FD (继电器地址-客厅纱帘)
2024-10-18 20:19:42.232 - FF
2024-10-18 20:23:49.324 - 1A BE B0 DC 01 (继电器地址-回水泵点动)
2024-10-18 20:23:49.462 - FE
2024-10-18 20:26:22.684 - FF FF FF FF 0A (继电器地址-东阳窗帘)
2024-10-18 20:32:17.534 - 19 08 24 03 CC 01 CC 00 01 (调用茶吧感应灯开的按键)
2024-10-18 20:32:17.584 - 1A AA AA AA 88 FF B0 01 FF B0 01 0F (调光器地址-茶吧灯带, 茶吧灯带明亮)
2024-10-18 20:32:34.067 - 19 08 24 03 CC 01 CD 00 01 (调用茶吧感应灯关的按键)
2024-10-18 20:32:34.119 - 1A AA AA AA 88 FF 00 01 FF 00 01 0F (调光器地址-茶吧灯带, 茶吧灯带关闭)
2024-10-18 20:34:50.238 - 19 08 24 03 DD 00 41 00 01 (调用情景-主卧照明电视)
2024-10-18 20:34:50.743 - EE 00 00 B1 00 00 00 FF FC FF FF (情景执行提示)
2024-10-18 20:34:51.341 - 09 06 00 0F 02 01 78 21 (提示音叮)
2024-10-18 20:34:51.883 - 50 F0 05 (开主卧影视)
2024-10-18 20:34:52.429 - 50 F0 04 (开内卫影视)
2024-10-18 20:34:52.984 - 1A FF FF FF 56 00 00 00 0F (人体感应地址-内卫, 关闭内卫感应)
2024-10-18 20:34:53.533 - 1A 22 33 62 0F 00 02 01 0F (正反转地址-内卫卷帘, 内卫卷帘降)
2024-10-18 20:34:54.080 - A5 00 53 FE 01 AA (主卧纱帘关)
2024-10-18 20:34:54.135 - 55 00 53 02 02 22 02 2F AA 55 00 53 02 02 22 02 2F FE (主卧纱帘电机状态返回)
2024-10-18 20:34:55.172 - A5 00 52 FF 00 AA (主卧窗帘关)
2024-10-18 20:34:56.282 - 1A 0C 02 04 FF FF 45 01 FF 45 01 FF 00 00 0F (主卧调光微光)
2024-10-18 20:35:00.020 - 1A 22 33 62 0F 00 00 01 0F (正反转地址-内卫卷帘, 内卫卷帘升)
2024-10-18 20:35:02.357 - 1A 0C 02 08 01 FF 45 01 FF 45 01 FF 00 00 0F (调光器地址-内卫射灯, 内卫射灯微光)
2024-10-18 20:35:02.942 - 50 F1 25 (主卧—有线2)
2024-10-18 20:35:03.491 - 50 F1 24 (内卫—有线2)
2024-10-18 20:35:05.540 - AF BF CF DF C2 21 (有线2/快捷-凤凰卫视)
2024-10-18 20:35:05.593 - 55 00 53 00 00 0C FE (主卧纱帘电机状态返回)
2024-10-18 20:35:06.837 - 55 20 20 00 02 09 02 16 AA 55 20 20 00 02 09 02 16 AA (主卧窗帘电机状态返回)
2024-10-18 20:35:07.634 - 1A FF FF FF 60 0B 01 01 0F (红外总线地址-主卧发射设备, 主卧电视电源)
2024-10-18 20:35:08.148 - F0 0B 01 08
2024-10-18 20:35:15.656 - 09 06 00 0F 02 02 38 20 (提示音咚)
2024-10-18 20:35:16.206 - EE 00 00 B1 00 00 02 FF FC FF FF (情景完成返回主页)
2024-10-18 20:35:17.870 - 1A 20 07 00 93 00 01 02 0F (自保持开关地址-设备区顶, 设备区顶灯开关)
2024-10-18 20:37:00.178 - 1A 20 07 00 93 00 01 02 0F (自保持开关地址-设备区顶, 设备区顶灯开关)
2024-10-18 20:37:01.151 - 1A 22 33 62 0F 00 02 01 0F (正反转地址-内卫卷帘, 内卫卷帘降)
2024-10-18 20:37:02.931 - 19 08 24 03 CC 00 C0 00 01
2024-10-18 20:37:02.960 - 1A 0C 02 08 01 FF 45 01 FF 45 01 FF 00 00 0F (调光器地址-内卫射灯, 内卫射灯微光)
2024-10-18 20:37:11.135 - 19 08 24 03 CC 01 52 00 01 (调用外卫感应灯开的按键)
2024-10-18 20:37:11.168 - 1A 0D 01 07 01 FF 45 01 FF 45 01 FF 00 00 0F (调光器地址-外卫射灯, 外卫感应灯开)
2024-10-18 20:37:12.197 - 19 08 24 03 DD 00 1B 00 01 (调用情景-外卫使用)
2024-10-18 20:37:12.747 - EE 00 00 B1 00 00 00 FF FC FF FF (情景执行提示)
2024-10-18 20:37:13.343 - 09 06 00 0F 02 01 78 21 (提示音叮)
2024-10-18 20:37:13.891 - 1A BE B0 DC 02 00 01 00 (正反转地址-外卫卷帘, 外卫卷帘降)
2024-10-18 20:37:14.435 - 50 F0 03 (开外卫影视)
2024-10-18 20:37:14.989 - 1A FF FF FF 55 00 00 00 0F (人体感应地址-外卫, 关闭外卫感应)
2024-10-18 20:37:15.544 - 1A 0D 01 07 01 FF 45 01 FF 45 01 FF 00 00 0F (调光器地址-外卫射灯, 外卫感应灯开)
2024-10-18 20:37:17.628 - 1A BE B0 DC 01 00 01 00 (继电器地址-回水泵点动, 回水泵点动)
2024-10-18 20:37:18.674 - 1A BE B0 DC 01 00 01 00 (继电器地址-回水泵点动, 回水泵点动)
2024-10-18 20:37:19.722 - 1A BE B0 DC 01 00 01 00 (继电器地址-回水泵点动, 回水泵点动)
2024-10-18 20:37:20.764 - 50 F1 43 (外卫—CH4)
2024-10-18 20:37:29.285 - FF
2024-10-18 20:37:37.759 - A1 11 11 11 11 05 (外卫使用浴霸判断)
2024-10-18 20:37:37.984 - 13 03 00 00 00 02 C7 79 (查询外卫温湿度)
2024-10-18 20:37:38.006 - 13 03 04 02 78 01 0F 08 07 (外卫温湿度返回)
2024-10-18 20:37:39.805 - 09 06 00 0F 02 02 38 20 (提示音咚)
2024-10-18 20:37:41.849 - EE 00 00 B1 00 00 02 FF FC FF FF (情景完成返回主页)
2024-10-18 20:38:40.886 - 1A 22 33 62 0F 00 00 01 0F (正反转地址-内卫卷帘, 内卫卷帘升)
2024-10-18 20:38:43.213 - 1A 20 07 00 93 00 01 02 0F (自保持开关地址-设备区顶, 设备区顶灯开关)
2024-10-18 20:40:13.234 - 1A FF FF FF 04 FC (继电器地址-东阳衣架)
2024-10-18 20:40:13.369 - FF
2024-10-18 20:46:06.471 - 1A 20 07 00 93 00 01 02 0F (自保持开关地址-设备区顶, 设备区顶灯开关)
2024-10-18 20:46:07.179 - 1A 22 33 62 0F 00 02 01 0F (正反转地址-内卫卷帘, 内卫卷帘降)
2024-10-18 20:46:14.210 - A1 11 11 11 42 (主卧空调自动开)
2024-10-18 20:46:14.441 - 19 08 24 03 F0 BB 78 02 02 00
2024-10-18 20:46:14.504 - 23 AA 56 02 14 2E 0E 18 0A 12 05 73 65 6F 6B 65 6E 64
2024-10-18 20:46:15.450 - 01 10 07 D6 00 03 06 70 61 00 02 00 F0 0F 3E (主卧空调冷24度)
2024-10-18 20:46:15.488 - 01 10 07 D6 00 03 06 70 61 00 02 00 F0 0F 3E (主卧空调冷24度)
2024-10-18 21:01:37.059 - FF
2024-10-18 21:10:18.686 - 19 08 24 03 DD 00 1C 00 01 (调用情景-外卫使用完毕)
2024-10-18 21:10:19.240 - EE 00 00 B1 00 00 00 FF FC FF FF (情景执行提示)
2024-10-18 21:10:19.834 - 09 06 00 0F 02 01 78 21 (提示音叮)
2024-10-18 21:10:20.389 - 1A 0D 01 07 01 FF 00 01 FF 00 01 FF 00 00 0F (调光器地址-外卫射灯, 外卫感应灯关)
2024-10-18 21:10:20.977 - 50 F5 03 (关外卫影视)
2024-10-18 21:10:21.579 - 1A 20 07 00 42 00 01 00 0F (自保持开关地址-外卫顶灯, 外卫顶灯关)
2024-10-18 21:10:22.177 - 1A FF FF FF 55 00 00 01 0F (人体感应地址-外卫, 打开外卫感应)
2024-10-18 21:10:22.272 - BC BC
2024-10-18 21:10:24.722 - 09 06 00 0F 02 02 38 20 (提示音咚)
2024-10-18 21:10:25.272 - EE 00 00 B1 00 00 02 FF FC FF FF (情景完成返回主页)
2024-10-18 21:10:33.808 - 19 08 24 03 CC 01 53 00 01 (调用外卫感应灯关的按键)
2024-10-18 21:10:33.862 - 1A 0D 01 07 01 FF 00 01 FF 00 01 FF 00 00 0F (调光器地址-外卫射灯, 外卫感应灯关)
2024-10-18 21:18:55.343 - EE 00 00 B1 00 00 00 FF FC FF FF (情景执行提示)
2024-10-18 21:18:55.938 - 09 06 00 0F 02 01 78 21 (提示音叮)
2024-10-18 21:18:56.509 - A1 11 11 11 40 (客厅空调自动开)
2024-10-18 21:18:56.733 - 19 08 24 03 F0 BB 78 02 02 00
2024-10-18 21:18:56.784 - 23 AA 56 02 15 12 39 18 0A 12 05 73 65 6F 6B 65 6E 64
2024-10-18 21:18:57.742 - 01 10 07 D0 00 03 06 70 61 00 02 00 FA 6F 26 (客厅空调冷25度)
2024-10-18 21:18:57.776 - 01 10 07 D0 00 03 06 70 61 00 02 00 FA 6F 26 (客厅空调冷25度)
2024-10-18 21:19:00.569 - A1 11 11 11 41 (餐厅空调自动开)
2024-10-18 21:19:00.797 - 19 08 24 03 F0 BB 78 02 02 00
2024-10-18 21:19:00.847 - 23 AA 56 02 15 13 01 18 0A 12 05 73 65 6F 6B 65 6E 64
2024-10-18 21:19:01.805 - 01 10 07 D3 00 03 06 70 61 00 02 00 FA 9F 29 (餐厅空调冷25度)
2024-10-18 21:19:01.848 - 01 10 07 D3 00 03 06 70 61 00 02 00 FA 9F 29 (餐厅空调冷25度)
2024-10-18 21:19:04.609 - 09 06 00 0F 02 02 38 20 (提示音咚)
2024-10-18 21:19:05.160 - EE 00 00 B1 00 00 02 FF FC FF FF (情景完成返回主页)
2024-10-18 21:20:23.282 - FF
2024-10-18 21:59:04.572 - FF
2024-10-18 22:01:59.176 - FF
2024-10-18 22:05:06.568 - FF
2024-10-18 22:06:03.327 - FF
2024-10-18 22:10:32.444 - FF
2024-10-18 22:15:55.723 - FF
2024-10-18 22:18:14.130 - FF
2024-10-18 22:18:26.427 - FF
2024-10-18 22:31:15.089 - FF
2024-10-18 22:42:33.467 - FF
2024-10-18 23:04:55.213 - FF
2024-10-18 23:06:03.619 - FF
2024-10-18 23:14:37.036 - 1A BE B0 DC 04 FC (继电器地址-西阳窗帘)
2024-10-18 23:14:37.175 - FE
2024-10-18 23:17:26.105 - 19 08 24 03 CC 01 CC 00 01 (调用茶吧感应灯开的按键)
2024-10-18 23:17:26.154 - 1A AA AA AA 88 FF B0 01 FF B0 01 0F (调光器地址-茶吧灯带, 茶吧灯带明亮)
2024-10-18 23:17:30.398 - 19 08 24 03 CC 00 D3 00 01 (调用厨房感应灯开的按键)
2024-10-18 23:17:30.451 - 55 0A 32 00 00 00 01 92 55 0A 32 00 00 00 02 93 (厨房顶灯一开, 厨房顶灯二开)
2024-10-18 23:17:42.136 - 19 08 24 03 CC 01 CD 00 01 (调用茶吧感应灯关的按键)
2024-10-18 23:17:42.170 - 1A AA AA AA 88 FF 00 01 FF 00 01 0F (调光器地址-茶吧灯带, 茶吧灯带关闭)
2024-10-18 23:17:50.656 - 19 08 24 03 CC 01 CC 00 01 (调用茶吧感应灯开的按键)
2024-10-18 23:17:50.684 - 1A AA AA AA 88 FF B0 01 FF B0 01 0F (调光器地址-茶吧灯带, 茶吧灯带明亮)
2024-10-18 23:17:55.753 - 19 08 24 03 DD 00 13 00 01 (调用情景-公共区域关)
2024-10-18 23:17:56.265 - EE 00 00 B1 00 00 00 FF FC FF FF (情景执行提示)
2024-10-18 23:17:56.859 - 09 06 00 0F 02 01 78 21 (提示音叮)
2024-10-18 23:17:57.407 - 55 0B 31 00 00 00 01 92 (厨房风扇只关)
2024-10-18 23:17:58.532 - 01 06 07 D3 FF 60 38 9F (餐厅空调关)
2024-10-18 23:17:58.559 - 01 06 07 D3 FF 60 38 9F (餐厅空调关)
2024-10-18 23:17:59.600 - 01 06 07 D0 FF 60 C8 9F (客厅空调关)
2024-10-18 23:17:59.630 - 01 06 07 D0 FF 60 C8 9F (客厅空调关)
2024-10-18 23:18:03.685 - 50 F5 02 (关厨房影视)
2024-10-18 23:18:04.731 - 50 F5 01 (关餐厅影视)
2024-10-18 23:18:05.777 - 50 F5 08 (关客厅影视)
2024-10-18 23:18:06.824 - 50 F5 03 (关外卫影视)
2024-10-18 23:18:07.875 - 55 0A 31 00 00 00 01 91 (厨房顶灯一关)
2024-10-18 23:18:08.924 - 55 0A 31 00 00 00 02 92 (厨房顶灯二关)
2024-10-18 23:18:09.970 - 55 0C 31 00 00 00 01 93 (餐厅顶灯关)
2024-10-18 23:18:11.017 - 1A 18 05 10 31 00 01 00 0F (自保持开关地址-门厅顶灯, 门厅顶灯关)
2024-10-18 23:18:12.064 - 1A 20 07 00 42 00 01 00 0F (自保持开关地址-外卫顶灯, 外卫顶灯关)
2024-10-18 23:18:13.112 - 1A 18 05 21 89 00 01 00 0F (自保持开关地址-客厅顶灯, 客厅顶灯一关)
2024-10-18 23:18:14.157 - 1A 18 05 01 94 00 01 00 0F (自保持开关地址-客厅顶灯, 客厅顶灯二关)
2024-10-18 23:18:15.205 - 1A 20 07 01 30 00 01 00 0F (自保持开关地址-西阳顶灯, 西阳顶灯关)
2024-10-18 23:18:16.256 - 1A FF 01 FF FF FF 00 01 FF 00 01 FF 00 00 0F (调光器地址-公共区域统配地址, 公共区域灯光全关)
2024-10-18 23:18:17.207 - 19 08 24 03 CC 01 CD 00 01 (调用茶吧感应灯关的按键)
2024-10-18 23:18:17.256 - 1A AA AA AA 88 FF 00 01 FF 00 01 0F (调光器地址-茶吧灯带, 茶吧灯带关闭)
2024-10-18 23:18:17.656 - 09 06 00 0F 02 02 38 20 (提示音咚)
2024-10-18 23:18:19.738 - EE 00 00 B1 00 00 02 FF FC FF FF (情景完成返回主页)
2024-10-18 23:18:29.023 - 19 08 24 03 CC 00 D4 00 01 (调用厨房感应灯关的按键)
2024-10-18 23:18:29.061 - 55 0A 31 00 00 00 01 91 55 0A 31 00 00 00 02 92 (厨房顶灯一关, 厨房顶灯二关)
2024-10-18 23:20:01.131 - FF FF FF FF 0E FC (继电器地址-西阳小窗帘)
2024-10-18 23:20:01.264 - FF
2024-10-18 23:23:07.695 - 19 08 24 03 DD 00 4F 00 01 (调用情景-内卫使用完毕)
2024-10-18 23:23:08.221 - EE 00 00 B1 00 00 00 FF FC FF FF (情景执行提示)
2024-10-18 23:23:08.816 - 09 06 00 0F 02 01 78 21 (提示音叮)
2024-10-18 23:23:09.372 - 1A 0C 02 08 01 FF 00 01 FF 00 01 FF 00 00 0F (调光器地址-内卫射灯, 内卫感应灯关)
2024-10-18 23:23:13.446 - 50 F5 04 (关内卫影视)
2024-10-18 23:23:14.000 - 1A 20 07 01 40 00 01 00 0F (自保持开关地址-内卫顶灯, 内卫顶灯关)
2024-10-18 23:23:14.598 - 1A FF FF FF 56 00 00 01 0F (人体感应地址-内卫, 打开内卫感应)
2024-10-18 23:23:14.701 - BC BC
2024-10-18 23:23:15.009 - 19 08 24 03 CC 01 54 00 01 (调用内卫感应灯开的按键)
2024-10-18 23:23:15.059 - 1A 0C 02 08 01 FF 45 01 FF 45 01 FF 00 00 0F (调光器地址-内卫射灯, 内卫射灯微光)
2024-10-18 23:23:17.440 - 09 06 00 0F 02 02 38 20 (提示音咚)
2024-10-18 23:23:18.041 - EE 00 00 B1 00 00 02 FF FC FF FF (情景完成返回主页)
2024-10-18 23:23:30.742 - 19 08 24 03 CC 01 55 00 01 (调用内卫感应灯关的按键)
2024-10-18 23:23:30.775 - 1A 0C 02 08 01 FF 00 01 FF 00 01 FF 00 00 0F (调光器地址-内卫射灯, 内卫感应灯关)
2024-10-18 23:24:17.573 - FF
2024-10-18 23:30:15.177 - 1A BE B0 DC 02 (正反转地址-外卫卷帘)
2024-10-18 23:31:49.047 - FF
2024-10-18 23:36:13.474 - 1A BE B0 DC 09 FC (继电器地址-客厅窗帘)
2024-10-18 23:36:13.609 - FF
2024-10-18 23:41:17.577 - 1A BE B0 DC 03 FF (继电器地址-西阳天幕)
2024-10-18 23:41:17.712 - FE
2024-10-18 23:43:13.894 - 1A BE B0 DC 0A (继电器地址-客厅纱帘)
2024-10-18 23:46:08.499 - FF
2024-10-18 23:47:14.746 - 1A BE B0 DC 01 (继电器地址-回水泵点动)
2024-10-18 23:48:09.208 - FF
2024-10-18 23:48:29.676 - FF
2024-10-18 23:50:09.305 - FF FF FF FF 0A (继电器地址-东阳窗帘)
2024-10-18 23:50:09.440 - FF
2024-10-18 23:54:01.342 - 19 08 24 03 CC 01 54 00 01 (调用内卫感应灯开的按键)
2024-10-18 23:54:01.393 - 1A 0C 02 08 01 FF 45 01 FF 45 01 FF 00 00 0F (调光器地址-内卫射灯, 内卫射灯微光)
2024-10-18 23:57:35.261 - 19 08 24 03 CC 01 55 00 01 (调用内卫感应灯关的按键)
2024-10-18 23:57:35.316 - 1A 0C 02 08 01 FF 00 01 FF 00 01 FF 00 00 0F (调光器地址-内卫射灯, 内卫感应灯关)
2024-10-19 00:00:39.670 - FF
2024-10-19 00:01:18.649 - 1A FF FF FF 04 FD (继电器地址-东阳衣架)
2024-10-19 00:01:18.786 - FE
2024-10-19 00:16:48.005 - FF
2024-10-19 00:20:10.867 - FF
2024-10-19 00:20:33.474 - 19 08 24 03 CC 01 54 00 01 (调用内卫感应灯开的按键)
2024-10-19 00:20:33.525 - 1A 0C 02 08 01 FF 45 01 FF 45 01 FF 00 00 0F (调光器地址-内卫射灯, 内卫射灯微光)
2024-10-19 00:21:50.494 - 19 08 24 03 DD 00 4B 00 01 (调用情景-主卧睡觉)
2024-10-19 00:21:51.058 - EE 00 00 B1 00 00 00 FF FC FF FF (情景执行提示)
2024-10-19 00:21:51.655 - 09 06 00 0F 02 01 78 21 (提示音叮)
2024-10-19 00:21:52.248 - 50 F5 04 (关内卫影视)
2024-10-19 00:21:52.797 - A5 00 53 FE 01 AA (主卧纱帘关)
2024-10-19 00:21:53.844 - A5 00 52 FF 00 AA (主卧窗帘关)
2024-10-19 00:21:54.893 - 1A 22 33 62 0F 00 02 01 0F (正反转地址-内卫卷帘, 内卫卷帘降)
2024-10-19 00:21:55.941 - 1A 20 07 01 40 00 01 00 0F (自保持开关地址-内卫顶灯, 内卫顶灯关)
2024-10-19 00:21:56.988 - 1A 20 07 01 55 00 01 00 0F (自保持开关地址-主卧顶灯, 主卧顶灯只关)
2024-10-19 00:21:57.534 - 1A FF FF FF 56 00 00 01 0F (人体感应地址-内卫, 打开内卫感应)
2024-10-19 00:21:57.550 - BC BC
2024-10-19 00:22:01.134 - 1A 0C 02 08 01 FF 00 01 FF 00 01 FF 00 00 0F (调光器地址-内卫射灯, 内卫感应灯关)
2024-10-19 00:22:01.729 - 1A 0C 02 04 01 FF 00 01 FF 00 01 FF 00 00 0F (调光器地址-主卧筒灯, 主卧筒灯关闭)
2024-10-19 00:22:02.326 - 1A 0C 02 04 03 FF 00 01 FF 00 01 FF 00 00 0F (调光器地址-主卧灯带, 主卧灯带关闭)
2024-10-19 00:22:02.925 - 1A 0C 02 04 04 FF 00 01 FF 00 01 FF 00 00 0F (调光器地址-主卧南阅, 主卧南阅关闭)
2024-10-19 00:22:03.522 - 1A 0C 02 04 05 FF 00 01 FF 00 01 FF 00 00 0F (调光器地址-主卧北阅, 主卧北阅关闭)
2024-10-19 00:22:04.122 - 1A 0C 02 04 02 FF 00 01 FF 00 01 FF 00 00 0F (调光器地址-主卧过道, 主卧过道关闭)
2024-10-19 00:22:04.711 - 09 06 00 0F 02 02 38 20 (提示音咚)
2024-10-19 00:22:05.264 - EE 00 00 B1 00 00 02 FF FC FF FF (情景完成返回主页)
2024-10-19 00:22:09.166 - 19 08 24 03 CC 01 55 00 01 (调用内卫感应灯关的按键)
2024-10-19 00:22:09.219 - 1A 0C 02 08 01 FF 00 01 FF 00 01 FF 00 00 0F (调光器地址-内卫射灯, 内卫感应灯关)
2024-10-19 00:23:50.868 - 19 08 24 03 CC 01 54 00 01 (调用内卫感应灯开的按键)
2024-10-19 00:23:50.900 - 1A 0C 02 08 01 FF 45 01 FF 45 01 FF 00 00 0F (调光器地址-内卫射灯, 内卫射灯微光)
2024-10-19 00:24:11.906 - 19 08 24 03 CC 01 55 00 01 (调用内卫感应灯关的按键)
2024-10-19 00:24:11.942 - 1A 0C 02 08 01 FF 00 01 FF 00 01 FF 00 00 0F (调光器地址-内卫射灯, 内卫感应灯关)
2024-10-19 00:40:09.791 - 19 08 24 03 CC 01 54 00 01 (调用内卫感应灯开的按键)
2024-10-19 00:40:09.855 - 1A 0C 02 08 01 FF 45 01 FF 45 01 FF 00 00 0F (调光器地址-内卫射灯, 内卫射灯微光)
2024-10-19 00:40:53.878 - 19 08 24 03 CC 01 55 00 01 (调用内卫感应灯关的按键)
2024-10-19 00:40:53.913 - 1A 0C 02 08 01 FF 00 01 FF 00 01 FF 00 00 0F (调光器地址-内卫射灯, 内卫感应灯关)
2024-10-19 00:42:54.117 - 19 08 24 03 CC 01 54 00 01 (调用内卫感应灯开的按键)
2024-10-19 00:42:54.147 - 1A 0C 02 08 01 FF 45 01 FF 45 01 FF 00 00 0F (调光器地址-内卫射灯, 内卫射灯微光)
2024-10-19 00:44:03.255 - 19 08 24 03 CC 01 55 00 01 (调用内卫感应灯关的按键)
2024-10-19 00:44:03.287 - 1A 0C 02 08 01 FF 00 01 FF 00 01 FF 00 00 0F (调光器地址-内卫射灯, 内卫感应灯关)
2024-10-19 00:58:01.899 - 19 08 24 03 CC 01 54 00 01 (调用内卫感应灯开的按键)
2024-10-19 00:58:01.937 - 1A 0C 02 08 01 FF 45 01 FF 45 01 FF 00 00 0F (调光器地址-内卫射灯, 内卫射灯微光)
2024-10-19 00:58:24.947 - 19 08 24 03 CC 01 55 00 01 (调用内卫感应灯关的按键)
2024-10-19 00:58:24.981 - 1A 0C 02 08 01 FF 00 01 FF 00 01 FF 00 00 0F (调光器地址-内卫射灯, 内卫感应灯关)
2024-10-19 01:08:18.112 - 19 08 24 03 CC 01 54 00 01 (调用内卫感应灯开的按键)
2024-10-19 01:08:18.146 - 1A 0C 02 08 01 FF 45 01 FF 45 01 FF 00 00 0F (调光器地址-内卫射灯, 内卫射灯微光)
2024-10-19 01:09:03.201 - 19 08 24 03 CC 01 55 00 01 (调用内卫感应灯关的按键)
2024-10-19 01:09:03.236 - 1A 0C 02 08 01 FF 00 01 FF 00 01 FF 00 00 0F (调光器地址-内卫射灯, 内卫感应灯关)
2024-10-19 01:13:14.194 - 19 08 24 03 CC 01 54 00 01 (调用内卫感应灯开的按键)
2024-10-19 01:13:14.227 - 1A 0C 02 08 01 FF 45 01 FF 45 01 FF 00 00 0F (调光器地址-内卫射灯, 内卫射灯微光)
2024-10-19 01:14:35.588 - FF
2024-10-19 01:15:56.010 - 19 08 24 03 CC 01 55 00 01 (调用内卫感应灯关的按键)
2024-10-19 01:15:56.084 - 1A 0C 02 08 01 FF 00 01 FF 00 01 FF 00 00 0F (调光器地址-内卫射灯, 内卫感应灯关)
2024-10-19 01:17:09.158 - 19 08 24 03 CC 01 54 00 01 (调用内卫感应灯开的按键)
2024-10-19 01:17:09.208 - 1A 0C 02 08 01 FF 45 01 FF 45 01 FF 00 00 0F (调光器地址-内卫射灯, 内卫射灯微光)
2024-10-19 01:17:39.718 - 19 08 24 03 CC 01 55 00 01 (调用内卫感应灯关的按键)
2024-10-19 01:17:39.749 - 1A 0C 02 08 01 FF 00 01 FF 00 01 FF 00 00 0F (调光器地址-内卫射灯, 内卫感应灯关)
2024-10-19 01:18:44.846 - 19 08 24 03 CC 01 54 00 01 (调用内卫感应灯开的按键)
2024-10-19 01:18:44.878 - 1A 0C 02 08 01 FF 45 01 FF 45 01 FF 00 00 0F (调光器地址-内卫射灯, 内卫射灯微光)
2024-10-19 01:20:19.530 - 19 08 24 03 CC 01 55 00 01 (调用内卫感应灯关的按键)
2024-10-19 01:20:19.564 - 1A 0C 02 08 01 FF 00 01 FF 00 01 FF 00 00 0F (调光器地址-内卫射灯, 内卫感应灯关)
2024-10-19 01:23:24.394 - 19 08 24 03 CC 01 54 00 01 (调用内卫感应灯开的按键)
2024-10-19 01:23:24.428 - 1A 0C 02 08 01 FF 45 01 FF 45 01 FF 00 00 0F (调光器地址-内卫射灯, 内卫射灯微光)
2024-10-19 01:24:50.562 - 19 08 24 03 CC 01 55 00 01 (调用内卫感应灯关的按键)
2024-10-19 01:24:50.596 - 1A 0C 02 08 01 FF 00 01 FF 00 01 FF 00 00 0F (调光器地址-内卫射灯, 内卫感应灯关)
2024-10-19 01:25:09.599 - 19 08 24 03 CC 01 54 00 01 (调用内卫感应灯开的按键)
2024-10-19 01:25:09.632 - 1A 0C 02 08 01 FF 45 01 FF 45 01 FF 00 00 0F (调光器地址-内卫射灯, 内卫射灯微光)
2024-10-19 01:26:03.205 - 19 08 24 03 CC 01 55 00 01 (调用内卫感应灯关的按键)
2024-10-19 01:26:03.239 - 1A 0C 02 08 01 FF 00 01 FF 00 01 FF 00 00 0F (调光器地址-内卫射灯, 内卫感应灯关)
2024-10-19 01:26:33.266 - 19 08 24 03 CC 01 54 00 01 (调用内卫感应灯开的按键)
2024-10-19 01:26:33.299 - 1A 0C 02 08 01 FF 45 01 FF 45 01 FF 00 00 0F (调光器地址-内卫射灯, 内卫射灯微光)
2024-10-19 01:26:52.302 - 19 08 24 03 CC 01 55 00 01 (调用内卫感应灯关的按键)
2024-10-19 01:26:52.338 - 1A 0C 02 08 01 FF 00 01 FF 00 01 FF 00 00 0F (调光器地址-内卫射灯, 内卫感应灯关)
2024-10-19 01:27:49.415 - 19 08 24 03 CC 01 54 00 01 (调用内卫感应灯开的按键)
2024-10-19 01:27:49.449 - 1A 0C 02 08 01 FF 45 01 FF 45 01 FF 00 00 0F (调光器地址-内卫射灯, 内卫射灯微光)
2024-10-19 01:28:28.493 - 19 08 24 03 CC 01 55 00 01 (调用内卫感应灯关的按键)
2024-10-19 01:28:28.529 - 1A 0C 02 08 01 FF 00 01 FF 00 01 FF 00 00 0F (调光器地址-内卫射灯, 内卫感应灯关)
2024-10-19 01:29:42.137 - 19 08 24 03 CC 01 54 00 01 (调用内卫感应灯开的按键)
2024-10-19 01:29:42.172 - 1A 0C 02 08 01 FF 45 01 FF 45 01 FF 00 00 0F (调光器地址-内卫射灯, 内卫射灯微光)
2024-10-19 01:30:08.690 - 19 08 24 03 CC 01 55 00 01 (调用内卫感应灯关的按键)
2024-10-19 01:30:08.724 - 1A 0C 02 08 01 FF 00 01 FF 00 01 FF 00 00 0F (调光器地址-内卫射灯, 内卫感应灯关)
2024-10-19 01:35:07.782 - 19 08 24 03 CC 01 54 00 01 (调用内卫感应灯开的按键)
2024-10-19 01:35:07.812 - 1A 0C 02 08 01 FF 45 01 FF 45 01 FF 00 00 0F (调光器地址-内卫射灯, 内卫射灯微光)
2024-10-19 01:36:10.400 - 19 08 24 03 CC 01 55 00 01 (调用内卫感应灯关的按键)
2024-10-19 01:36:10.435 - 1A 0C 02 08 01 FF 00 01 FF 00 01 FF 00 00 0F (调光器地址-内卫射灯, 内卫感应灯关)
2024-10-19 01:37:05.510 - 19 08 24 03 CC 01 54 00 01 (调用内卫感应灯开的按键)
2024-10-19 01:37:05.543 - 1A 0C 02 08 01 FF 45 01 FF 45 01 FF 00 00 0F (调光器地址-内卫射灯, 内卫射灯微光)
2024-10-19 01:39:08.250 - 19 08 24 03 CC 01 55 00 01 (调用内卫感应灯关的按键)
2024-10-19 01:39:08.285 - 1A 0C 02 08 01 FF 00 01 FF 00 01 FF 00 00 0F (调光器地址-内卫射灯, 内卫感应灯关)
2024-10-19 01:41:30.030 - 19 08 24 03 CC 01 54 00 01 (调用内卫感应灯开的按键)
2024-10-19 01:41:30.065 - 1A 0C 02 08 01 FF 45 01 FF 45 01 FF 00 00 0F (调光器地址-内卫射灯, 内卫射灯微光)
2024-10-19 01:41:54.579 - 19 08 24 03 CC 01 55 00 01 (调用内卫感应灯关的按键)
2024-10-19 01:41:54.613 - 1A 0C 02 08 01 FF 00 01 FF 00 01 FF 00 00 0F (调光器地址-内卫射灯, 内卫感应灯关)
2024-10-19 01:44:00.827 - 19 08 24 03 CC 01 54 00 01 (调用内卫感应灯开的按键)
2024-10-19 01:44:00.860 - 1A 0C 02 08 01 FF 45 01 FF 45 01 FF 00 00 0F (调光器地址-内卫射灯, 内卫射灯微光)
2024-10-19 01:44:22.368 - 19 08 24 03 CC 01 55 00 01 (调用内卫感应灯关的按键)
2024-10-19 01:44:22.403 - 1A 0C 02 08 01 FF 00 01 FF 00 01 FF 00 00 0F (调光器地址-内卫射灯, 内卫感应灯关)
2024-10-19 01:46:15.592 - 19 08 24 03 CC 01 54 00 01 (调用内卫感应灯开的按键)
2024-10-19 01:46:15.625 - 1A 0C 02 08 01 FF 45 01 FF 45 01 FF 00 00 0F (调光器地址-内卫射灯, 内卫射灯微光)
2024-10-19 01:47:21.724 - 19 08 24 03 CC 01 55 00 01 (调用内卫感应灯关的按键)
2024-10-19 01:47:21.755 - 1A 0C 02 08 01 FF 00 01 FF 00 01 FF 00 00 0F (调光器地址-内卫射灯, 内卫感应灯关)
2024-10-19 01:49:14.943 - 19 08 24 03 CC 01 54 00 01 (调用内卫感应灯开的按键)
2024-10-19 01:49:14.979 - 1A 0C 02 08 01 FF 45 01 FF 45 01 FF 00 00 0F (调光器地址-内卫射灯, 内卫射灯微光)
2024-10-19 01:49:32.979 - 19 08 24 03 CC 01 55 00 01 (调用内卫感应灯关的按键)
2024-10-19 01:49:33.013 - 1A 0C 02 08 01 FF 00 01 FF 00 01 FF 00 00 0F (调光器地址-内卫射灯, 内卫感应灯关)
2024-10-19 01:51:31.713 - 19 08 24 03 CC 01 54 00 01 (调用内卫感应灯开的按键)
2024-10-19 01:51:31.746 - 1A 0C 02 08 01 FF 45 01 FF 45 01 FF 00 00 0F (调光器地址-内卫射灯, 内卫射灯微光)
2024-10-19 01:52:13.798 - 19 08 24 03 CC 01 55 00 01 (调用内卫感应灯关的按键)
2024-10-19 01:52:13.831 - 1A 0C 02 08 01 FF 00 01 FF 00 01 FF 00 00 0F (调光器地址-内卫射灯, 内卫感应灯关)
2024-10-19 01:53:41.969 - 19 08 24 03 CC 01 54 00 01 (调用内卫感应灯开的按键)
2024-10-19 01:53:42.004 - 1A 0C 02 08 01 FF 45 01 FF 45 01 FF 00 00 0F (调光器地址-内卫射灯, 内卫射灯微光)
2024-10-19 01:57:26.410 - 19 08 24 03 CC 01 55 00 01 (调用内卫感应灯关的按键)
2024-10-19 01:57:26.449 - 1A 0C 02 08 01 FF 00 01 FF 00 01 FF 00 00 0F (调光器地址-内卫射灯, 内卫感应灯关)
2024-10-19 01:57:27.411 - 19 08 24 03 CC 01 54 00 01 (调用内卫感应灯开的按键)
2024-10-19 01:57:27.447 - 1A 0C 02 08 01 FF 45 01 FF 45 01 FF 00 00 0F (调光器地址-内卫射灯, 内卫射灯微光)
2024-10-19 01:57:47.451 - 19 08 24 03 CC 01 55 00 01 (调用内卫感应灯关的按键)
2024-10-19 01:57:47.485 - 1A 0C 02 08 01 FF 00 01 FF 00 01 FF 00 00 0F (调光器地址-内卫射灯, 内卫感应灯关)
2024-10-19 01:59:02.100 - 19 08 24 03 CC 01 54 00 01 (调用内卫感应灯开的按键)
2024-10-19 01:59:02.133 - 1A 0C 02 08 01 FF 45 01 FF 45 01 FF 00 00 0F (调光器地址-内卫射灯, 内卫射灯微光)
2024-10-19 01:59:57.708 - 19 08 24 03 CC 01 55 00 01 (调用内卫感应灯关的按键)
2024-10-19 01:59:57.742 - 1A 0C 02 08 01 FF 00 01 FF 00 01 FF 00 00 0F (调光器地址-内卫射灯, 内卫感应灯关)
2024-10-19 02:03:11.587 - 19 08 24 03 CC 01 54 00 01 (调用内卫感应灯开的按键)
2024-10-19 02:03:11.623 - 1A 0C 02 08 01 FF 45 01 FF 45 01 FF 00 00 0F (调光器地址-内卫射灯, 内卫射灯微光)
2024-10-19 02:04:43.770 - 19 08 24 03 CC 01 55 00 01 (调用内卫感应灯关的按键)
2024-10-19 02:04:43.802 - 1A 0C 02 08 01 FF 00 01 FF 00 01 FF 00 00 0F (调光器地址-内卫射灯, 内卫感应灯关)
2024-10-19 02:07:16.571 - 19 08 24 03 CC 01 54 00 01 (调用内卫感应灯开的按键)
2024-10-19 02:07:16.604 - 1A 0C 02 08 01 FF 45 01 FF 45 01 FF 00 00 0F (调光器地址-内卫射灯, 内卫射灯微光)
2024-10-19 02:07:36.109 - 19 08 24 03 CC 01 55 00 01 (调用内卫感应灯关的按键)
2024-10-19 02:07:36.141 - 1A 0C 02 08 01 FF 00 01 FF 00 01 FF 00 00 0F (调光器地址-内卫射灯, 内卫感应灯关)
2024-10-19 02:35:07.743 - 1A BE B0 DC 04 FE (继电器地址-西阳窗帘)
2024-10-19 02:35:07.877 - FF
2024-10-19 02:41:16.355 - FF FF FF FF 0E FE (继电器地址-西阳小窗帘)
2024-10-19 02:41:16.488 - FF
2024-10-19 02:42:56.281 - 19 08 24 03 CC 01 54 00 01 (调用内卫感应灯开的按键)
2024-10-19 02:42:56.332 - 1A 0C 02 08 01 FF 45 01 FF 45 01 FF 00 00 0F (调光器地址-内卫射灯, 内卫射灯微光)
2024-10-19 02:43:50.385 - 19 08 24 03 CC 01 55 00 01 (调用内卫感应灯关的按键)
2024-10-19 02:43:50.440 - 1A 0C 02 08 01 FF 00 01 FF 00 01 FF 00 00 0F (调光器地址-内卫射灯, 内卫感应灯关)
2024-10-19 02:45:47.617 - 19 08 24 03 CC 01 54 00 01 (调用内卫感应灯开的按键)
2024-10-19 02:45:47.649 - 1A 0C 02 08 01 FF 45 01 FF 45 01 FF 00 00 0F (调光器地址-内卫射灯, 内卫射灯微光)
2024-10-19 02:47:23.308 - 19 08 24 03 CC 01 55 00 01 (调用内卫感应灯关的按键)
2024-10-19 02:47:23.342 - 1A 0C 02 08 01 FF 00 01 FF 00 01 FF 00 00 0F (调光器地址-内卫射灯, 内卫感应灯关)
2024-10-19 02:51:31.371 - 1A BE B0 DC 02 FC (正反转地址-外卫卷帘)
2024-10-19 02:53:00.468 - 19 08 24 03 CC 01 54 00 01 (调用内卫感应灯开的按键)
2024-10-19 02:53:00.520 - 1A 0C 02 08 01 FF 45 01 FF 45 01 FF 00 00 0F (调光器地址-内卫射灯, 内卫射灯微光)
2024-10-19 02:53:36.538 - 19 08 24 03 CC 01 55 00 01 (调用内卫感应灯关的按键)
2024-10-19 02:53:36.591 - 1A 0C 02 08 01 FF 00 01 FF 00 01 FF 00 00 0F (调光器地址-内卫射灯, 内卫感应灯关)
2024-10-19 02:54:00.110 - FF
2024-10-19 02:55:00.204 - 19 08 24 03 CC 01 54 00 01 (调用内卫感应灯开的按键)
2024-10-19 02:55:00.258 - 1A 0C 02 08 01 FF 45 01 FF 45 01 FF 00 00 0F (调光器地址-内卫射灯, 内卫射灯微光)
2024-10-19 02:55:36.274 - 19 08 24 03 CC 01 55 00 01 (调用内卫感应灯关的按键)
2024-10-19 02:55:36.328 - 1A 0C 02 08 01 FF 00 01 FF 00 01 FF 00 00 0F (调光器地址-内卫射灯, 内卫感应灯关)
2024-10-19 02:57:24.180 - 1A BE B0 DC 09 (继电器地址-客厅窗帘)
2024-10-19 02:57:24.315 - FF
2024-10-19 03:00:00.391 - 50 F7 01 (全屋影音全关)
2024-10-19 03:02:09.130 - 1A BE B0 DC 03 FC (继电器地址-西阳天幕)
2024-10-19 03:02:09.265 - FE
2024-10-19 03:04:37.386 - 1A BE B0 DC 0A FC (继电器地址-客厅纱帘)
2024-10-19 03:04:37.521 - FE
2024-10-19 03:08:46.329 - 1A BE B0 DC 01 FC (继电器地址-回水泵点动)
2024-10-19 03:11:14.307 - FF FF FF FF 0A (继电器地址-东阳窗帘)
2024-10-19 03:11:14.440 - FF
2024-10-19 03:22:11.953 - 1A FF FF FF 04 FE (继电器地址-东阳衣架)
2024-10-19 03:44:55.097 - 19 08 24 03 CC 01 54 00 01 (调用内卫感应灯开的按键)
2024-10-19 03:44:55.148 - 1A 0C 02 08 01 FF 45 01 FF 45 01 FF 00 00 0F (调光器地址-内卫射灯, 内卫射灯微光)
2024-10-19 03:46:26.279 - 19 08 24 03 CC 01 55 00 01 (调用内卫感应灯关的按键)
2024-10-19 03:46:26.332 - 1A 0C 02 08 01 FF 00 01 FF 00 01 FF 00 00 0F (调光器地址-内卫射灯, 内卫感应灯关)
2024-10-19 03:46:40.304 - 19 08 24 03 CC 01 54 00 01 (调用内卫感应灯开的按键)
2024-10-19 03:46:40.336 - 1A 0C 02 08 01 FF 45 01 FF 45 01 FF 00 00 0F (调光器地址-内卫射灯, 内卫射灯微光)
2024-10-19 03:47:01.346 - 19 08 24 03 CC 01 55 00 01 (调用内卫感应灯关的按键)
2024-10-19 03:47:01.379 - 1A 0C 02 08 01 FF 00 01 FF 00 01 FF 00 00 0F (调光器地址-内卫射灯, 内卫感应灯关)
2024-10-19 03:48:34.028 - 19 08 24 03 CC 01 54 00 01 (调用内卫感应灯开的按键)
2024-10-19 03:48:34.061 - 1A 0C 02 08 01 FF 45 01 FF 45 01 FF 00 00 0F (调光器地址-内卫射灯, 内卫射灯微光)
2024-10-19 03:49:33.144 - 19 08 24 03 CC 01 55 00 01 (调用内卫感应灯关的按键)
2024-10-19 03:49:33.212 - 1A 0C 02 08 01 FF 00 01 FF 00 01 FF 00 00 0F (调光器地址-内卫射灯, 内卫感应灯关)
2024-10-19 03:50:53.803 - 19 08 24 03 CC 01 54 00 01 (调用内卫感应灯开的按键)
2024-10-19 03:50:53.837 - 1A 0C 02 08 01 FF 45 01 FF 45 01 FF 00 00 0F (调光器地址-内卫射灯, 内卫射灯微光)
2024-10-19 03:52:08.953 - 19 08 24 03 CC 01 55 00 01 (调用内卫感应灯关的按键)
2024-10-19 03:52:08.986 - 1A 0C 02 08 01 FF 00 01 FF 00 01 FF 00 00 0F (调光器地址-内卫射灯, 内卫感应灯关)
2024-10-19 03:52:17.467 - 19 08 24 03 CC 01 54 00 01 (调用内卫感应灯开的按键)
2024-10-19 03:52:17.501 - 1A 0C 02 08 01 FF 45 01 FF 45 01 FF 00 00 0F (调光器地址-内卫射灯, 内卫射灯微光)
2024-10-19 03:53:14.581 - 19 08 24 03 CC 01 55 00 01 (调用内卫感应灯关的按键)
2024-10-19 03:53:14.612 - 1A 0C 02 08 01 FF 00 01 FF 00 01 FF 00 00 0F (调光器地址-内卫射灯, 内卫感应灯关)
2024-10-19 03:55:29.845 - 19 08 24 03 CC 01 54 00 01 (调用内卫感应灯开的按键)
2024-10-19 03:55:29.879 - 1A 0C 02 08 01 FF 45 01 FF 45 01 FF 00 00 0F (调光器地址-内卫射灯, 内卫射灯微光)
2024-10-19 03:55:51.389 - 19 08 24 03 CC 01 55 00 01 (调用内卫感应灯关的按键)
2024-10-19 03:55:51.423 - 1A 0C 02 08 01 FF 00 01 FF 00 01 FF 00 00 0F (调光器地址-内卫射灯, 内卫感应灯关)
2024-10-19 03:57:03.532 - 19 08 24 03 CC 01 54 00 01 (调用内卫感应灯开的按键)
2024-10-19 03:57:03.563 - 1A 0C 02 08 01 FF 45 01 FF 45 01 FF 00 00 0F (调光器地址-内卫射灯, 内卫射灯微光)
2024-10-19 03:57:45.112 - 19 08 24 03 CC 01 55 00 01 (调用内卫感应灯关的按键)
2024-10-19 03:57:45.145 - 1A 0C 02 08 01 FF 00 01 FF 00 01 FF 00 00 0F (调光器地址-内卫射灯, 内卫感应灯关)
2024-10-19 03:58:04.651 - 19 08 24 03 CC 01 54 00 01 (调用内卫感应灯开的按键)
2024-10-19 03:58:04.685 - 1A 0C 02 08 01 FF 45 01 FF 45 01 FF 00 00 0F (调光器地址-内卫射灯, 内卫射灯微光)
2024-10-19 04:00:02.382 - 19 08 24 03 CC 01 55 00 01 (调用内卫感应灯关的按键)
2024-10-19 04:00:02.418 - 1A 0C 02 08 01 FF 00 01 FF 00 01 FF 00 00 0F (调光器地址-内卫射灯, 内卫感应灯关)
2024-10-19 04:08:30.884 - 19 08 24 03 CC 01 54 00 01 (调用内卫感应灯开的按键)
2024-10-19 04:08:30.916 - 1A 0C 02 08 01 FF 45 01 FF 45 01 FF 00 00 0F (调光器地址-内卫射灯, 内卫射灯微光)
2024-10-19 04:08:52.926 - 19 08 24 03 CC 01 55 00 01 (调用内卫感应灯关的按键)
2024-10-19 04:08:52.961 - 1A 0C 02 08 01 FF 00 01 FF 00 01 FF 00 00 0F (调光器地址-内卫射灯, 内卫感应灯关)
2024-10-19 04:11:01.179 - 19 08 24 03 CC 01 54 00 01 (调用内卫感应灯开的按键)
2024-10-19 04:11:01.213 - 1A 0C 02 08 01 FF 45 01 FF 45 01 FF 00 00 0F (调光器地址-内卫射灯, 内卫射灯微光)
2024-10-19 04:12:14.822 - 19 08 24 03 CC 01 55 00 01 (调用内卫感应灯关的按键)
2024-10-19 04:12:14.858 - 1A 0C 02 08 01 FF 00 01 FF 00 01 FF 00 00 0F (调光器地址-内卫射灯, 内卫感应灯关)
2024-10-19 04:22:36.400 - FF
2024-10-19 04:56:30.550 - 19 08 24 03 CC 01 54 00 01 (调用内卫感应灯开的按键)
2024-10-19 04:56:30.601 - 1A 0C 02 08 01 FF 45 01 FF 45 01 FF 00 00 0F (调光器地址-内卫射灯, 内卫射灯微光)
2024-10-19 04:57:17.642 - 19 08 24 03 CC 01 55 00 01 (调用内卫感应灯关的按键)
2024-10-19 04:57:17.696 - 1A 0C 02 08 01 FF 00 01 FF 00 01 FF 00 00 0F (调光器地址-内卫射灯, 内卫感应灯关)
2024-10-19 05:08:42.989 - 19 08 24 03 CC 01 54 00 01 (调用内卫感应灯开的按键)
2024-10-19 05:08:43.025 - 1A 0C 02 08 01 FF 45 01 FF 45 01 FF 00 00 0F (调光器地址-内卫射灯, 内卫射灯微光)
2024-10-19 05:09:58.137 - 19 08 24 03 CC 01 55 00 01 (调用内卫感应灯关的按键)
2024-10-19 05:09:58.172 - 1A 0C 02 08 01 FF 00 01 FF 00 01 FF 00 00 0F (调光器地址-内卫射灯, 内卫感应灯关)
2024-10-19 05:11:52.004 - FF
2024-10-19 05:31:31.016 - 19 08 24 03 CC 00 D3 00 01 (调用厨房感应灯开的按键)
2024-10-19 05:31:31.069 - 55 0A 32 00 00 00 01 92 55 0A 32 00 00 00 02 93 (厨房顶灯一开, 厨房顶灯二开)
2024-10-19 05:32:06.588 - 19 08 24 03 CC 00 D4 00 01 (调用厨房感应灯关的按键)
2024-10-19 05:32:06.641 - 55 0A 31 00 00 00 01 91 55 0A 31 00 00 00 02 92 (厨房顶灯一关, 厨房顶灯二关)
2024-10-19 05:33:07.871 - 19 08 24 03 CC 01 54 00 01 (调用内卫感应灯开的按键)
2024-10-19 05:33:07.907 - 1A 0C 02 08 01 FF 45 01 FF 45 01 FF 00 00 0F (调光器地址-内卫射灯, 内卫射灯微光)
2024-10-19 05:33:28.412 - 19 08 24 03 CC 01 55 00 01 (调用内卫感应灯关的按键)
2024-10-19 05:33:28.445 - 1A 0C 02 08 01 FF 00 01 FF 00 01 FF 00 00 0F (调光器地址-内卫射灯, 内卫感应灯关)
2024-10-19 05:36:17.746 - 19 08 24 03 CC 01 54 00 01 (调用内卫感应灯开的按键)
2024-10-19 05:36:17.782 - 1A 0C 02 08 01 FF 45 01 FF 45 01 FF 00 00 0F (调光器地址-内卫射灯, 内卫射灯微光)
2024-10-19 05:38:15.981 - 19 08 24 03 CC 01 55 00 01 (调用内卫感应灯关的按键)
2024-10-19 05:38:16.014 - 1A 0C 02 08 01 FF 00 01 FF 00 01 FF 00 00 0F (调光器地址-内卫射灯, 内卫感应灯关)
2024-10-19 05:39:54.170 - 19 08 24 03 CC 01 54 00 01 (调用内卫感应灯开的按键)
2024-10-19 05:39:54.208 - 1A 0C 02 08 01 FF 45 01 FF 45 01 FF 00 00 0F (调光器地址-内卫射灯, 内卫射灯微光)
2024-10-19 05:40:15.212 - 19 08 24 03 CC 01 55 00 01 (调用内卫感应灯关的按键)
2024-10-19 05:40:15.248 - 1A 0C 02 08 01 FF 00 01 FF 00 01 FF 00 00 0F (调光器地址-内卫射灯, 内卫感应灯关)
2024-10-19 05:41:04.645 - 19 08 24 03 CC 00 D3 00 01 (调用厨房感应灯开的按键)
2024-10-19 05:41:04.679 - 55 0A 32 00 00 00 01 92 55 0A 32 00 00 00 02 93 (厨房顶灯一开, 厨房顶灯二开)
2024-10-19 05:41:40.214 - 19 08 24 03 CC 00 D4 00 01 (调用厨房感应灯关的按键)
2024-10-19 05:41:40.250 - 55 0A 31 00 00 00 01 91 55 0A 31 00 00 00 02 92 (厨房顶灯一关, 厨房顶灯二关)
2024-10-19 05:54:49.742 - 1A BE B0 DC 04 (继电器地址-西阳窗帘)
2024-10-19 05:54:49.875 - FE
2024-10-19 06:01:14.868 - FF FF FF FF 0E (继电器地址-西阳小窗帘)
2024-10-19 06:01:15.002 - FF
2024-10-19 06:08:51.508 - FF
2024-10-19 06:11:54.730 - 1A BE B0 DC 02 FC (正反转地址-外卫卷帘)
2024-10-19 06:17:39.575 - 1A BE B0 DC 09 (继电器地址-客厅窗帘)
2024-10-19 06:17:39.710 - FF
2024-10-19 06:23:01.373 - 1A BE B0 DC 03 FF (继电器地址-西阳天幕)
2024-10-19 06:23:01.508 - FE
2024-10-19 06:25:10.593 - 1A BE B0 DC 0A FC (继电器地址-客厅纱帘)
2024-10-19 06:25:10.728 - FF
2024-10-19 06:29:29.651 - 1A BE B0 DC 01 FC (继电器地址-回水泵点动)
2024-10-19 06:29:29.786 - FE
2024-10-19 06:31:20.567 - FF FF FF FF 0A FC (继电器地址-东阳窗帘)
2024-10-19 06:31:20.700 - FF
2024-10-19 06:43:04.899 - 1A FF FF FF 04 FC (继电器地址-东阳衣架)
2024-10-19 06:43:05.033 - FF
2024-10-19 06:51:34.440 - 19 08 24 03 DD 00 4A 00 01 (调用情景-主卧起床)
2024-10-19 06:51:34.971 - EE 00 00 B1 00 00 00 FF FC FF FF (情景执行提示)
2024-10-19 06:51:35.564 - 09 06 00 0F 02 01 78 21 (提示音叮)
2024-10-19 06:51:36.109 - 50 F0 04 (开内卫影视)
2024-10-19 06:51:36.657 - 50 F0 05 (开主卧影视)
2024-10-19 06:51:37.208 - A5 00 53 FE 01 AA (主卧纱帘关)
2024-10-19 06:51:37.757 - A5 00 53 FE 01 AA (主卧纱帘关)
2024-10-19 06:51:38.303 - A5 00 52 FE 01 AA (主卧窗帘开)
2024-10-19 06:51:39.353 - A5 00 52 FE 01 AA (主卧窗帘开)
2024-10-19 06:51:40.401 - 1A 22 33 62 0F 00 02 01 0F (正反转地址-内卫卷帘, 内卫卷帘降)
2024-10-19 06:51:41.447 - 1A FF FF FF 56 00 00 00 0F (人体感应地址-内卫, 关闭内卫感应)
2024-10-19 06:51:41.548 - BC BC
2024-10-19 06:51:42.492 - 1A 20 07 01 55 00 01 00 0F (自保持开关地址-主卧顶灯, 主卧顶灯只关)
2024-10-19 06:51:43.546 - 1A 0C 02 08 01 FF 45 01 FF 45 01 FF 00 00 0F (调光器地址-内卫射灯, 内卫射灯微光)
2024-10-19 06:51:44.642 - 1A 0C 02 04 01 FF 45 01 FF 45 01 FF 00 00 0F (调光器地址-主卧筒灯, 主卧筒灯微光)
2024-10-19 06:51:45.292 - 1A 0C 02 04 03 FF 45 01 FF 45 01 FF 00 00 0F (调光器地址-主卧灯带, 主卧灯带微光)
2024-10-19 06:51:45.889 - 1A 0C 02 04 02 FF 45 01 FF 45 01 FF 00 00 0F (调光器地址-主卧过道, 主卧过道微光)
2024-10-19 06:51:46.478 - 50 F1 25 (主卧—有线2)
2024-10-19 06:51:47.023 - 50 F1 24 (内卫—有线2)
2024-10-19 06:51:48.072 - AF BF CF DF C2 21 (有线2/快捷-凤凰卫视)
2024-10-19 06:51:48.622 - 1A FF FF FF 60 0B 01 01 0F (红外总线地址-主卧发射设备, 主卧电视电源)
2024-10-19 06:51:49.135 - F0 0B 01 08
2024-10-19 06:51:51.739 - 55 20 20 00 00 0F 02 16 AA 55 20 20 00 00 0F 02 16 AA (主卧窗帘电机状态返回)
2024-10-19 06:51:53.659 - 09 06 00 0F 02 02 38 20 (提示音咚)
2024-10-19 06:51:54.212 - EE 00 00 B1 00 00 02 FF FC FF FF (情景完成返回主页)
2024-10-19 06:51:54.803 - A1 11 11 11 11 01 (内卫浴霸取暖判断)
2024-10-19 06:51:55.026 - 14 03 00 00 00 02 C6 CE (查询内卫温湿度)
2024-10-19 06:51:55.047 - 14 03 04 02 9D 01 08 2E F2 (内卫温湿度返回)
2024-10-19 07:02:28.651 - 19 08 24 03 CC 01 CC 00 01 (调用茶吧感应灯开的按键)
2024-10-19 07:02:28.700 - 1A AA AA AA 88 FF B0 01 FF B0 01 0F (调光器地址-茶吧灯带, 茶吧灯带明亮)
2024-10-19 07:02:35.751 - 19 08 24 03 CC 00 D3 00 01 (调用厨房感应灯开的按键)
2024-10-19 07:02:35.789 - 55 0A 32 00 00 00 01 92 55 0A 32 00 00 00 02 93 (厨房顶灯一开, 厨房顶灯二开)
2024-10-19 07:03:18.838 - 19 08 24 03 CC 00 D4 00 01 (调用厨房感应灯关的按键)
2024-10-19 07:03:18.872 - 55 0A 31 00 00 00 01 91 55 0A 31 00 00 00 02 92 (厨房顶灯一关, 厨房顶灯二关)
2024-10-19 07:03:32.363 - 19 08 24 03 CC 00 D3 00 01 (调用厨房感应灯开的按键)
2024-10-19 07:03:32.401 - 55 0A 32 00 00 00 01 92 55 0A 32 00 00 00 02 93 (厨房顶灯一开, 厨房顶灯二开)
2024-10-19 07:03:45.805 - 19 08 24 03 CC 01 CD 00 01 (调用茶吧感应灯关的按键)
2024-10-19 07:03:45.833 - 1A AA AA AA 88 FF 00 01 FF 00 01 0F (调光器地址-茶吧灯带, 茶吧灯带关闭)
2024-10-19 07:04:13.357 - 19 08 24 03 CC 01 CC 00 01 (调用茶吧感应灯开的按键)
2024-10-19 07:04:13.390 - 1A AA AA AA 88 FF B0 01 FF B0 01 0F (调光器地址-茶吧灯带, 茶吧灯带明亮)
2024-10-19 07:04:34.399 - 19 08 24 03 CC 01 CD 00 01 (调用茶吧感应灯关的按键)
2024-10-19 07:04:34.430 - 1A AA AA AA 88 FF 00 01 FF 00 01 0F (调光器地址-茶吧灯带, 茶吧灯带关闭)
2024-10-19 07:08:29.863 - 19 08 24 03 CC 01 CC 00 01 (调用茶吧感应灯开的按键)
2024-10-19 07:08:29.894 - 1A AA AA AA 88 FF B0 01 FF B0 01 0F (调光器地址-茶吧灯带, 茶吧灯带明亮)
2024-10-19 07:08:54.913 - 19 08 24 03 CC 01 CD 00 01 (调用茶吧感应灯关的按键)
2024-10-19 07:08:54.944 - 1A AA AA AA 88 FF 00 01 FF 00 01 0F (调光器地址-茶吧灯带, 茶吧灯带关闭)
2024-10-19 07:09:47.518 - 19 08 24 03 CC 01 CC 00 01 (调用茶吧感应灯开的按键)
2024-10-19 07:09:47.548 - 1A AA AA AA 88 FF B0 01 FF B0 01 0F (调光器地址-茶吧灯带, 茶吧灯带明亮)
2024-10-19 07:09:56.622 - 19 08 24 03 CC 00 D4 00 01 (调用厨房感应灯关的按键)
2024-10-19 07:09:56.655 - 55 0A 31 00 00 00 01 91 55 0A 31 00 00 00 02 92 (厨房顶灯一关, 厨房顶灯二关)
2024-10-19 07:09:59.043 - 19 08 24 03 CC 01 CD 00 01 (调用茶吧感应灯关的按键)
2024-10-19 07:09:59.070 - 1A AA AA AA 88 FF 00 01 FF 00 01 0F (调光器地址-茶吧灯带, 茶吧灯带关闭)
2024-10-19 07:10:40.120 - 19 08 24 03 CC 01 CC 00 01 (调用茶吧感应灯开的按键)
2024-10-19 07:10:40.149 - 1A AA AA AA 88 FF B0 01 FF B0 01 0F (调光器地址-茶吧灯带, 茶吧灯带明亮)
2024-10-19 07:10:45.214 - 19 08 24 03 CC 00 D3 00 01 (调用厨房感应灯开的按键)
2024-10-19 07:10:45.250 - 55 0A 32 00 00 00 01 92 55 0A 32 00 00 00 02 93 (厨房顶灯一开, 厨房顶灯二开)
2024-10-19 07:10:54.147 - 19 08 24 03 CC 01 CD 00 01 (调用茶吧感应灯关的按键)
2024-10-19 07:10:54.179 - 1A AA AA AA 88 FF 00 01 FF 00 01 0F (调光器地址-茶吧灯带, 茶吧灯带关闭)
2024-10-19 07:12:41.361 - 19 08 24 03 CC 01 CC 00 01 (调用茶吧感应灯开的按键)
2024-10-19 07:12:41.390 - 1A AA AA AA 88 FF B0 01 FF B0 01 0F (调光器地址-茶吧灯带, 茶吧灯带明亮)
2024-10-19 07:12:47.887 - EE 00 71 B1 01 00 03 FF FC FF FF
2024-10-19 07:12:50.247 - EE 00 71 B1 01 00 04 FF FC FF FF
2024-10-19 07:12:50.577 - 1A 0B 01 03 03 86 86 86 0F (调光器地址-餐厅灯带)
2024-10-19 07:12:50.622 - 1A 0B 01 03 03 00 4C 00 00 4C 00 00 0D 00 0F (调光器地址-餐厅灯带)
2024-10-19 07:12:50.963 - EE 00 71 B1 12 00 09 00 02 00 04 00 00 00 00 00 04 00 04 00 00 00 00 FF FC FF FF
2024-10-19 07:12:51.262 - EE 00 71 B1 12 00 04 00 02 00 04 00 00 00 00 00 04 00 04 00 00 00 00 FF FC FF FF
2024-10-19 07:12:52.101 - EE 00 71 B1 11 00 04 00 02 13 00 00 00 7A FF FC FF FF
2024-10-19 07:12:52.428 - 1A FF 01 03 FF FF 7A 01 FF 00 00 FF 00 00 0F (调光器地址-餐厅区域统配地址)
2024-10-19 07:12:52.777 - EE 00 71 B1 11 00 04 00 04 13 00 00 00 76 FF FC FF FF
2024-10-19 07:12:53.105 - 1A FF 01 03 FF FF 00 00 FF 76 01 FF 00 00 0F (调光器地址-餐厅区域统配地址)
2024-10-19 07:12:54.887 - 19 08 24 03 CC 01 CD 00 01 (调用茶吧感应灯关的按键)
2024-10-19 07:12:54.936 - 1A AA AA AA 88 FF 00 01 FF 00 01 0F (调光器地址-茶吧灯带, 茶吧灯带关闭)
2024-10-19 07:13:19.036 - 19 08 24 03 CC 00 D4 00 01 (调用厨房感应灯关的按键)
2024-10-19 07:13:19.070 - 55 0A 31 00 00 00 01 91 55 0A 31 00 00 00 02 92 (厨房顶灯一关, 厨房顶灯二关)
2024-10-19 07:23:15.609 - 19 08 24 03 CC 01 CC 00 01 (调用茶吧感应灯开的按键)
2024-10-19 07:23:15.640 - 1A AA AA AA 88 FF B0 01 FF B0 01 0F (调光器地址-茶吧灯带, 茶吧灯带明亮)
2024-10-19 07:23:18.214 - 19 08 24 03 CC 00 D3 00 01 (调用厨房感应灯开的按键)
2024-10-19 07:23:18.250 - 55 0A 32 00 00 00 01 92 55 0A 32 00 00 00 02 93 (厨房顶灯一开, 厨房顶灯二开)
2024-10-19 07:23:27.635 - 19 08 24 03 CC 01 CD 00 01 (调用茶吧感应灯关的按键)
2024-10-19 07:23:27.666 - 1A AA AA AA 88 FF 00 01 FF 00 01 0F (调光器地址-茶吧灯带, 茶吧灯带关闭)
2024-10-19 07:24:54.306 - 19 08 24 03 CC 01 CC 00 01 (调用茶吧感应灯开的按键)
2024-10-19 07:24:54.337 - 1A AA AA AA 88 FF B0 01 FF B0 01 0F (调光器地址-茶吧灯带, 茶吧灯带明亮)
2024-10-19 07:25:40.495 - 19 08 24 03 CC 00 D4 00 01 (调用厨房感应灯关的按键)
2024-10-19 07:25:40.529 - 55 0A 31 00 00 00 01 91 55 0A 31 00 00 00 02 92 (厨房顶灯一关, 厨房顶灯二关)
2024-10-19 07:25:47.912 - 19 08 24 03 CC 01 CD 00 01 (调用茶吧感应灯关的按键)
2024-10-19 07:25:47.943 - 1A AA AA AA 88 FF 00 01 FF 00 01 0F (调光器地址-茶吧灯带, 茶吧灯带关闭)
2024-10-19 07:43:44.452 - 19 08 24 03 DD 00 40 00 01 (调用情景-离开主卧)
2024-10-19 07:43:44.955 - EE 00 00 B1 00 00 00 FF FC FF FF (情景执行提示)
2024-10-19 07:43:45.553 - 09 06 00 0F 02 01 78 21 (提示音叮)
2024-10-19 07:43:46.091 - 50 F5 05 (关主卧影视)
2024-10-19 07:43:46.643 - 50 F5 04 (关内卫影视)
2024-10-19 07:43:47.194 - 01 06 07 D6 FF 60 28 9E (主卧空调关)
2024-10-19 07:43:47.222 - 01 06 07 D6 FF 60 28 9E (主卧空调关)
2024-10-19 07:43:47.791 - A5 00 52 FE 01 AA (主卧窗帘开)
2024-10-19 07:43:48.837 - A5 00 52 FE 01 AA (主卧窗帘开)
2024-10-19 07:43:49.880 - A5 00 53 FF 00 AA (主卧纱帘开)
2024-10-19 07:43:49.939 - 55 00 53 01 00 0C 02 2F AA 55 00 53 01 00 0C 02 FF (主卧纱帘电机状态返回)
2024-10-19 07:43:50.081 - FD
2024-10-19 07:43:50.480 - A5 00 53 FF 00 AA (主卧纱帘开)
2024-10-19 07:43:51.030 - 1A 22 33 62 0F 00 00 01 0F (正反转地址-内卫卷帘, 内卫卷帘升)
2024-10-19 07:43:51.759 - 55 20 20 00 00 0F 02 16 AA 55 20 20 00 00 0F 02 16 AA (主卧窗帘电机状态返回)
2024-10-19 07:43:52.076 - 1A 20 07 01 40 00 01 00 0F (自保持开关地址-内卫顶灯, 内卫顶灯关)
2024-10-19 07:43:53.124 - 1A 20 07 01 55 00 01 00 0F (自保持开关地址-主卧顶灯, 主卧顶灯只关)
2024-10-19 07:43:53.680 - 1A 0C 02 08 01 FF 00 01 FF 00 01 FF 00 00 0F (调光器地址-内卫射灯, 内卫感应灯关)
2024-10-19 07:43:54.268 - 1A FF FF FF 56 00 00 01 0F (人体感应地址-内卫, 打开内卫感应)
2024-10-19 07:43:54.679 - 19 08 24 03 CC 01 54 00 01 (调用内卫感应灯开的按键)
2024-10-19 07:43:54.731 - 1A 0C 02 08 01 FF 45 01 FF 45 01 FF 00 00 0F (调光器地址-内卫射灯, 内卫射灯微光)
2024-10-19 07:43:57.062 - 19 08 24 03 CC 01 CC 00 01 (调用茶吧感应灯开的按键)
2024-10-19 07:43:57.092 - 1A AA AA AA 88 FF B0 01 FF B0 01 0F (调光器地址-茶吧灯带, 茶吧灯带明亮)
2024-10-19 07:43:58.116 - 1A 0C 02 04 FF FF 00 01 FF 00 01 FF 00 00 0F (主卧调光全关)
2024-10-19 07:43:59.203 - 09 06 00 0F 02 02 38 20 (提示音咚)
2024-10-19 07:43:59.756 - EE 00 00 B1 00 00 02 FF FC FF FF (情景完成返回主页)
2024-10-19 07:44:01.332 - 55 00 53 00 02 22 02 2F AA 55 00 53 00 02 22 02 2F AA (主卧纱帘电机状态返回)
2024-10-19 07:44:05.539 - 19 08 24 03 DD 00 00 00 01 (调用情景-离家（末）)
2024-10-19 07:44:06.081 - EE 00 00 B1 00 00 00 FF FC FF FF (情景执行提示)
2024-10-19 07:44:06.677 - 09 06 00 0F 02 02 38 20 (提示音咚)
2024-10-19 07:44:07.247 - 50 F7 01 (全屋影音全关)
2024-10-19 07:44:07.824 - 01 06 07 D0 FF 60 C8 9F (客厅空调关)
2024-10-19 07:44:07.855 - 01 06 07 D0 FF 60 C8 9F (客厅空调关)
2024-10-19 07:44:08.419 - 01 06 07 D0 FF 60 C8 9F (客厅空调关)
2024-10-19 07:44:08.450 - 01 06 07 D0 FF 60 C8 9F (客厅空调关)
2024-10-19 07:44:09.019 - 01 06 07 D3 FF 60 38 9F (餐厅空调关)
2024-10-19 07:44:09.054 - 01 06 07 D3 FF 60 38 9F (餐厅空调关)
2024-10-19 07:44:09.619 - 01 06 07 D3 FF 60 38 9F (餐厅空调关)
2024-10-19 07:44:09.650 - 01 06 07 D3 FF 60 38 9F (餐厅空调关)
2024-10-19 07:44:10.215 - 01 06 07 D6 FF 60 28 9E (主卧空调关)
2024-10-19 07:44:10.246 - 01 06 07 D6 FF 60 28 9E (主卧空调关)
2024-10-19 07:44:10.812 - 01 06 07 D6 FF 60 28 9E (主卧空调关)
2024-10-19 07:44:10.843 - 01 06 07 D6 FF 60 28 9E (主卧空调关)
2024-10-19 07:44:11.412 - 01 06 07 D9 FF 60 18 9D (次卧空调关)
2024-10-19 07:44:11.442 - 01 06 07 D9 FF 60 18 9D (次卧空调关)
2024-10-19 07:44:12.007 - 01 06 07 D9 FF 60 18 9D (次卧空调关)
2024-10-19 07:44:12.045 - 01 06 07 D9 FF 60 18 9D (次卧空调关)
2024-10-19 07:44:12.090 - 19 08 24 03 CC 01 CD 00 01 (调用茶吧感应灯关的按键)
2024-10-19 07:44:12.606 - 01 06 07 DC FF 60 08 9C (书房空调关)
2024-10-19 07:44:12.640 - 01 06 07 DC FF 60 08 9C (书房空调关)
2024-10-19 07:44:13.203 - 01 06 07 DC FF 60 08 9C (书房空调关)
2024-10-19 07:44:13.239 - 01 06 07 DC FF 60 08 9C (书房空调关)
2024-10-19 07:44:13.802 - 09 06 00 0F 02 02 38 20 (提示音咚)
2024-10-19 07:44:14.350 - 1A FF FF FF 56 00 00 00 0F (人体感应地址-内卫, 关闭内卫感应)
2024-10-19 07:44:14.898 - 1A FF FF FF 55 00 00 00 0F (人体感应地址-外卫, 关闭外卫感应)
2024-10-19 07:44:14.996 - BC BC
2024-10-19 07:44:15.448 - 1A FF FF FF 57 00 00 00 0F (人体感应地址-厨房, 关闭厨房感应)
2024-10-19 07:44:15.999 - 1A FF FF FF 58 00 00 00 0F (人体感应地址-茶吧, 关闭茶吧感应)
2024-10-19 07:44:16.047 - BC BC
2024-10-19 07:44:16.641 - 1A 20 07 00 93 00 01 00 0F (自保持开关地址-设备区顶, 设备区顶灯关)
2024-10-19 07:44:17.740 - 1A 20 07 01 40 00 01 00 0F (自保持开关地址-内卫顶灯, 内卫顶灯关)
2024-10-19 07:44:18.861 - 1A 20 07 01 55 00 01 00 0F (自保持开关地址-主卧顶灯, 主卧顶灯只关)
2024-10-19 07:44:19.930 - 1A 20 07 00 42 00 01 00 0F (自保持开关地址-外卫顶灯, 外卫顶灯关)
2024-10-19 07:44:20.976 - 55 0D 31 00 00 00 01 94 (书房顶灯只关)
2024-10-19 07:44:22.021 - 55 0A 31 00 00 00 01 91 (厨房顶灯一关)
2024-10-19 07:44:23.070 - 55 0A 31 00 00 00 02 92 (厨房顶灯二关)
2024-10-19 07:44:24.114 - 55 0B 31 00 00 00 01 92 (厨房风扇只关)
2024-10-19 07:44:25.162 - 55 0C 31 00 00 00 01 93 (餐厅顶灯关)
2024-10-19 07:44:26.211 - 1A 20 07 01 30 00 01 00 0F (自保持开关地址-西阳顶灯, 西阳顶灯关)
2024-10-19 07:44:27.257 - 1A 18 05 21 89 00 01 00 0F (自保持开关地址-客厅顶灯, 客厅顶灯一关)
2024-10-19 07:44:28.301 - 1A 18 05 01 94 00 01 00 0F (自保持开关地址-客厅顶灯, 客厅顶灯二关)
2024-10-19 07:44:29.348 - 1A 20 07 00 70 00 01 00 0F (自保持开关地址-次卧顶灯, 次卧顶灯只关)
2024-10-19 07:44:30.444 - 1A 18 05 10 31 00 01 00 0F (自保持开关地址-门厅顶灯, 门厅顶灯关)
2024-10-19 07:44:31.538 - 1A FF FF FF 04 00 03 02 (继电器地址-东阳衣架, 东阳衣架照明关)
2024-10-19 07:44:32.137 - 09 06 00 0F 02 02 38 20 (提示音咚)
2024-10-19 07:44:32.683 - A5 00 A6 FE 01 AA (餐厅窗帘开)
2024-10-19 07:44:33.232 - FF FF FF FF 0A 00 01 00 (继电器地址-东阳窗帘, 东阳窗帘开)
2024-10-19 07:44:33.780 - 1A BE B0 DC 04 00 01 00 (继电器地址-西阳窗帘, 西阳窗帘开)
2024-10-19 07:44:34.329 - FF FF FF FF 0E 00 01 00 (继电器地址-西阳小窗帘, 西阳小窗帘开)
2024-10-19 07:44:34.878 - 1A 22 33 62 0F 00 00 01 0F (正反转地址-内卫卷帘, 内卫卷帘升)
2024-10-19 07:44:35.423 - A5 00 52 FE 01 AA (主卧窗帘开)
2024-10-19 07:44:35.971 - A5 00 53 FF 00 AA (主卧纱帘开)
2024-10-19 07:44:36.520 - A5 00 76 FE 01 AA (次卧窗帘开)
2024-10-19 07:44:37.069 - A5 00 21 FE 01 AA (次卧纱帘开)
2024-10-19 07:44:37.620 - A5 00 D2 FE 01 AA 22 0D (书房窗帘开)
2024-10-19 07:44:38.165 - 1A BE B0 DC 09 00 01 00 (继电器地址-客厅窗帘, 客厅窗帘开)
2024-10-19 07:44:38.713 - 1A BE B0 DC 0A 00 02 00 (继电器地址-客厅纱帘, 客厅纱帘开)
2024-10-19 07:44:39.261 - 09 06 00 0F 02 02 38 20 (提示音咚)
2024-10-19 07:44:40.359 - 1A EC A0 DC 02 00 00 00 0F (自保持开关地址-天花12V供电, 天花12V 供电关)
2024-10-19 07:44:40.907 - 1A EC A0 DC 02 00 00 00 0F (自保持开关地址-天花12V供电, 天花12V 供电关)
2024-10-19 07:44:41.455 - 1A EC A0 DC 01 00 00 00 0F (自保持开关地址-电视、设备12V供电, 12V 电视供电关)
2024-10-19 07:44:42.004 - 1A EC A0 DC 01 00 00 00 0F (自保持开关地址-电视、设备12V供电, 12V 电视供电关)
2024-10-19 07:44:42.650 - 1A EC A0 DC 04 00 01 00 0F (自保持开关地址-次卧西阳内外卫供电, 内卫外卫关)
2024-10-19 07:44:43.200 - 1A EC A0 DC 04 00 01 00 0F (自保持开关地址-次卧西阳内外卫供电, 内卫外卫关)
2024-10-19 07:44:44.742 - 1A BB BB BB 01 02 00 (开水器电源关)
2024-10-19 07:44:57.789 - 09 06 00 0F 02 02 38 20 (提示音咚)
2024-10-19 07:44:58.391 - 1A 27 89 12 AA 00 00 00 0F (状态寄存器地址, 无人状态)
2024-10-19 07:44:58.936 - 1A 27 89 12 AA 00 00 00 0F (状态寄存器地址, 无人状态)
2024-10-19 07:44:59.481 - A1 11 11 11 4D (天花供电关闭确认)
2024-10-19 07:44:59.711 - 1A EC A0 DC 02 86 86 86 0F (查询天花供电状态, 自保持开关地址-天花12V供电)
2024-10-19 07:45:00.142 - 1A EC A0 DC 02 00 01 0F (自保持开关地址-天花12V供电)
2024-10-19 07:45:02.518 - A1 11 11 11 4E (卫生供电关闭确认)
2024-10-19 07:45:02.749 - 1A EC A0 DC 04 86 86 86 0F (查询卫生间供电状态, 自保持开关地址-次卧西阳内外卫供电)
2024-10-19 07:45:03.179 - 1A EC A0 DC 04 01 00 0F (自保持开关地址-次卧西阳内外卫供电)
2024-10-19 07:45:05.562 - A1 11 11 11 4F (电视供电关闭确认)
2024-10-19 07:45:05.784 - 1A EC A0 DC 01 86 86 86 0F (查询电视供电状态, 自保持开关地址-电视、设备12V供电)
2024-10-19 07:45:06.228 - 1A EC A0 DC 01 00 01 0F (自保持开关地址-电视、设备12V供电)
2024-10-19 07:45:08.601 - 09 06 00 0F 02 02 38 20 (提示音咚)
2024-10-19 07:45:09.150 - 09 06 00 0F 02 02 38 20 (提示音咚)
2024-10-19 07:45:09.700 - EE 00 00 B1 00 00 02 FF FC FF FF (情景完成返回主页)
2024-10-19 07:45:10.793 - BA BA EE EE BA BA (离家设置信科变量)
2024-10-19 07:45:11.836 - A1 11 11 11 46 (天热离家遮阳)
2024-10-19 07:45:12.064 - 1A 27 89 12 AA 86 86 86 0F (查询寄存器状态, 状态寄存器地址)
2024-10-19 07:45:12.446 - 1A 27 89 12 AA 00 00 00 00 00 00 00 00 00 00 00 00 00 00 00 00 0F (状态寄存器地址)
2024-10-19 09:16:17.534 - 1A BE B0 DC 04 (继电器地址-西阳窗帘)
2024-10-19 09:16:17.672 - FF
2024-10-19 09:23:23.075 - FF FF FF FF 0E (继电器地址-西阳小窗帘)
2024-10-19 09:23:23.210 - FF
2024-10-19 09:33:33.698 - 1A BE B0 DC 02 (正反转地址-外卫卷帘)
2024-10-19 09:39:31.166 - 1A BE B0 DC 09 (继电器地址-客厅窗帘)
2024-10-19 09:43:52.614 - 1A BE B0 DC 03 (继电器地址-西阳天幕)
2024-10-19 09:43:52.748 - FE
2024-10-19 09:47:40.467 - 1A BE B0 DC 0A FE (继电器地址-客厅纱帘)
2024-10-19 09:47:40.604 - FF
2024-10-19 09:51:42.516 - 1A BE B0 DC 01 (继电器地址-回水泵点动)
2024-10-19 09:51:42.647 - FE
2024-10-19 09:53:22.003 - FF FF FF FF 0A FD (继电器地址-东阳窗帘)
2024-10-19 09:53:22.141 - FF
2024-10-19 09:55:14.908 - FF
2024-10-19 10:03:57.152 - 1A FF FF FF 04 FC (继电器地址-东阳衣架)
2024-10-19 10:03:57.284 - FF
2024-10-19 12:35:58.219 - 1A BE B0 DC 04 (继电器地址-西阳窗帘)
2024-10-19 12:35:58.358 - FF
2024-10-19 12:37:57.031 - FF
2024-10-19 12:43:21.703 - FF FF FF FF 0E (继电器地址-西阳小窗帘)
2024-10-19 12:43:21.835 - FF
2024-10-19 12:53:56.780 - 1A BE B0 DC 02 (正反转地址-外卫卷帘)
2024-10-19 12:53:56.915 - FF
2024-10-19 12:59:46.175 - 1A BE B0 DC 09 (继电器地址-客厅窗帘)
2024-10-19 12:59:46.313 - FF
2024-10-19 13:04:43.289 - 1A BE B0 DC 03 FE (继电器地址-西阳天幕)
2024-10-19 13:08:13.325 - 1A BE B0 DC 0A FE (继电器地址-客厅纱帘)
2024-10-19 13:08:13.458 - FF
2024-10-19 13:12:23.969 - 1A BE B0 DC 01 (继电器地址-回水泵点动)
2024-10-19 13:14:12.091 - FF FF FF FF 0A (继电器地址-东阳窗帘)
2024-10-19 13:14:12.225 - FF
2024-10-19 13:24:50.196 - 1A FF FF FF 04 (继电器地址-东阳衣架)
2024-10-19 13:38:12.713 - 1B 03 00 00 00 02 C6 31 (查询室外光线)
2024-10-19 13:38:12.731 - 1B 03 04 00 00 00 8F 00 56 (室外光线返回)
2024-10-19 13:38:13.511 - 1A EC A0 DC 02 00 00 01 0F (自保持开关地址-天花12V供电, 天花12V 供电开)
2024-10-19 13:38:13.808 - 19 08 24 03 DD 00 0C 00 01 (调用情景-信科调用进门亮)
2024-10-19 13:38:14.092 - 1A AA AA AA 88 (调光器地址-茶吧灯带)
2024-10-19 13:38:14.322 - EE 00 00 B1 00 00 00 FF FC FF FF (情景执行提示)
2024-10-19 13:38:14.919 - 09 06 00 0F 02 01 78 21 (提示音叮)
2024-10-19 13:38:15.467 - 1A EC A0 DC 02 00 00 01 0F (自保持开关地址-天花12V供电, 天花12V 供电开)
2024-10-19 13:38:16.067 - 1A EC A0 DC 04 00 01 01 0F (自保持开关地址-次卧西阳内外卫供电, 内卫外卫开)
2024-10-19 13:38:16.641 - 1A EC A0 DC 04 00 01 01 0F (自保持开关地址-次卧西阳内外卫供电, 内卫外卫开)
2024-10-19 13:38:17.212 - 1A EC A0 DC 01 00 00 01 0F (自保持开关地址-电视、设备12V供电, 12V 电视供电开)
2024-10-19 13:38:17.758 - 1A BB BB BB 01 01 00 (开水器电源开)
2024-10-19 13:38:18.453 - FF
2024-10-19 13:38:19.304 - 1A 27 89 12 AA 00 00 01 0F (状态寄存器地址, 有人状态)
2024-10-19 13:38:19.853 - 1A 27 89 12 AA 00 00 01 0F (状态寄存器地址, 有人状态)
2024-10-19 13:38:20.406 - 1A 0C 02 08 01 FF 45 01 FF 45 01 FF 00 00 0F (调光器地址-内卫射灯, 内卫射灯微光)
2024-10-19 13:38:21.004 - 1A 0D 01 07 01 FF 45 01 FF 45 01 FF 00 00 0F (调光器地址-外卫射灯, 外卫感应灯开)
2024-10-19 13:38:21.595 - 1A FF FF FF 57 00 00 01 0F (人体感应地址-厨房, 打开厨房感应)
2024-10-19 13:38:22.144 - 1A FF FF FF 58 00 00 01 0F (人体感应地址-茶吧, 打开茶吧感应)
2024-10-19 13:38:22.196 - BC BC
2024-10-19 13:38:22.701 - 19 08 24 03 CC 01 CC 00 01 (调用茶吧感应灯开的按键)
2024-10-19 13:38:22.753 - 1A AA AA AA 88 FF B0 01 FF B0 01 0F (调光器地址-茶吧灯带, 茶吧灯带明亮)
2024-10-19 13:38:23.155 - 1A BE B0 DC 01 00 01 00 (继电器地址-回水泵点动, 回水泵点动)
2024-10-19 13:38:23.738 - 1A BE B0 DC 01 00 01 00 (继电器地址-回水泵点动, 回水泵点动)
2024-10-19 13:38:24.335 - 09 06 00 0F 02 01 78 21 (提示音叮)
2024-10-19 13:38:24.884 - 09 06 00 0F 02 01 78 21 (提示音叮)
2024-10-19 13:38:25.435 - EE 00 00 B1 00 00 02 FF FC FF FF (情景完成返回主页)
2024-10-19 13:38:26.029 - A1 11 11 11 50 (天花供电打开确认)
2024-10-19 13:38:26.249 - 1A EC A0 DC 02 86 86 86 0F (查询天花供电状态, 自保持开关地址-天花12V供电)
2024-10-19 13:38:26.682 - 1A EC A0 DC 02 01 01 0F (自保持开关地址-天花12V供电)
2024-10-19 13:38:28.570 - A1 11 11 11 51 (卫生供电打开确认)
2024-10-19 13:38:28.798 - 1A EC A0 DC 04 86 86 86 0F (查询卫生间供电状态, 自保持开关地址-次卧西阳内外卫供电)
2024-10-19 13:38:29.228 - 1A EC A0 DC 04 01 01 0F (自保持开关地址-次卧西阳内外卫供电)
2024-10-19 13:38:31.110 - A1 11 11 11 52 (电视供电打开确认)
2024-10-19 13:38:31.332 - 1A EC A0 DC 01 86 86 86 0F (查询电视供电状态, 自保持开关地址-电视、设备12V供电)
2024-10-19 13:38:31.764 - 1A EC A0 DC 01 01 01 0F (自保持开关地址-电视、设备12V供电)
2024-10-19 13:38:36.141 - A1 11 11 11 47 (天热回家开帘)
2024-10-19 13:38:36.367 - 1A 27 89 12 AA 86 86 86 0F (查询寄存器状态, 状态寄存器地址)
2024-10-19 13:38:36.752 - 1A 27 89 12 AA 01 00 00 00 00 00 00 00 00 00 00 00 00 00 00 00 0F (状态寄存器地址)
2024-10-19 13:38:52.764 - 19 08 24 03 CC 01 CD 00 01 (调用茶吧感应灯关的按键)
2024-10-19 13:38:52.813 - 1A AA AA AA 88 FF 00 01 FF 00 01 0F (调光器地址-茶吧灯带, 茶吧灯带关闭)
2024-10-19 14:40:44.053 - 19 08 24 03 CC 00 D3 00 01 (调用厨房感应灯开的按键)
2024-10-19 14:40:44.095 - 55 0A 32 00 00 00 01 92 55 0A 32 00 00 00 02 93 (厨房顶灯一开, 厨房顶灯二开)
2024-10-19 14:41:30.145 - 19 08 24 03 CC 00 D4 00 01 (调用厨房感应灯关的按键)
2024-10-19 14:41:30.179 - 55 0A 31 00 00 00 01 91 55 0A 31 00 00 00 02 92 (厨房顶灯一关, 厨房顶灯二关)
2024-10-19 15:45:56.804 - 12 01 00 5E 00 00 01 00 00 00 24 00 06 01 00 2A 00 01 02 00 2B 00 01 03 00 2C 00 04 04 00 30 00
2024-10-19 15:45:56.836 - 01 05 00 31 00 24 06 00 55 00 01 FF 04 07 0C BC 00 00 00 00 00 00 15 D0 00 B0 F9 7B 9A 20 00 00
2024-10-19 15:45:56.872 - 00 38 79 18 B7 F7 7F 00 00 00 00 00 00 00 00 00 00 00 00 00 00 00 00 00 00 FE FF FF FF 01
2024-10-19 15:55:38.495 - 1A BE B0 DC 04 (继电器地址-西阳窗帘)
2024-10-19 15:55:38.632 - FE
2024-10-19 16:03:20.178 - FF FF FF FF 0E (继电器地址-西阳小窗帘)
2024-10-19 16:03:20.313 - FF
2024-10-19 16:08:48.238 - 19 08 24 03 DD 00 3B 00 01 (调用情景-书房照明关帘)
2024-10-19 16:08:48.785 - EE 00 00 B1 00 00 00 FF FC FF FF (情景执行提示)
2024-10-19 16:08:49.379 - 09 06 00 0F 02 01 78 21 (提示音叮)
2024-10-19 16:08:50.011 - 1A 0A 04 06 01 FF F0 01 FF F0 01 FF 00 00 0F (调光器地址-书房射灯, 书房射灯明亮)
2024-10-19 16:08:54.062 - A5 00 B7 FF 00 AA 22 0D (书房纱帘关)
2024-10-19 16:08:55.107 - A5 00 D2 FF 00 AA 22 0C (书房窗帘关)
2024-10-19 16:08:55.158 - 55 00 D2 01 00 0D 01 0B AA 55 00 D2 01 00 0D 01 0B AA (书房窗帘电机状态返回)
2024-10-19 16:08:56.207 - 09 06 00 0F 02 02 38 20 (提示音咚)
2024-10-19 16:08:56.804 - EE 00 00 B1 00 00 02 FF FC FF FF (情景完成返回主页)
2024-10-19 16:09:04.125 - 55 00 D2 00 00 FE 01 0B AA 55 00 D2 00 00 FE 01 0B AA (书房窗帘电机状态返回)
2024-10-19 16:14:19.565 - 1A BE B0 DC 02 FE (正反转地址-外卫卷帘)
2024-10-19 16:14:19.698 - FF
2024-10-19 16:20:38.668 - 1A BE B0 DC 09 FE (继电器地址-客厅窗帘)
2024-10-19 16:20:38.803 - FE
2024-10-19 16:25:34.590 - 1A BE B0 DC 03 FE (继电器地址-西阳天幕)
2024-10-19 16:25:34.724 - FF
2024-10-19 16:28:46.529 - 1A BE B0 DC 0A FE (继电器地址-客厅纱帘)
2024-10-19 16:28:46.664 - FF
2024-10-19 16:33:04.179 - 1A BE B0 DC 01 FC (继电器地址-回水泵点动)
2024-10-19 16:33:04.313 - FF
2024-10-19 16:34:57.771 - FF FF FF FF 0A (继电器地址-东阳窗帘)
2024-10-19 16:35:04.793 - 19 08 24 03 DD 00 3A 00 01 (调用情景-离开书房)
2024-10-19 16:35:05.313 - EE 00 00 B1 00 00 00 FF FC FF FF (情景执行提示)
2024-10-19 16:35:05.907 - 09 06 00 0F 02 01 78 21 (提示音叮)
2024-10-19 16:35:06.454 - 01 06 07 DC FF 60 08 9C (书房空调关)
2024-10-19 16:35:06.488 - 01 06 07 DC FF 60 08 9C (书房空调关)
2024-10-19 16:35:07.048 - 50 F5 07 (关书房影视)
2024-10-19 16:35:07.603 - A5 00 D2 FE 01 AA 22 0D (书房窗帘开)
2024-10-19 16:35:07.655 - 55 00 D2 02 00 FE 01 0B AA 55 00 D2 02 00 FE F9 (书房窗帘电机状态返回)
2024-10-19 16:35:08.698 - A5 00 B7 FF 00 AA 22 0D (书房纱帘关)
2024-10-19 16:35:09.746 - 55 0D 31 00 00 00 01 94 (书房顶灯只关)
2024-10-19 16:35:10.798 - 1A 0A 04 06 01 FF 00 01 FF 00 01 FF 00 00 0F (调光器地址-书房射灯, 书房射灯关闭)
2024-10-19 16:35:14.874 - 09 06 00 0F 02 02 38 20 (提示音咚)
2024-10-19 16:35:15.426 - EE 00 00 B1 00 00 02 FF FC FF FF (情景完成返回主页)
2024-10-19 16:35:16.858 - 19 08 24 03 DD 00 12 00 01 (调用情景-公共灯光开)
2024-10-19 16:35:17.421 - EE 00 00 B1 00 00 00 FF FC FF FF (情景执行提示)
2024-10-19 16:35:18.014 - 09 06 00 0F 02 01 78 21 (提示音叮)
2024-10-19 16:35:18.572 - 1A 0D 01 01 01 FF 55 01 FF 55 01 FF 00 00 0F (调光器地址-客厅筒灯, 客厅筒灯微光)
2024-10-19 16:35:19.171 - 1A 0D 01 01 03 FF 55 01 FF 55 01 FF 00 00 0F (调光器地址-客厅过道, 客厅过道微光)
2024-10-19 16:35:19.766 - 1A 0D 01 01 02 FF 55 01 FF 55 01 FF 00 00 0F (调光器地址-客厅灯带, 客厅灯带微光)
2024-10-19 16:35:20.366 - 1A 0B 01 02 02 FF 45 01 FF 45 01 FF 00 00 0F (调光器地址-门厅射灯, 门厅背景微光)
2024-10-19 16:35:20.963 - 1A 0B 01 02 01 FF 45 01 FF 45 01 FF 00 00 0F (调光器地址-门厅灯带, 门厅灯带微光)
2024-10-19 16:35:21.559 - 1A 0B 01 03 01 FF 45 01 FF 45 01 FF 00 00 0F (调光器地址-餐厅筒灯, 餐厅筒灯微光)
2024-10-19 16:35:22.159 - 1A 0B 01 03 02 FF 45 01 FF 45 01 FF 00 00 0F (调光器地址-餐桌筒灯, 餐桌筒灯微光)
2024-10-19 16:35:22.757 - 1A 0B 01 03 03 FF 45 01 FF 45 01 FF 00 00 0F (调光器地址-餐厅灯带, 餐厅灯带微光)
2024-10-19 16:35:23.348 - 55 0A 32 00 00 00 01 92 (厨房顶灯一开)
2024-10-19 16:35:23.896 - 55 0A 32 00 00 00 02 93 (厨房顶灯二开)
2024-10-19 16:35:24.443 - 09 06 00 0F 02 02 38 20 (提示音咚)
2024-10-19 16:35:25.023 - EE 00 00 B1 00 00 02 FF FC FF FF (情景完成返回主页)
2024-10-19 16:36:20.819 - 1A 20 07 01 40 00 01 01 0F (自保持开关地址-内卫顶灯, 内卫顶灯开)
2024-10-19 16:38:35.667 - 1A 20 07 01 40 00 01 00 0F (自保持开关地址-内卫顶灯, 内卫顶灯关)
2024-10-19 16:45:42.628 - 1A FF FF FF 04 FC (继电器地址-东阳衣架)
2024-10-19 16:57:19.187 - 19 08 24 03 CC 01 64 00 01
2024-10-19 16:57:19.229 - 50 F5 08 (关客厅影视)
2024-10-19 16:58:06.937 - 19 08 24 03 CC 01 CC 00 01 (调用茶吧感应灯开的按键)
2024-10-19 16:58:06.985 - 1A AA AA AA 88 FF B0 01 FF B0 01 0F (调光器地址-茶吧灯带, 茶吧灯带明亮)
2024-10-19 16:58:27.248 - 19 08 24 03 DD 00 00 00 01 (调用情景-离家（末）)
2024-10-19 16:58:27.792 - EE 00 00 B1 00 00 00 FF FC FF FF (情景执行提示)
2024-10-19 16:58:28.390 - 09 06 00 0F 02 02 38 20 (提示音咚)
2024-10-19 16:58:28.931 - 50 F7 01 (全屋影音全关)
2024-10-19 16:58:29.483 - 01 06 07 D0 FF 60 C8 9F (客厅空调关)
2024-10-19 16:58:29.514 - 01 06 07 D0 FF 60 C8 9F (客厅空调关)
2024-10-19 16:58:30.084 - 01 06 07 D0 FF 60 C8 9F (客厅空调关)
2024-10-19 16:58:30.117 - 01 06 07 D0 FF 60 C8 9F (客厅空调关)
2024-10-19 16:58:30.683 - 01 06 07 D3 FF 60 38 9F (餐厅空调关)
2024-10-19 16:58:30.713 - 01 06 07 D3 FF 60 38 9F (餐厅空调关)
2024-10-19 16:58:31.280 - 01 06 07 D3 FF 60 38 9F (餐厅空调关)
2024-10-19 16:58:31.309 - 01 06 07 D3 FF 60 38 9F (餐厅空调关)
2024-10-19 16:58:31.875 - 01 06 07 D6 FF 60 28 9E (主卧空调关)
2024-10-19 16:58:31.907 - 01 06 07 D6 FF 60 28 9E (主卧空调关)
2024-10-19 16:58:32.476 - 01 06 07 D6 FF 60 28 9E (主卧空调关)
2024-10-19 16:58:32.503 - 01 06 07 D6 FF 60 28 9E (主卧空调关)
2024-10-19 16:58:33.071 - 01 06 07 D9 FF 60 18 9D (次卧空调关)
2024-10-19 16:58:33.107 - 01 06 07 D9 FF 60 18 9D (次卧空调关)
2024-10-19 16:58:33.670 - 01 06 07 D9 FF 60 18 9D (次卧空调关)
2024-10-19 16:58:33.703 - 01 06 07 D9 FF 60 18 9D (次卧空调关)
2024-10-19 16:58:34.267 - 01 06 07 DC FF 60 08 9C (书房空调关)
2024-10-19 16:58:34.299 - 01 06 07 DC FF 60 08 9C (书房空调关)
2024-10-19 16:58:34.867 - 01 06 07 DC FF 60 08 9C (书房空调关)
2024-10-19 16:58:34.896 - 01 06 07 DC FF 60 08 9C (书房空调关)
2024-10-19 16:58:35.001 - 19 08 24 03 CC 01 CD 00 01 (调用茶吧感应灯关的按键)
2024-10-19 16:58:35.048 - 1A AA AA AA 88 FF 00 01 FF 00 01 0F (调光器地址-茶吧灯带, 茶吧灯带关闭)
2024-10-19 16:58:35.465 - 09 06 00 0F 02 02 38 20 (提示音咚)
2024-10-19 16:58:36.015 - 1A FF FF FF 56 00 00 00 0F (人体感应地址-内卫, 关闭内卫感应)
2024-10-19 16:58:36.025 - BC BC
2024-10-19 16:58:36.612 - 1A FF FF FF 55 00 00 00 0F (人体感应地址-外卫, 关闭外卫感应)
2024-10-19 16:58:36.624 - BC BC
2024-10-19 16:58:37.209 - 1A FF FF FF 57 00 00 00 0F (人体感应地址-厨房, 关闭厨房感应)
2024-10-19 16:58:37.759 - 1A FF FF FF 58 00 00 00 0F (人体感应地址-茶吧, 关闭茶吧感应)
2024-10-19 16:58:37.807 - BC BC
2024-10-19 16:58:38.354 - 1A 20 07 00 93 00 01 00 0F (自保持开关地址-设备区顶, 设备区顶灯关)
2024-10-19 16:58:39.400 - 1A 20 07 01 40 00 01 00 0F (自保持开关地址-内卫顶灯, 内卫顶灯关)
2024-10-19 16:58:40.449 - 1A 20 07 01 55 00 01 00 0F (自保持开关地址-主卧顶灯, 主卧顶灯只关)
2024-10-19 16:58:41.496 - 1A 20 07 00 42 00 01 00 0F (自保持开关地址-外卫顶灯, 外卫顶灯关)
2024-10-19 16:58:42.541 - 55 0D 31 00 00 00 01 94 (书房顶灯只关)
2024-10-19 16:58:43.584 - 55 0A 31 00 00 00 01 91 (厨房顶灯一关)
2024-10-19 16:58:44.630 - 55 0A 31 00 00 00 02 92 (厨房顶灯二关)
2024-10-19 16:58:45.678 - 55 0B 31 00 00 00 01 92 (厨房风扇只关)
2024-10-19 16:58:46.724 - 55 0C 31 00 00 00 01 93 (餐厅顶灯关)
2024-10-19 16:58:47.773 - 1A 20 07 01 30 00 01 00 0F (自保持开关地址-西阳顶灯, 西阳顶灯关)
2024-10-19 16:58:48.819 - 1A 18 05 21 89 00 01 00 0F (自保持开关地址-客厅顶灯, 客厅顶灯一关)
2024-10-19 16:58:49.866 - 1A 18 05 01 94 00 01 00 0F (自保持开关地址-客厅顶灯, 客厅顶灯二关)
2024-10-19 16:58:50.911 - 1A 20 07 00 70 00 01 00 0F (自保持开关地址-次卧顶灯, 次卧顶灯只关)
2024-10-19 16:58:51.956 - 1A 18 05 10 31 00 01 00 0F (自保持开关地址-门厅顶灯, 门厅顶灯关)
2024-10-19 16:58:53.002 - 1A FF FF FF 04 00 03 02 (继电器地址-东阳衣架, 东阳衣架照明关)
2024-10-19 16:58:53.552 - 09 06 00 0F 02 02 38 20 (提示音咚)
2024-10-19 16:58:54.099 - A5 00 A6 FE 01 AA (餐厅窗帘开)
2024-10-19 16:58:54.647 - FF FF FF FF 0A 00 01 00 (继电器地址-东阳窗帘, 东阳窗帘开)
2024-10-19 16:58:55.194 - 1A BE B0 DC 04 00 01 00 (继电器地址-西阳窗帘, 西阳窗帘开)
2024-10-19 16:58:55.744 - FF FF FF FF 0E 00 01 00 (继电器地址-西阳小窗帘, 西阳小窗帘开)
2024-10-19 16:58:56.295 - 1A 22 33 62 0F 00 00 01 0F (正反转地址-内卫卷帘, 内卫卷帘升)
2024-10-19 16:58:56.838 - A5 00 52 FE 01 AA (主卧窗帘开)
2024-10-19 16:58:57.386 - A5 00 53 FF 00 AA (主卧纱帘开)
2024-10-19 16:58:57.936 - A5 00 76 FE 01 AA (次卧窗帘开)
2024-10-19 16:58:58.482 - A5 00 21 FE 01 AA (次卧纱帘开)
2024-10-19 16:58:59.032 - A5 00 D2 FE 01 AA 22 0D (书房窗帘开)
2024-10-19 16:58:59.629 - 1A BE B0 DC 09 00 01 00 (继电器地址-客厅窗帘, 客厅窗帘开)
2024-10-19 16:59:00.179 - 1A BE B0 DC 0A 00 02 00 (继电器地址-客厅纱帘, 客厅纱帘开)
2024-10-19 16:59:00.730 - 09 06 00 0F 02 02 38 20 (提示音咚)
2024-10-19 16:59:01.776 - 1A EC A0 DC 02 00 00 00 0F (自保持开关地址-天花12V供电, 天花12V 供电关)
2024-10-19 16:59:02.325 - 1A EC A0 DC 02 00 00 00 0F (自保持开关地址-天花12V供电, 天花12V 供电关)
2024-10-19 16:59:02.871 - 1A EC A0 DC 01 00 00 00 0F (自保持开关地址-电视、设备12V供电, 12V 电视供电关)
2024-10-19 16:59:03.467 - 1A EC A0 DC 01 00 00 00 0F (自保持开关地址-电视、设备12V供电, 12V 电视供电关)
2024-10-19 16:59:04.017 - 1A EC A0 DC 04 00 01 00 0F (自保持开关地址-次卧西阳内外卫供电, 内卫外卫关)
2024-10-19 16:59:04.614 - 1A EC A0 DC 04 00 01 00 0F (自保持开关地址-次卧西阳内外卫供电, 内卫外卫关)
2024-10-19 16:59:06.160 - 1A BB BB BB 01 02 00 (开水器电源关)
2024-10-19 16:59:19.206 - 09 06 00 0F 02 02 38 20 (提示音咚)
2024-10-19 16:59:19.809 - 1A 27 89 12 AA 00 00 00 0F (状态寄存器地址, 无人状态)
2024-10-19 16:59:20.353 - 1A 27 89 12 AA 00 00 00 0F (状态寄存器地址, 无人状态)
2024-10-19 16:59:20.896 - A1 11 11 11 4D (天花供电关闭确认)
2024-10-19 16:59:21.121 - 1A EC A0 DC 02 86 86 86 0F (查询天花供电状态, 自保持开关地址-天花12V供电)
2024-10-19 16:59:21.556 - 1A EC A0 DC 02 00 01 0F (自保持开关地址-天花12V供电)
2024-10-19 16:59:23.937 - A1 11 11 11 4E (卫生供电关闭确认)
2024-10-19 16:59:24.158 - 1A EC A0 DC 04 86 86 86 0F (查询卫生间供电状态, 自保持开关地址-次卧西阳内外卫供电)
2024-10-19 16:59:24.594 - 1A EC A0 DC 04 01 00 0F (自保持开关地址-次卧西阳内外卫供电)
2024-10-19 16:59:26.978 - A1 11 11 11 4F (电视供电关闭确认)
2024-10-19 16:59:27.206 - 1A EC A0 DC 01 86 86 86 0F (查询电视供电状态, 自保持开关地址-电视、设备12V供电)
2024-10-19 16:59:27.639 - 1A EC A0 DC 01 00 01 0F (自保持开关地址-电视、设备12V供电)
2024-10-19 16:59:30.019 - 09 06 00 0F 02 02 38 20 (提示音咚)
2024-10-19 16:59:30.568 - 09 06 00 0F 02 02 38 20 (提示音咚)
2024-10-19 16:59:31.120 - EE 00 00 B1 00 00 02 FF FC FF FF (情景完成返回主页)
2024-10-19 16:59:32.207 - BA BA EE EE BA BA (离家设置信科变量)
2024-10-19 16:59:33.258 - A1 11 11 11 46 (天热离家遮阳)
2024-10-19 16:59:33.483 - 1A 27 89 12 AA 86 86 86 0F (查询寄存器状态, 状态寄存器地址)
2024-10-19 16:59:33.864 - 1A 27 89 12 AA 00 00 00 00 00 00 00 00 00 00 00 00 00 00 00 00 0F (状态寄存器地址)
2024-10-19 19:16:19.254 - 1A BE B0 DC 04 (继电器地址-西阳窗帘)
2024-10-19 19:26:25.846 - FF FF FF FF 0E (继电器地址-西阳小窗帘)
2024-10-19 19:26:25.983 - FF
2024-10-19 19:34:46.593 - 1A BE B0 DC 02 FC (正反转地址-外卫卷帘)
2024-10-19 19:42:51.263 - 1A BE B0 DC 09 FC (继电器地址-客厅窗帘)
2024-10-19 19:42:51.395 - FE
2024-10-19 19:46:25.034 - 1A BE B0 DC 03 (继电器地址-西阳天幕)
2024-10-19 19:49:56.377 - 1A BE B0 DC 0A FC (继电器地址-客厅纱帘)
2024-10-19 19:49:56.510 - FE
2024-10-19 19:53:41.221 - 1B 03 00 00 00 02 C6 31 (查询室外光线)
2024-10-19 19:53:41.239 - 1B 03 04 00 00 00 00 41 F2 (室外光线返回)
2024-10-19 19:53:42.020 - 1A EC A0 DC 02 00 00 01 0F (自保持开关地址-天花12V供电, 天花12V 供电开)
2024-10-19 19:53:42.598 - 1A AA AA AA 88 (调光器地址-茶吧灯带)
2024-10-19 19:53:42.720 - AC
2024-10-19 19:53:42.722 - FF 00 00 0F
2024-10-19 19:53:43.715 - 19 08 24 03 DD 00 0D 00 01 (调用情景-信科调用进门暗)
2024-10-19 19:53:45.781 - 1A FF 01 FF FF FF 60 01 FF 60 01 FF 00 00 0F (调光器地址-公共区域统配地址)
2024-10-19 19:53:47.869 - 1A EC A0 DC 01 00 00 01 0F (自保持开关地址-电视、设备12V供电, 12V 电视供电开)
2024-10-19 19:53:48.442 - 1A EC A0 DC 01 00 00 01 0F (自保持开关地址-电视、设备12V供电, 12V 电视供电开)
2024-10-19 19:53:49.012 - 1A EC A0 DC 04 00 01 01 0F (自保持开关地址-次卧西阳内外卫供电, 内卫外卫开)
2024-10-19 19:53:49.561 - 1A EC A0 DC 04 00 01 01 0F (自保持开关地址-次卧西阳内外卫供电, 内卫外卫开)
2024-10-19 19:53:50.109 - 1A BB BB BB 01 01 00 (开水器电源开)
2024-10-19 19:53:51.654 - 1A 27 89 12 AA 00 00 01 0F (状态寄存器地址, 有人状态)
2024-10-19 19:53:52.203 - 1A 27 89 12 AA 00 00 01 0F (状态寄存器地址, 有人状态)
2024-10-19 19:53:52.747 - 1A BE B0 DC 01 00 01 00 (继电器地址-回水泵点动, 回水泵点动)
2024-10-19 19:53:53.301 - 1A FF FF FF 56 00 00 01 0F (人体感应地址-内卫, 打开内卫感应)
2024-10-19 19:53:53.851 - 1A FF FF FF 55 00 00 01 0F (人体感应地址-外卫, 打开外卫感应)
2024-10-19 19:53:53.941 - BC BC
2024-10-19 19:53:54.395 - 1A FF FF FF 57 00 00 01 0F (人体感应地址-厨房, 打开厨房感应)
2024-10-19 19:53:54.978 - 1A FF FF FF 58 00 00 01 0F (人体感应地址-茶吧, 打开茶吧感应)
2024-10-19 19:53:55.032 - BC BC
2024-10-19 19:53:55.375 - 19 08 24 03 CC 01 55 00 01 (调用内卫感应灯关的按键)
2024-10-19 19:53:55.425 - 1A 0C 02 08 01 FF 00 01 FF 00 01 FF 00 00 0F (调光器地址-内卫射灯, 内卫感应灯关)
2024-10-19 19:53:55.827 - 1A BE B0 DC 01 00 01 00 (继电器地址-回水泵点动, 回水泵点动)
2024-10-19 19:53:56.436 - A5 00 B7 FF 00 AA 22 0D (书房纱帘关)
2024-10-19 19:53:56.986 - A5 00 A2 FF 00 AA (餐厅纱帘关)
2024-10-19 19:53:57.535 - 09 06 00 0F 02 01 78 21 (提示音叮)
2024-10-19 19:53:57.554 - 1A BE B0 DC 01 (继电器地址-回水泵点动)
2024-10-19 19:53:57.686 - FF
2024-10-19 19:53:58.129 - 09 06 00 0F 02 01 78 21 (提示音叮)
