2024-09-25 11:46:04.666 - 03 00 00 2F 2A E0 00 00 00 00 00 43 6F 6F 6B 69 65 3A 20 6D 73 74 73 68 61 73 68 3D 41 64 6D 69
2024-09-25 11:46:04.681 - 6E 69 73 74 72 0D 0A 01 00 08 00 03 00 00 00
2024-09-25 12:22:10.243 - 1A BE B0 DC 04 FF (继电器地址-西阳窗帘)
2024-09-25 12:22:10.377 - FF
2024-09-25 12:30:06.448 - FF FF FF FF 0E FC (继电器地址-西阳小窗帘)
2024-09-25 12:30:06.584 - FF
2024-09-25 12:49:29.229 - 1A FF FF FF 04 (继电器地址-东阳衣架)
2024-09-25 12:49:29.365 - FF
2024-09-25 12:55:38.440 - 1A BE B0 DC 02 (正反转地址-外卫卷帘)
2024-09-25 12:55:38.575 - FF
2024-09-25 13:11:08.802 - 1A BE B0 DC 01 (继电器地址-回水泵点动)
2024-09-25 13:11:08.938 - FF
2024-09-25 13:16:20.786 - 1A BE B0 DC 03 (继电器地址-西阳天幕)
2024-09-25 13:16:20.921 - FF
2024-09-25 13:18:14.815 - 1A BE B0 DC 09 (继电器地址-客厅窗帘)
2024-09-25 13:18:14.950 - FF
2024-09-25 13:22:55.954 - 1A BE B0 DC 0A FC (继电器地址-客厅纱帘)
2024-09-25 13:22:56.088 - FF
2024-09-25 14:32:20.007 - FF FF FF FF 0A (继电器地址-东阳窗帘)
2024-09-25 14:32:20.144 - FF
2024-09-25 15:41:51.327 - 1A BE B0 DC 04 FE (继电器地址-西阳窗帘)
2024-09-25 15:41:51.461 - FF
2024-09-25 15:50:05.910 - FF FF FF FF 0E (继电器地址-西阳小窗帘)
2024-09-25 15:50:06.047 - FF
2024-09-25 16:11:04.452 - 1A FF FF FF 04 FC (继电器地址-东阳衣架)
2024-09-25 16:11:04.588 - FE
2024-09-25 16:16:43.282 - 1A BE B0 DC 02 (正反转地址-外卫卷帘)
2024-09-25 16:16:43.417 - FF
2024-09-25 16:20:38.281 - FF
2024-09-25 16:32:33.464 - 1A BE B0 DC 01 FC (继电器地址-回水泵点动)
2024-09-25 16:32:33.600 - FF
2024-09-25 16:37:52.732 - 1A BE B0 DC 03 (继电器地址-西阳天幕)
2024-09-25 16:37:52.869 - FF
2024-09-25 16:39:11.141 - 1A BE B0 DC 09 FE (继电器地址-客厅窗帘)
2024-09-25 16:44:10.611 - 1A BE B0 DC 0A FC (继电器地址-客厅纱帘)
2024-09-25 16:44:10.745 - FF
2024-09-25 17:25:16.144 - FF
2024-09-25 17:56:13.190 - FF FF FF FF 0A FC (继电器地址-东阳窗帘)
2024-09-25 19:02:11.538 - 1A BE B0 DC 04 FD (继电器地址-西阳窗帘)
2024-09-25 19:02:11.672 - FE
2024-09-25 19:10:44.580 - FF FF FF FF 0E (继电器地址-西阳小窗帘)
2024-09-25 19:10:44.715 - FF
2024-09-25 19:31:59.121 - 1A FF FF FF 04 FC (继电器地址-东阳衣架)
2024-09-25 19:31:59.256 - FF
2024-09-25 19:37:08.567 - 1A BE B0 DC 02 FF (正反转地址-外卫卷帘)
2024-09-25 19:53:19.217 - 1A BE B0 DC 01 (继电器地址-回水泵点动)
2024-09-25 19:53:19.352 - FF
2024-09-25 19:58:45.793 - 1A BE B0 DC 03 FC (继电器地址-西阳天幕)
2024-09-25 19:58:45.928 - FF
2024-09-25 19:59:27.978 - 1A BE B0 DC 09 (继电器地址-客厅窗帘)
2024-09-25 19:59:28.113 - FF
2024-09-25 20:04:46.387 - 1A BE B0 DC 0A FE (继电器地址-客厅纱帘)
2024-09-25 20:04:46.520 - FE
2024-09-25 20:29:30.852 - 1B 03 00 00 00 02 C6 31 (查询室外光线)
2024-09-25 20:29:30.870 - 1B 03 04 00 00 00 00 41 F2 (室外光线返回)
2024-09-25 20:29:31.648 - 1A EC A0 DC 02 00 00 01 0F (自保持开关地址-天花12V供电, 天花12V 供电开)
2024-09-25 20:29:32.177 - 1A AA AA AA 88 (调光器地址-茶吧灯带)
2024-09-25 20:29:32.353 - 1A FF 01 FF FF FF 60 01 FF 60 01 FF 00 00 0F (调光器地址-公共区域统配地址)
2024-09-25 20:29:33.346 - 19 08 24 03 DD 00 0D 00 01 (调用情景-信科调用进门暗)
2024-09-25 20:29:35.434 - 1A FF 01 FF FF FF 60 01 FF 60 01 FF 00 00 0F (调光器地址-公共区域统配地址)
2024-09-25 20:29:37.518 - 1A EC A0 DC 01 00 00 01 0F (自保持开关地址-电视、设备12V供电, 12V 电视供电开)
2024-09-25 20:29:38.088 - 1A EC A0 DC 01 00 00 01 0F (自保持开关地址-电视、设备12V供电, 12V 电视供电开)
2024-09-25 20:29:38.637 - 1A EC A0 DC 04 00 01 01 0F (自保持开关地址-次卧西阳内外卫供电, 内卫外卫开)
2024-09-25 20:29:39.184 - 1A EC A0 DC 04 00 01 01 0F (自保持开关地址-次卧西阳内外卫供电, 内卫外卫开)
2024-09-25 20:29:39.740 - 1A BB BB BB 01 01 00 (开水器电源开)
2024-09-25 20:29:41.326 - 1A 27 89 12 AA 00 00 01 0F (状态寄存器地址, 有人状态)
2024-09-25 20:29:41.875 - 1A 27 89 12 AA 00 00 01 0F (状态寄存器地址, 有人状态)
2024-09-25 20:29:42.423 - 1A BE B0 DC 01 00 01 00 (继电器地址-回水泵点动, 回水泵点动)
2024-09-25 20:29:42.972 - 1A FF FF FF 56 00 00 01 0F (人体感应地址-内卫, 打开内卫感应)
2024-09-25 20:29:43.520 - 1A FF FF FF 55 00 00 01 0F (人体感应地址-外卫, 打开外卫感应)
2024-09-25 20:29:43.593 - BC BC
2024-09-25 20:29:44.118 - 1A FF FF FF 57 00 00 01 0F (人体感应地址-厨房, 打开厨房感应)
2024-09-25 20:29:44.665 - 1A FF FF FF 58 00 00 01 0F (人体感应地址-茶吧, 打开茶吧感应)
2024-09-25 20:29:44.715 - BC BC
2024-09-25 20:29:45.263 - 1A BE B0 DC 01 00 01 00 (继电器地址-回水泵点动, 回水泵点动)
2024-09-25 20:29:45.811 - A5 00 B7 FF 00 AA 22 0D (书房纱帘关)
2024-09-25 20:29:46.408 - A5 00 A2 FF 00 AA (餐厅纱帘关)
2024-09-25 20:29:46.957 - 09 06 00 0F 02 01 78 21 (提示音叮)
2024-09-25 20:29:47.506 - 09 06 00 0F 02 01 78 21 (提示音叮)
2024-09-25 20:29:47.861 - EE 00 6E B1 01 00 03 FF FC FF FF
2024-09-25 20:29:48.056 - EE 00 00 B1 00 00 02 FF FC FF FF (情景完成返回主页)
2024-09-25 20:29:48.649 - EE 00 6E B1 01 17 8B 11 11 50
2024-09-25 20:29:49.227 - 1A BE B0 DC 0A 00 01 00 (继电器地址-客厅纱帘, 客厅纱帘关)
2024-09-25 20:29:51.241 - A1 11 11 11 51 (卫生供电打开确认)
2024-09-25 20:29:51.467 - 1A EC A0 DC 04 86 86 86 0F (查询卫生间供电状态, 自保持开关地址-次卧西阳内外卫供电)
2024-09-25 20:29:51.899 - 1A EC A0 DC 04 01 01 0F (自保持开关地址-次卧西阳内外卫供电)
2024-09-25 20:29:53.781 - A1 11 11 11 52 (电视供电打开确认)
2024-09-25 20:29:53.831 - 19 08 24 03 DD 00 41 00 01 (调用情景-主卧照明电视)
2024-09-25 20:29:54.004 - 1A EC A0 DC 01 86 86 86 0F (查询电视供电状态, 自保持开关地址-电视、设备12V供电)
2024-09-25 20:29:54.436 - 1A EC A0 DC 01 01 01 0F (自保持开关地址-电视、设备12V供电)
2024-09-25 20:29:58.864 - A1 11 11 11 47 (天热回家开帘)
2024-09-25 20:29:59.089 - 1A 27 89 12 AA 86 86 86 0F (查询寄存器状态, 状态寄存器地址)
2024-09-25 20:29:59.457 - 1A 27 89 12 AA 01 00 00 (状态寄存器地址)
2024-09-25 20:29:59.472 - 00 00 00 00 00 00 00 00 00 00 00 00 0F
2024-09-25 20:30:00.064 - 09 06 00 0F 02 01 78 21 (提示音叮)
2024-09-25 20:30:00.634 - 50 F0 05 (开主卧影视)
2024-09-25 20:30:01.204 - 50 F0 04 (开内卫影视)
2024-09-25 20:30:01.759 - 1A FF FF FF 56 00 00 00 0F (人体感应地址-内卫, 关闭内卫感应)
2024-09-25 20:30:02.306 - 1A 22 33 62 0F 00 02 01 0F (正反转地址-内卫卷帘, 内卫卷帘降)
2024-09-25 20:30:02.852 - A5 00 53 FE 01 AA (主卧纱帘关)
2024-09-25 20:30:02.903 - 55 00 53 02 02 22 02 2F AA 55 00 53 02 02 22 02 2F AA (主卧纱帘电机状态返回)
2024-09-25 20:30:03.948 - A5 00 52 FF 00 AA (主卧窗帘关)
2024-09-25 20:30:05.004 - 1A 0C 02 04 FF FF 45 01 FF 45 01 FF 00 00 0F (主卧调光微光)
2024-09-25 20:30:11.083 - 1A 0C 02 08 01 FF 45 01 FF 45 01 FF 00 00 0F (调光器地址-内卫射灯, 内卫射灯微光)
2024-09-25 20:30:11.669 - 50 F1 25 (主卧—有线2)
2024-09-25 20:30:12.218 - 50 F1 24 (内卫—有线2)
2024-09-25 20:30:13.867 - 55 00 53 00 00 0C 02 2F AA 55 00 53 00 00 0C 02 2F AA (主卧纱帘电机状态返回)
2024-09-25 20:30:14.314 - AF BF CF DF C2 21 (有线2/快捷-凤凰卫视)
2024-09-25 20:30:15.767 - 55 20 20 00 02 09 02 16 AA 55 20 20 00 02 09 02 16 AA (主卧窗帘电机状态返回)
2024-09-25 20:30:16.409 - 1A FF FF FF 60 0B 01 01 0F (红外总线地址-主卧发射设备, 主卧电视电源)
2024-09-25 20:30:16.926 - F0 0B 01 08
2024-09-25 20:30:19.795 - 19 08 24 03 CC 01 CC 00 01 (调用茶吧感应灯开的按键)
2024-09-25 20:30:19.845 - 1A AA AA AA 88 FF B0 01 FF B0 01 0F (调光器地址-茶吧灯带, 茶吧灯带明亮)
2024-09-25 20:30:24.486 - 09 06 00 0F 02 02 38 20 (提示音咚)
2024-09-25 20:30:25.037 - EE 00 00 B1 00 00 02 FF FC FF FF (情景完成返回主页)
2024-09-25 20:39:07.798 - 19 08 24 03 CC 00 D3 00 01 (调用厨房感应灯开的按键)
2024-09-25 20:39:07.834 - 55 0A 32 00 00 00 01 92 55 0A 32 00 00 00 02 93 (厨房顶灯一开, 厨房顶灯二开)
2024-09-25 20:39:15.367 - 19 08 24 03 CC 01 CD 00 01 (调用茶吧感应灯关的按键)
2024-09-25 20:39:15.400 - 1A AA AA AA 88 FF 00 01 FF 00 01 0F (调光器地址-茶吧灯带, 茶吧灯带关闭)
2024-09-25 20:39:31.901 - 19 08 24 03 CC 01 CC 00 01 (调用茶吧感应灯开的按键)
2024-09-25 20:39:31.932 - 1A AA AA AA 88 FF B0 01 FF B0 01 0F (调光器地址-茶吧灯带, 茶吧灯带明亮)
2024-09-25 20:39:48.935 - 19 08 24 03 CC 01 CD 00 01 (调用茶吧感应灯关的按键)
2024-09-25 20:39:48.965 - 1A AA AA AA 88 FF 00 01 FF 00 01 0F (调光器地址-茶吧灯带, 茶吧灯带关闭)
2024-09-25 20:40:11.924 - 19 08 24 03 CC 00 D4 00 01 (调用厨房感应灯关的按键)
2024-09-25 20:40:11.959 - 55 0A 31 00 00 00 01 91 55 0A 31 00 00 00 02 92 (厨房顶灯一关, 厨房顶灯二关)
2024-09-25 20:46:17.446 - 19 08 24 03 DD 00 41 00 01 (调用情景-主卧照明电视)
2024-09-25 20:46:17.960 - EE 00 00 B1 00 00 00 FF FC FF FF (情景执行提示)
2024-09-25 20:46:18.554 - 09 06 00 0F 02 01 78 21 (提示音叮)
2024-09-25 20:46:19.098 - 50 F0 05 (开主卧影视)
2024-09-25 20:46:19.647 - 50 F0 04 (开内卫影视)
2024-09-25 20:46:20.250 - 1A FF FF FF 56 00 00 00 0F (人体感应地址-内卫, 关闭内卫感应)
2024-09-25 20:46:20.264 - BC BC
2024-09-25 20:46:20.849 - 1A 22 33 62 0F 00 02 01 0F (正反转地址-内卫卷帘, 内卫卷帘降)
2024-09-25 20:46:21.393 - A5 00 53 FE 01 AA (主卧纱帘关)
2024-09-25 20:46:22.440 - A5 00 52 FF 00 AA (主卧窗帘关)
2024-09-25 20:46:23.497 - 1A 0C 02 04 FF FF 45 01 FF 45 01 FF 00 00 0F (主卧调光微光)
2024-09-25 20:46:29.577 - 1A 0C 02 08 01 FF 45 01 FF 45 01 FF 00 00 0F (调光器地址-内卫射灯, 内卫射灯微光)
2024-09-25 20:46:30.047 - EE 00 71 B1 01 00 02 FF FC FF FF
2024-09-25 20:46:30.161 - 50 F1 25 (主卧—有线2)
2024-09-25 20:46:30.744 - 19 08 24 03 DD 00 13 00 01 (调用情景-公共区域关)
2024-09-25 20:46:30.768 - 50 F1 24 (内卫—有线2)
2024-09-25 20:46:32.730 - 19 08 24 03 CC 01 CC 00 01 (调用茶吧感应灯开的按键)
2024-09-25 20:46:32.761 - 1A AA AA AA 88 FF B0 01 FF B0 01 0F (调光器地址-茶吧灯带, 茶吧灯带明亮)
2024-09-25 20:46:33.160 - AF BF CF DF C2 21 (有线2/快捷-凤凰卫视)
2024-09-25 20:46:35.202 - 1A FF FF FF 60 0B 01 01 0F (红外总线地址-主卧发射设备, 主卧电视电源)
2024-09-25 20:46:35.718 - F0 0B 01 08
2024-09-25 20:46:43.227 - 09 06 00 0F 02 02 38 20 (提示音咚)
2024-09-25 20:46:43.778 - EE 00 00 B1 00 00 02 FF FC FF FF (情景完成返回主页)
2024-09-25 20:46:44.377 - EE 00 00 B1 00 00 00 FF FC FF FF (情景执行提示)
2024-09-25 20:46:44.972 - 09 06 00 0F 02 01 78 21 (提示音叮)
2024-09-25 20:46:45.519 - 55 0B 31 00 00 00 01 92 (厨房风扇只关)
2024-09-25 20:46:46.566 - 01 06 07 D3 FF 60 38 9F (餐厅空调关)
2024-09-25 20:46:46.596 - 01 06 07 D3 FF 60 38 9F (餐厅空调关)
2024-09-25 20:46:47.662 - 01 06 07 D0 FF 60 C8 9F (客厅空调关)
2024-09-25 20:46:47.698 - 01 06 07 D0 FF 60 C8 9F (客厅空调关)
2024-09-25 20:46:51.746 - 50 F5 02 (关厨房影视)
2024-09-25 20:46:52.794 - 50 F5 01 (关餐厅影视)
2024-09-25 20:46:53.840 - 50 F5 08 (关客厅影视)
2024-09-25 20:46:54.888 - 50 F5 03 (关外卫影视)
2024-09-25 20:46:55.938 - 55 0A 31 00 00 00 01 91 (厨房顶灯一关)
2024-09-25 20:46:56.985 - 55 0A 31 00 00 00 02 92 (厨房顶灯二关)
2024-09-25 20:46:58.031 - 55 0C 31 00 00 00 01 93 (餐厅顶灯关)
2024-09-25 20:46:59.078 - 1A 18 05 10 31 00 01 00 0F (自保持开关地址-门厅顶灯, 门厅顶灯关)
2024-09-25 20:47:00.125 - 1A 20 07 00 42 00 01 00 0F (自保持开关地址-外卫顶灯, 外卫顶灯关)
2024-09-25 20:47:01.172 - 1A 18 05 21 89 00 01 00 0F (自保持开关地址-客厅顶灯, 客厅顶灯一关)
2024-09-25 20:47:02.218 - 1A 18 05 01 94 00 01 00 0F (自保持开关地址-客厅顶灯, 客厅顶灯二关)
2024-09-25 20:47:03.266 - 1A 20 07 01 30 00 01 00 0F (自保持开关地址-西阳顶灯, 西阳顶灯关)
2024-09-25 20:47:04.318 - 1A FF 01 FF FF FF 00 01 FF 00 01 FF 00 00 0F (调光器地址-公共区域统配地址, 公共区域灯光全关)
2024-09-25 20:47:05.406 - 09 06 00 0F 02 02 38 20 (提示音咚)
2024-09-25 20:47:07.502 - EE 00 00 B1 00 00 02 FF FC FF FF (情景完成返回主页)
2024-09-25 20:47:41.816 - 19 08 24 03 CC 00 D3 00 01 (调用厨房感应灯开的按键)
2024-09-25 20:47:41.870 - 55 0A 32 00 00 00 01 92 55 0A 32 00 00 00 02 93 (厨房顶灯一开, 厨房顶灯二开)
2024-09-25 20:48:25.975 - 19 08 24 03 CC 01 CD 00 01 (调用茶吧感应灯关的按键)
2024-09-25 20:48:26.005 - 1A AA AA AA 88 FF 00 01 FF 00 01 0F (调光器地址-茶吧灯带, 茶吧灯带关闭)
2024-09-25 20:50:25.210 - 19 08 24 03 CC 01 CC 00 01 (调用茶吧感应灯开的按键)
2024-09-25 20:50:25.241 - 1A AA AA AA 88 FF B0 01 FF B0 01 0F (调光器地址-茶吧灯带, 茶吧灯带明亮)
2024-09-25 20:50:50.762 - 19 08 24 03 CC 01 CD 00 01 (调用茶吧感应灯关的按键)
2024-09-25 20:50:50.792 - 1A AA AA AA 88 FF 00 01 FF 00 01 0F (调光器地址-茶吧灯带, 茶吧灯带关闭)
2024-09-25 20:50:57.805 - FF
2024-09-25 20:51:11.302 - 19 08 24 03 CC 01 CC 00 01 (调用茶吧感应灯开的按键)
2024-09-25 20:51:11.351 - 1A AA AA AA 88 FF B0 01 FF B0 01 0F (调光器地址-茶吧灯带, 茶吧灯带明亮)
2024-09-25 20:52:03.905 - 19 08 24 03 CC 01 CD 00 01 (调用茶吧感应灯关的按键)
2024-09-25 20:52:03.955 - 1A AA AA AA 88 FF 00 01 FF 00 01 0F (调光器地址-茶吧灯带, 茶吧灯带关闭)
2024-09-25 20:53:46.106 - 19 08 24 03 CC 01 CC 00 01 (调用茶吧感应灯开的按键)
2024-09-25 20:53:46.139 - 1A AA AA AA 88 FF B0 01 FF B0 01 0F (调光器地址-茶吧灯带, 茶吧灯带明亮)
2024-09-25 20:53:58.056 - 19 08 24 03 CC 00 D4 00 01 (调用厨房感应灯关的按键)
2024-09-25 20:53:58.091 - 55 0A 31 00 00 00 01 91 55 0A 31 00 00 00 02 92 (厨房顶灯一关, 厨房顶灯二关)
2024-09-25 20:54:08.151 - 19 08 24 03 CC 01 CD 00 01 (调用茶吧感应灯关的按键)
2024-09-25 20:54:08.182 - 1A AA AA AA 88 FF 00 01 FF 00 01 0F (调光器地址-茶吧灯带, 茶吧灯带关闭)
2024-09-25 21:05:42.612 - FF
2024-09-25 21:17:41.461 - FF FF FF FF 0A FC (继电器地址-东阳窗帘)
2024-09-25 21:38:28.713 - FF
2024-09-25 21:42:19.348 - FF
2024-09-25 21:55:43.029 - FF
2024-09-25 22:02:11.283 - FF
2024-09-25 22:23:10.775 - 1A BE B0 DC 04 FC (继电器地址-西阳窗帘)
2024-09-25 22:23:10.909 - FE
2024-09-25 22:31:17.657 - FF FF FF FF 0E FC (继电器地址-西阳小窗帘)
2024-09-25 22:31:39.845 - 19 08 24 03 DD 00 4F 00 01 (调用情景-内卫使用完毕)
2024-09-25 22:31:40.407 - EE 00 00 B1 00 00 00 FF FC FF FF (情景执行提示)
2024-09-25 22:31:41.031 - 09 06 00 0F 02 01 78 21 (提示音叮)
2024-09-25 22:31:41.607 - 1A 0C 02 08 01 FF 00 01 FF 00 01 FF 00 00 0F (调光器地址-内卫射灯, 内卫感应灯关)
2024-09-25 22:31:45.681 - 50 F5 04 (关内卫影视)
2024-09-25 22:31:46.265 - 1A 20 07 01 40 00 01 00 0F (自保持开关地址-内卫顶灯, 内卫顶灯关)
2024-09-25 22:31:46.833 - 1A FF FF FF 56 00 00 01 0F (人体感应地址-内卫, 打开内卫感应)
2024-09-25 22:31:46.934 - BC BC
2024-09-25 22:31:47.241 - 19 08 24 03 CC 01 54 00 01 (调用内卫感应灯开的按键)
2024-09-25 22:31:47.294 - 1A 0C 02 08 01 FF 45 01 FF 45 01 FF 00 00 0F (调光器地址-内卫射灯, 内卫射灯微光)
2024-09-25 22:31:49.677 - 09 06 00 0F 02 02 38 20 (提示音咚)
2024-09-25 22:31:50.277 - EE 00 00 B1 00 00 02 FF FC FF FF (情景完成返回主页)
2024-09-25 22:32:01.472 - 19 08 24 03 CC 01 55 00 01 (调用内卫感应灯关的按键)
2024-09-25 22:32:01.505 - 1A 0C 02 08 01 FF 00 01 FF 00 01 FF 00 00 0F (调光器地址-内卫射灯, 内卫感应灯关)
2024-09-25 22:52:51.603 - 1A FF FF FF 04 (继电器地址-东阳衣架)
2024-09-25 22:52:51.738 - FE
2024-09-25 22:58:22.622 - FF
2024-09-25 22:58:44.000 - 1A BE B0 DC 02 (正反转地址-外卫卷帘)
2024-09-25 22:58:44.136 - FF
2024-09-25 23:14:45.755 - 1A BE B0 DC 01 (继电器地址-回水泵点动)
2024-09-25 23:15:40.470 - FF
2024-09-25 23:20:46.838 - 1A BE B0 DC 03 (继电器地址-西阳天幕)
2024-09-25 23:20:46.974 - FF
2024-09-25 23:21:37.861 - 1A BE B0 DC 09 (继电器地址-客厅窗帘)
2024-09-25 23:26:42.078 - 1A BE B0 DC 0A (继电器地址-客厅纱帘)
2024-09-25 23:26:42.214 - FF
2024-09-25 23:59:17.425 - 19 08 24 03 CC 00 D3 00 01 (调用厨房感应灯开的按键)
2024-09-25 23:59:17.478 - 55 0A 32 00 00 00 01 92 55 0A 32 00 00 00 02 93 (厨房顶灯一开, 厨房顶灯二开)
2024-09-25 23:59:52.495 - 19 08 24 03 CC 00 D4 00 01 (调用厨房感应灯关的按键)
2024-09-25 23:59:52.549 - 55 0A 31 00 00 00 01 91 55 0A 31 00 00 00 02 92 (厨房顶灯一关, 厨房顶灯二关)
2024-09-26 00:00:11.355 - FF
2024-09-26 00:38:42.762 - FF FF FF FF 0A (继电器地址-东阳窗帘)
2024-09-26 00:38:42.898 - FE
2024-09-26 00:52:52.598 - FF
2024-09-26 01:09:34.719 - 19 08 24 03 CC 00 D3 00 01 (调用厨房感应灯开的按键)
2024-09-26 01:09:34.773 - 55 0A 32 00 00 00 01 92 55 0A 32 00 00 00 02 93 (厨房顶灯一开, 厨房顶灯二开)
2024-09-26 01:10:10.289 - 19 08 24 03 CC 00 D4 00 01 (调用厨房感应灯关的按键)
2024-09-26 01:10:10.324 - 55 0A 31 00 00 00 01 91 55 0A 31 00 00 00 02 92 (厨房顶灯一关, 厨房顶灯二关)
2024-09-26 01:43:31.223 - 1A BE B0 DC 04 FC (继电器地址-西阳窗帘)
2024-09-26 01:51:47.509 - FF FF FF FF 0E (继电器地址-西阳小窗帘)
2024-09-26 01:51:47.645 - FF
2024-09-26 01:57:22.052 - FF
2024-09-26 02:13:43.277 - 1A FF FF FF 04 (继电器地址-东阳衣架)
2024-09-26 02:13:43.411 - FF
2024-09-26 02:19:09.601 - 1A BE B0 DC 02 FC (正反转地址-外卫卷帘)
2024-09-26 02:35:31.414 - 1A BE B0 DC 01 FC (继电器地址-回水泵点动)
2024-09-26 02:41:39.515 - 1A BE B0 DC 03 (继电器地址-西阳天幕)
2024-09-26 02:41:39.650 - FF
2024-09-26 02:41:54.064 - 1A BE B0 DC 09 (继电器地址-客厅窗帘)
2024-09-26 02:41:54.199 - FF
2024-09-26 02:44:52.193 - FF
2024-09-26 02:47:17.345 - 1A BE B0 DC 0A FF (继电器地址-客厅纱帘)
2024-09-26 02:47:17.480 - FF
2024-09-26 03:00:01.296 - 50 F7 01 (全屋影音全关)
2024-09-26 03:52:34.342 - 19 08 24 03 CC 01 54 00 01 (调用内卫感应灯开的按键)
2024-09-26 03:52:34.394 - 1A 0C 02 08 01 FF 45 01 FF 45 01 FF 00 00 0F (调光器地址-内卫射灯, 内卫射灯微光)
2024-09-26 03:58:48.325 - FF FF FF FF 0A (继电器地址-东阳窗帘)
2024-09-26 03:58:48.460 - FE
2024-09-26 04:01:44.064 - 19 08 24 03 DD 00 4F 00 01 (调用情景-内卫使用完毕)
2024-09-26 04:01:44.630 - EE 00 00 B1 00 00 00 FF FC FF FF (情景执行提示)
2024-09-26 04:01:45.225 - 09 06 00 0F 02 01 78 21 (提示音叮)
2024-09-26 04:01:45.781 - 1A 0C 02 08 01 FF 00 01 FF 00 01 FF 00 00 0F (调光器地址-内卫射灯, 内卫感应灯关)
2024-09-26 04:01:49.855 - 50 F5 04 (关内卫影视)
2024-09-26 04:01:50.410 - 1A 20 07 01 40 00 01 00 0F (自保持开关地址-内卫顶灯, 内卫顶灯关)
2024-09-26 04:01:51.006 - 1A FF FF FF 56 00 00 01 0F (人体感应地址-内卫, 打开内卫感应)
2024-09-26 04:01:51.020 - BC BC
2024-09-26 04:01:53.600 - 09 06 00 0F 02 02 38 20 (提示音咚)
2024-09-26 04:01:54.151 - EE 00 00 B1 00 00 02 FF FC FF FF (情景完成返回主页)
2024-09-26 04:01:59.455 - 19 08 24 03 CC 01 55 00 01 (调用内卫感应灯关的按键)
2024-09-26 04:01:59.507 - 1A 0C 02 08 01 FF 00 01 FF 00 01 FF 00 00 0F (调光器地址-内卫射灯, 内卫感应灯关)
2024-09-26 04:36:16.016 - 03 00 00 2F 2A E0 00 00 00 00 00 43 6F 6F 6B 69 65 3A 20 6D 73 74 73 68 61 73 68 3D 41 64 6D 69
2024-09-26 04:36:16.033 - 6E 69 73 74 72 0D 0A 01 00 08 00 03 00 00 00
2024-09-26 04:50:01.228 - EE 00 00 B1 00 00 00 FF FC FF FF (情景执行提示)
2024-09-26 04:50:01.851 - A5 00 A2 FF 00 AA (餐厅纱帘关)
2024-09-26 04:50:02.917 - A5 00 A6 FF 00 AA (餐厅窗帘关)
2024-09-26 04:50:02.974 - 55 00 A6 01 00 0E 01 74 AA 55 00 A6 01 00 0E 01 74 AA (餐厅窗帘电机状态返回)
2024-09-26 04:50:04.016 - A5 00 B7 FF 00 AA 22 0D (书房纱帘关)
2024-09-26 04:50:05.061 - A5 00 D2 FF 00 AA 22 0C (书房窗帘关)
2024-09-26 04:50:05.111 - 55 00 D2 01 00 0D 01 0B AA 55 00 D2 01 00 0D 01 0B AA (书房窗帘电机状态返回)
2024-09-26 04:50:06.161 - EE 00 00 B1 00 00 02 FF FC FF FF (情景完成返回主页)
2024-09-26 04:50:11.750 - 55 00 A6 00 01 66 01 74 AA 55 00 A6 00 01 66 01 74 AA (餐厅窗帘电机状态返回)
2024-09-26 04:50:14.271 - 55 00 D2 00 00 FE 01 0B AA 55 00 D2 00 00 FE 01 0B AA (书房窗帘电机状态返回)
2024-09-26 05:03:27.571 - 1A BE B0 DC 04 FC (继电器地址-西阳窗帘)
2024-09-26 05:12:30.850 - FF FF FF FF 0E FD (继电器地址-西阳小窗帘)
2024-09-26 05:34:34.761 - 1A FF FF FF 04 (继电器地址-东阳衣架)
2024-09-26 05:34:34.896 - FE
2024-09-26 05:40:35.903 - 1A BE B0 DC 02 FC (正反转地址-外卫卷帘)
2024-09-26 05:40:36.039 - FF
2024-09-26 05:56:44.662 - 1A BE B0 DC 01 FD (继电器地址-回水泵点动)
2024-09-26 05:56:44.796 - FF
2024-09-26 06:02:26.252 - 1A BE B0 DC 09 (继电器地址-客厅窗帘)
2024-09-26 06:02:26.387 - FF
2024-09-26 06:02:48.513 - 1A BE B0 DC 03 FE (继电器地址-西阳天幕)
2024-09-26 06:08:37.010 - 1A BE B0 DC 0A FE (继电器地址-客厅纱帘)
2024-09-26 06:08:37.144 - FF
2024-09-26 06:23:31.782 - 19 08 24 03 CC 00 D3 00 01 (调用厨房感应灯开的按键)
2024-09-26 06:23:31.836 - 55 0A 32 00 00 00 01 92 55 0A 32 00 00 00 02 93 (厨房顶灯一开, 厨房顶灯二开)
2024-09-26 06:24:06.852 - 19 08 24 03 CC 00 D4 00 01 (调用厨房感应灯关的按键)
2024-09-26 06:24:06.905 - 55 0A 31 00 00 00 01 91 55 0A 31 00 00 00 02 92 (厨房顶灯一关, 厨房顶灯二关)
2024-09-26 06:30:00.216 - EE 00 00 B1 00 00 00 FF FC FF FF (情景执行提示)
2024-09-26 06:30:00.912 - 09 06 00 0F 02 01 78 21 (提示音叮)
2024-09-26 06:30:01.609 - 50 F0 04 (开内卫影视)
2024-09-26 06:30:02.309 - 50 F0 04 (开内卫影视)
2024-09-26 06:30:03.012 - 50 F0 05 (开主卧影视)
2024-09-26 06:30:03.712 - 50 F0 05 (开主卧影视)
2024-09-26 06:30:04.419 - FF FF FF FF 09 00 01 00
2024-09-26 06:30:05.119 - FF FF FF FF 08 00 01 00
2024-09-26 06:30:05.822 - FF FF FF FF 08 00 01 00
2024-09-26 06:30:06.523 - 1A 22 33 62 0F 00 02 01 0F (正反转地址-内卫卷帘, 内卫卷帘降)
2024-09-26 06:30:07.222 - 1A FF FF FF 56 0C 00 01 (人体感应地址-内卫)
2024-09-26 06:30:07.451 - 1A FF FF FF 56 00 00 00 0F (人体感应地址-内卫, 关闭内卫感应)
2024-09-26 06:30:07.923 - 1A FF FF FF A5 00 01 02
2024-09-26 06:30:08.629 - 1A AA AA AA 84 FF B0 01 FF 00 00 0F
2024-09-26 06:30:10.332 - 1A AA AA AA 27 FF 00 01 FF 00 00 0F
2024-09-26 06:30:12.034 - 1A AA AA AA 6F FF 27 01 FF 00 00 0F
2024-09-26 06:30:13.736 - 1A AA AA AA 55 FF 45 01 FF 00 00 0F
2024-09-26 06:30:15.439 - 1A AA AA AA 2C FF 00 00 FF 00 01 0F
2024-09-26 06:30:17.191 - 1A AA AA AA 84 FF 00 00 FF B0 01 0F
2024-09-26 06:30:18.894 - 1A AA AA AA 5B FF 00 01 FF 00 00 0F
2024-09-26 06:30:20.596 - 1A AA AA AA 27 FF 00 00 FF 00 01 0F
2024-09-26 06:30:22.301 - 1A AA AA AA 6F FF 00 00 FF 27 01 0F
2024-09-26 06:30:24.003 - 1A AA AA AA 55 FF 00 00 FF 45 01 0F
2024-09-26 06:30:25.755 - 1A AA AA AA 2C FF 00 01 FF 00 00 0F
2024-09-26 06:30:27.457 - 1A AA AA AA 5B FF 00 00 FF 00 01 0F
2024-09-26 06:30:29.152 - 50 F1 25 (主卧—有线2)
2024-09-26 06:30:30.853 - 50 F1 25 (主卧—有线2)
2024-09-26 06:30:32.559 - A1 11 11 11 11 01 (内卫浴霸取暖判断)
2024-09-26 06:30:32.789 - 14 03 00 00 00 02 C6 CE (查询内卫温湿度)
2024-09-26 06:30:32.809 - 14 03 04 02 9C 01 10 7F 38 (内卫温湿度返回)
2024-09-26 06:30:33.839 - 1A BE B0 DC 01 00 01 00 (继电器地址-回水泵点动, 回水泵点动)
2024-09-26 06:30:35.065 - 1A BE B0 DC 01 00 01 00 (继电器地址-回水泵点动, 回水泵点动)
2024-09-26 06:30:37.268 - 1A BE B0 DC 01 00 01 00 (继电器地址-回水泵点动, 回水泵点动)
2024-09-26 06:30:38.971 - 1A FF FF FF 60 0B 01 01 0F (红外总线地址-主卧发射设备, 主卧电视电源)
2024-09-26 06:30:39.486 - F0 0B 01 08
2024-09-26 06:30:42.118 - EE 00 00 B1 00 00 02 FF FC FF FF (情景完成返回主页)
2024-09-26 06:32:36.952 - FF
2024-09-26 06:45:01.371 - EE 00 00 B1 00 00 00 FF FC FF FF (情景执行提示)
2024-09-26 06:45:01.966 - 09 06 00 0F 02 01 78 21 (提示音叮)
2024-09-26 06:45:02.559 - 50 F0 04 (开内卫影视)
2024-09-26 06:45:03.107 - 50 F0 05 (开主卧影视)
2024-09-26 06:45:03.657 - A5 00 53 FE 01 AA (主卧纱帘关)
2024-09-26 06:45:04.206 - A5 00 53 FE 01 AA (主卧纱帘关)
2024-09-26 06:45:04.754 - A5 00 52 FE 01 AA (主卧窗帘开)
2024-09-26 06:45:05.800 - A5 00 52 FE 01 AA (主卧窗帘开)
2024-09-26 06:45:06.850 - 1A 22 33 62 0F 00 02 01 0F (正反转地址-内卫卷帘, 内卫卷帘降)
2024-09-26 06:45:07.400 - 1A FF FF FF 56 00 00 00 0F (人体感应地址-内卫, 关闭内卫感应)
2024-09-26 06:45:07.412 - BC BC
2024-09-26 06:45:07.996 - 1A 20 07 01 55 00 01 00 0F (自保持开关地址-主卧顶灯, 主卧顶灯只关)
2024-09-26 06:45:09.050 - 1A 0C 02 08 01 FF F0 01 FF F0 01 FF 00 00 0F (调光器地址-内卫射灯, 内卫射灯明亮)
2024-09-26 06:45:09.648 - 1A 0C 02 04 01 FF 00 01 FF 00 01 FF 00 00 0F (调光器地址-主卧筒灯, 主卧筒灯关闭)
2024-09-26 06:45:10.245 - 1A 0C 02 04 03 FF 45 01 FF 45 01 FF 00 00 0F (调光器地址-主卧灯带, 主卧灯带微光)
2024-09-26 06:45:10.845 - 1A 0C 02 04 02 FF F0 01 FF 00 01 FF 00 00 0F (调光器地址-主卧过道, 主卧过道暖光)
2024-09-26 06:45:11.469 - 1A 0C 02 04 05 FF 00 01 FF 00 01 FF 00 00 0F (调光器地址-主卧北阅, 主卧北阅关闭)
2024-09-26 06:45:12.039 - 1A 0C 02 04 04 FF 00 01 FF 00 01 FF 00 00 0F (调光器地址-主卧南阅, 主卧南阅关闭)
2024-09-26 06:45:13.123 - 50 F1 24 (内卫—有线2)
2024-09-26 06:45:14.169 - 50 F1 25 (主卧—有线2)
2024-09-26 06:45:15.219 - AF BF CF DF C2 21 (有线2/快捷-凤凰卫视)
2024-09-26 06:45:15.770 - 1A FF FF FF 60 0B 01 01 0F (红外总线地址-主卧发射设备, 主卧电视电源)
2024-09-26 06:45:16.291 - F0 0B 01 08
2024-09-26 06:45:16.816 - 1A BE B0 DC 01 00 01 00 (继电器地址-回水泵点动, 回水泵点动)
2024-09-26 06:45:18.238 - 55 20 20 00 00 0F 02 16 AA 55 20 20 00 00 0F 02 16 AA (主卧窗帘电机状态返回)
2024-09-26 06:45:20.854 - 09 06 00 0F 02 02 38 20 (提示音咚)
2024-09-26 06:45:21.407 - EE 00 00 B1 00 00 02 FF FC FF FF (情景完成返回主页)
2024-09-26 06:45:22.498 - A1 11 11 11 11 01 (内卫浴霸取暖判断)
2024-09-26 06:45:22.725 - 14 03 00 00 00 02 C6 CE (查询内卫温湿度)
2024-09-26 06:45:22.747 - 14 03 04 02 A8 01 10 3E F6 (内卫温湿度返回)
2024-09-26 07:01:46.705 - 19 08 24 03 DD 00 1B 00 01 (调用情景-外卫使用)
2024-09-26 07:01:47.237 - EE 00 00 B1 00 00 00 FF FC FF FF (情景执行提示)
2024-09-26 07:01:47.832 - 09 06 00 0F 02 01 78 21 (提示音叮)
2024-09-26 07:01:48.380 - 1A BE B0 DC 02 00 01 00 (正反转地址-外卫卷帘, 外卫卷帘降)
2024-09-26 07:01:48.925 - 50 F0 03 (开外卫影视)
2024-09-26 07:01:49.477 - 1A FF FF FF 55 00 00 00 0F (人体感应地址-外卫, 关闭外卫感应)
2024-09-26 07:01:50.083 - 1A 0D 01 07 01 FF 45 01 FF 45 01 FF 00 00 0F (调光器地址-外卫射灯, 外卫感应灯开)
2024-09-26 07:01:52.167 - 1A BE B0 DC 01 00 01 00 (继电器地址-回水泵点动, 回水泵点动)
2024-09-26 07:01:53.214 - 1A BE B0 DC 01 00 01 00 (继电器地址-回水泵点动, 回水泵点动)
2024-09-26 07:01:54.260 - 1A BE B0 DC 01 00 01 00 (继电器地址-回水泵点动, 回水泵点动)
2024-09-26 07:01:55.301 - 50 F1 43 (外卫—CH4)
2024-09-26 07:02:12.301 - A1 11 11 11 11 05 (外卫使用浴霸判断)
2024-09-26 07:02:12.523 - 13 03 00 00 00 02 C7 79 (查询外卫温湿度)
2024-09-26 07:02:12.547 - 13 03 04 02 77 01 11 B8 0C (外卫温湿度返回)
2024-09-26 07:02:14.347 - 09 06 00 0F 02 02 38 20 (提示音咚)
2024-09-26 07:02:16.392 - EE 00 00 B1 00 00 02 FF FC FF FF (情景完成返回主页)
2024-09-26 07:13:54.812 - 19 08 24 03 DD 00 1C 00 01 (调用情景-外卫使用完毕)
2024-09-26 07:13:55.371 - EE 00 00 B1 00 00 00 FF FC FF FF (情景执行提示)
2024-09-26 07:13:55.965 - 09 06 00 0F 02 01 78 21 (提示音叮)
2024-09-26 07:13:56.520 - 1A 0D 01 07 01 FF 00 01 FF 00 01 FF 00 00 0F (调光器地址-外卫射灯, 外卫感应灯关)
2024-09-26 07:13:57.107 - 50 F5 03 (关外卫影视)
2024-09-26 07:13:57.661 - 1A 20 07 00 42 00 01 00 0F (自保持开关地址-外卫顶灯, 外卫顶灯关)
2024-09-26 07:13:58.259 - 1A FF FF FF 55 00 00 01 0F (人体感应地址-外卫, 打开外卫感应)
2024-09-26 07:13:58.355 - BC BC
2024-09-26 07:13:58.662 - 19 08 24 03 CC 01 52 00 01 (调用外卫感应灯开的按键)
2024-09-26 07:13:58.715 - 1A 0D 01 07 01 FF 45 01 FF 45 01 FF 00 00 0F (调光器地址-外卫射灯, 外卫感应灯开)
2024-09-26 07:14:01.102 - 09 06 00 0F 02 02 38 20 (提示音咚)
2024-09-26 07:14:01.702 - EE 00 00 B1 00 00 02 FF FC FF FF (情景完成返回主页)
2024-09-26 07:14:08.885 - 19 08 24 03 CC 01 53 00 01 (调用外卫感应灯关的按键)
2024-09-26 07:14:08.920 - 1A 0D 01 07 01 FF 00 01 FF 00 01 FF 00 00 0F (调光器地址-外卫射灯, 外卫感应灯关)
2024-09-26 07:18:06.375 - 19 08 24 03 DD 00 40 00 01 (调用情景-离开主卧)
2024-09-26 07:18:06.906 - EE 00 00 B1 00 00 00 FF FC FF FF (情景执行提示)
2024-09-26 07:18:07.501 - 09 06 00 0F 02 01 78 21 (提示音叮)
2024-09-26 07:18:08.043 - 50 F5 05 (关主卧影视)
2024-09-26 07:18:08.641 - 50 F5 04 (关内卫影视)
2024-09-26 07:18:09.195 - 01 06 07 D6 FF 60 28 9E (主卧空调关)
2024-09-26 07:18:09.231 - 01 06 07 D6 FF 60 28 9E (主卧空调关)
2024-09-26 07:18:09.791 - A5 00 52 FE 01 AA (主卧窗帘开)
2024-09-26 07:18:10.837 - A5 00 52 FE 01 AA (主卧窗帘开)
2024-09-26 07:18:11.884 - A5 00 53 FF 00 AA (主卧纱帘开)
2024-09-26 07:18:11.940 - 55 00 53 01 00 0C 02 2F AA 55 00 53 01 00 0C 02 2F AA (主卧纱帘电机状态返回)
2024-09-26 07:18:12.481 - A5 00 53 FF 00 AA (主卧纱帘开)
2024-09-26 07:18:13.033 - 1A 22 33 62 0F 00 00 01 0F (正反转地址-内卫卷帘, 内卫卷帘升)
2024-09-26 07:18:13.150 - F5
2024-09-26 07:18:14.079 - 1A 20 07 01 40 00 01 00 0F (自保持开关地址-内卫顶灯, 内卫顶灯关)
2024-09-26 07:18:15.126 - 1A 20 07 01 55 00 01 00 0F (自保持开关地址-主卧顶灯, 主卧顶灯只关)
2024-09-26 07:18:15.681 - 1A 0C 02 08 01 FF 00 01 FF 00 01 FF 00 00 0F (调光器地址-内卫射灯, 内卫感应灯关)
2024-09-26 07:18:16.273 - 1A FF FF FF 56 00 00 01 0F (人体感应地址-内卫, 打开内卫感应)
2024-09-26 07:18:16.683 - 19 08 24 03 CC 01 54 00 01 (调用内卫感应灯开的按键)
2024-09-26 07:18:16.734 - 1A 0C 02 08 01 FF 45 01 FF 45 01 FF 00 00 0F (调光器地址-内卫射灯, 内卫射灯微光)
2024-09-26 07:18:20.119 - 1A 0C 02 04 FF FF 00 01 FF 00 01 FF 00 00 0F (主卧调光全关)
2024-09-26 07:18:21.207 - 09 06 00 0F 02 02 38 20 (提示音咚)
2024-09-26 07:18:21.759 - EE 00 00 B1 00 00 02 FF FC FF FF (情景完成返回主页)
2024-09-26 07:18:22.602 - 55 00 53 00 02 22 02 2F AA 55 00 53 00 02 22 02 2F AA (主卧纱帘电机状态返回)
2024-09-26 07:18:23.644 - 19 08 24 03 CC 01 CC 00 01 (调用茶吧感应灯开的按键)
2024-09-26 07:18:23.694 - 1A AA AA AA 88 FF B0 01 FF B0 01 0F (调光器地址-茶吧灯带, 茶吧灯带明亮)
2024-09-26 07:18:24.996 - A5 00 A6 FE 01 AA (餐厅窗帘开)
2024-09-26 07:18:25.046 - 55 00 A6 02 01 66 01 74 AA 55 00 A6 02 01 66 01 74 AA (餐厅窗帘电机状态返回)
2024-09-26 07:18:34.032 - 55 00 A6 00 00 0E 01 74 AA 55 00 A6 00 00 0E 01 74 AA (餐厅窗帘电机状态返回)
2024-09-26 07:18:35.305 - 19 08 24 03 CC 00 D3 00 01 (调用厨房感应灯开的按键)
2024-09-26 07:18:35.359 - 55 0A 32 00 00 00 01 92 55 0A 32 00 00 00 02 93 (厨房顶灯一开, 厨房顶灯二开)
2024-09-26 07:18:44.687 - 19 08 24 03 CC 01 CD 00 01 (调用茶吧感应灯关的按键)
2024-09-26 07:18:44.718 - 1A AA AA AA 88 FF 00 01 FF 00 01 0F (调光器地址-茶吧灯带, 茶吧灯带关闭)
2024-09-26 07:18:57.465 - 19 08 24 03 CC 01 55 00 01 (调用内卫感应灯关的按键)
2024-09-26 07:18:57.499 - 1A 0C 02 08 01 FF 00 01 FF 00 01 FF 00 00 0F (调光器地址-内卫射灯, 内卫感应灯关)
2024-09-26 07:19:13.743 - 19 08 24 03 CC 01 CC 00 01 (调用茶吧感应灯开的按键)
2024-09-26 07:19:13.774 - 1A AA AA AA 88 FF B0 01 FF B0 01 0F (调光器地址-茶吧灯带, 茶吧灯带明亮)
2024-09-26 07:19:53.960 - 19 08 24 03 CC 00 D4 00 01 (调用厨房感应灯关的按键)
2024-09-26 07:19:53.995 - 55 0A 31 00 00 00 01 91 55 0A 31 00 00 00 02 92 (厨房顶灯一关, 厨房顶灯二关)
2024-09-26 07:20:16.003 - 19 08 24 03 CC 00 D3 00 01 (调用厨房感应灯开的按键)
2024-09-26 07:20:16.038 - 55 0A 32 00 00 00 01 92 55 0A 32 00 00 00 02 93 (厨房顶灯一开, 厨房顶灯二开)
2024-09-26 07:20:17.566 - FF FF FF FF 0A FC (继电器地址-东阳窗帘)
2024-09-26 07:20:27.389 - 19 08 24 03 CC 01 CD 00 01 (调用茶吧感应灯关的按键)
2024-09-26 07:20:27.453 - 1A AA AA AA 88 FF 00 01 FF 00 01 0F (调光器地址-茶吧灯带, 茶吧灯带关闭)
2024-09-26 07:22:07.588 - 19 08 24 03 CC 01 CC 00 01 (调用茶吧感应灯开的按键)
2024-09-26 07:22:07.637 - 1A AA AA AA 88 FF B0 01 FF B0 01 0F (调光器地址-茶吧灯带, 茶吧灯带明亮)
2024-09-26 07:22:14.240 - 19 08 24 03 DD 00 00 00 01 (调用情景-离家（末）)
2024-09-26 07:22:14.774 - EE 00 00 B1 00 00 00 FF FC FF FF (情景执行提示)
2024-09-26 07:22:15.369 - 09 06 00 0F 02 02 38 20 (提示音咚)
2024-09-26 07:22:15.912 - 50 F7 01 (全屋影音全关)
2024-09-26 07:22:16.465 - 01 06 07 D0 FF 60 C8 9F (客厅空调关)
2024-09-26 07:22:16.494 - 01 06 07 D0 FF 60 C8 9F (客厅空调关)
2024-09-26 07:22:17.062 - 01 06 07 D0 FF 60 C8 9F (客厅空调关)
2024-09-26 07:22:17.100 - 01 06 07 D0 FF 60 C8 9F (客厅空调关)
2024-09-26 07:22:17.661 - 01 06 07 D3 FF 60 38 9F (餐厅空调关)
2024-09-26 07:22:17.695 - 01 06 07 D3 FF 60 38 9F (餐厅空调关)
2024-09-26 07:22:18.259 - 01 06 07 D3 FF 60 38 9F (餐厅空调关)
2024-09-26 07:22:18.291 - 01 06 07 D3 FF 60 38 9F (餐厅空调关)
2024-09-26 07:22:18.857 - 01 06 07 D6 FF 60 28 9E (主卧空调关)
2024-09-26 07:22:18.908 - 01 06 07 D6 FF 60 28 9E (主卧空调关)
2024-09-26 07:22:19.455 - 01 06 07 D6 FF 60 28 9E (主卧空调关)
2024-09-26 07:22:19.483 - 01 06 07 D6 FF 60 28 9E (主卧空调关)
2024-09-26 07:22:19.612 - 19 08 24 03 CC 01 CD 00 01 (调用茶吧感应灯关的按键)
2024-09-26 07:22:19.661 - 1A AA AA AA 88 FF 00 01 FF 00 01 0F (调光器地址-茶吧灯带, 茶吧灯带关闭)
2024-09-26 07:22:20.061 - 01 06 07 D9 FF 60 18 9D (次卧空调关)
2024-09-26 07:22:20.088 - 01 06 07 D9 FF 60 18 9D (次卧空调关)
2024-09-26 07:22:20.651 - 01 06 07 D9 FF 60 18 9D (次卧空调关)
2024-09-26 07:22:20.684 - 01 06 07 D9 FF 60 18 9D (次卧空调关)
2024-09-26 07:22:21.249 - 01 06 07 DC FF 60 08 9C (书房空调关)
2024-09-26 07:22:21.281 - 01 06 07 DC FF 60 08 9C (书房空调关)
2024-09-26 07:22:21.846 - 01 06 07 DC FF 60 08 9C (书房空调关)
2024-09-26 07:22:21.876 - 01 06 07 DC FF 60 08 9C (书房空调关)
2024-09-26 07:22:22.446 - 09 06 00 0F 02 02 38 20 (提示音咚)
2024-09-26 07:22:22.995 - 1A FF FF FF 56 00 00 00 0F (人体感应地址-内卫, 关闭内卫感应)
2024-09-26 07:22:23.543 - 1A FF FF FF 55 00 00 00 0F (人体感应地址-外卫, 关闭外卫感应)
2024-09-26 07:22:23.638 - BC BC
2024-09-26 07:22:24.090 - 1A FF FF FF 57 00 00 00 0F (人体感应地址-厨房, 关闭厨房感应)
2024-09-26 07:22:24.639 - 1A FF FF FF 58 00 00 00 0F (人体感应地址-茶吧, 关闭茶吧感应)
2024-09-26 07:22:24.690 - BC BC
2024-09-26 07:22:25.237 - 1A 20 07 00 93 00 01 00 0F (自保持开关地址-设备区顶, 设备区顶灯关)
2024-09-26 07:22:26.285 - 1A 20 07 01 40 00 01 00 0F (自保持开关地址-内卫顶灯, 内卫顶灯关)
2024-09-26 07:22:27.330 - 1A 20 07 01 55 00 01 00 0F (自保持开关地址-主卧顶灯, 主卧顶灯只关)
2024-09-26 07:22:28.377 - 1A 20 07 00 42 00 01 00 0F (自保持开关地址-外卫顶灯, 外卫顶灯关)
2024-09-26 07:22:29.423 - 55 0D 31 00 00 00 01 94 (书房顶灯只关)
2024-09-26 07:22:30.467 - 55 0A 31 00 00 00 01 91 (厨房顶灯一关)
2024-09-26 07:22:31.516 - 55 0A 31 00 00 00 02 92 (厨房顶灯二关)
2024-09-26 07:22:32.562 - 55 0B 31 00 00 00 01 92 (厨房风扇只关)
2024-09-26 07:22:33.608 - 55 0C 31 00 00 00 01 93 (餐厅顶灯关)
2024-09-26 07:22:34.656 - 1A 20 07 01 30 00 01 00 0F (自保持开关地址-西阳顶灯, 西阳顶灯关)
2024-09-26 07:22:35.701 - 1A 18 05 21 89 00 01 00 0F (自保持开关地址-客厅顶灯, 客厅顶灯一关)
2024-09-26 07:22:36.749 - 1A 18 05 01 94 00 01 00 0F (自保持开关地址-客厅顶灯, 客厅顶灯二关)
2024-09-26 07:22:37.794 - 1A 20 07 00 70 00 01 00 0F (自保持开关地址-次卧顶灯, 次卧顶灯只关)
2024-09-26 07:22:38.841 - 1A 18 05 10 31 00 01 00 0F (自保持开关地址-门厅顶灯, 门厅顶灯关)
2024-09-26 07:22:39.887 - 1A FF FF FF 04 00 03 02 (继电器地址-东阳衣架, 东阳衣架照明关)
2024-09-26 07:22:40.436 - 09 06 00 0F 02 02 38 20 (提示音咚)
2024-09-26 07:22:41.031 - A5 00 A6 FE 01 AA (餐厅窗帘开)
2024-09-26 07:22:41.581 - FF FF FF FF 0A 00 01 00 (继电器地址-东阳窗帘, 东阳窗帘开)
2024-09-26 07:22:42.129 - 1A BE B0 DC 04 00 01 00 (继电器地址-西阳窗帘, 西阳窗帘开)
2024-09-26 07:22:42.678 - FF FF FF FF 0E 00 01 00 (继电器地址-西阳小窗帘, 西阳小窗帘开)
2024-09-26 07:22:43.226 - 1A 22 33 62 0F 00 00 01 0F (正反转地址-内卫卷帘, 内卫卷帘升)
2024-09-26 07:22:43.772 - A5 00 52 FE 01 AA (主卧窗帘开)
2024-09-26 07:22:44.320 - A5 00 53 FF 00 AA (主卧纱帘开)
2024-09-26 07:22:44.868 - A5 00 76 FE 01 AA (次卧窗帘开)
2024-09-26 07:22:45.416 - A5 00 21 FE 01 AA (次卧纱帘开)
2024-09-26 07:22:45.966 - A5 00 D2 FE 01 AA 22 0D (书房窗帘开)
2024-09-26 07:22:46.016 - 55 00 D2 02 00 FE 01 0B AA 55 00 D2 02 00 FE 01 0B AA (书房窗帘电机状态返回)
2024-09-26 07:22:46.563 - 1A BE B0 DC 09 00 01 00 (继电器地址-客厅窗帘, 客厅窗帘开)
2024-09-26 07:22:47.113 - 1A BE B0 DC 0A 00 02 00 (继电器地址-客厅纱帘, 客厅纱帘开)
2024-09-26 07:22:47.660 - 09 06 00 0F 02 02 38 20 (提示音咚)
2024-09-26 07:22:48.707 - 1A EC A0 DC 02 00 00 00 0F (自保持开关地址-天花12V供电, 天花12V 供电关)
2024-09-26 07:22:49.256 - 1A EC A0 DC 02 00 00 00 0F (自保持开关地址-天花12V供电, 天花12V 供电关)
2024-09-26 07:22:49.805 - 1A EC A0 DC 01 00 00 00 0F (自保持开关地址-电视、设备12V供电, 12V 电视供电关)
2024-09-26 07:22:50.352 - 1A EC A0 DC 01 00 00 00 0F (自保持开关地址-电视、设备12V供电, 12V 电视供电关)
2024-09-26 07:22:50.901 - 1A EC A0 DC 04 00 01 00 0F (自保持开关地址-次卧西阳内外卫供电, 内卫外卫关)
2024-09-26 07:22:51.498 - 1A EC A0 DC 04 00 01 00 0F (自保持开关地址-次卧西阳内外卫供电, 内卫外卫关)
2024-09-26 07:22:53.042 - 1A BB BB BB 01 02 00 (开水器电源关)
2024-09-26 07:22:54.210 - 55 00 D2 00 00 0D 01 0B AA 55 00 D2 00 00 0D 01 0B AA (书房窗帘电机状态返回)
2024-09-26 07:23:06.093 - 09 06 00 0F 02 02 38 20 (提示音咚)
2024-09-26 07:23:06.640 - 1A 27 89 12 AA 00 00 00 0F (状态寄存器地址, 无人状态)
2024-09-26 07:23:07.189 - 1A 27 89 12 AA 00 00 00 0F (状态寄存器地址, 无人状态)
2024-09-26 07:23:07.784 - A1 11 11 11 4D (天花供电关闭确认)
2024-09-26 07:23:08.008 - 1A EC A0 DC 02 86 86 86 0F (查询天花供电状态, 自保持开关地址-天花12V供电)
2024-09-26 07:23:08.441 - 1A EC A0 DC 02 00 01 0F (自保持开关地址-天花12V供电)
2024-09-26 07:23:10.823 - A1 11 11 11 4E (卫生供电关闭确认)
2024-09-26 07:23:11.046 - 1A EC A0 DC 04 86 86 86 0F (查询卫生间供电状态, 自保持开关地址-次卧西阳内外卫供电)
2024-09-26 07:23:11.479 - 1A EC A0 DC 04 01 00 0F (自保持开关地址-次卧西阳内外卫供电)
2024-09-26 07:23:13.863 - A1 11 11 11 4F (电视供电关闭确认)
2024-09-26 07:23:14.085 - 1A EC A0 DC 01 86 86 86 0F (查询电视供电状态, 自保持开关地址-电视、设备12V供电)
2024-09-26 07:23:14.520 - 1A EC A0 DC 01 00 01 0F (自保持开关地址-电视、设备12V供电)
2024-09-26 07:23:16.905 - 09 06 00 0F 02 02 38 20 (提示音咚)
2024-09-26 07:23:17.453 - 09 06 00 0F 02 02 38 20 (提示音咚)
2024-09-26 07:23:18.005 - EE 00 00 B1 00 00 02 FF FC FF FF (情景完成返回主页)
2024-09-26 07:23:19.095 - BA BA EE EE BA BA (离家设置信科变量)
2024-09-26 07:23:20.142 - A1 11 11 11 46 (天热离家遮阳)
2024-09-26 07:23:20.371 - 1A 27 89 12 AA 86 86 86 0F (查询寄存器状态, 状态寄存器地址)
2024-09-26 07:23:20.755 - 1A 27 89 12 AA 00 00 00 00 00 00 00 00 00 00 00 00 00 00 00 00 0F (状态寄存器地址)
2024-09-26 08:27:35.442 - 1A BE B0 DC 04 (继电器地址-西阳窗帘)
2024-09-26 08:36:39.090 - FF FF FF FF 0E (继电器地址-西阳小窗帘)
2024-09-26 08:36:39.224 - FF
2024-09-26 08:47:35.211 - 53 53 48 2D 32 2E 30 2D 4F 70 65 6E 53 53 48 0D 0A
2024-09-26 08:56:55.605 - 1A FF FF FF 04 (继电器地址-东阳衣架)
2024-09-26 09:04:44.278 - 1A BE B0 DC 02 (正反转地址-外卫卷帘)
2024-09-26 09:04:44.414 - FF
2024-09-26 09:21:53.342 - 1A BE B0 DC 01 (继电器地址-回水泵点动)
2024-09-26 09:21:53.477 - FF
2024-09-26 09:26:37.453 - 1A BE B0 DC 09 FC (继电器地址-客厅窗帘)
2024-09-26 09:26:37.588 - FE
2024-09-26 09:27:57.189 - 1A BE B0 DC 03 (继电器地址-西阳天幕)
2024-09-26 09:27:57.325 - FF
2024-09-26 09:32:49.175 - 1A BE B0 DC 0A FC (继电器地址-客厅纱帘)
2024-09-26 10:48:52.659 - FF FF FF FF 0A FE (继电器地址-东阳窗帘)
2024-09-26 10:48:52.793 - FE
2024-09-26 11:47:14.722 - 1A BE B0 DC 04 FE (继电器地址-西阳窗帘)
2024-09-26 11:47:14.856 - FF
2024-09-26 11:56:37.504 - FF FF FF FF 0E FC (继电器地址-西阳小窗帘)
2024-09-26 11:56:37.637 - FF
2024-09-26 12:17:48.385 - 1A FF FF FF 04 FC (继电器地址-东阳衣架)
2024-09-26 12:17:48.519 - FF
2024-09-26 12:24:43.001 - 03 00 00 2F 2A E0 00 00 00 00 00 43 6F 6F 6B 69 65 3A 20 6D 73 74 73 68 61 73 68 3D 41 64 6D 69
2024-09-26 12:24:43.018 - 6E 69 73 74 72 0D 0A 01 00 08 00 03 00 00 00
2024-09-26 12:25:09.526 - 1A BE B0 DC 02 FE (正反转地址-外卫卷帘)
2024-09-26 12:25:09.660 - FF
2024-09-26 12:42:39.625 - 1A BE B0 DC 01 (继电器地址-回水泵点动)
2024-09-26 12:42:39.760 - FF
2024-09-26 12:46:53.516 - 1A BE B0 DC 09 (继电器地址-客厅窗帘)
2024-09-26 12:46:53.651 - FE
2024-09-26 12:48:50.162 - 1A BE B0 DC 03 FC (继电器地址-西阳天幕)
2024-09-26 12:48:50.297 - FE
2024-09-26 12:53:17.888 - FF
2024-09-26 12:53:24.012 - 1A BE B0 DC 0A FC (继电器地址-客厅纱帘)
2024-09-26 12:53:24.147 - FF
2024-09-26 14:08:58.313 - FF FF FF FF 0A (继电器地址-东阳窗帘)
2024-09-26 14:08:58.448 - FF
2024-09-26 15:06:56.416 - 1A BE B0 DC 04 (继电器地址-西阳窗帘)
2024-09-26 15:16:36.613 - FF FF FF FF 0E FC (继电器地址-西阳小窗帘)
2024-09-26 15:38:43.453 - 1A FF FF FF 04 FE (继电器地址-东阳衣架)
2024-09-26 15:38:43.587 - FF
2024-09-26 15:45:35.610 - 1A BE B0 DC 02 FC (正反转地址-外卫卷帘)
2024-09-26 15:45:35.745 - FF
2024-09-26 16:03:26.678 - 1A BE B0 DC 01 FC (继电器地址-回水泵点动)
2024-09-26 16:03:26.812 - FE
2024-09-26 16:07:10.388 - 1A BE B0 DC 09 FD (继电器地址-客厅窗帘)
2024-09-26 16:09:43.028 - 1A BE B0 DC 03 FC (继电器地址-西阳天幕)
2024-09-26 16:09:43.164 - FF
2024-09-26 16:13:58.918 - 1A BE B0 DC 0A FE (继电器地址-客厅纱帘)
2024-09-26 16:13:59.053 - FE
2024-09-26 17:34:17.741 - FF FF FF FF 0A FD (继电器地址-东阳窗帘)
2024-09-26 17:44:18.542 - FF
2024-09-26 18:10:48.719 - FF
2024-09-26 18:26:42.384 - 1A BE B0 DC 04 (继电器地址-西阳窗帘)
2024-09-26 18:36:37.817 - FF FF FF FF 0E FF (继电器地址-西阳小窗帘)
2024-09-26 18:36:37.951 - FF
2024-09-26 18:59:42.534 - 1A FF FF FF 04 FC (继电器地址-东阳衣架)
2024-09-26 18:59:42.668 - FF
2024-09-26 19:06:04.516 - 1A BE B0 DC 02 (正反转地址-外卫卷帘)
2024-09-26 19:06:04.653 - FF
2024-09-26 19:24:15.531 - 1A BE B0 DC 01 (继电器地址-回水泵点动)
2024-09-26 19:24:15.668 - FE
2024-09-26 19:27:30.534 - 1A BE B0 DC 09 FE (继电器地址-客厅窗帘)
2024-09-26 19:27:30.667 - FC
2024-09-26 19:30:38.439 - 1A BE B0 DC 03 FF (继电器地址-西阳天幕)
2024-09-26 19:30:38.576 - FE
2024-09-26 19:34:36.812 - 1A BE B0 DC 0A (继电器地址-客厅纱帘)
2024-09-26 19:34:36.947 - FE
2024-09-26 20:54:50.782 - FF FF FF FF 0A FD (继电器地址-东阳窗帘)
2024-09-26 20:54:50.917 - FF
2024-09-26 21:12:55.004 - FF
2024-09-26 21:46:23.596 - 1A BE B0 DC 04 FE (继电器地址-西阳窗帘)
2024-09-26 21:46:23.729 - FE
2024-09-26 21:56:36.004 - FF FF FF FF 0E (继电器地址-西阳小窗帘)
2024-09-26 21:56:36.138 - FF
2024-09-26 22:20:36.146 - 1A FF FF FF 04 FC (继电器地址-东阳衣架)
2024-09-26 22:20:36.281 - FF
2024-09-26 22:26:30.335 - 1A BE B0 DC 02 FD (正反转地址-外卫卷帘)
2024-09-26 22:26:30.469 - FF
2024-09-26 22:33:23.044 - 1B 03 00 00 00 02 C6 31 (查询室外光线)
2024-09-26 22:33:23.064 - 1B 03 04 00 00 00 00 41 F2 (室外光线返回)
2024-09-26 22:33:23.841 - 1A EC A0 DC 02 00 00 01 0F (自保持开关地址-天花12V供电, 天花12V 供电开)
2024-09-26 22:33:24.368 - 1A AA AA AA 88 (调光器地址-茶吧灯带)
2024-09-26 22:33:24.547 - 1A FF 01 FF FF FF 60 01 FF 60 01 FF 00 00 0F (调光器地址-公共区域统配地址)
2024-09-26 22:33:25.538 - 19 08 24 03 DD 00 0D 00 01 (调用情景-信科调用进门暗)
2024-09-26 22:33:27.561 - 1A FF 01 FF FF FF 60 01 FF 60 01 FF 00 00 0F (调光器地址-公共区域统配地址)
2024-09-26 22:33:29.648 - 1A EC A0 DC 01 00 00 01 0F (自保持开关地址-电视、设备12V供电, 12V 电视供电开)
2024-09-26 22:33:30.195 - 1A EC A0 DC 01 00 00 01 0F (自保持开关地址-电视、设备12V供电, 12V 电视供电开)
2024-09-26 22:33:30.743 - 1A EC A0 DC 04 00 01 01 0F (自保持开关地址-次卧西阳内外卫供电, 内卫外卫开)
2024-09-26 22:33:31.292 - 1A EC A0 DC 04 00 01 01 0F (自保持开关地址-次卧西阳内外卫供电, 内卫外卫开)
2024-09-26 22:33:31.837 - 1A BB BB BB 01 01 00 (开水器电源开)
2024-09-26 22:33:33.434 - 1A 27 89 12 AA 00 00 01 0F (状态寄存器地址, 有人状态)
2024-09-26 22:33:33.983 - 1A 27 89 12 AA 00 00 01 0F (状态寄存器地址, 有人状态)
2024-09-26 22:33:34.579 - 1A BE B0 DC 01 00 01 00 (继电器地址-回水泵点动, 回水泵点动)
2024-09-26 22:33:35.129 - 1A FF FF FF 56 00 00 01 0F (人体感应地址-内卫, 打开内卫感应)
2024-09-26 22:33:35.676 - 1A FF FF FF 55 00 00 01 0F (人体感应地址-外卫, 打开外卫感应)
2024-09-26 22:33:35.771 - BC BC
2024-09-26 22:33:36.226 - 1A FF FF FF 57 00 00 01 0F (人体感应地址-厨房, 打开厨房感应)
2024-09-26 22:33:36.632 - 19 08 24 03 CC 00 D4 00 01 (调用厨房感应灯关的按键)
2024-09-26 22:33:36.685 - 55 0A 31 00 00 00 01 91 55 0A 31 00 00 00 02 92 (厨房顶灯一关, 厨房顶灯二关)
2024-09-26 22:33:37.084 - 1A FF FF FF 58 00 00 01 0F (人体感应地址-茶吧, 打开茶吧感应)
2024-09-26 22:33:37.134 - BC BC
2024-09-26 22:33:37.719 - 1A BE B0 DC 01 00 01 00 (继电器地址-回水泵点动, 回水泵点动)
2024-09-26 22:33:38.267 - A5 00 B7 FF 00 AA 22 0D (书房纱帘关)
2024-09-26 22:33:38.812 - A5 00 A2 FF 00 AA (餐厅纱帘关)
2024-09-26 22:33:39.362 - 09 06 00 0F 02 01 78 21 (提示音叮)
2024-09-26 22:33:39.910 - 09 06 00 0F 02 01 78 21 (提示音叮)
2024-09-26 22:33:40.463 - EE 00 00 B1 00 00 02 FF FC FF FF (情景完成返回主页)
2024-09-26 22:33:41.054 - A1 11 11 11 50 (天花供电打开确认)
2024-09-26 22:33:41.275 - 1A EC A0 DC 02 86 86 86 0F (查询天花供电状态, 自保持开关地址-天花12V供电)
2024-09-26 22:33:41.708 - 1A EC A0 DC 02 01 01 0F (自保持开关地址-天花12V供电)
2024-09-26 22:33:43.595 - A1 11 11 11 51 (卫生供电打开确认)
2024-09-26 22:33:43.822 - 1A EC A0 DC 04 86 86 86 0F (查询卫生间供电状态, 自保持开关地址-次卧西阳内外卫供电)
2024-09-26 22:33:44.253 - 1A EC A0 DC 04 01 01 0F (自保持开关地址-次卧西阳内外卫供电)
2024-09-26 22:33:46.136 - A1 11 11 11 52 (电视供电打开确认)
2024-09-26 22:33:46.359 - 1A EC A0 DC 01 86 86 86 0F (查询电视供电状态, 自保持开关地址-电视、设备12V供电)
2024-09-26 22:33:46.796 - 1A EC A0 DC 01 01 01 0F (自保持开关地址-电视、设备12V供电)
2024-09-26 22:33:51.169 - A1 11 11 11 47 (天热回家开帘)
2024-09-26 22:33:51.392 - 1A 27 89 12 AA 86 86 86 0F (查询寄存器状态, 状态寄存器地址)
2024-09-26 22:33:51.775 - 1A 27 89 12 AA 01 00 00 00 00 00 00 00 00 00 00 00 00 00 00 00 0F (状态寄存器地址)
2024-09-26 22:34:36.178 - 19 08 24 03 DD 00 41 00 01 (调用情景-主卧照明电视)
2024-09-26 22:34:36.723 - EE 00 00 B1 00 00 00 FF FC FF FF (情景执行提示)
2024-09-26 22:34:37.318 - 09 06 00 0F 02 01 78 21 (提示音叮)
2024-09-26 22:34:37.890 - 50 F0 05 (开主卧影视)
2024-09-26 22:34:38.458 - 50 F0 04 (开内卫影视)
2024-09-26 22:34:39.013 - 1A FF FF FF 56 00 00 00 0F (人体感应地址-内卫, 关闭内卫感应)
2024-09-26 22:34:39.560 - 1A 22 33 62 0F 00 02 01 0F (正反转地址-内卫卷帘, 内卫卷帘降)
2024-09-26 22:34:40.105 - A5 00 53 FE 01 AA (主卧纱帘关)
2024-09-26 22:34:40.163 - 55 00 53 02 02 22 02 2F AA 55 00 53 02 02 22 02 (主卧纱帘电机状态返回)
2024-09-26 22:34:41.202 - A5 00 52 FF 00 AA (主卧窗帘关)
2024-09-26 22:34:42.257 - 1A 0C 02 04 FF FF 45 01 FF 45 01 FF 00 00 0F (主卧调光微光)
2024-09-26 22:34:48.338 - 1A 0C 02 08 01 FF 45 01 FF 45 01 FF 00 00 0F (调光器地址-内卫射灯, 内卫射灯微光)
2024-09-26 22:34:48.922 - 50 F1 25 (主卧—有线2)
2024-09-26 22:34:49.470 - 50 F1 24 (内卫—有线2)
2024-09-26 22:34:51.281 - 55 00 53 00 00 0C 02 2F AA 55 00 53 00 00 0C 02 2F AA (主卧纱帘电机状态返回)
2024-09-26 22:34:51.568 - AF BF CF DF C2 21 (有线2/快捷-凤凰卫视)
2024-09-26 22:34:52.793 - 55 20 20 00 02 09 02 16 AA 55 20 20 00 02 09 02 16 AA (主卧窗帘电机状态返回)
2024-09-26 22:34:53.662 - 1A FF FF FF 60 0B 01 01 0F (红外总线地址-主卧发射设备, 主卧电视电源)
2024-09-26 22:34:54.183 - F0 0B 01 08
2024-09-26 22:35:01.739 - 09 06 00 0F 02 02 38 20 (提示音咚)
2024-09-26 22:35:02.289 - EE 00 00 B1 00 00 02 FF FC FF FF (情景完成返回主页)
2024-09-26 22:35:05.499 - EE 00 6E B1 01 00 03 FF FC FF FF
2024-09-26 22:35:06.059 - EE 00 6E B1 01 00 08 FF FC FF FF
2024-09-26 22:35:06.583 - 1A BE B0 DC 0A 00 01 00 (继电器地址-客厅纱帘, 客厅纱帘关)
2024-09-26 22:35:15.343 - 19 08 24 03 CC 01 CC 00 01 (调用茶吧感应灯开的按键)
2024-09-26 22:35:15.393 - 1A AA AA AA 88 FF B0 01 FF B0 01 0F (调光器地址-茶吧灯带, 茶吧灯带明亮)
2024-09-26 22:36:54.220 - 19 08 24 03 CC 00 D3 00 01 (调用厨房感应灯开的按键)
2024-09-26 22:36:54.255 - 55 0A 32 00 00 00 01 92 55 0A 32 00 00 00 02 93 (厨房顶灯一开, 厨房顶灯二开)
2024-09-26 22:37:03.056 - 19 08 24 03 CC 01 CD 00 01 (调用茶吧感应灯关的按键)
2024-09-26 22:37:03.086 - 1A AA AA AA 88 FF 00 01 FF 00 01 0F (调光器地址-茶吧灯带, 茶吧灯带关闭)
2024-09-26 22:37:15.582 - 19 08 24 03 CC 01 CC 00 01 (调用茶吧感应灯开的按键)
2024-09-26 22:37:15.611 - 1A AA AA AA 88 FF B0 01 FF B0 01 0F (调光器地址-茶吧灯带, 茶吧灯带明亮)
2024-09-26 22:37:31.111 - 19 08 24 03 CC 01 CD 00 01 (调用茶吧感应灯关的按键)
2024-09-26 22:37:31.142 - 1A AA AA AA 88 FF 00 01 FF 00 01 0F (调光器地址-茶吧灯带, 茶吧灯带关闭)
2024-09-26 22:38:39.747 - 19 08 24 03 CC 01 CC 00 01 (调用茶吧感应灯开的按键)
2024-09-26 22:38:39.778 - 1A AA AA AA 88 FF B0 01 FF B0 01 0F (调光器地址-茶吧灯带, 茶吧灯带明亮)
2024-09-26 22:39:08.804 - 19 08 24 03 CC 01 CD 00 01 (调用茶吧感应灯关的按键)
2024-09-26 22:39:08.835 - 1A AA AA AA 88 FF 00 01 FF 00 01 0F (调光器地址-茶吧灯带, 茶吧灯带关闭)
2024-09-26 22:40:54.513 - 19 08 24 03 CC 01 CC 00 01 (调用茶吧感应灯开的按键)
2024-09-26 22:40:54.544 - 1A AA AA AA 88 FF B0 01 FF B0 01 0F (调光器地址-茶吧灯带, 茶吧灯带明亮)
2024-09-26 22:41:02.708 - 19 08 24 03 CC 00 D4 00 01 (调用厨房感应灯关的按键)
2024-09-26 22:41:02.744 - 55 0A 31 00 00 00 01 91 55 0A 31 00 00 00 02 92 (厨房顶灯一关, 厨房顶灯二关)
2024-09-26 22:41:08.040 - 19 08 24 03 CC 01 CD 00 01 (调用茶吧感应灯关的按键)
2024-09-26 22:41:08.071 - 1A AA AA AA 88 FF 00 01 FF 00 01 0F (调光器地址-茶吧灯带, 茶吧灯带关闭)
2024-09-26 22:41:13.667 - 19 08 24 03 CC 00 C0 00 01
2024-09-26 22:41:13.700 - 1A 0C 02 08 01 FF 45 01 FF 45 01 FF 00 00 0F (调光器地址-内卫射灯, 内卫射灯微光)
2024-09-26 22:45:59.938 - 1A BE B0 DC 01 FF (继电器地址-回水泵点动)
2024-09-26 22:46:00.073 - FE
2024-09-26 22:48:57.667 - 1A BE B0 DC 09 FC (继电器地址-客厅窗帘)
2024-09-26 22:48:57.802 - FE
2024-09-26 22:48:58.769 - A1 11 11 11 42 (主卧空调自动开)
2024-09-26 22:48:58.996 - 19 08 24 03 F0 BB 78 02 02 00
2024-09-26 22:48:59.243 - 23 AA 56 02 16 30 3B 18 09 1A 04 73 65 6F 6B 65 6E 64
2024-09-26 22:49:00.005 - 01 10 07 D6 00 03 06 70 61 00 02 00 F0 0F 3E (主卧空调冷24度)
2024-09-26 22:49:00.040 - 01 10 07 D6 00 03 06 70 61 00 02 00 F0 0F 3E (主卧空调冷24度)
2024-09-26 22:49:02.837 - A1 11 11 11 42 (主卧空调自动开)
2024-09-26 22:49:03.067 - 19 08 24 03 F0 BB 78 02 02 00
2024-09-26 22:49:03.281 - 23 AA 56 02 16 31 03 18 09 1A 04 73 65 6F 6B 65 6E 64
2024-09-26 22:49:04.076 - 01 10 07 D6 00 03 06 70 61 00 02 00 F0 0F 3E (主卧空调冷24度)
2024-09-26 22:49:04.120 - 01 10 07 D6 00 03 06 70 61 00 02 00 F0 0F 3E (主卧空调冷24度)
2024-09-26 22:49:12.999 - 1A FF 03 00 00 86 86 86 0F (调用查询模块-主卧空调开关查询, 主卧空调虚拟地址)
2024-09-26 22:49:13.221 - 01 04 07 DC 00 01 F1 44 (查询主卧空调开关状态)
2024-09-26 22:49:13.242 - 01 04 02 70 01 5D 30
2024-09-26 22:49:14.225 - 1A FF 03 00 00 01 00 0F (主卧空调虚拟地址)
2024-09-26 22:49:14.414 - 1A FF 04 00 00 86 86 86 0F (调用查询模块-次卧空调开关查询, 次卧空调虚拟地址)
2024-09-26 22:49:14.636 - 01 04 07 E2 00 01 90 88 (查询次卧空调开关状态)
2024-09-26 22:49:14.655 - 01 04 02 70 00 9C F0
2024-09-26 22:49:15.640 - 1A FF 04 00 00 00 00 0F (次卧空调虚拟地址)
2024-09-26 22:49:15.847 - 1A FF 05 00 00 86 86 86 0F (调用查询模块-书房空调开关查询, 书房空调虚拟地址)
2024-09-26 22:49:16.068 - 01 04 07 E8 00 01 B0 8A (查询书房空调开关状态)
2024-09-26 22:49:16.089 - 01 04 02 70 00 9C F0
2024-09-26 22:49:17.074 - 1A FF 05 00 00 00 00 0F (书房空调虚拟地址)
2024-09-26 22:49:17.280 - 1A FF 02 00 00 86 86 86 0F (调用查询模块-餐厅空调开关查询, 餐厅空调虚拟地址)
2024-09-26 22:49:17.503 - 01 04 07 D6 00 01 D1 46 (查询餐厅空调开关状态)
2024-09-26 22:49:17.524 - 01 04 02 70 00 9C F0
2024-09-26 22:49:18.507 - 1A FF 02 00 00 00 00 0F (餐厅空调虚拟地址)
2024-09-26 22:49:18.714 - 1A FF 01 00 00 86 86 86 0F (调用查询模块-客厅空调开关查询, 客厅空调虚拟地址)
2024-09-26 22:49:18.936 - 01 04 07 D0 00 01 31 47 (查询客厅空调开关状态)
2024-09-26 22:49:18.956 - 01 04 02 70 00 9C F0
2024-09-26 22:49:19.940 - 1A FF 01 00 00 00 00 0F (客厅空调虚拟地址)
2024-09-26 22:52:00.040 - 1A BE B0 DC 03 (继电器地址-西阳天幕)
2024-09-26 22:53:18.087 - 19 08 24 03 DD 00 1B 00 01 (调用情景-外卫使用)
2024-09-26 22:53:18.656 - EE 00 00 B1 00 00 00 FF FC FF FF (情景执行提示)
2024-09-26 22:53:19.252 - 09 06 00 0F 02 01 78 21 (提示音叮)
2024-09-26 22:53:19.799 - 1A BE B0 DC 02 00 01 00 (正反转地址-外卫卷帘, 外卫卷帘降)
2024-09-26 22:53:20.393 - 50 F0 03 (开外卫影视)
2024-09-26 22:53:20.948 - 1A FF FF FF 55 00 00 00 0F (人体感应地址-外卫, 关闭外卫感应)
2024-09-26 22:53:21.501 - 1A 0D 01 07 01 FF 45 01 FF 45 01 FF 00 00 0F (调光器地址-外卫射灯, 外卫感应灯开)
2024-09-26 22:53:23.586 - 1A BE B0 DC 01 00 01 00 (继电器地址-回水泵点动, 回水泵点动)
2024-09-26 22:53:24.634 - 1A BE B0 DC 01 00 01 00 (继电器地址-回水泵点动, 回水泵点动)
2024-09-26 22:53:25.680 - 1A BE B0 DC 01 00 01 00 (继电器地址-回水泵点动, 回水泵点动)
2024-09-26 22:53:26.722 - 50 F1 43 (外卫—CH4)
2024-09-26 22:53:43.721 - A1 11 11 11 11 05 (外卫使用浴霸判断)
2024-09-26 22:53:43.946 - 13 03 00 00 00 02 C7 79 (查询外卫温湿度)
2024-09-26 22:53:43.969 - 13 03 04 02 84 01 12 08 3E (外卫温湿度返回)
2024-09-26 22:53:45.817 - 09 06 00 0F 02 02 38 20 (提示音咚)
2024-09-26 22:53:47.913 - EE 00 00 B1 00 00 02 FF FC FF FF (情景完成返回主页)
2024-09-26 22:56:42.364 - 1A BE B0 DC 0A FF (继电器地址-客厅纱帘)
2024-09-26 22:56:42.498 - FE
2024-09-26 23:08:38.044 - 19 08 24 03 DD 00 1C 00 01 (调用情景-外卫使用完毕)
2024-09-26 23:08:38.571 - EE 00 00 B1 00 00 00 FF FC FF FF (情景执行提示)
2024-09-26 23:08:39.167 - 09 06 00 0F 02 01 78 21 (提示音叮)
2024-09-26 23:08:39.722 - 1A 0D 01 07 01 FF 00 01 FF 00 01 FF 00 00 0F (调光器地址-外卫射灯, 外卫感应灯关)
2024-09-26 23:08:40.307 - 50 F5 03 (关外卫影视)
2024-09-26 23:08:40.891 - 1A 20 07 00 42 00 01 00 0F (自保持开关地址-外卫顶灯, 外卫顶灯关)
2024-09-26 23:08:41.460 - 1A FF FF FF 55 00 00 01 0F (人体感应地址-外卫, 打开外卫感应)
2024-09-26 23:08:41.555 - BC BC
2024-09-26 23:08:41.863 - 19 08 24 03 CC 01 52 00 01 (调用外卫感应灯开的按键)
2024-09-26 23:08:41.916 - 1A 0D 01 07 01 FF 45 01 FF 45 01 FF 00 00 0F (调光器地址-外卫射灯, 外卫感应灯开)
2024-09-26 23:08:44.303 - 09 06 00 0F 02 02 38 20 (提示音咚)
2024-09-26 23:08:44.903 - EE 00 00 B1 00 00 02 FF FC FF FF (情景完成返回主页)
2024-09-26 23:10:54.829 - 19 08 24 03 CC 01 53 00 01 (调用外卫感应灯关的按键)
2024-09-26 23:10:54.863 - 1A 0D 01 07 01 FF 00 01 FF 00 01 FF 00 00 0F (调光器地址-外卫射灯, 外卫感应灯关)
2024-09-26 23:28:44.714 - 19 08 24 03 CC 01 CC 00 01 (调用茶吧感应灯开的按键)
2024-09-26 23:28:44.744 - 1A AA AA AA 88 FF B0 01 FF B0 01 0F (调光器地址-茶吧灯带, 茶吧灯带明亮)
2024-09-26 23:29:30.656 - 19 08 24 03 DD 00 13 00 01 (调用情景-公共区域关)
2024-09-26 23:29:31.221 - EE 00 00 B1 00 00 00 FF FC FF FF (情景执行提示)
2024-09-26 23:29:31.784 - 09 06 00 0F 02 01 78 21 (提示音叮)
2024-09-26 23:29:32.332 - 55 0B 31 00 00 00 01 92 (厨房风扇只关)
2024-09-26 23:29:33.378 - 01 06 07 D3 FF 60 38 9F (餐厅空调关)
2024-09-26 23:29:33.408 - 01 06 07 D3 FF 60 38 9F (餐厅空调关)
2024-09-26 23:29:34.474 - 01 06 07 D0 FF 60 C8 9F (客厅空调关)
2024-09-26 23:29:34.510 - 01 06 07 D0 FF 60 C8 9F (客厅空调关)
2024-09-26 23:29:38.559 - 50 F5 02 (关厨房影视)
2024-09-26 23:29:39.606 - 50 F5 01 (关餐厅影视)
2024-09-26 23:29:40.654 - 50 F5 08 (关客厅影视)
2024-09-26 23:29:41.325 - 19 08 24 03 CC 01 CD 00 01 (调用茶吧感应灯关的按键)
2024-09-26 23:29:41.376 - 1A AA AA AA 88 FF 00 01 FF 00 01 0F (调光器地址-茶吧灯带, 茶吧灯带关闭)
2024-09-26 23:29:41.769 - 50 F5 03 (关外卫影视)
2024-09-26 23:29:42.851 - 55 0A 31 00 00 00 01 91 (厨房顶灯一关)
2024-09-26 23:29:43.947 - 55 0A 31 00 00 00 02 92 (厨房顶灯二关)
2024-09-26 23:29:45.072 - 55 0C 31 00 00 00 01 93 (餐厅顶灯关)
2024-09-26 23:29:46.140 - 1A 18 05 10 31 00 01 00 0F (自保持开关地址-门厅顶灯, 门厅顶灯关)
2024-09-26 23:29:47.188 - 1A 20 07 00 42 00 01 00 0F (自保持开关地址-外卫顶灯, 外卫顶灯关)
2024-09-26 23:29:48.234 - 1A 18 05 21 89 00 01 00 0F (自保持开关地址-客厅顶灯, 客厅顶灯一关)
2024-09-26 23:29:49.280 - 1A 18 05 01 94 00 01 00 0F (自保持开关地址-客厅顶灯, 客厅顶灯二关)
2024-09-26 23:29:50.326 - 1A 20 07 01 30 00 01 00 0F (自保持开关地址-西阳顶灯, 西阳顶灯关)
2024-09-26 23:29:51.379 - 1A FF 01 FF FF FF 00 01 FF 00 01 FF 00 00 0F (调光器地址-公共区域统配地址, 公共区域灯光全关)
2024-09-26 23:29:52.470 - 09 06 00 0F 02 02 38 20 (提示音咚)
2024-09-26 23:29:54.515 - EE 00 00 B1 00 00 02 FF FC FF FF (情景完成返回主页)
2024-09-26 23:31:32.165 - FF
2024-09-26 23:31:50.575 - 19 08 24 03 DD 00 4F 00 01 (调用情景-内卫使用完毕)
2024-09-26 23:31:51.130 - EE 00 00 B1 00 00 00 FF FC FF FF (情景执行提示)
2024-09-26 23:31:51.725 - 09 06 00 0F 02 01 78 21 (提示音叮)
2024-09-26 23:31:52.330 - 1A 0C 02 08 01 FF 00 01 FF 00 01 FF 00 00 0F (调光器地址-内卫射灯, 内卫感应灯关)
2024-09-26 23:31:56.404 - 50 F5 04 (关内卫影视)
2024-09-26 23:31:56.959 - 1A 20 07 01 40 00 01 00 0F (自保持开关地址-内卫顶灯, 内卫顶灯关)
2024-09-26 23:31:57.508 - 1A FF FF FF 56 00 00 01 0F (人体感应地址-内卫, 打开内卫感应)
2024-09-26 23:31:57.607 - BC BC
2024-09-26 23:31:57.914 - 19 08 24 03 CC 01 54 00 01 (调用内卫感应灯开的按键)
2024-09-26 23:31:57.967 - 1A 0C 02 08 01 FF 45 01 FF 45 01 FF 00 00 0F (调光器地址-内卫射灯, 内卫射灯微光)
2024-09-26 23:32:00.350 - 09 06 00 0F 02 02 38 20 (提示音咚)
2024-09-26 23:32:00.951 - EE 00 00 B1 00 00 02 FF FC FF FF (情景完成返回主页)
2024-09-26 23:32:13.147 - 19 08 24 03 CC 01 55 00 01 (调用内卫感应灯关的按键)
2024-09-26 23:32:13.181 - 1A 0C 02 08 01 FF 00 01 FF 00 01 FF 00 00 0F (调光器地址-内卫射灯, 内卫感应灯关)
2024-09-26 23:46:39.787 - FF
2024-09-26 23:48:45.548 - FF
2024-09-27 00:15:51.305 - 19 08 24 03 CC 01 54 00 01 (调用内卫感应灯开的按键)
2024-09-27 00:15:51.356 - 1A 0C 02 08 01 FF 45 01 FF 45 01 FF 00 00 0F (调光器地址-内卫射灯, 内卫射灯微光)
2024-09-27 00:18:23.442 - FF FF FF FF 0A (继电器地址-东阳窗帘)
2024-09-27 00:18:23.576 - FF
2024-09-27 00:20:26.478 - 19 08 24 03 CC 00 D3 00 01 (调用厨房感应灯开的按键)
2024-09-27 00:20:26.531 - 55 0A 32 00 00 00 01 92 55 0A 32 00 00 00 02 93 (厨房顶灯一开, 厨房顶灯二开)
2024-09-27 00:21:01.546 - 19 08 24 03 CC 00 D4 00 01 (调用厨房感应灯关的按键)
2024-09-27 00:21:01.606 - 55 0A 31 00 00 00 01 91 55 0A 31 00 00 00 02 92 (厨房顶灯一关, 厨房顶灯二关)
2024-09-27 00:21:09.430 - 19 08 24 03 CC 01 55 00 01 (调用内卫感应灯关的按键)
2024-09-27 00:21:09.465 - 1A 0C 02 08 01 FF 00 01 FF 00 01 FF 00 00 0F (调光器地址-内卫射灯, 内卫感应灯关)
2024-09-27 00:22:51.632 - 19 08 24 03 CC 01 54 00 01 (调用内卫感应灯开的按键)
2024-09-27 00:22:51.666 - 1A 0C 02 08 01 FF 45 01 FF 45 01 FF 00 00 0F (调光器地址-内卫射灯, 内卫射灯微光)
2024-09-27 00:23:12.673 - 19 08 24 03 CC 01 55 00 01 (调用内卫感应灯关的按键)
2024-09-27 00:23:12.708 - 1A 0C 02 08 01 FF 00 01 FF 00 01 FF 00 00 0F (调光器地址-内卫射灯, 内卫感应灯关)
2024-09-27 00:25:16.418 - FF
2024-09-27 00:37:45.392 - 19 08 24 03 CC 01 54 00 01 (调用内卫感应灯开的按键)
2024-09-27 00:37:45.444 - 1A 0C 02 08 01 FF 45 01 FF 45 01 FF 00 00 0F (调光器地址-内卫射灯, 内卫射灯微光)
2024-09-27 00:38:08.438 - 19 08 24 03 CC 01 55 00 01 (调用内卫感应灯关的按键)
2024-09-27 00:38:08.489 - 1A 0C 02 08 01 FF 00 01 FF 00 01 FF 00 00 0F (调光器地址-内卫射灯, 内卫感应灯关)
2024-09-27 00:39:52.141 - 19 08 24 03 CC 01 54 00 01 (调用内卫感应灯开的按键)
2024-09-27 00:39:52.176 - 1A 0C 02 08 01 FF 45 01 FF 45 01 FF 00 00 0F (调光器地址-内卫射灯, 内卫射灯微光)
2024-09-27 00:40:10.465 - 19 08 24 03 DD 00 4B 00 01 (调用情景-主卧睡觉)
2024-09-27 00:40:10.989 - EE 00 00 B1 00 00 00 FF FC FF FF (情景执行提示)
2024-09-27 00:40:11.584 - 09 06 00 0F 02 01 78 21 (提示音叮)
2024-09-27 00:40:12.127 - 50 F5 04 (关内卫影视)
2024-09-27 00:40:12.678 - A5 00 53 FE 01 AA (主卧纱帘关)
2024-09-27 00:40:13.183 - 19 08 24 03 CC 01 55 00 01 (调用内卫感应灯关的按键)
2024-09-27 00:40:13.216 - 1A 0C 02 08 01 FF 00 01 FF 00 01 FF 00 00 0F (调光器地址-内卫射灯, 内卫感应灯关)
2024-09-27 00:40:13.775 - A5 00 52 FF 00 AA (主卧窗帘关)
2024-09-27 00:40:14.874 - 1A 22 33 62 0F 00 02 01 0F (正反转地址-内卫卷帘, 内卫卷帘降)
2024-09-27 00:40:15.998 - 1A 20 07 01 40 00 01 00 0F (自保持开关地址-内卫顶灯, 内卫顶灯关)
2024-09-27 00:40:17.066 - 1A 20 07 01 55 00 01 00 0F (自保持开关地址-主卧顶灯, 主卧顶灯只关)
2024-09-27 00:40:17.614 - 1A FF FF FF 56 00 00 01 0F (人体感应地址-内卫, 打开内卫感应)
2024-09-27 00:40:17.628 - BC BC
2024-09-27 00:40:21.212 - 1A 0C 02 08 01 FF 00 01 FF 00 01 FF 00 00 0F (调光器地址-内卫射灯, 内卫感应灯关)
2024-09-27 00:40:21.811 - 1A 0C 02 04 01 FF 00 01 FF 00 01 FF 00 00 0F (调光器地址-主卧筒灯, 主卧筒灯关闭)
2024-09-27 00:40:22.408 - 1A 0C 02 04 03 FF 00 01 FF 00 01 FF 00 00 0F (调光器地址-主卧灯带, 主卧灯带关闭)
2024-09-27 00:40:23.008 - 1A 0C 02 04 04 FF 00 01 FF 00 01 FF 00 00 0F (调光器地址-主卧南阅, 主卧南阅关闭)
2024-09-27 00:40:23.604 - 1A 0C 02 04 05 FF 00 01 FF 00 01 FF 00 00 0F (调光器地址-主卧北阅, 主卧北阅关闭)
2024-09-27 00:40:24.202 - 1A 0C 02 04 02 FF 00 01 FF 00 01 FF 00 00 0F (调光器地址-主卧过道, 主卧过道关闭)
2024-09-27 00:40:24.826 - 09 06 00 0F 02 02 38 20 (提示音咚)
2024-09-27 00:40:25.394 - EE 00 00 B1 00 00 02 FF FC FF FF (情景完成返回主页)
2024-09-27 01:10:07.350 - 1A BE B0 DC 04 FC (继电器地址-西阳窗帘)
2024-09-27 01:20:07.009 - FF FF FF FF 0E FC (继电器地址-西阳小窗帘)
2024-09-27 01:20:07.143 - FE
2024-09-27 01:38:42.615 - 19 08 24 03 CC 01 54 00 01 (调用内卫感应灯开的按键)
2024-09-27 01:38:42.666 - 1A 0C 02 08 01 FF 45 01 FF 45 01 FF 00 00 0F (调光器地址-内卫射灯, 内卫射灯微光)
2024-09-27 01:40:12.292 - 19 08 24 03 CC 01 55 00 01 (调用内卫感应灯关的按键)
2024-09-27 01:40:12.343 - 1A 0C 02 08 01 FF 00 01 FF 00 01 FF 00 00 0F (调光器地址-内卫射灯, 内卫感应灯关)
2024-09-27 01:41:28.077 - 1A FF FF FF 04 FC (继电器地址-东阳衣架)
2024-09-27 01:50:07.339 - 1A BE B0 DC 02 FC (正反转地址-外卫卷帘)
2024-09-27 01:50:07.475 - FF
2024-09-27 02:09:12.886 - 1A BE B0 DC 01 (继电器地址-回水泵点动)
2024-09-27 02:11:59.377 - 1A BE B0 DC 09 FC (继电器地址-客厅窗帘)
2024-09-27 02:11:59.512 - FE
2024-09-27 02:15:15.101 - 1A BE B0 DC 03 FC (继电器地址-西阳天幕)
2024-09-27 02:15:15.236 - FE
2024-09-27 02:19:07.145 - 1A BE B0 DC 0A (继电器地址-客厅纱帘)
2024-09-27 02:19:07.280 - FF
2024-09-27 03:00:00.502 - 50 F7 01 (全屋影音全关)
2024-09-27 03:21:28.352 - 19 08 24 03 CC 00 D3 00 01 (调用厨房感应灯开的按键)
2024-09-27 03:21:28.405 - 55 0A 32 00 00 00 01 92 55 0A 32 00 00 00 02 93 (厨房顶灯一开, 厨房顶灯二开)
2024-09-27 03:22:03.421 - 19 08 24 03 CC 00 D4 00 01 (调用厨房感应灯关的按键)
2024-09-27 03:22:03.476 - 55 0A 31 00 00 00 01 91 55 0A 31 00 00 00 02 92 (厨房顶灯一关, 厨房顶灯二关)
2024-09-27 03:38:29.161 - FF FF FF FF 0A FE (继电器地址-东阳窗帘)
2024-09-27 03:38:29.294 - FE
2024-09-27 04:03:00.755 - 19 08 24 03 CC 00 D3 00 01 (调用厨房感应灯开的按键)
2024-09-27 04:03:00.809 - 55 0A 32 00 00 00 01 92 55 0A 32 00 00 00 02 93 (厨房顶灯一开, 厨房顶灯二开)
2024-09-27 04:03:35.824 - 19 08 24 03 CC 00 D4 00 01 (调用厨房感应灯关的按键)
2024-09-27 04:03:35.910 - 55 0A 31 00 00 00 01 91 55 0A 31 00 00 00 02 92 (厨房顶灯一关, 厨房顶灯二关)
2024-09-27 04:29:47.374 - 1A BE B0 DC 04 (继电器地址-西阳窗帘)
2024-09-27 04:40:05.214 - FF FF FF FF 0E (继电器地址-西阳小窗帘)
2024-09-27 04:40:05.350 - FF
2024-09-27 04:50:00.927 - EE 00 00 B1 00 00 00 FF FC FF FF (情景执行提示)
2024-09-27 04:50:01.548 - A5 00 A2 FF 00 AA (餐厅纱帘关)
2024-09-27 04:50:02.615 - A5 00 A6 FF 00 AA (餐厅窗帘关)
2024-09-27 04:50:02.670 - 55 00 A6 01 00 0E 01 74 AA 55 00 A6 01 00 0E 01 74 AA (餐厅窗帘电机状态返回)
2024-09-27 04:50:03.713 - A5 00 B7 FF 00 AA 22 0D (书房纱帘关)
2024-09-27 04:50:04.760 - A5 00 D2 FF 00 AA 22 0C (书房窗帘关)
2024-09-27 04:50:04.808 - 55 00 D2 01 00 0D 01 0B AA 55 00 D2 01 00 0D 01 0B AA (书房窗帘电机状态返回)
2024-09-27 04:50:05.860 - EE 00 00 B1 00 00 02 FF FC FF FF (情景完成返回主页)
2024-09-27 04:50:11.445 - 55 00 A6 00 01 66 01 74 AA 55 00 A6 00 01 66 01 74 AA (餐厅窗帘电机状态返回)
2024-09-27 04:50:14.203 - 55 00 D2 00 00 FE 01 0B AA 55 00 D2 00 00 FE 01 0B AA (书房窗帘电机状态返回)
2024-09-27 05:02:20.468 - 1A FF FF FF 04 (继电器地址-东阳衣架)
2024-09-27 05:03:49.341 - 03 00 00 2F 2A E0 00 00 00 00 00 43 6F 6F 6B 69 65 3A 20 6D 73 74 73 68 61 73 68 3D 41 64 6D 69
2024-09-27 05:03:49.358 - 6E 69 73 74 72 0D 0A 01 00 08 00 03 00 00 00
2024-09-27 05:10:33.206 - 1A BE B0 DC 02 FF (正反转地址-外卫卷帘)
2024-09-27 05:10:33.340 - FC
2024-09-27 05:25:03.438 - 19 08 24 03 CC 00 D3 00 01 (调用厨房感应灯开的按键)
2024-09-27 05:25:03.490 - 55 0A 32 00 00 00 01 92 55 0A 32 00 00 00 02 93 (厨房顶灯一开, 厨房顶灯二开)
2024-09-27 05:25:39.008 - 19 08 24 03 CC 00 D4 00 01 (调用厨房感应灯关的按键)
2024-09-27 05:25:39.062 - 55 0A 31 00 00 00 01 91 55 0A 31 00 00 00 02 92 (厨房顶灯一关, 厨房顶灯二关)
2024-09-27 05:29:59.166 - 1A BE B0 DC 01 FC (继电器地址-回水泵点动)
2024-09-27 05:29:59.300 - FF
2024-09-27 05:32:16.087 - 1A BE B0 DC 09 (继电器地址-客厅窗帘)
2024-09-27 05:32:16.790 - 19 08 24 03 CC 00 D3 00 01 (调用厨房感应灯开的按键)
2024-09-27 05:32:16.844 - 55 0A 32 00 00 00 01 92 55 0A 32 00 00 00 02 93 (厨房顶灯一开, 厨房顶灯二开)
2024-09-27 05:32:51.860 - 19 08 24 03 CC 00 D4 00 01 (调用厨房感应灯关的按键)
2024-09-27 05:32:51.914 - 55 0A 31 00 00 00 01 91 55 0A 31 00 00 00 02 92 (厨房顶灯一关, 厨房顶灯二关)
2024-09-27 05:36:06.463 - 1A BE B0 DC 03 (继电器地址-西阳天幕)
2024-09-27 05:36:06.601 - FE
2024-09-27 05:39:42.081 - 1A BE B0 DC 0A FC (继电器地址-客厅纱帘)
2024-09-27 05:39:42.215 - FF
2024-09-27 05:54:18.892 - 19 08 24 03 CC 00 D3 00 01 (调用厨房感应灯开的按键)
2024-09-27 05:54:18.944 - 55 0A 32 00 00 00 01 92 55 0A 32 00 00 00 02 93 (厨房顶灯一开, 厨房顶灯二开)
2024-09-27 05:54:53.960 - 19 08 24 03 CC 00 D4 00 01 (调用厨房感应灯关的按键)
2024-09-27 05:54:54.013 - 55 0A 31 00 00 00 01 91 55 0A 31 00 00 00 02 92 (厨房顶灯一关, 厨房顶灯二关)
2024-09-27 06:30:00.791 - EE 00 00 B1 00 00 00 FF FC FF FF (情景执行提示)
2024-09-27 06:30:01.487 - 09 06 00 0F 02 01 78 21 (提示音叮)
2024-09-27 06:30:02.182 - 50 F0 04 (开内卫影视)
2024-09-27 06:30:02.886 - 50 F0 04 (开内卫影视)
2024-09-27 06:30:03.585 - 50 F0 05 (开主卧影视)
2024-09-27 06:30:04.287 - 50 F0 05 (开主卧影视)
2024-09-27 06:30:04.993 - FF FF FF FF 09 00 01 00
2024-09-27 06:30:05.694 - FF FF FF FF 08 00 01 00
2024-09-27 06:30:06.395 - FF FF FF FF 08 00 01 00
2024-09-27 06:30:07.095 - 1A 22 33 62 0F 00 02 01 0F (正反转地址-内卫卷帘, 内卫卷帘降)
2024-09-27 06:30:07.796 - 1A FF FF FF 56 0C 00 01 (人体感应地址-内卫)
2024-09-27 06:30:08.024 - 1A FF FF FF 56 00 00 00 0F (人体感应地址-内卫, 关闭内卫感应)
2024-09-27 06:30:08.496 - 1A FF FF FF A5 00 01 02
2024-09-27 06:30:09.203 - 1A AA AA AA 84 FF B0 01 FF 00 00 0F
2024-09-27 06:30:10.904 - 1A AA AA AA 27 FF 00 01 FF 00 00 0F
2024-09-27 06:30:12.607 - 1A AA AA AA 6F FF 27 01 FF 00 00 0F
2024-09-27 06:30:14.310 - 1A AA AA AA 55 FF 45 01 FF 00 00 0F
2024-09-27 06:30:16.011 - 1A AA AA AA 2C FF 00 00 FF 00 01 0F
2024-09-27 06:30:17.763 - 1A AA AA AA 84 FF 00 00 FF B0 01 0F
2024-09-27 06:30:19.467 - 1A AA AA AA 5B FF 00 01 FF 00 00 0F
2024-09-27 06:30:21.168 - 1A AA AA AA 27 FF 00 00 FF 00 01 0F
2024-09-27 06:30:22.869 - 1A AA AA AA 6F FF 00 00 FF 27 01 0F
2024-09-27 06:30:24.573 - 1A AA AA AA 55 FF 00 00 FF 45 01 0F
2024-09-27 06:30:26.326 - 1A AA AA AA 2C FF 00 01 FF 00 00 0F
2024-09-27 06:30:28.027 - 1A AA AA AA 5B FF 00 00 FF 00 01 0F
2024-09-27 06:30:29.721 - 50 F1 25 (主卧—有线2)
2024-09-27 06:30:31.422 - 50 F1 25 (主卧—有线2)
2024-09-27 06:30:33.128 - A1 11 11 11 11 01 (内卫浴霸取暖判断)
2024-09-27 06:30:33.349 - 14 03 00 00 00 02 C6 CE (查询内卫温湿度)
2024-09-27 06:30:33.369 - 14 03 04 02 C9 01 0F 2E E0 (内卫温湿度返回)
2024-09-27 06:30:34.407 - 1A BE B0 DC 01 00 01 00 (继电器地址-回水泵点动, 回水泵点动)
2024-09-27 06:30:35.632 - 1A BE B0 DC 01 00 01 00 (继电器地址-回水泵点动, 回水泵点动)
2024-09-27 06:30:37.835 - 1A BE B0 DC 01 00 01 00 (继电器地址-回水泵点动, 回水泵点动)
2024-09-27 06:30:39.539 - 1A FF FF FF 60 0B 01 01 0F (红外总线地址-主卧发射设备, 主卧电视电源)
2024-09-27 06:30:40.056 - F0 0B 01 08
2024-09-27 06:30:42.686 - EE 00 00 B1 00 00 02 FF FC FF FF (情景完成返回主页)
2024-09-27 06:45:00.840 - EE 00 00 B1 00 00 00 FF FC FF FF (情景执行提示)
2024-09-27 06:45:01.434 - 09 06 00 0F 02 01 78 21 (提示音叮)
2024-09-27 06:45:02.027 - 50 F0 04 (开内卫影视)
2024-09-27 06:45:02.576 - 50 F0 05 (开主卧影视)
2024-09-27 06:45:03.127 - A5 00 53 FE 01 AA (主卧纱帘关)
2024-09-27 06:45:03.675 - A5 00 53 FE 01 AA (主卧纱帘关)
2024-09-27 06:45:04.223 - A5 00 52 FE 01 AA (主卧窗帘开)
2024-09-27 06:45:05.269 - A5 00 52 FE 01 AA (主卧窗帘开)
2024-09-27 06:45:06.319 - 1A 22 33 62 0F 00 02 01 0F (正反转地址-内卫卷帘, 内卫卷帘降)
2024-09-27 06:45:06.869 - 1A FF FF FF 56 00 00 00 0F (人体感应地址-内卫, 关闭内卫感应)
2024-09-27 06:45:06.881 - BC BC
2024-09-27 06:45:07.465 - 1A 20 07 01 55 00 01 00 0F (自保持开关地址-主卧顶灯, 主卧顶灯只关)
2024-09-27 06:45:08.517 - 1A 0C 02 08 01 FF F0 01 FF F0 01 FF 00 00 0F (调光器地址-内卫射灯, 内卫射灯明亮)
2024-09-27 06:45:09.117 - 1A 0C 02 04 01 FF 00 01 FF 00 01 FF 00 00 0F (调光器地址-主卧筒灯, 主卧筒灯关闭)
2024-09-27 06:45:09.713 - 1A 0C 02 04 03 FF 45 01 FF 45 01 FF 00 00 0F (调光器地址-主卧灯带, 主卧灯带微光)
2024-09-27 06:45:10.313 - 1A 0C 02 04 02 FF F0 01 FF 00 01 FF 00 00 0F (调光器地址-主卧过道, 主卧过道暖光)
2024-09-27 06:45:10.939 - 1A 0C 02 04 05 FF 00 01 FF 00 01 FF 00 00 0F (调光器地址-主卧北阅, 主卧北阅关闭)
2024-09-27 06:45:11.508 - 1A 0C 02 04 04 FF 00 01 FF 00 01 FF 00 00 0F (调光器地址-主卧南阅, 主卧南阅关闭)
2024-09-27 06:45:12.593 - 50 F1 24 (内卫—有线2)
2024-09-27 06:45:13.639 - 50 F1 25 (主卧—有线2)
2024-09-27 06:45:14.687 - AF BF CF DF C2 21 (有线2/快捷-凤凰卫视)
2024-09-27 06:45:15.240 - 1A FF FF FF 60 0B 01 01 0F (红外总线地址-主卧发射设备, 主卧电视电源)
2024-09-27 06:45:15.758 - F0 0B 01 08
2024-09-27 06:45:16.284 - 1A BE B0 DC 01 00 01 00 (继电器地址-回水泵点动, 回水泵点动)
2024-09-27 06:45:17.570 - 55 20 20 00 00 0F 02 16 AA 55 20 20 00 00 0F 02 16 AA (主卧窗帘电机状态返回)
2024-09-27 06:45:20.325 - 09 06 00 0F 02 02 38 20 (提示音咚)
2024-09-27 06:45:20.875 - EE 00 00 B1 00 00 02 FF FC FF FF (情景完成返回主页)
2024-09-27 06:45:21.967 - A1 11 11 11 11 01 (内卫浴霸取暖判断)
2024-09-27 06:45:22.192 - 14 03 00 00 00 02 C6 CE (查询内卫温湿度)
2024-09-27 06:45:22.211 - 14 03 04 02 9C 01 10 7F 38 (内卫温湿度返回)
2024-09-27 07:01:25.444 - FF FF FF FF 0A (继电器地址-东阳窗帘)
2024-09-27 07:01:25.579 - FF
2024-09-27 07:03:44.591 - 19 08 24 03 DD 00 40 00 01 (调用情景-离开主卧)
2024-09-27 07:03:45.155 - EE 00 00 B1 00 00 00 FF FC FF FF (情景执行提示)
2024-09-27 07:03:45.750 - 09 06 00 0F 02 01 78 21 (提示音叮)
2024-09-27 07:03:46.322 - 50 F5 05 (关主卧影视)
2024-09-27 07:03:46.892 - 50 F5 04 (关内卫影视)
2024-09-27 07:03:47.445 - 01 06 07 D6 FF 60 28 9E (主卧空调关)
2024-09-27 07:03:47.474 - 01 06 07 D6 FF 60 28 9E (主卧空调关)
2024-09-27 07:03:48.041 - A5 00 52 FE 01 AA (主卧窗帘开)
2024-09-27 07:03:49.087 - A5 00 52 FE 01 AA (主卧窗帘开)
2024-09-27 07:03:50.134 - A5 00 53 FF 00 AA (主卧纱帘开)
2024-09-27 07:03:50.187 - 55 00 53 01 00 0C 02 2F AA 55 00 53 01 00 0C 02 2F AA (主卧纱帘电机状态返回)
2024-09-27 07:03:50.731 - A5 00 53 FF 00 AA (主卧纱帘开)
2024-09-27 07:03:51.333 - 1A 22 33 62 0F 00 00 01 0F (正反转地址-内卫卷帘, 内卫卷帘升)
2024-09-27 07:03:52.001 - 55 20 20 00 00 0F 02 16 AA 55 20 20 00 00 0F 02 16 AA (主卧窗帘电机状态返回)
2024-09-27 07:03:52.380 - 1A 20 07 01 40 00 01 00 0F (自保持开关地址-内卫顶灯, 内卫顶灯关)
2024-09-27 07:03:53.426 - 1A 20 07 01 55 00 01 00 0F (自保持开关地址-主卧顶灯, 主卧顶灯只关)
2024-09-27 07:03:53.981 - 1A 0C 02 08 01 FF 00 01 FF 00 01 FF 00 00 0F (调光器地址-内卫射灯, 内卫感应灯关)
2024-09-27 07:03:54.573 - 1A FF FF FF 56 00 00 01 0F (人体感应地址-内卫, 打开内卫感应)
2024-09-27 07:03:54.943 - 19 08 24 03 CC 01 54 00 01 (调用内卫感应灯开的按键)
2024-09-27 07:03:54.997 - 1A 0C 02 08 01 FF 45 01 FF 45 01 FF 00 00 0F (调光器地址-内卫射灯, 内卫射灯微光)
2024-09-27 07:03:58.391 - 1A 0C 02 04 FF FF 00 01 FF 00 01 FF 00 00 0F (主卧调光全关)
2024-09-27 07:03:59.479 - 09 06 00 0F 02 02 38 20 (提示音咚)
2024-09-27 07:04:00.031 - EE 00 00 B1 00 00 02 FF FC FF FF (情景完成返回主页)
2024-09-27 07:04:00.828 - 55 00 53 00 02 22 02 2F AA 55 00 53 00 02 22 02 2F AA (主卧纱帘电机状态返回)
2024-09-27 07:04:19.242 - 19 08 24 03 CC 01 CC 00 01 (调用茶吧感应灯开的按键)
2024-09-27 07:04:19.292 - 1A AA AA AA 88 FF B0 01 FF B0 01 0F (调光器地址-茶吧灯带, 茶吧灯带明亮)
2024-09-27 07:04:37.228 - 19 08 24 03 CC 01 55 00 01 (调用内卫感应灯关的按键)
2024-09-27 07:04:37.262 - 1A 0C 02 08 01 FF 00 01 FF 00 01 FF 00 00 0F (调光器地址-内卫射灯, 内卫感应灯关)
2024-09-27 07:06:20.911 - 19 08 24 03 CC 00 D3 00 01 (调用厨房感应灯开的按键)
2024-09-27 07:06:20.947 - 55 0A 32 00 00 00 01 92 55 0A 32 00 00 00 02 93 (厨房顶灯一开, 厨房顶灯二开)
2024-09-27 07:06:32.508 - 19 08 24 03 CC 01 CD 00 01 (调用茶吧感应灯关的按键)
2024-09-27 07:06:32.548 - 1A AA AA AA 88 FF 00 01 FF 00 01 0F (调光器地址-茶吧灯带, 茶吧灯带关闭)
2024-09-27 07:09:24.849 - 19 08 24 03 CC 01 CC 00 01 (调用茶吧感应灯开的按键)
2024-09-27 07:09:24.880 - 1A AA AA AA 88 FF B0 01 FF B0 01 0F (调光器地址-茶吧灯带, 茶吧灯带明亮)
2024-09-27 07:09:47.894 - 19 08 24 03 CC 01 CD 00 01 (调用茶吧感应灯关的按键)
2024-09-27 07:09:47.924 - 1A AA AA AA 88 FF 00 01 FF 00 01 0F (调光器地址-茶吧灯带, 茶吧灯带关闭)
2024-09-27 07:10:03.349 - 19 08 24 03 CC 00 D4 00 01 (调用厨房感应灯关的按键)
2024-09-27 07:10:03.383 - 55 0A 31 00 00 00 01 91 55 0A 31 00 00 00 02 92 (厨房顶灯一关, 厨房顶灯二关)
2024-09-27 07:51:37.140 - 1A BE B0 DC 04 (继电器地址-西阳窗帘)
2024-09-27 08:01:38.750 - FF FF FF FF 0E FF (继电器地址-西阳小窗帘)
2024-09-27 08:01:38.884 - FE
2024-09-27 08:17:47.375 - 19 08 24 03 CC 01 54 00 01 (调用内卫感应灯开的按键)
2024-09-27 08:17:47.426 - 1A 0C 02 08 01 FF 45 01 FF 45 01 FF 00 00 0F (调光器地址-内卫射灯, 内卫射灯微光)
2024-09-27 08:18:17.935 - 19 08 24 03 CC 01 55 00 01 (调用内卫感应灯关的按键)
2024-09-27 08:18:17.988 - 1A 0C 02 08 01 FF 00 01 FF 00 01 FF 00 00 0F (调光器地址-内卫射灯, 内卫感应灯关)
2024-09-27 08:18:18.936 - 19 08 24 03 CC 01 54 00 01 (调用内卫感应灯开的按键)
2024-09-27 08:18:18.979 - 1A 0C 02 08 01 FF 45 01 FF 45 01 FF 00 00 0F (调光器地址-内卫射灯, 内卫射灯微光)
2024-09-27 08:18:35.971 - 19 08 24 03 CC 01 55 00 01 (调用内卫感应灯关的按键)
2024-09-27 08:18:36.005 - 1A 0C 02 08 01 FF 00 01 FF 00 01 FF 00 00 0F (调光器地址-内卫射灯, 内卫感应灯关)
2024-09-27 08:19:03.525 - 19 08 24 03 CC 01 54 00 01 (调用内卫感应灯开的按键)
2024-09-27 08:19:03.559 - 1A 0C 02 08 01 FF 45 01 FF 45 01 FF 00 00 0F (调光器地址-内卫射灯, 内卫射灯微光)
2024-09-27 08:19:32.080 - 19 08 24 03 CC 01 55 00 01 (调用内卫感应灯关的按键)
2024-09-27 08:19:32.115 - 1A 0C 02 08 01 FF 00 01 FF 00 01 FF 00 00 0F (调光器地址-内卫射灯, 内卫感应灯关)
2024-09-27 08:23:37.325 - 1A FF FF FF 04 FF (继电器地址-东阳衣架)
2024-09-27 08:23:37.460 - FE
2024-09-27 08:32:41.187 - 1A BE B0 DC 02 FE (正反转地址-外卫卷帘)
2024-09-27 08:45:03.881 - 19 08 24 03 CC 01 52 00 01 (调用外卫感应灯开的按键)
2024-09-27 08:45:03.931 - 1A 0D 01 07 01 FF 45 01 FF 45 01 FF 00 00 0F (调光器地址-外卫射灯, 外卫感应灯开)
2024-09-27 08:47:36.180 - 19 08 24 03 CC 01 53 00 01 (调用外卫感应灯关的按键)
2024-09-27 08:47:36.234 - 1A 0D 01 07 01 FF 00 01 FF 00 01 FF 00 00 0F (调光器地址-外卫射灯, 外卫感应灯关)
2024-09-27 08:52:48.715 - 1A BE B0 DC 01 (继电器地址-回水泵点动)
2024-09-27 08:54:32.870 - 1A BE B0 DC 09 (继电器地址-客厅窗帘)
2024-09-27 08:54:33.007 - FF
2024-09-27 08:58:51.630 - 1A BE B0 DC 03 FC (继电器地址-西阳天幕)
2024-09-27 09:01:26.123 - 19 08 24 03 CC 01 CC 00 01 (调用茶吧感应灯开的按键)
2024-09-27 09:01:26.171 - 1A AA AA AA 88 FF B0 01 FF B0 01 0F (调光器地址-茶吧灯带, 茶吧灯带明亮)
2024-09-27 09:01:41.909 - 1A BE B0 DC 0A (继电器地址-客厅纱帘)
2024-09-27 09:01:42.045 - FF
2024-09-27 09:02:30.249 - 19 08 24 03 CC 01 CD 00 01 (调用茶吧感应灯关的按键)
2024-09-27 09:02:30.297 - 1A AA AA AA 88 FF 00 01 FF 00 01 0F (调光器地址-茶吧灯带, 茶吧灯带关闭)
2024-09-27 09:11:21.799 - 19 08 24 03 CC 01 CC 00 01 (调用茶吧感应灯开的按键)
2024-09-27 09:11:21.849 - 1A AA AA AA 88 FF B0 01 FF B0 01 0F (调光器地址-茶吧灯带, 茶吧灯带明亮)
2024-09-27 09:12:02.380 - 19 08 24 03 CC 01 CD 00 01 (调用茶吧感应灯关的按键)
2024-09-27 09:12:02.411 - 1A AA AA AA 88 FF 00 01 FF 00 01 0F (调光器地址-茶吧灯带, 茶吧灯带关闭)
2024-09-27 10:14:58.008 - FF
2024-09-27 10:17:24.628 - 19 08 24 03 CC 01 CC 00 01 (调用茶吧感应灯开的按键)
2024-09-27 10:17:24.675 - 1A AA AA AA 88 FF B0 01 FF B0 01 0F (调光器地址-茶吧灯带, 茶吧灯带明亮)
2024-09-27 10:17:55.020 - 19 08 24 03 CC 00 D3 00 01 (调用厨房感应灯开的按键)
2024-09-27 10:17:55.073 - 55 0A 32 00 00 00 01 92 55 0A 32 00 00 00 02 93 (厨房顶灯一开, 厨房顶灯二开)
2024-09-27 10:18:01.199 - 19 08 24 03 CC 01 CD 00 01 (调用茶吧感应灯关的按键)
2024-09-27 10:18:01.230 - 1A AA AA AA 88 FF 00 01 FF 00 01 0F (调光器地址-茶吧灯带, 茶吧灯带关闭)
2024-09-27 10:19:02.652 - 19 08 24 03 CC 00 D4 00 01 (调用厨房感应灯关的按键)
2024-09-27 10:19:02.707 - 55 0A 31 00 00 00 01 91 55 0A 31 00 00 00 02 92 (厨房顶灯一关, 厨房顶灯二关)
2024-09-27 10:19:03.154 - 19 08 24 03 CC 00 D3 00 01 (调用厨房感应灯开的按键)
2024-09-27 10:19:03.188 - 55 0A 32 00 00 00 01 92 55 0A 32 00 00 00 02 93 (厨房顶灯一开, 厨房顶灯二开)
2024-09-27 10:20:05.445 - 19 08 24 03 CC 01 CC 00 01 (调用茶吧感应灯开的按键)
2024-09-27 10:20:05.492 - 1A AA AA AA 88 FF B0 01 FF B0 01 0F (调光器地址-茶吧灯带, 茶吧灯带明亮)
2024-09-27 10:20:31.327 - 19 08 24 03 CC 00 D4 00 01 (调用厨房感应灯关的按键)
2024-09-27 10:20:31.363 - 55 0A 31 00 00 00 01 91 55 0A 31 00 00 00 02 92 (厨房顶灯一关, 厨房顶灯二关)
2024-09-27 10:20:32.831 - 19 08 24 03 CC 00 D3 00 01 (调用厨房感应灯开的按键)
2024-09-27 10:20:32.865 - 55 0A 32 00 00 00 01 92 55 0A 32 00 00 00 02 93 (厨房顶灯一开, 厨房顶灯二开)
2024-09-27 10:20:36.007 - 19 08 24 03 CC 01 CD 00 01 (调用茶吧感应灯关的按键)
2024-09-27 10:20:36.036 - 1A AA AA AA 88 FF 00 01 FF 00 01 0F (调光器地址-茶吧灯带, 茶吧灯带关闭)
2024-09-27 10:21:26.606 - 19 08 24 03 CC 01 CC 00 01 (调用茶吧感应灯开的按键)
2024-09-27 10:21:26.637 - 1A AA AA AA 88 FF B0 01 FF B0 01 0F (调光器地址-茶吧灯带, 茶吧灯带明亮)
2024-09-27 10:21:55.662 - 19 08 24 03 CC 01 CD 00 01 (调用茶吧感应灯关的按键)
2024-09-27 10:21:55.693 - 1A AA AA AA 88 FF 00 01 FF 00 01 0F (调光器地址-茶吧灯带, 茶吧灯带关闭)
2024-09-27 10:21:58.498 - 19 08 24 03 CC 00 D4 00 01 (调用厨房感应灯关的按键)
2024-09-27 10:21:58.533 - 55 0A 31 00 00 00 01 91 55 0A 31 00 00 00 02 92 (厨房顶灯一关, 厨房顶灯二关)
2024-09-27 10:25:07.657 - FF FF FF FF 0A (继电器地址-东阳窗帘)
2024-09-27 10:25:07.790 - FE
2024-09-27 11:11:17.847 - 1A BE B0 DC 04 FC (继电器地址-西阳窗帘)
2024-09-27 11:11:17.982 - FF
2024-09-27 11:21:37.485 - FF FF FF FF 0E FD (继电器地址-西阳小窗帘)
2024-09-27 11:21:37.619 - FF
2024-09-27 11:44:30.980 - 1A FF FF FF 04 (继电器地址-东阳衣架)
2024-09-27 11:53:06.588 - 1A BE B0 DC 02 (正反转地址-外卫卷帘)
2024-09-27 11:53:06.724 - FF
2024-09-27 12:13:34.833 - 1A BE B0 DC 01 (继电器地址-回水泵点动)
2024-09-27 12:13:34.969 - FF
2024-09-27 12:14:50.185 - 1A BE B0 DC 09 FC (继电器地址-客厅窗帘)
2024-09-27 12:19:43.786 - 1A BE B0 DC 03 FC (继电器地址-西阳天幕)
2024-09-27 12:19:43.920 - FF
2024-09-27 12:22:17.053 - 1A BE B0 DC 0A FE (继电器地址-客厅纱帘)
2024-09-27 12:22:17.188 - FF
2024-09-27 13:45:20.848 - 03 00 00 2F 2A E0 00 00 00 00 00 43 6F 6F 6B 69 65 3A 20 6D 73 74 73 68 61 73 68 3D 41 64 6D 69
2024-09-27 13:45:20.864 - 6E 69 73 74 72 0D 0A 01 00 08 00 03 00 00 00
2024-09-27 13:47:28.486 - FF FF FF FF 0A (继电器地址-东阳窗帘)
2024-09-27 13:47:28.622 - FE
2024-09-27 14:31:02.037 - 1A BE B0 DC 04 (继电器地址-西阳窗帘)
2024-09-27 14:41:35.896 - FF FF FF FF 0E FC (继电器地址-西阳小窗帘)
2024-09-27 15:05:29.311 - 1A FF FF FF 04 (继电器地址-东阳衣架)
2024-09-27 15:13:32.634 - 1A BE B0 DC 02 (正反转地址-外卫卷帘)
2024-09-27 15:13:32.771 - FE
2024-09-27 15:34:20.990 - 1A BE B0 DC 01 FC (继电器地址-回水泵点动)
2024-09-27 15:34:21.124 - FF
2024-09-27 15:35:07.777 - 1A BE B0 DC 09 FC (继电器地址-客厅窗帘)
2024-09-27 15:35:07.911 - FE
2024-09-27 15:40:36.719 - 1A BE B0 DC 03 FF (继电器地址-西阳天幕)
2024-09-27 15:40:36.854 - FF
2024-09-27 15:42:52.103 - 1A BE B0 DC 0A (继电器地址-客厅纱帘)
2024-09-27 15:42:52.238 - FF
2024-09-27 17:14:14.615 - FF FF FF FF 0A (继电器地址-东阳窗帘)
2024-09-27 17:50:53.418 - 1A BE B0 DC 04 (继电器地址-西阳窗帘)
2024-09-27 17:50:53.554 - FE
2024-09-27 17:57:53.538 - 19 08 24 03 DD 00 12 00 01 (调用情景-公共灯光开)
2024-09-27 17:57:54.100 - EE 00 00 B1 00 00 00 FF FC FF FF (情景执行提示)
2024-09-27 17:57:54.695 - 09 06 00 0F 02 01 78 21 (提示音叮)
2024-09-27 17:57:55.249 - 1A 0D 01 01 01 FF 55 01 FF 55 01 FF 00 00 0F (调光器地址-客厅筒灯, 客厅筒灯微光)
2024-09-27 17:57:55.849 - 1A 0D 01 01 03 FF 55 01 FF 55 01 FF 00 00 0F (调光器地址-客厅过道, 客厅过道微光)
2024-09-27 17:57:56.446 - 1A 0D 01 01 02 FF 55 01 FF 55 01 FF 00 00 0F (调光器地址-客厅灯带, 客厅灯带微光)
2024-09-27 17:57:57.045 - 1A 0B 01 02 02 FF 45 01 FF 45 01 FF 00 00 0F (调光器地址-门厅射灯, 门厅背景微光)
2024-09-27 17:57:57.641 - 1A 0B 01 02 01 FF 45 01 FF 45 01 FF 00 00 0F (调光器地址-门厅灯带, 门厅灯带微光)
2024-09-27 17:57:58.239 - 1A 0B 01 03 01 FF 45 01 FF 45 01 FF 00 00 0F (调光器地址-餐厅筒灯, 餐厅筒灯微光)
2024-09-27 17:57:58.837 - 1A 0B 01 03 02 FF 45 01 FF 45 01 FF 00 00 0F (调光器地址-餐桌筒灯, 餐桌筒灯微光)
2024-09-27 17:57:59.435 - 1A 0B 01 03 03 FF 45 01 FF 45 01 FF 00 00 0F (调光器地址-餐厅灯带, 餐厅灯带微光)
2024-09-27 17:58:00.025 - 55 0A 32 00 00 00 01 92 (厨房顶灯一开)
2024-09-27 17:58:00.575 - 55 0A 32 00 00 00 02 93 (厨房顶灯二开)
2024-09-27 17:58:01.122 - 09 06 00 0F 02 02 38 20 (提示音咚)
2024-09-27 17:58:01.672 - EE 00 00 B1 00 00 02 FF FC FF FF (情景完成返回主页)
2024-09-27 17:58:02.284 - 19 08 24 03 CC 01 CC 00 01 (调用茶吧感应灯开的按键)
2024-09-27 17:58:02.332 - 1A AA AA AA 88 FF B0 01 FF B0 01 0F (调光器地址-茶吧灯带, 茶吧灯带明亮)
2024-09-27 17:58:05.887 - 19 08 24 03 CC 00 D3 00 01 (调用厨房感应灯开的按键)
2024-09-27 17:58:05.921 - 55 0A 32 00 00 00 01 92 55 0A 32 00 00 00 02 93 (厨房顶灯一开, 厨房顶灯二开)
2024-09-27 17:58:07.560 - A5 00 A6 FE 01 AA (餐厅窗帘开)
2024-09-27 17:58:07.619 - 55 00 A6 02 01 66 01 74 AA 55 00 A6 02 01 66 01 74 FF (餐厅窗帘电机状态返回)
2024-09-27 17:58:16.705 - 55 00 A6 00 00 0E 01 74 AA 55 00 A6 00 00 0E 01 74 AA (餐厅窗帘电机状态返回)
2024-09-27 17:58:47.469 - 19 08 24 03 CC 00 D4 00 01 (调用厨房感应灯关的按键)
2024-09-27 17:58:47.522 - 55 0A 31 00 00 00 01 91 55 0A 31 00 00 00 02 92 (厨房顶灯一关, 厨房顶灯二关)
2024-09-27 17:58:56.987 - 19 08 24 03 CC 00 D3 00 01 (调用厨房感应灯开的按键)
2024-09-27 17:58:57.023 - 55 0A 32 00 00 00 01 92 55 0A 32 00 00 00 02 93 (厨房顶灯一开, 厨房顶灯二开)
2024-09-27 18:01:08.151 - 19 08 24 03 CC 01 CD 00 01 (调用茶吧感应灯关的按键)
2024-09-27 18:01:08.182 - 1A AA AA AA 88 FF 00 01 FF 00 01 0F (调光器地址-茶吧灯带, 茶吧灯带关闭)
2024-09-27 18:01:33.201 - 19 08 24 03 CC 01 CC 00 01 (调用茶吧感应灯开的按键)
2024-09-27 18:01:33.231 - 1A AA AA AA 88 FF B0 01 FF B0 01 0F (调光器地址-茶吧灯带, 茶吧灯带明亮)
2024-09-27 18:01:37.635 - FF FF FF FF 0E FC (继电器地址-西阳小窗帘)
2024-09-27 18:01:37.770 - FF
2024-09-27 18:01:48.817 - 19 08 24 03 DD 00 3B 00 01 (调用情景-书房照明关帘)
2024-09-27 18:01:49.340 - EE 00 00 B1 00 00 00 FF FC FF FF (情景执行提示)
2024-09-27 18:01:49.934 - 09 06 00 0F 02 01 78 21 (提示音叮)
2024-09-27 18:01:50.491 - 1A 0A 04 06 01 FF F0 01 FF F0 01 FF 00 00 0F (调光器地址-书房射灯, 书房射灯明亮)
2024-09-27 18:01:54.569 - A5 00 B7 FF 00 AA 22 0D (书房纱帘关)
2024-09-27 18:01:55.615 - A5 00 D2 FF 00 AA 22 0C (书房窗帘关)
2024-09-27 18:01:56.661 - 09 06 00 0F 02 02 38 20 (提示音咚)
2024-09-27 18:01:57.212 - EE 00 00 B1 00 00 02 FF FC FF FF (情景完成返回主页)
2024-09-27 18:01:58.752 - 19 08 24 03 CC 01 CD 00 01 (调用茶吧感应灯关的按键)
2024-09-27 18:01:58.801 - 1A AA AA AA 88 FF 00 01 FF 00 01 0F (调光器地址-茶吧灯带, 茶吧灯带关闭)
2024-09-27 18:03:46.465 - 19 08 24 03 CC 01 CC 00 01 (调用茶吧感应灯开的按键)
2024-09-27 18:03:46.496 - 1A AA AA AA 88 FF B0 01 FF B0 01 0F (调光器地址-茶吧灯带, 茶吧灯带明亮)
2024-09-27 18:03:57.988 - 19 08 24 03 CC 01 CD 00 01 (调用茶吧感应灯关的按键)
2024-09-27 18:03:58.019 - 1A AA AA AA 88 FF 00 01 FF 00 01 0F (调光器地址-茶吧灯带, 茶吧灯带关闭)
2024-09-27 18:04:05.502 - 19 08 24 03 CC 01 CC 00 01 (调用茶吧感应灯开的按键)
2024-09-27 18:04:05.534 - 1A AA AA AA 88 FF B0 01 FF B0 01 0F (调光器地址-茶吧灯带, 茶吧灯带明亮)
2024-09-27 18:04:58.107 - 19 08 24 03 CC 01 CD 00 01 (调用茶吧感应灯关的按键)
2024-09-27 18:04:58.138 - 1A AA AA AA 88 FF 00 01 FF 00 01 0F (调光器地址-茶吧灯带, 茶吧灯带关闭)
2024-09-27 18:05:13.137 - 19 08 24 03 CC 01 CC 00 01 (调用茶吧感应灯开的按键)
2024-09-27 18:05:13.192 - 1A AA AA AA 88 FF B0 01 FF B0 01 0F (调光器地址-茶吧灯带, 茶吧灯带明亮)
2024-09-27 18:05:53.216 - 19 08 24 03 CC 01 CD 00 01 (调用茶吧感应灯关的按键)
2024-09-27 18:05:53.247 - 1A AA AA AA 88 FF 00 01 FF 00 01 0F (调光器地址-茶吧灯带, 茶吧灯带关闭)
2024-09-27 18:05:59.730 - 19 08 24 03 CC 01 CC 00 01 (调用茶吧感应灯开的按键)
2024-09-27 18:05:59.759 - 1A AA AA AA 88 FF B0 01 FF B0 01 0F (调光器地址-茶吧灯带, 茶吧灯带明亮)
2024-09-27 18:06:29.287 - 19 08 24 03 CC 01 CD 00 01 (调用茶吧感应灯关的按键)
2024-09-27 18:06:29.318 - 1A AA AA AA 88 FF 00 01 FF 00 01 0F (调光器地址-茶吧灯带, 茶吧灯带关闭)
2024-09-27 18:07:31.912 - 19 08 24 03 CC 01 CC 00 01 (调用茶吧感应灯开的按键)
2024-09-27 18:07:31.943 - 1A AA AA AA 88 FF B0 01 FF B0 01 0F (调光器地址-茶吧灯带, 茶吧灯带明亮)
2024-09-27 18:07:37.871 - 19 08 24 03 DD 00 3A 00 01 (调用情景-离开书房)
2024-09-27 18:07:38.395 - EE 00 00 B1 00 00 00 FF FC FF FF (情景执行提示)
2024-09-27 18:07:38.989 - 09 06 00 0F 02 01 78 21 (提示音叮)
2024-09-27 18:07:39.537 - 01 06 07 DC FF 60 08 9C (书房空调关)
2024-09-27 18:07:39.571 - 01 06 07 DC FF 60 08 9C (书房空调关)
2024-09-27 18:07:40.130 - 50 F5 07 (关书房影视)
2024-09-27 18:07:40.684 - A5 00 D2 FE 01 AA 22 0D (书房窗帘开)
2024-09-27 18:07:40.737 - 55 00 D2 02 00 FE 01 0B AA 55 00 D2 02 00 FE 01 EB (书房窗帘电机状态返回)
2024-09-27 18:07:41.779 - A5 00 B7 FF 00 AA 22 0D (书房纱帘关)
2024-09-27 18:07:42.826 - 55 0D 31 00 00 00 01 94 (书房顶灯只关)
2024-09-27 18:07:43.879 - 1A 0A 04 06 01 FF 00 01 FF 00 01 FF 00 00 0F (调光器地址-书房射灯, 书房射灯关闭)
2024-09-27 18:07:47.958 - 09 06 00 0F 02 02 38 20 (提示音咚)
2024-09-27 18:07:48.011 - 55 00 D2 00 00 0D 01 0B AA 55 00 D2 00 00 0D 01 0B AA (书房窗帘电机状态返回)
2024-09-27 18:07:48.559 - EE 00 00 B1 00 00 02 FF FC FF FF (情景完成返回主页)
2024-09-27 18:09:05.095 - 19 08 24 03 CC 01 CD 00 01 (调用茶吧感应灯关的按键)
2024-09-27 18:09:05.145 - 1A AA AA AA 88 FF 00 01 FF 00 01 0F (调光器地址-茶吧灯带, 茶吧灯带关闭)
2024-09-27 18:09:15.115 - 19 08 24 03 CC 01 CC 00 01 (调用茶吧感应灯开的按键)
2024-09-27 18:09:15.146 - 1A AA AA AA 88 FF B0 01 FF B0 01 0F (调光器地址-茶吧灯带, 茶吧灯带明亮)
2024-09-27 18:09:37.256 - 19 08 24 03 CC 00 D4 00 01 (调用厨房感应灯关的按键)
2024-09-27 18:09:37.292 - 55 0A 31 00 00 00 01 91 55 0A 31 00 00 00 02 92 (厨房顶灯一关, 厨房顶灯二关)
2024-09-27 18:09:52.285 - 19 08 24 03 CC 00 D3 00 01 (调用厨房感应灯开的按键)
2024-09-27 18:09:52.321 - 55 0A 32 00 00 00 01 92 55 0A 32 00 00 00 02 93 (厨房顶灯一开, 厨房顶灯二开)
2024-09-27 18:10:43.790 - 19 08 24 03 CC 01 CD 00 01 (调用茶吧感应灯关的按键)
2024-09-27 18:10:43.821 - 1A AA AA AA 88 FF 00 01 FF 00 01 0F (调光器地址-茶吧灯带, 茶吧灯带关闭)
2024-09-27 18:10:54.409 - 19 08 24 03 CC 00 D4 00 01 (调用厨房感应灯关的按键)
2024-09-27 18:10:54.444 - 55 0A 31 00 00 00 01 91 55 0A 31 00 00 00 02 92 (厨房顶灯一关, 厨房顶灯二关)
2024-09-27 18:11:50.644 - 19 08 24 03 CC 01 54 00 01 (调用内卫感应灯开的按键)
2024-09-27 18:11:50.678 - 1A 0C 02 08 01 FF 45 01 FF 45 01 FF 00 00 0F (调光器地址-内卫射灯, 内卫射灯微光)
2024-09-27 18:12:15.193 - 19 08 24 03 CC 01 55 00 01 (调用内卫感应灯关的按键)
2024-09-27 18:12:15.228 - 1A 0C 02 08 01 FF 00 01 FF 00 01 FF 00 00 0F (调光器地址-内卫射灯, 内卫感应灯关)
2024-09-27 18:13:14.709 - EE 00 71 B1 01 00 03 FF FC FF FF
2024-09-27 18:13:15.490 - 55 0C 30 00 00 00 01 92 (餐厅顶灯开关)
2024-09-27 18:13:17.094 - 19 08 24 03 CC 01 CC 00 01 (调用茶吧感应灯开的按键)
2024-09-27 18:13:17.143 - 1A AA AA AA 88 FF B0 01 FF B0 01 0F (调光器地址-茶吧灯带, 茶吧灯带明亮)
2024-09-27 18:13:24.608 - 19 08 24 03 CC 01 CD 00 01 (调用茶吧感应灯关的按键)
2024-09-27 18:13:24.639 - 1A AA AA AA 88 FF 00 01 FF 00 01 0F (调光器地址-茶吧灯带, 茶吧灯带关闭)
2024-09-27 18:13:25.109 - 19 08 24 03 CC 01 CC 00 01 (调用茶吧感应灯开的按键)
2024-09-27 18:13:25.140 - 1A AA AA AA 88 FF B0 01 FF B0 01 0F (调光器地址-茶吧灯带, 茶吧灯带明亮)
2024-09-27 18:13:58.676 - 19 08 24 03 CC 01 CD 00 01 (调用茶吧感应灯关的按键)
2024-09-27 18:13:58.705 - 1A AA AA AA 88 FF 00 01 FF 00 01 0F (调光器地址-茶吧灯带, 茶吧灯带关闭)
2024-09-27 18:14:25.228 - 19 08 24 03 CC 01 CC 00 01 (调用茶吧感应灯开的按键)
2024-09-27 18:14:25.259 - 1A AA AA AA 88 FF B0 01 FF B0 01 0F (调光器地址-茶吧灯带, 茶吧灯带明亮)
2024-09-27 18:14:59.797 - 19 08 24 03 CC 01 CD 00 01 (调用茶吧感应灯关的按键)
2024-09-27 18:14:59.826 - 1A AA AA AA 88 FF 00 01 FF 00 01 0F (调光器地址-茶吧灯带, 茶吧灯带关闭)
2024-09-27 18:15:09.234 - 1A FF 03 00 00 86 86 86 0F (调用查询模块-主卧空调开关查询, 主卧空调虚拟地址)
2024-09-27 18:15:09.462 - 01 04 07 DC 00 01 F1 44 (查询主卧空调开关状态)
2024-09-27 18:15:09.491 - 01 04 02 70 00 9C F0
2024-09-27 18:15:10.466 - 1A FF 03 00 00 00 00 0F (主卧空调虚拟地址)
2024-09-27 18:15:10.595 - 1A FF 04 00 00 86 86 86 0F (调用查询模块-次卧空调开关查询, 次卧空调虚拟地址)
2024-09-27 18:15:10.817 - 01 04 07 E2 00 01 90 88 (查询次卧空调开关状态)
2024-09-27 18:15:10.842 - 01 04 02 70 00 9C F0
2024-09-27 18:15:11.820 - 1A FF 04 00 00 00 00 0F (次卧空调虚拟地址)
2024-09-27 18:15:11.923 - 1A FF 05 00 00 86 86 86 0F (调用查询模块-书房空调开关查询, 书房空调虚拟地址)
2024-09-27 18:15:12.150 - 01 04 07 E8 00 01 B0 8A (查询书房空调开关状态)
2024-09-27 18:15:12.176 - 01 04 02 70 00 9C F0
2024-09-27 18:15:13.154 - 1A FF 05 00 00 00 00 0F (书房空调虚拟地址)
2024-09-27 18:15:13.257 - 1A FF 02 00 00 86 86 86 0F (调用查询模块-餐厅空调开关查询, 餐厅空调虚拟地址)
2024-09-27 18:15:13.483 - 01 04 07 D6 00 01 D1 46 (查询餐厅空调开关状态)
2024-09-27 18:15:13.509 - 01 04 02 70 00 9C F0
2024-09-27 18:15:14.487 - 1A FF 02 00 00 00 00 0F (餐厅空调虚拟地址)
2024-09-27 18:15:14.600 - 1A FF 01 00 00 86 86 86 0F (调用查询模块-客厅空调开关查询, 客厅空调虚拟地址)
2024-09-27 18:15:14.829 - 01 04 07 D0 00 01 31 47 (查询客厅空调开关状态)
2024-09-27 18:15:14.852 - 01 04 02 70 00 9C F0
2024-09-27 18:15:15.832 - 1A FF 01 00 00 00 00 0F (客厅空调虚拟地址)
2024-09-27 18:15:18.177 - 1A 11 00 00 00 86 86 86 0F (调用查询模块-次卧测温转换, 次卧温湿度虚拟地址)
2024-09-27 18:15:18.397 - 11 03 00 00 00 02 C6 9B (查询次卧温湿度)
2024-09-27 18:15:18.420 - 11 03 04 02 7D 01 14 7B CD (次卧温湿度返回)
2024-09-27 18:15:19.421 - 1A 11 00 00 00 00 00 01 00 00 01 00 00 01 01 14 01 02 7D 01 00 00 01 00 00 01 0F (次卧温湿度虚拟地址)
2024-09-27 18:15:19.567 - 1A 12 00 00 00 86 86 86 0F (调用查询模块-书房测温转换, 书房温湿度虚拟地址)
2024-09-27 18:15:19.790 - 12 03 00 00 00 02 C6 A8 (查询书房温湿度)
2024-09-27 18:15:19.813 - 12 03 04 02 B1 01 10 89 31 (书房温湿度返回)
2024-09-27 18:15:20.815 - 1A 12 00 00 00 00 00 01 00 00 01 00 00 01 01 10 01 02 B1 01 00 00 01 00 00 01 0F (书房温湿度虚拟地址)
2024-09-27 18:15:20.922 - 1A 13 00 00 00 86 86 86 0F (调用查询模块-外卫测温转换, 外卫温湿度虚拟地址)
2024-09-27 18:15:21.145 - 13 03 00 00 00 02 C7 79 (查询外卫温湿度)
2024-09-27 18:15:21.167 - 13 03 04 02 7F 01 16 78 0C (外卫温湿度返回)
2024-09-27 18:15:22.169 - 1A 13 00 00 00 00 00 01 00 00 01 00 00 01 01 16 01 02 7F 01 00 00 01 00 00 01 0F (外卫温湿度虚拟地址)
2024-09-27 18:15:22.286 - 1A 14 00 00 00 86 86 86 0F (调用查询模块-内卫测温转换, 内卫温湿度虚拟地址)
2024-09-27 18:15:22.508 - 14 03 00 00 00 02 C6 CE (查询内卫温湿度)
2024-09-27 18:15:22.532 - 14 03 04 02 A9 01 13 2F 37 (内卫温湿度返回)
2024-09-27 18:15:23.533 - 1A 14 00 00 00 00 00 01 00 00 01 00 00 01 01 13 01 02 A9 01 00 00 01 00 00 01 0F (内卫温湿度虚拟地址)
2024-09-27 18:15:23.637 - 1A 15 00 00 00 86 86 86 0F (调用查询模块-客厅测温转换, 客厅温湿度虚拟地址)
2024-09-27 18:15:23.862 - 15 03 00 00 00 02 C7 1F (查询客厅温湿度)
2024-09-27 18:15:23.883 - 15 03 04 02 A3 01 13 1F F5 (客厅温湿度返回)
2024-09-27 18:15:24.887 - 1A 15 00 00 00 00 00 01 00 00 01 00 00 01 01 13 01 02 A3 01 00 00 01 00 00 01 0F (客厅温湿度虚拟地址)
2024-09-27 18:15:24.994 - 1A 16 00 00 00 86 86 86 0F (调用查询模块-机柜测温转换, 机柜温湿度虚拟地址)
2024-09-27 18:15:25.216 - 16 03 00 00 00 02 C7 2C (查询机柜温湿度)
2024-09-27 18:15:26.240 - 1A 16 00 00 00 00 00 01 00 00 01 00 00 01 86 86 01 00 00 01 00 00 01 00 00 01 0F (机柜温湿度虚拟地址)
2024-09-27 18:15:26.341 - 1A 0E 00 00 00 86 86 86 0F (调用查询模块-厨房测温转换, 厨房温湿度虚拟地址)
2024-09-27 18:15:26.570 - 0E 03 00 00 00 02 C4 F4 (查询厨房温湿度)
2024-09-27 18:15:26.592 - 0E 03 04 02 7B 01 15 B4 CD (厨房温湿度返回)
2024-09-27 18:15:27.595 - 1A 0E 00 00 00 00 00 01 00 00 01 00 00 01 01 15 01 02 7B 01 00 00 01 00 00 01 0F (厨房温湿度虚拟地址)
2024-09-27 18:15:27.732 - 1A 0F 00 00 00 86 86 86 0F (调用查询模块-餐厅测温转换, 餐厅温湿度虚拟地址)
2024-09-27 18:15:27.953 - 1C 03 00 00 00 02 C7 86 (查询餐厅温湿度)
2024-09-27 18:15:27.978 - 1C 03 04 02 7E 01 18 57 08 (餐厅温湿度返回)
2024-09-27 18:15:28.978 - 1A 0F 00 00 00 00 00 01 00 00 01 00 00 01 01 18 01 02 7E 01 00 00 01 00 00 01 0F (餐厅温湿度虚拟地址)
2024-09-27 18:15:29.080 - 1A 20 00 00 00 86 86 86 0F (调用查询模块-阳台测温湿气压转换, 阳台温湿气压虚拟地址)
2024-09-27 18:15:29.308 - 20 03 00 00 00 03 03 7A (查询阳台温湿度气压)
2024-09-27 18:15:29.329 - 20 03 06 01 30 02 4D 27 37 3F 78 (阳台温湿度返回)
2024-09-27 18:15:29.830 - 1A 20 00 00 00 00 00 01 00 00 01 00 00 01 01 30 01 02 4D 01 27 37 01 00 00 01 0F (阳台温湿气压虚拟地址)
2024-09-27 18:15:29.931 - 1A 21 00 00 00 86 86 86 0F (调用查询模块-储藏室测温湿气压转换, 储藏室温湿气压虚拟地址)
2024-09-27 18:15:30.159 - 21 03 00 00 00 03 02 AB (查询储藏室温湿度气压)
2024-09-27 18:15:30.180 - 21 03 06 01 16 02 CD 27 37 3A C7 (储藏室温湿度返回)
2024-09-27 18:15:30.682 - 1A 21 00 00 00 00 00 01 00 00 01 00 00 01 01 16 01 02 CD 01 27 37 01 00 00 01 0F (储藏室温湿气压虚拟地址)
2024-09-27 18:15:30.787 - 1A 22 00 00 00 86 86 86 0F (调用查询模块-室外测温湿气压转换, 室外温湿气压虚拟地址)
2024-09-27 18:15:31.013 - 22 03 00 00 00 03 02 98 (查询室外温湿度气压)
2024-09-27 18:15:31.033 - 22 03 06 01 0B 03 05 27 37 42 37 (室外温湿度返回)
2024-09-27 18:15:31.536 - 1A 22 00 00 00 00 00 01 00 00 01 00 00 01 01 0B 01 03 05 01 27 37 01 00 00 01 0F (室外温湿气压虚拟地址)
2024-09-27 18:15:31.637 - 1A 10 00 00 00 86 86 86 0F (调用查询模块-主卧测温转换, 主卧温湿度虚拟地址)
2024-09-27 18:15:31.865 - 1D 03 00 00 00 02 C6 57 (查询主卧温湿度)
2024-09-27 18:15:31.887 - 1D 03 04 02 8E 01 16 C6 3F (主卧温湿度返回)
2024-09-27 18:15:32.888 - 1A 10 00 00 00 00 00 01 00 00 01 00 00 01 01 16 01 02 8E 01 00 00 01 00 00 01 0F (主卧温湿度虚拟地址)
2024-09-27 18:26:33.876 - 1A FF FF FF 04 (继电器地址-东阳衣架)
2024-09-27 18:34:01.735 - 1A BE B0 DC 02 FC (正反转地址-外卫卷帘)
2024-09-27 18:37:26.502 - 19 08 24 03 CC 01 CC 00 01 (调用茶吧感应灯开的按键)
2024-09-27 18:37:26.551 - 1A AA AA AA 88 FF B0 01 FF B0 01 0F (调光器地址-茶吧灯带, 茶吧灯带明亮)
2024-09-27 18:37:36.523 - 19 08 24 03 CC 01 CD 00 01 (调用茶吧感应灯关的按键)
2024-09-27 18:37:36.571 - 1A AA AA AA 88 FF 00 01 FF 00 01 0F (调光器地址-茶吧灯带, 茶吧灯带关闭)
2024-09-27 18:43:33.038 - EE 00 71 B1 01 00 02 FF FC FF FF
2024-09-27 18:43:34.277 - 19 08 24 03 DD 00 10 00 01 (调用情景-客餐厅空调开)
2024-09-27 18:43:34.808 - EE 00 00 B1 00 00 00 FF FC FF FF (情景执行提示)
2024-09-27 18:43:35.403 - 09 06 00 0F 02 01 78 21 (提示音叮)
2024-09-27 18:43:35.948 - A1 11 11 11 40 (客厅空调自动开)
2024-09-27 18:43:36.177 - 19 08 24 03 F0 BB 78 02 02 00
2024-09-27 18:43:36.228 - 23 AA 56 02 12 2B 23 18 09 1B 05 73 65 6F 6B 65 6E 64
2024-09-27 18:43:37.187 - 01 10 07 D0 00 03 06 70 61 00 02 00 FA 6F 26 (客厅空调冷25度)
2024-09-27 18:43:37.224 - 01 10 07 D0 00 03 06 70 61 00 02 00 FA 6F 26 (客厅空调冷25度)
2024-09-27 18:43:39.983 - A1 11 11 11 41 (餐厅空调自动开)
2024-09-27 18:43:40.208 - 19 08 24 03 F0 BB 78 02 02 00
2024-09-27 18:43:40.259 - 23 AA 56 02 12 2B 27 18 09 1B 05 73 65 6F 6B 65 6E 64
2024-09-27 18:43:41.218 - 01 10 07 D3 00 03 06 70 61 00 02 00 FA 9F 29 (餐厅空调冷25度)
2024-09-27 18:43:41.252 - 01 10 07 D3 00 03 06 70 61 00 02 00 FA 9F 29 (餐厅空调冷25度)
2024-09-27 18:43:44.023 - 09 06 00 0F 02 02 38 20 (提示音咚)
2024-09-27 18:43:44.574 - EE 00 00 B1 00 00 02 FF FC FF FF (情景完成返回主页)
2024-09-27 18:43:47.792 - 19 08 24 03 CC 01 CD 00 01 (调用茶吧感应灯关的按键)
2024-09-27 18:43:47.842 - 1A AA AA AA 88 FF 00 01 FF 00 01 0F (调光器地址-茶吧灯带, 茶吧灯带关闭)
2024-09-27 18:55:09.269 - 1A BE B0 DC 01 FC (继电器地址-回水泵点动)
2024-09-27 18:55:27.620 - 1A BE B0 DC 09 (继电器地址-客厅窗帘)
2024-09-27 18:55:27.756 - FE
2024-09-27 19:01:33.140 - 1A BE B0 DC 03 (继电器地址-西阳天幕)
2024-09-27 19:01:33.275 - FF
2024-09-27 19:03:30.081 - 1A BE B0 DC 0A FC (继电器地址-客厅纱帘)
2024-09-27 19:08:19.703 - 19 08 24 03 CC 01 CC 00 01 (调用茶吧感应灯开的按键)
2024-09-27 19:08:19.751 - 1A AA AA AA 88 FF B0 01 FF B0 01 0F (调光器地址-茶吧灯带, 茶吧灯带明亮)
2024-09-27 19:08:23.779 - 19 08 24 03 CC 00 D3 00 01 (调用厨房感应灯开的按键)
2024-09-27 19:08:23.848 - 55 0A 32 00 00 00 01 92 55 0A 32 00 00 00 02 93 (厨房顶灯一开, 厨房顶灯二开)
2024-09-27 19:08:44.251 - 19 08 24 03 CC 01 CD 00 01 (调用茶吧感应灯关的按键)
2024-09-27 19:08:44.282 - 1A AA AA AA 88 FF 00 01 FF 00 01 0F (调光器地址-茶吧灯带, 茶吧灯带关闭)
2024-09-27 19:09:08.366 - 19 08 24 03 CC 00 D4 00 01 (调用厨房感应灯关的按键)
2024-09-27 19:09:08.401 - 55 0A 31 00 00 00 01 91 55 0A 31 00 00 00 02 92 (厨房顶灯一关, 厨房顶灯二关)
2024-09-27 19:09:28.840 - 19 08 24 03 CC 01 CC 00 01 (调用茶吧感应灯开的按键)
2024-09-27 19:09:28.871 - 1A AA AA AA 88 FF B0 01 FF B0 01 0F (调光器地址-茶吧灯带, 茶吧灯带明亮)
2024-09-27 19:09:31.411 - 19 08 24 03 CC 00 D3 00 01 (调用厨房感应灯开的按键)
2024-09-27 19:09:31.447 - 55 0A 32 00 00 00 01 92 55 0A 32 00 00 00 02 93 (厨房顶灯一开, 厨房顶灯二开)
2024-09-27 19:09:50.883 - 19 08 24 03 CC 01 CD 00 01 (调用茶吧感应灯关的按键)
2024-09-27 19:09:50.913 - 1A AA AA AA 88 FF 00 01 FF 00 01 0F (调光器地址-茶吧灯带, 茶吧灯带关闭)
2024-09-27 19:10:13.996 - 19 08 24 03 CC 00 D4 00 01 (调用厨房感应灯关的按键)
2024-09-27 19:10:14.030 - 55 0A 31 00 00 00 01 91 55 0A 31 00 00 00 02 92 (厨房顶灯一关, 厨房顶灯二关)
2024-09-27 19:11:27.574 - 19 08 24 03 CC 01 CC 00 01 (调用茶吧感应灯开的按键)
2024-09-27 19:11:27.601 - 1A AA AA AA 88 FF B0 01 FF B0 (调光器地址-茶吧灯带)
2024-09-27 19:11:27.605 - 01 0F
2024-09-27 19:11:32.649 - 19 08 24 03 CC 00 D3 00 01 (调用厨房感应灯开的按键)
2024-09-27 19:11:32.685 - 55 0A 32 00 00 00 01 92 55 0A 32 00 00 00 02 93 (厨房顶灯一开, 厨房顶灯二开)
2024-09-27 19:12:53.242 - 19 08 24 03 CC 01 CD 00 01 (调用茶吧感应灯关的按键)
2024-09-27 19:12:53.273 - 1A AA AA AA 88 FF 00 01 FF 00 01 0F (调光器地址-茶吧灯带, 茶吧灯带关闭)
2024-09-27 19:12:54.746 - 19 08 24 03 CC 01 CC 00 01 (调用茶吧感应灯开的按键)
2024-09-27 19:12:54.777 - 1A AA AA AA 88 FF B0 01 FF B0 01 0F (调光器地址-茶吧灯带, 茶吧灯带明亮)
2024-09-27 19:13:03.829 - 19 08 24 03 CC 00 D4 00 01 (调用厨房感应灯关的按键)
2024-09-27 19:13:03.864 - 55 0A 31 00 00 00 01 91 55 0A 31 00 00 00 02 92 (厨房顶灯一关, 厨房顶灯二关)
2024-09-27 19:13:07.772 - 19 08 24 03 CC 01 CD 00 01 (调用茶吧感应灯关的按键)
2024-09-27 19:13:07.801 - 1A AA AA AA 88 FF 00 01 FF 00 01 0F (调光器地址-茶吧灯带, 茶吧灯带关闭)
2024-09-27 19:13:09.275 - 19 08 24 03 CC 01 CC 00 01 (调用茶吧感应灯开的按键)
2024-09-27 19:13:09.305 - 1A AA AA AA 88 FF B0 01 FF B0 01 0F (调光器地址-茶吧灯带, 茶吧灯带明亮)
2024-09-27 19:13:10.843 - 19 08 24 03 CC 00 D3 00 01 (调用厨房感应灯开的按键)
2024-09-27 19:13:10.886 - 55 0A 32 00 00 00 01 92 55 0A 32 00 00 00 02 93 (厨房顶灯一开, 厨房顶灯二开)
2024-09-27 19:13:29.315 - 19 08 24 03 CC 01 CD 00 01 (调用茶吧感应灯关的按键)
2024-09-27 19:13:29.344 - 1A AA AA AA 88 FF 00 01 FF 00 01 0F (调光器地址-茶吧灯带, 茶吧灯带关闭)
2024-09-27 19:13:46.848 - 19 08 24 03 CC 01 CC 00 01 (调用茶吧感应灯开的按键)
2024-09-27 19:13:46.879 - 1A AA AA AA 88 FF B0 01 FF B0 01 0F (调光器地址-茶吧灯带, 茶吧灯带明亮)
2024-09-27 19:13:55.493 - 19 08 24 03 CC 01 52 00 01 (调用外卫感应灯开的按键)
2024-09-27 19:13:55.516 - 1A 0D 01 07
2024-09-27 19:13:55.529 - 01 FF 45 01 FF 45 01 FF 00 00 0F
2024-09-27 19:13:59.374 - 19 08 24 03 CC 01 CD 00 01 (调用茶吧感应灯关的按键)
2024-09-27 19:13:59.405 - 1A AA AA AA 88 FF 00 01 FF 00 01 0F (调光器地址-茶吧灯带, 茶吧灯带关闭)
2024-09-27 19:14:22.419 - 19 08 24 03 CC 01 CC 00 01 (调用茶吧感应灯开的按键)
2024-09-27 19:14:22.449 - 1A AA AA AA 88 FF B0 01 FF B0 01 0F (调光器地址-茶吧灯带, 茶吧灯带明亮)
2024-09-27 19:14:44.963 - 19 08 24 03 CC 01 CD 00 01 (调用茶吧感应灯关的按键)
2024-09-27 19:14:44.994 - 1A AA AA AA 88 FF 00 01 FF 00 01 0F (调光器地址-茶吧灯带, 茶吧灯带关闭)
2024-09-27 19:14:48.597 - 19 08 24 03 CC 01 54 00 01 (调用内卫感应灯开的按键)
2024-09-27 19:14:48.632 - 1A 0C 02 08 01 FF 45 01 FF 45 01 FF 00 00 0F (调光器地址-内卫射灯, 内卫射灯微光)
2024-09-27 19:15:01.060 - 19 08 24 03 CC 00 D4 00 01 (调用厨房感应灯关的按键)
2024-09-27 19:15:01.122 - 55 0A 31 00 00 00 01 91 55 0A 31 00 00 00 02 92 (厨房顶灯一关, 厨房顶灯二关)
2024-09-27 19:15:57.549 - A1 11 11 11 42 (主卧空调自动开)
2024-09-27 19:15:57.771 - 19 08 24 03 F0 BB 78 02 02 00
2024-09-27 19:15:57.823 - 23 AA 56 02 13 0F 39 18 09 1B 05 73 65 6F 6B 65 6E 64
2024-09-27 19:15:58.781 - 01 10 07 D6 00 03 06 70 61 00 02 00 F0 0F 3E (主卧空调冷24度)
2024-09-27 19:15:58.819 - 01 10 07 D6 00 03 06 70 61 00 02 00 F0 0F 3E (主卧空调冷24度)
2024-09-27 19:16:05.266 - 19 08 24 03 CC 01 55 00 01 (调用内卫感应灯关的按键)
2024-09-27 19:16:05.320 - 1A 0C 02 08 01 FF 00 01 FF 00 01 FF 00 00 0F (调光器地址-内卫射灯, 内卫感应灯关)
2024-09-27 19:16:54.945 - 19 08 24 03 DD 00 1A 00 01 (调用情景-客厅电视播放)
2024-09-27 19:16:55.481 - EE 00 00 B1 00 00 00 FF FC FF FF (情景执行提示)
2024-09-27 19:16:56.076 - 09 06 00 0F 02 01 78 21 (提示音叮)
2024-09-27 19:16:56.618 - 50 F0 08 (开客厅影视)
2024-09-27 19:17:04.739 - 19 08 24 03 CC 01 CC 00 01 (调用茶吧感应灯开的按键)
2024-09-27 19:17:04.769 - 1A AA AA AA 88 FF B0 01 FF B0 01 0F (调光器地址-茶吧灯带, 茶吧灯带明亮)
2024-09-27 19:17:05.642 - 50 F1 28 (客厅—有线2)
2024-09-27 19:17:06.195 - 09 06 00 0F 02 01 78 21 (提示音叮)
2024-09-27 19:17:06.746 - EE 00 00 B1 00 00 02 FF FC FF FF (情景完成返回主页)
2024-09-27 19:17:25.781 - 19 08 24 03 CC 01 CD 00 01 (调用茶吧感应灯关的按键)
2024-09-27 19:17:25.811 - 1A AA AA AA 88 FF 00 01 FF 00 01 0F (调光器地址-茶吧灯带, 茶吧灯带关闭)
2024-09-27 19:19:17.145 - 19 08 24 03 CC 01 53 00 01 (调用外卫感应灯关的按键)
2024-09-27 19:19:17.179 - 1A 0D 01 07 01 FF 00 01 FF 00 01 FF 00 00 0F (调光器地址-外卫射灯, 外卫感应灯关)
2024-09-27 19:19:54.073 - 19 08 24 03 CC 01 CC 00 01 (调用茶吧感应灯开的按键)
2024-09-27 19:19:54.103 - 1A AA AA AA 88 FF B0 01 FF B0 01 0F (调光器地址-茶吧灯带, 茶吧灯带明亮)
2024-09-27 19:21:07.238 - EE 00 71 B1 01 00 03 FF FC FF FF
2024-09-27 19:21:08.065 - 55 0C 30 00 00 00 01 92 (餐厅顶灯开关)
2024-09-27 19:21:12.227 - 19 08 24 03 CC 01 CD 00 01 (调用茶吧感应灯关的按键)
2024-09-27 19:21:12.277 - 1A AA AA AA 88 FF 00 01 FF 00 01 0F (调光器地址-茶吧灯带, 茶吧灯带关闭)
2024-09-27 19:21:30.263 - 19 08 24 03 CC 01 CC 00 01 (调用茶吧感应灯开的按键)
2024-09-27 19:21:30.293 - 1A AA AA AA 88 FF B0 01 FF B0 01 0F (调光器地址-茶吧灯带, 茶吧灯带明亮)
2024-09-27 19:22:34.390 - 19 08 24 03 CC 01 CD 00 01 (调用茶吧感应灯关的按键)
2024-09-27 19:22:34.420 - 1A AA AA AA 88 FF 00 01 FF 00 01 0F (调光器地址-茶吧灯带, 茶吧灯带关闭)
2024-09-27 19:23:12.464 - 19 08 24 03 CC 01 CC 00 01 (调用茶吧感应灯开的按键)
2024-09-27 19:23:12.524 - 1A AA AA AA 88 FF B0 01 FF B0 01 0F (调光器地址-茶吧灯带, 茶吧灯带明亮)
2024-09-27 19:23:45.107 - 19 08 24 03 CC 00 D3 00 01 (调用厨房感应灯开的按键)
2024-09-27 19:23:45.143 - 55 0A 32 00 00 00 01 92 55 0A 32 00 00 00 02 93 (厨房顶灯一开, 厨房顶灯二开)
2024-09-27 19:24:10.079 - 19 08 24 03 CC 01 CD 00 01 (调用茶吧感应灯关的按键)
2024-09-27 19:24:10.110 - 1A AA AA AA 88 FF 00 01 FF 00 01 0F (调光器地址-茶吧灯带, 茶吧灯带关闭)
2024-09-27 19:24:30.697 - 19 08 24 03 CC 00 D4 00 01 (调用厨房感应灯关的按键)
2024-09-27 19:24:30.733 - 55 0A 31 00 00 00 01 91 55 0A 31 00 00 00 02 92 (厨房顶灯一关, 厨房顶灯二关)
2024-09-27 19:59:41.791 - 19 08 24 03 CC 01 CC 00 01 (调用茶吧感应灯开的按键)
2024-09-27 19:59:41.821 - 1A AA AA AA 88 FF B0 01 FF B0 01 0F (调光器地址-茶吧灯带, 茶吧灯带明亮)
2024-09-27 20:00:16.360 - 19 08 24 03 CC 01 CD 00 01 (调用茶吧感应灯关的按键)
2024-09-27 20:00:16.391 - 1A AA AA AA 88 FF 00 01 FF 00 01 0F (调光器地址-茶吧灯带, 茶吧灯带关闭)
2024-09-27 20:30:38.805 - FF
2024-09-27 20:34:58.705 - FF FF FF FF 0A (继电器地址-东阳窗帘)
2024-09-27 20:34:58.841 - FE
2024-09-27 20:35:43.061 - 19 08 24 03 CC 01 CC 00 01 (调用茶吧感应灯开的按键)
2024-09-27 20:35:43.109 - 1A AA AA AA 88 FF B0 01 FF B0 01 0F (调光器地址-茶吧灯带, 茶吧灯带明亮)
2024-09-27 20:36:25.144 - 19 08 24 03 CC 01 CD 00 01 (调用茶吧感应灯关的按键)
2024-09-27 20:36:25.194 - 1A AA AA AA 88 FF 00 01 FF 00 01 0F (调光器地址-茶吧灯带, 茶吧灯带关闭)
2024-09-27 20:41:34.889 - 19 08 24 03 CC 01 52 00 01 (调用外卫感应灯开的按键)
2024-09-27 20:41:34.923 - 1A 0D 01 07 01 FF 45 01 FF 45 01 FF 00 00 0F (调光器地址-外卫射灯, 外卫感应灯开)
2024-09-27 20:42:54.114 - 19 08 24 03 DD 00 3B 00 01 (调用情景-书房照明关帘)
2024-09-27 20:42:54.657 - EE 00 00 B1 00 00 00 FF FC FF FF (情景执行提示)
2024-09-27 20:42:55.251 - 09 06 00 0F 02 01 78 21 (提示音叮)
2024-09-27 20:42:55.807 - 1A 0A 04 06 01 FF F0 01 FF F0 01 FF 00 00 0F (调光器地址-书房射灯, 书房射灯明亮)
2024-09-27 20:42:56.550 - 19 08 24 03 CC 01 53 00 01 (调用外卫感应灯关的按键)
2024-09-27 20:42:56.584 - 1A 0D 01 07 01 FF 00 01 FF 00 01 FF 00 00 0F (调光器地址-外卫射灯, 外卫感应灯关)
2024-09-27 20:42:59.886 - A5 00 B7 FF 00 AA 22 0D (书房纱帘关)
2024-09-27 20:43:00.932 - A5 00 D2 FF 00 AA 22 0C (书房窗帘关)
2024-09-27 20:43:00.980 - 55 00 D2 01 00 0D 01 0B AA 55 00 D2 01 00 0D 01 0B AA (书房窗帘电机状态返回)
2024-09-27 20:43:02.028 - 09 06 00 0F 02 02 38 20 (提示音咚)
2024-09-27 20:43:02.580 - EE 00 00 B1 00 00 02 FF FC FF FF (情景完成返回主页)
2024-09-27 20:43:10.285 - 55 00 D2 00 00 FE 01 0B AA 55 00 D2 00 00 FE 01 0B AA (书房窗帘电机状态返回)
2024-09-27 20:43:58.849 - FF
2024-09-27 20:45:04.983 - 19 08 24 03 DD 00 3A 00 01 (调用情景-离开书房)
2024-09-27 20:45:05.516 - EE 00 00 B1 00 00 00 FF FC FF FF (情景执行提示)
2024-09-27 20:45:06.111 - 09 06 00 0F 02 01 78 21 (提示音叮)
2024-09-27 20:45:06.659 - 01 06 07 DC FF 60 08 9C (书房空调关)
2024-09-27 20:45:06.688 - 01 06 07 DC FF 60 08 9C (书房空调关)
2024-09-27 20:45:07.253 - 50 F5 07 (关书房影视)
2024-09-27 20:45:07.805 - A5 00 D2 FE 01 AA 22 0D (书房窗帘开)
2024-09-27 20:45:07.860 - 55 00 D2 02 00 FE 01 0B AA 55 00 D2 02 00 FE C1 (书房窗帘电机状态返回)
2024-09-27 20:45:08.902 - A5 00 B7 FF 00 AA 22 0D (书房纱帘关)
2024-09-27 20:45:09.949 - 55 0D 31 00 00 00 01 94 (书房顶灯只关)
2024-09-27 20:45:11.002 - 1A 0A 04 06 01 FF 00 01 FF 00 01 FF 00 00 0F (调光器地址-书房射灯, 书房射灯关闭)
2024-09-27 20:45:15.081 - 09 06 00 0F 02 02 38 20 (提示音咚)
2024-09-27 20:45:15.136 - 55 00 D2 00 00 0D 01 0B AA 55 (书房窗帘电机状态返回)
2024-09-27 20:45:15.683 - EE 00 00 B1 00 00 02 FF FC FF FF (情景完成返回主页)
2024-09-27 20:47:33.474 - 19 08 24 03 CC 01 CC 00 01 (调用茶吧感应灯开的按键)
2024-09-27 20:47:33.524 - 1A AA AA AA 88 FF B0 01 FF B0 01 0F (调光器地址-茶吧灯带, 茶吧灯带明亮)
2024-09-27 20:48:11.572 - 19 08 24 03 CC 00 D3 00 01 (调用厨房感应灯开的按键)
2024-09-27 20:48:11.608 - 55 0A 32 00 00 00 01 92 55 0A 32 00 00 00 02 93 (厨房顶灯一开, 厨房顶灯二开)
2024-09-27 20:48:27.080 - 19 08 24 03 CC 01 CD 00 01 (调用茶吧感应灯关的按键)
2024-09-27 20:48:27.110 - 1A AA AA AA 88 FF 00 01 FF 00 01 0F (调光器地址-茶吧灯带, 茶吧灯带关闭)
2024-09-27 20:48:28.242 - 19 08 24 03 DD 00 42 00 01 (调用情景-主卧电视空调)
2024-09-27 20:48:28.784 - EE 00 00 B1 00 00 00 FF FC FF FF (情景执行提示)
2024-09-27 20:48:29.379 - 09 06 00 0F 02 01 78 21 (提示音叮)
2024-09-27 20:48:29.922 - 50 F0 05 (开主卧影视)
2024-09-27 20:48:30.968 - 50 F0 04 (开内卫影视)
2024-09-27 20:48:31.523 - 1A FF FF FF 56 00 00 00 0F (人体感应地址-内卫, 关闭内卫感应)
2024-09-27 20:48:32.070 - 1A 22 33 62 0F 00 02 01 0F (正反转地址-内卫卷帘, 内卫卷帘降)
2024-09-27 20:48:32.616 - A5 00 53 FE 01 AA (主卧纱帘关)
2024-09-27 20:48:32.673 - 55 00 53 02 02 22 02 2F AA 55 00 53 02 02 22 02 FF (主卧纱帘电机状态返回)
2024-09-27 20:48:33.711 - A5 00 52 FF 00 AA (主卧窗帘关)
2024-09-27 20:48:34.769 - 1A 0C 02 04 FF FF 45 01 FF 45 01 FF 00 00 0F (主卧调光微光)
2024-09-27 20:48:38.853 - 1A 0C 02 08 01 FF 45 01 FF 45 01 FF 00 00 0F (调光器地址-内卫射灯, 内卫射灯微光)
2024-09-27 20:48:39.440 - 50 F1 25 (主卧—有线2)
2024-09-27 20:48:39.990 - A1 11 11 11 42 (主卧空调自动开)
2024-09-27 20:48:40.220 - 19 08 24 03 F0 BB 78 02 02 00
2024-09-27 20:48:40.299 - 23 AA 56 02 14 30 28 18 09 1B 05 73 65 6F 6B 65 6E 64
2024-09-27 20:48:40.535 - 50 F1 24 (内卫—有线2)
2024-09-27 20:48:41.229 - 01 10 07 D6 00 03 06 70 61 00 02 00 F0 0F 3E (主卧空调冷24度)
2024-09-27 20:48:41.268 - 01 10 07 D6 00 03 06 70 61 00 02 00 F0 0F 3E (主卧空调冷24度)
2024-09-27 20:48:42.582 - AF BF CF DF C2 21 (有线2/快捷-凤凰卫视)
2024-09-27 20:48:43.668 - 55 00 53 00 00 0C 02 2F AA 55 00 53 00 00 0C 02 2F AA (主卧纱帘电机状态返回)
2024-09-27 20:48:44.627 - 1A FF FF FF 60 0B 01 01 0F (红外总线地址-主卧发射设备, 主卧电视电源)
2024-09-27 20:48:45.147 - F0 0B 01 08
2024-09-27 20:48:45.888 - 55 20 20 00 02 09 02 16 AA 55 20 20 00 02 09 02 16 AA (主卧窗帘电机状态返回)
2024-09-27 20:48:51.661 - 19 08 24 03 CC 00 D4 00 01 (调用厨房感应灯关的按键)
2024-09-27 20:48:51.733 - 55 0A 31 00 00 00 01 91 55 0A 31 00 00 00 02 92 (厨房顶灯一关, 厨房顶灯二关)
2024-09-27 20:48:52.732 - 09 06 00 0F 02 02 38 20 (提示音咚)
2024-09-27 20:48:53.304 - EE 00 00 B1 00 00 02 FF FC FF FF (情景完成返回主页)
2024-09-27 20:51:47.247 - FF
2024-09-27 21:08:57.872 - 19 08 24 03 DD 00 1B 00 01 (调用情景-外卫使用)
2024-09-27 21:08:58.421 - EE 00 00 B1 00 00 00 FF FC FF FF (情景执行提示)
2024-09-27 21:08:59.017 - 09 06 00 0F 02 01 78 21 (提示音叮)
2024-09-27 21:08:59.566 - 1A BE B0 DC 02 00 01 00 (正反转地址-外卫卷帘, 外卫卷帘降)
2024-09-27 21:09:00.107 - 50 F0 03 (开外卫影视)
2024-09-27 21:09:00.662 - 1A FF FF FF 55 00 00 00 0F (人体感应地址-外卫, 关闭外卫感应)
2024-09-27 21:09:01.217 - 1A 0D 01 07 01 FF 45 01 FF 45 01 FF 00 00 0F (调光器地址-外卫射灯, 外卫感应灯开)
2024-09-27 21:09:03.303 - 1A BE B0 DC 01 00 01 00 (继电器地址-回水泵点动, 回水泵点动)
2024-09-27 21:09:04.349 - 1A BE B0 DC 01 00 01 00 (继电器地址-回水泵点动, 回水泵点动)
2024-09-27 21:09:05.396 - 1A BE B0 DC 01 00 01 00 (继电器地址-回水泵点动, 回水泵点动)
2024-09-27 21:09:06.437 - 50 F1 43 (外卫—CH4)
2024-09-27 21:09:23.435 - A1 11 11 11 11 05 (外卫使用浴霸判断)
2024-09-27 21:09:23.658 - 13 03 00 00 00 02 C7 79 (查询外卫温湿度)
2024-09-27 21:09:23.679 - 13 03 04 01 D5 01 01 18 66 (外卫温湿度返回)
2024-09-27 21:09:25.480 - 09 06 00 0F 02 02 38 20 (提示音咚)
2024-09-27 21:09:27.527 - EE 00 00 B1 00 00 02 FF FC FF FF (情景完成返回主页)
2024-09-27 21:13:20.923 - 1A BE B0 DC 04 FE (继电器地址-西阳窗帘)
2024-09-27 21:13:21.056 - FF
2024-09-27 21:23:18.137 - FF FF FF FF 0E (继电器地址-西阳小窗帘)
2024-09-27 21:25:08.321 - 19 08 24 03 DD 00 1C 00 01 (调用情景-外卫使用完毕)
2024-09-27 21:25:08.879 - EE 00 00 B1 00 00 00 FF FC FF FF (情景执行提示)
2024-09-27 21:25:09.474 - 09 06 00 0F 02 01 78 21 (提示音叮)
2024-09-27 21:25:10.030 - 1A 0D 01 07 01 FF 00 01 FF 00 01 FF 00 00 0F (调光器地址-外卫射灯, 外卫感应灯关)
2024-09-27 21:25:10.614 - 50 F5 03 (关外卫影视)
2024-09-27 21:25:11.170 - 1A 20 07 00 42 00 01 00 0F (自保持开关地址-外卫顶灯, 外卫顶灯关)
2024-09-27 21:25:11.717 - 1A FF FF FF 55 00 00 01 0F (人体感应地址-外卫, 打开外卫感应)
2024-09-27 21:25:11.777 - BC BC
2024-09-27 21:25:12.083 - 19 08 24 03 CC 01 52 00 01 (调用外卫感应灯开的按键)
2024-09-27 21:25:12.136 - 1A 0D 01 07 01 FF 45 01 FF 45 01 FF 00 00 0F (调光器地址-外卫射灯, 外卫感应灯开)
2024-09-27 21:25:14.560 - 09 06 00 0F 02 02 38 20 (提示音咚)
2024-09-27 21:25:15.161 - EE 00 00 B1 00 00 02 FF FC FF FF (情景完成返回主页)
2024-09-27 21:25:21.305 - 19 08 24 03 CC 01 53 00 01 (调用外卫感应灯关的按键)
2024-09-27 21:25:21.339 - 1A 0D 01 07 01 FF 00 01 FF 00 01 FF 00 00 0F (调光器地址-外卫射灯, 外卫感应灯关)
2024-09-27 21:31:24.671 - 19 08 24 03 CC 01 CC 00 01 (调用茶吧感应灯开的按键)
2024-09-27 21:31:24.703 - 1A AA AA AA 88 FF B0 01 FF B0 01 0F (调光器地址-茶吧灯带, 茶吧灯带明亮)
2024-09-27 21:32:08.257 - 19 08 24 03 CC 01 CD 00 01 (调用茶吧感应灯关的按键)
2024-09-27 21:32:08.299 - 1A AA AA AA 88 FF 00 01 FF 00 01 0F (调光器地址-茶吧灯带, 茶吧灯带关闭)
2024-09-27 21:33:12.904 - 1A 18 05 21 89 00 01 01 0F (自保持开关地址-客厅顶灯, 客厅顶灯一开)
2024-09-27 21:33:14.081 - 1A 18 05 01 94 00 01 01 0F (自保持开关地址-客厅顶灯, 客厅顶灯二开)
2024-09-27 21:47:29.355 - 1A FF FF FF 04 (继电器地址-东阳衣架)
2024-09-27 21:47:29.489 - FF
2024-09-27 21:50:30.285 - 19 08 24 03 CC 01 52 00 01 (调用外卫感应灯开的按键)
2024-09-27 21:50:30.339 - 1A 0D 01 07 01 FF 45 01 FF 45 01 FF 00 00 0F (调光器地址-外卫射灯, 外卫感应灯开)
2024-09-27 21:51:01.119 - EE 00 6E B1 01 00 03 FF FC FF FF
2024-09-27 21:51:01.862 - 1A 18 05 21 89 00 01 02 0F (自保持开关地址-客厅顶灯, 客厅顶灯一开关)
2024-09-27 21:51:02.342 - 1A 18 05 01 94 00 01 02 0F (自保持开关地址-客厅顶灯, 客厅顶灯二开关)
2024-09-27 21:51:09.362 - 19 08 24 03 CC 01 53 00 01 (调用外卫感应灯关的按键)
2024-09-27 21:51:09.396 - 1A 0D 01 07 01 FF 00 01 FF 00 01 FF 00 00 0F (调光器地址-外卫射灯, 外卫感应灯关)
2024-09-27 21:56:08.431 - 1A BE B0 DC 02 FC (正反转地址-外卫卷帘)
2024-09-27 21:56:08.566 - FF
2024-09-27 22:07:23.601 - FF
2024-09-27 22:18:01.367 - 1A BE B0 DC 09 FE (继电器地址-客厅窗帘)
2024-09-27 22:18:01.502 - FE
2024-09-27 22:19:09.685 - 1A BE B0 DC 01 (继电器地址-回水泵点动)
2024-09-27 22:19:09.820 - FF
2024-09-27 22:25:11.322 - 1A BE B0 DC 03 FE (继电器地址-西阳天幕)
2024-09-27 22:25:11.457 - FF
2024-09-27 22:27:06.786 - 1A BE B0 DC 0A (继电器地址-客厅纱帘)
2024-09-27 22:27:06.921 - FF
2024-09-27 22:34:15.107 - 19 08 24 03 CC 00 D3 00 01 (调用厨房感应灯开的按键)
2024-09-27 22:34:15.161 - 55 0A 32 00 00 00 01 92 55 0A 32 00 00 00 02 93 (厨房顶灯一开, 厨房顶灯二开)
2024-09-27 22:34:24.504 - FF
2024-09-27 22:34:50.176 - 19 08 24 03 CC 00 D4 00 01 (调用厨房感应灯关的按键)
2024-09-27 22:34:50.211 - 55 0A 31 00 00 00 01 91 55 0A 31 00 00 00 02 92 (厨房顶灯一关, 厨房顶灯二关)
2024-09-27 23:06:00.388 - 19 08 24 03 CC 01 CC 00 01 (调用茶吧感应灯开的按键)
2024-09-27 23:06:00.438 - 1A AA AA AA 88 FF B0 01 FF B0 01 0F (调光器地址-茶吧灯带, 茶吧灯带明亮)
2024-09-27 23:06:01.858 - 19 08 24 03 CC 00 D3 00 01 (调用厨房感应灯开的按键)
2024-09-27 23:06:01.892 - 55 0A 32 00 00 00 01 92 55 0A 32 00 00 00 02 93 (厨房顶灯一开, 厨房顶灯二开)
2024-09-27 23:06:03.128 - FF
2024-09-27 23:06:11.931 - 19 08 24 03 CC 01 CD 00 01 (调用茶吧感应灯关的按键)
2024-09-27 23:06:11.981 - 1A AA AA AA 88 FF 00 01 FF 00 01 0F (调光器地址-茶吧灯带, 茶吧灯带关闭)
