2025-08-31 00:50:11.675 - 1A 13 00 00 00 86 86 86 0F (调用查询模块-外卫测温转换, 外卫温湿度虚拟地址)
2025-08-31 00:50:11.914 - 13 03 00 00 00 02 C7 79 (查询外卫温湿度)
2025-08-31 00:50:11.938 - 13 03 04 02 2D 01 26 D9 C9 (外卫温湿度返回)
2025-08-31 00:50:12.940 - 1A 13 00 00 00 00 00 01 00 00 01 00 00 01 01 26 01 02 2D 01 00 00 01 00 00 01 0F (外卫温湿度虚拟地址)
2025-08-31 01:04:03.014 - FF FF FF FF 0E (继电器地址-西阳小窗帘)
2025-08-31 01:04:03.150 - FF
2025-08-31 01:35:17.814 - 19 08 24 03 CC 01 54 00 01 (调用内卫感应灯开的按键)
2025-08-31 01:35:17.865 - 1A 0C 02 08 01 FF 45 01 FF 45 01 FF 00 00 0F (调光器地址-内卫射灯, 内卫射灯微光)
2025-08-31 01:36:36.468 - 19 08 24 03 CC 01 55 00 01 (调用内卫感应灯关的按键)
2025-08-31 01:36:36.501 - 1A 0C 02 08 01 FF 00 01 FF 00 01 FF 00 00 0F (调光器地址-内卫射灯, 内卫感应灯关)
2025-08-31 01:37:06.234 - 19 08 24 03 DD 00 4B 00 01 (调用情景-主卧睡觉)
2025-08-31 01:37:06.754 - EE 00 00 B1 00 00 00 FF FC FF FF (情景执行提示)
2025-08-31 01:37:07.349 - 09 06 00 0F 02 01 78 21 (提示音叮)
2025-08-31 01:37:07.893 - 50 F5 04 (关内卫影视)
2025-08-31 01:37:08.445 - 55 11 1D 03 01 7C 06 (主卧纱帘关)
2025-08-31 01:37:08.486 - 55 11 1D 03 01 7C 06 (主卧纱帘关)
2025-08-31 01:37:09.541 - 55 12 12 03 02 0C 40 (主卧窗帘关)
2025-08-31 01:37:09.580 - 55 12 12 03 02 0C 40 (主卧窗帘关)
2025-08-31 01:37:10.639 - 1A 22 33 62 0F 00 02 01 0F (正反转地址-内卫卷帘, 内卫卷帘降)
2025-08-31 01:37:11.686 - 1A 20 07 01 40 00 01 00 0F (自保持开关地址-内卫顶灯, 内卫顶灯关)
2025-08-31 01:37:12.733 - 1A 20 07 01 55 00 01 00 0F (自保持开关地址-主卧顶灯, 主卧顶灯只关)
2025-08-31 01:37:13.280 - 1A FF FF FF 56 00 00 01 0F (人体感应地址-内卫, 打开内卫感应)
2025-08-31 01:37:13.294 - BC BC
2025-08-31 01:37:16.878 - 1A 0C 02 08 01 FF 00 01 FF 00 01 FF 00 00 0F (调光器地址-内卫射灯, 内卫感应灯关)
2025-08-31 01:37:17.475 - 1A 0C 02 04 01 FF 00 01 FF 00 01 FF 00 00 0F (调光器地址-主卧筒灯, 主卧筒灯关闭)
2025-08-31 01:37:18.075 - 1A 0C 02 04 03 FF 00 01 FF 00 01 FF 00 00 0F (调光器地址-主卧灯带, 主卧灯带关闭)
2025-08-31 01:37:18.671 - 1A 0C 02 04 04 FF 00 01 FF 00 01 FF 00 00 0F (调光器地址-主卧南阅, 主卧南阅关闭)
2025-08-31 01:37:19.269 - 1A 0C 02 04 05 FF 00 01 FF 00 01 FF 00 00 0F (调光器地址-主卧北阅, 主卧北阅关闭)
2025-08-31 01:37:19.868 - 1A 0C 02 04 02 FF 00 01 FF 00 01 FF 00 00 0F (调光器地址-主卧过道, 主卧过道关闭)
2025-08-31 01:37:20.460 - 09 06 00 0F 02 02 38 20 (提示音咚)
2025-08-31 01:37:21.009 - EE 00 00 B1 00 00 02 FF FC FF FF (情景完成返回主页)
2025-08-31 01:38:17.166 - 19 08 24 03 CC 01 54 00 01 (调用内卫感应灯开的按键)
2025-08-31 01:38:17.220 - 1A 0C 02 08 01 FF 45 01 FF 45 01 FF 00 00 0F (调光器地址-内卫射灯, 内卫射灯微光)
2025-08-31 01:38:37.706 - 19 08 24 03 CC 01 55 00 01 (调用内卫感应灯关的按键)
2025-08-31 01:38:37.739 - 1A 0C 02 08 01 FF 00 01 FF 00 01 FF 00 00 0F (调光器地址-内卫射灯, 内卫感应灯关)
2025-08-31 01:45:14.770 - 1A BE B0 DC 03 (继电器地址-西阳天幕)
2025-08-31 01:45:14.906 - FF
2025-08-31 01:54:14.852 - 1A BE B0 DC 01 (继电器地址-回水泵点动)
2025-08-31 01:54:14.986 - FF
2025-08-31 02:20:05.055 - FF FF FF FF 0A (继电器地址-东阳窗帘)
2025-08-31 02:20:05.189 - FF
2025-08-31 02:20:15.245 - 1A FF FF FF 04 (继电器地址-东阳衣架)
2025-08-31 02:29:14.982 - 19 08 24 03 CC 00 D3 00 01 (调用厨房感应灯开的按键)
2025-08-31 02:29:15.035 - 55 0A 32 00 00 00 01 92 55 0A 32 00 00 00 02 93 (厨房顶灯一开, 厨房顶灯二开)
2025-08-31 02:29:50.051 - 19 08 24 03 CC 00 D4 00 01 (调用厨房感应灯关的按键)
2025-08-31 02:29:50.106 - 55 0A 31 00 00 00 01 91 55 0A 31 00 00 00 02 92 (厨房顶灯一关, 厨房顶灯二关)
2025-08-31 02:45:41.421 - 19 08 24 03 CC 00 D3 00 01 (调用厨房感应灯开的按键)
2025-08-31 02:45:41.457 - 55 0A 32 00 00 00 01 92 55 0A 32 00 00 00 02 93 (厨房顶灯一开, 厨房顶灯二开)
2025-08-31 02:48:24.453 - 19 08 24 03 CC 01 54 00 01 (调用内卫感应灯开的按键)
2025-08-31 02:48:24.488 - 1A 0C 02 08 01 FF 45 01 FF 45 01 FF 00 00 0F (调光器地址-内卫射灯, 内卫射灯微光)
2025-08-31 02:49:03.820 - 19 08 24 03 CC 00 D4 00 01 (调用厨房感应灯关的按键)
2025-08-31 02:49:03.860 - 55 0A 31 00 00 00 01 91 55 0A 31 00 00 00 02 92 (厨房顶灯一关, 厨房顶灯二关)
2025-08-31 02:49:56.133 - 19 08 24 03 CC 01 55 00 01 (调用内卫感应灯关的按键)
2025-08-31 02:49:56.188 - 1A 0C 02 08 01 FF 00 01 FF 00 01 FF 00 00 0F (调光器地址-内卫射灯, 内卫感应灯关)
2025-08-31 02:50:53.245 - 19 08 24 03 CC 01 54 00 01 (调用内卫感应灯开的按键)
2025-08-31 02:50:53.281 - 1A 0C 02 08 01 FF 45 01 FF 45 01 FF 00 00 0F (调光器地址-内卫射灯, 内卫射灯微光)
2025-08-31 02:51:18.796 - 19 08 24 03 CC 01 55 00 01 (调用内卫感应灯关的按键)
2025-08-31 02:51:18.830 - 1A 0C 02 08 01 FF 00 01 FF 00 01 FF 00 00 0F (调光器地址-内卫射灯, 内卫感应灯关)
2025-08-31 02:51:49.646 - 19 08 24 03 CC 00 D3 00 01 (调用厨房感应灯开的按键)
2025-08-31 02:51:49.682 - 55 0A 32 00 00 00 01 92 55 0A 32 00 00 00 02 93 (厨房顶灯一开, 厨房顶灯二开)
2025-08-31 02:52:46.257 - 19 08 24 03 CC 00 D4 00 01 (调用厨房感应灯关的按键)
2025-08-31 02:52:46.293 - 55 0A 31 00 00 00 01 91 55 0A 31 00 00 00 02 92 (厨房顶灯一关, 厨房顶灯二关)
2025-08-31 02:57:59.707 - 1A BE B0 DC 09 FC (继电器地址-客厅窗帘)
2025-08-31 02:57:59.841 - FF
2025-08-31 03:00:01.361 - 50 F7 01 (全屋影音全关)
2025-08-31 03:00:02.125 - 1A BE B0 DC 02 (正反转地址-外卫卷帘)
2025-08-31 03:03:03.470 - 19 08 24 03 CC 00 D3 00 01 (调用厨房感应灯开的按键)
2025-08-31 03:03:03.524 - 55 0A 32 00 00 00 01 92 55 0A 32 00 00 00 02 93 (厨房顶灯一开, 厨房顶灯二开)
2025-08-31 03:03:51.065 - 19 08 24 03 CC 00 D4 00 01 (调用厨房感应灯关的按键)
2025-08-31 03:03:51.118 - 55 0A 31 00 00 00 01 91 55 0A 31 00 00 00 02 92 (厨房顶灯一关, 厨房顶灯二关)
2025-08-31 03:04:22.841 - 19 08 24 03 CC 01 54 00 01 (调用内卫感应灯开的按键)
2025-08-31 03:04:22.874 - 1A 0C 02 08 01 FF 45 01 FF 45 01 FF 00 00 0F (调光器地址-内卫射灯, 内卫射灯微光)
2025-08-31 03:06:15.063 - 19 08 24 03 CC 01 55 00 01 (调用内卫感应灯关的按键)
2025-08-31 03:06:15.096 - 1A 0C 02 08 01 FF 00 01 FF 00 01 FF 00 00 0F (调光器地址-内卫射灯, 内卫感应灯关)
2025-08-31 03:17:40.758 - 1A BE B0 DC 04 (继电器地址-西阳窗帘)
2025-08-31 03:17:40.892 - FF
2025-08-31 03:29:51.132 - 19 08 24 03 CC 00 D3 00 01 (调用厨房感应灯开的按键)
2025-08-31 03:29:51.187 - 55 0A 32 00 00 00 01 92 55 0A 32 00 00 00 02 93 (厨房顶灯一开, 厨房顶灯二开)
2025-08-31 03:31:06.780 - 19 08 24 03 CC 00 D4 00 01 (调用厨房感应灯关的按键)
2025-08-31 03:31:06.835 - 55 0A 31 00 00 00 01 91 55 0A 31 00 00 00 02 92 (厨房顶灯一关, 厨房顶灯二关)
2025-08-31 03:32:59.889 - 1A BE B0 DC 0A FE (继电器地址-客厅纱帘)
2025-08-31 03:55:57.438 - 19 08 24 03 CC 01 54 00 01 (调用内卫感应灯开的按键)
2025-08-31 03:55:57.489 - 1A 0C 02 08 01 FF 45 01 FF 45 01 FF 00 00 0F (调光器地址-内卫射灯, 内卫射灯微光)
2025-08-31 03:58:50.279 - 19 08 24 03 CC 01 55 00 01 (调用内卫感应灯关的按键)
2025-08-31 03:58:50.330 - 1A 0C 02 08 01 FF 00 01 FF 00 01 FF 00 00 0F (调光器地址-内卫射灯, 内卫感应灯关)
2025-08-31 04:00:23.463 - 19 08 24 03 CC 01 54 00 01 (调用内卫感应灯开的按键)
2025-08-31 04:00:23.497 - 1A 0C 02 08 01 FF 45 01 FF 45 01 FF 00 00 0F (调光器地址-内卫射灯, 内卫射灯微光)
2025-08-31 04:00:44.002 - 19 08 24 03 CC 01 55 00 01 (调用内卫感应灯关的按键)
2025-08-31 04:00:44.036 - 1A 0C 02 08 01 FF 00 01 FF 00 01 FF 00 00 0F (调光器地址-内卫射灯, 内卫感应灯关)
2025-08-31 04:24:26.987 - FF FF FF FF 0E (继电器地址-西阳小窗帘)
2025-08-31 04:24:27.122 - FF
2025-08-31 04:30:02.370 - EE 00 00 B1 00 00 00 FF FC FF FF (情景执行提示)
2025-08-31 04:30:02.963 - A5 00 A2 FF 00 AA (餐厅纱帘关)
2025-08-31 04:30:04.089 - A5 00 A6 FF 00 AA (餐厅窗帘关)
2025-08-31 04:30:04.144 - 55 00 A6 01 00 0F 01 74 AA 55 00 A6 01 00 0F 01 74 AA (餐厅窗帘电机状态返回)
2025-08-31 04:30:05.158 - A5 00 B7 FF 00 AA 22 0D (书房纱帘关)
2025-08-31 04:30:06.204 - A5 00 D2 FF 00 AA 22 0C (书房窗帘关)
2025-08-31 04:30:06.259 - 55 00 D2 01 00 0D 01 0B AA 55 00 D2 01 00 0D (书房窗帘电机状态返回)
2025-08-31 04:30:06.263 - FF FF
2025-08-31 04:30:07.303 - EE 00 00 B1 00 00 02 FF FC FF FF (情景完成返回主页)
2025-08-31 04:30:12.776 - 55 00 A6 00 01 66 01 74 AA 55 00 A6 00 01 66 01 74 AA (餐厅窗帘电机状态返回)
2025-08-31 04:30:15.098 - 55 00 D2 00 00 FE 01 0B AA 55 00 D2 00 00 FE 01 0B AA (书房窗帘电机状态返回)
2025-08-31 05:06:10.160 - 1A BE B0 DC 03 FC (继电器地址-西阳天幕)
2025-08-31 05:15:14.695 - 1A BE B0 DC 01 FC (继电器地址-回水泵点动)
2025-08-31 05:15:14.828 - FF
2025-08-31 05:40:19.017 - FF FF FF FF 0A (继电器地址-东阳窗帘)
2025-08-31 05:40:19.151 - FE
2025-08-31 05:41:16.786 - 1A FF FF FF 04 (继电器地址-东阳衣架)
2025-08-31 06:18:22.112 - 1A BE B0 DC 09 FC (继电器地址-客厅窗帘)
2025-08-31 06:18:22.249 - FE
2025-08-31 06:20:31.528 - 1A BE B0 DC 02 FD (正反转地址-外卫卷帘)
2025-08-31 06:20:31.667 - FF
2025-08-31 06:37:31.986 - 1A BE B0 DC 04 FC (继电器地址-西阳窗帘)
2025-08-31 06:37:32.120 - FF
2025-08-31 06:53:33.426 - 1A BE B0 DC 0A FC (继电器地址-客厅纱帘)
2025-08-31 06:53:33.560 - FE
2025-08-31 07:44:29.540 - FF FF FF FF 0E (继电器地址-西阳小窗帘)
2025-08-31 07:44:29.674 - FC
2025-08-31 07:46:06.662 - 19 08 24 03 CC 01 54 00 01 (调用内卫感应灯开的按键)
2025-08-31 07:46:06.713 - 1A 0C 02 08 01 FF 45 01 FF 45 01 FF 00 00 0F (调光器地址-内卫射灯, 内卫射灯微光)
2025-08-31 07:47:54.373 - 19 08 24 03 CC 01 55 00 01 (调用内卫感应灯关的按键)
2025-08-31 07:47:54.426 - 1A 0C 02 08 01 FF 00 01 FF 00 01 FF 00 00 0F (调光器地址-内卫射灯, 内卫感应灯关)
2025-08-31 08:27:05.291 - 1A BE B0 DC 03 FF (继电器地址-西阳天幕)
2025-08-31 08:27:05.426 - FF
2025-08-31 08:35:39.440 - 19 08 24 03 DD 00 4A 00 01 (调用情景-主卧起床)
2025-08-31 08:35:39.968 - EE 00 00 B1 00 00 00 FF FC FF FF (情景执行提示)
2025-08-31 08:35:40.564 - 09 06 00 0F 02 01 78 21 (提示音叮)
2025-08-31 08:35:41.107 - 50 F0 04 (开内卫影视)
2025-08-31 08:35:41.654 - 50 F0 05 (开主卧影视)
2025-08-31 08:35:42.206 - 55 11 1D 03 01 7C 06 (主卧纱帘关)
2025-08-31 08:35:42.252 - 55 11 1D 03 01 7C 06 (主卧纱帘关)
2025-08-31 08:35:42.805 - 55 11 1D 03 01 7C 06 (主卧纱帘关)
2025-08-31 08:35:42.848 - 55 11 1D 03 01 7C 06 (主卧纱帘关)
2025-08-31 08:35:43.432 - 55 12 12 03 01 4C 41 (主卧窗帘开)
2025-08-31 08:35:43.473 - 55 12 12 03 01 4C 41 (主卧窗帘开)
2025-08-31 08:35:44.498 - 55 12 12 03 01 4C 41 (主卧窗帘开)
2025-08-31 08:35:44.542 - 55 12 12 03 01 4C 41 (主卧窗帘开)
2025-08-31 08:35:45.598 - 1A 22 33 62 0F 00 02 01 0F (正反转地址-内卫卷帘, 内卫卷帘降)
2025-08-31 08:35:46.644 - 1A FF FF FF 56 00 00 00 0F (人体感应地址-内卫, 关闭内卫感应)
2025-08-31 08:35:46.757 - BC BC
2025-08-31 08:35:47.690 - 1A 20 07 01 55 00 01 00 0F (自保持开关地址-主卧顶灯, 主卧顶灯只关)
2025-08-31 08:35:48.742 - 1A 0C 02 08 01 FF 45 01 FF 45 01 FF 00 00 0F (调光器地址-内卫射灯, 内卫射灯微光)
2025-08-31 08:35:49.840 - 1A 0C 02 04 01 FF 45 01 FF 45 01 FF 00 00 0F (调光器地址-主卧筒灯, 主卧筒灯微光)
2025-08-31 08:35:50.438 - 1A 0C 02 04 03 FF 45 01 FF 45 01 FF 00 00 0F (调光器地址-主卧灯带, 主卧灯带微光)
2025-08-31 08:35:51.036 - 1A 0C 02 04 02 FF 45 01 FF 45 01 FF 00 00 0F (调光器地址-主卧过道, 主卧过道微光)
2025-08-31 08:35:51.620 - 50 F1 25 (主卧—有线2)
2025-08-31 08:35:52.169 - 50 F1 24 (内卫—有线2)
2025-08-31 08:35:53.219 - AF BF CF DF C2 21 (有线2/快捷-凤凰卫视)
2025-08-31 08:35:53.769 - 1A FF FF FF 60 0B 01 01 0F (红外总线地址-主卧发射设备, 主卧电视电源)
2025-08-31 08:35:54.289 - F0 0B 01 08
2025-08-31 08:35:58.805 - 09 06 00 0F 02 02 38 20 (提示音咚)
2025-08-31 08:35:59.357 - EE 00 00 B1 00 00 02 FF FC FF FF (情景完成返回主页)
2025-08-31 08:35:59.950 - A1 11 11 11 11 01 (内卫浴霸取暖判断)
2025-08-31 08:36:00.169 - 14 03 00 00 00 02 C6 CE (查询内卫温湿度)
2025-08-31 08:36:00.188 - 14 03 04 01 C0 01 0D 7F 67 (内卫温湿度返回)
2025-08-31 08:36:56.784 - 1A BE B0 DC 01 FC (继电器地址-回水泵点动)
2025-08-31 08:36:56.920 - FF
2025-08-31 08:51:33.049 - A1 11 11 11 40 (客厅空调自动开)
2025-08-31 08:51:33.270 - 19 08 24 03 F0 BB 78 02 02 00
2025-08-31 08:51:33.492 - 23 AA 56 02 08 33 22 19 08 1F 07 73 65 6F 6B 65 6E 64
2025-08-31 08:51:34.281 - 01 10 07 D0 00 03 06 70 61 00 02 00 FA 6F 26 (客厅空调冷25度)
2025-08-31 08:51:34.318 - 01 10 07 D0 00 03 06 70 61 00 02 00 FA 6F 26 (客厅空调冷25度)
2025-08-31 08:51:39.831 - A1 11 11 11 41 (餐厅空调自动开)
2025-08-31 08:51:40.061 - 19 08 24 03 F0 BB 78 02 02 00
2025-08-31 08:51:40.274 - 23 AA 56 02 08 33 29 19 08 1F 07 73 65 6F 6B 65 6E 64
2025-08-31 08:51:41.071 - 01 10 07 D3 00 03 06 70 61 00 02 00 FA 9F 29 (餐厅空调冷25度)
2025-08-31 08:51:41.106 - 01 10 07 D3 00 03 06 70 61 00 02 00 FA 9F 29 (餐厅空调冷25度)
2025-08-31 08:51:44.671 - 1A FF 03 00 00 86 86 86 0F (调用查询模块-主卧空调开关查询, 主卧空调虚拟地址)
2025-08-31 08:51:44.892 - 01 04 07 DC 00 01 F1 44 (查询主卧空调开关状态)
2025-08-31 08:51:44.915 - 01 04 02 70 01 5D 30
2025-08-31 08:51:45.896 - 1A FF 03 00 00 01 00 0F (主卧空调虚拟地址)
2025-08-31 08:51:46.109 - 1A FF 04 00 00 86 86 86 0F (调用查询模块-次卧空调开关查询, 次卧空调虚拟地址)
2025-08-31 08:51:46.336 - 01 04 07 E2 00 01 90 88 (查询次卧空调开关状态)
2025-08-31 08:51:46.359 - 01 04 02 70 01 5D 30
2025-08-31 08:51:47.341 - 1A FF 04 00 00 01 00 0F (次卧空调虚拟地址)
2025-08-31 08:51:47.473 - 1A FF 05 00 00 86 86 86 0F (调用查询模块-书房空调开关查询, 书房空调虚拟地址)
2025-08-31 08:51:47.701 - 01 04 07 E8 00 01 B0 8A (查询书房空调开关状态)
2025-08-31 08:51:47.722 - 01 04 02 70 00 9C F0
2025-08-31 08:51:48.704 - 1A FF 05 00 00 00 00 0F (书房空调虚拟地址)
2025-08-31 08:51:48.906 - 1A FF 02 00 00 86 86 86 0F (调用查询模块-餐厅空调开关查询, 餐厅空调虚拟地址)
2025-08-31 08:51:49.134 - 01 04 07 D6 00 01 D1 46 (查询餐厅空调开关状态)
2025-08-31 08:51:49.155 - 01 04 02 70 01 5D 30
2025-08-31 08:51:50.137 - 1A FF 02 00 00 01 00 0F (餐厅空调虚拟地址)
2025-08-31 08:51:50.239 - 1A FF 01 00 00 86 86 86 0F (调用查询模块-客厅空调开关查询, 客厅空调虚拟地址)
2025-08-31 08:51:50.469 - 01 04 07 D0 00 01 31 47 (查询客厅空调开关状态)
2025-08-31 08:51:50.488 - 01 04 02 70 01 5D 30
2025-08-31 08:51:51.472 - 1A FF 01 00 00 01 00 0F (客厅空调虚拟地址)
2025-08-31 08:51:51.672 - 1A 10 00 00 00 86 86 86 0F (调用查询模块-主卧测温转换, 主卧温湿度虚拟地址)
2025-08-31 08:51:51.903 - 1D 03 00 00 00 02 C6 57 (查询主卧温湿度)
2025-08-31 08:51:51.925 - 1D 03 04 01 CB 01 06 D6 62 (主卧温湿度返回)
2025-08-31 08:51:52.926 - 1A 10 00 00 00 00 00 01 00 00 01 00 00 01 01 06 01 01 CB 01 00 00 01 00 00 01 0F (主卧温湿度虚拟地址)
2025-08-31 08:51:53.107 - 1A 11 00 00 00 86 86 86 0F (调用查询模块-次卧测温转换, 次卧温湿度虚拟地址)
2025-08-31 08:51:53.336 - 11 03 00 00 00 02 C6 9B (查询次卧温湿度)
2025-08-31 08:51:53.356 - 11 03 04 02 84 00 F4 AB E4 (次卧温湿度返回)
2025-08-31 08:51:54.361 - 1A 11 00 00 00 00 00 01 00 00 01 00 00 01 00 F4 01 02 84 01 00 00 01 00 00 01 0F (次卧温湿度虚拟地址)
2025-08-31 08:51:54.578 - 1A 12 00 00 00 86 86 86 0F (调用查询模块-书房测温转换, 书房温湿度虚拟地址)
2025-08-31 08:51:54.801 - 12 03 00 00 00 02 C6 A8 (查询书房温湿度)
2025-08-31 08:51:54.820 - 12 03 04 02 25 01 39 09 03 (书房温湿度返回)
2025-08-31 08:51:55.824 - 1A 12 00 00 00 00 00 01 00 00 01 00 00 01 01 39 01 02 25 01 00 00 01 00 00 01 0F (书房温湿度虚拟地址)
2025-08-31 08:51:55.975 - 1A 13 00 00 00 86 86 86 0F (调用查询模块-外卫测温转换, 外卫温湿度虚拟地址)
2025-08-31 08:51:56.194 - 13 03 00 00 00 02 C7 79 (查询外卫温湿度)
2025-08-31 08:51:56.217 - 13 03 04 02 30 01 30 C8 01 (外卫温湿度返回)
2025-08-31 08:51:57.219 - 1A 13 00 00 00 00 00 01 00 00 01 00 00 01 01 30 01 02 30 01 00 00 01 00 00 01 0F (外卫温湿度虚拟地址)
2025-08-31 08:51:57.408 - 1A 14 00 00 00 86 86 86 0F (调用查询模块-内卫测温转换, 内卫温湿度虚拟地址)
2025-08-31 08:51:57.628 - 14 03 00 00 00 02 C6 CE (查询内卫温湿度)
2025-08-31 08:51:57.648 - 14 03 04 01 DF 01 0F CF 60 (内卫温湿度返回)
2025-08-31 08:51:58.652 - 1A 14 00 00 00 00 00 01 00 00 01 00 00 01 01 0F 01 01 DF 01 00 00 01 00 00 01 0F (内卫温湿度虚拟地址)
2025-08-31 08:51:58.840 - 1A 15 00 00 00 86 86 86 0F (调用查询模块-客厅测温转换, 客厅温湿度虚拟地址)
2025-08-31 08:51:59.061 - 15 03 00 00 00 02 C7 1F (查询客厅温湿度)
2025-08-31 08:51:59.085 - 15 03 04 02 34 01 2E 6F C8 (客厅温湿度返回)
2025-08-31 08:52:00.087 - 1A 15 00 00 00 00 00 01 00 00 01 00 00 01 01 2E 01 02 34 01 00 00 01 00 00 01 0F (客厅温湿度虚拟地址)
2025-08-31 08:52:00.312 - 1A 16 00 00 00 86 86 86 0F (调用查询模块-机柜测温转换, 机柜温湿度虚拟地址)
2025-08-31 08:52:00.536 - 16 03 00 00 00 02 C7 2C (查询机柜温湿度)
2025-08-31 08:52:01.561 - 1A 16 00 00 00 00 00 01 00 00 01 00 00 01 86 86 01 00 00 01 00 00 01 00 00 01 0F (机柜温湿度虚拟地址)
2025-08-31 08:52:01.707 - 1A 0E 00 00 00 86 86 86 0F (调用查询模块-厨房测温转换, 厨房温湿度虚拟地址)
2025-08-31 08:52:01.930 - 0E 03 00 00 00 02 C4 F4 (查询厨房温湿度)
2025-08-31 08:52:01.955 - 0E 03 04 01 F6 01 45 24 9E (厨房温湿度返回)
2025-08-31 08:52:02.955 - 1A 0E 00 00 00 00 00 01 00 00 01 00 00 01 01 45 01 01 F6 01 00 00 01 00 00 01 0F (厨房温湿度虚拟地址)
2025-08-31 08:52:03.178 - 1A 0F 00 00 00 86 86 86 0F (调用查询模块-餐厅测温转换, 餐厅温湿度虚拟地址)
2025-08-31 08:52:03.403 - 1C 03 00 00 00 02 C7 86 (查询餐厅温湿度)
2025-08-31 08:52:03.427 - 1C 03 04 01 FA 01 3F 57 7F (餐厅温湿度返回)
2025-08-31 08:52:04.428 - 1A 0F 00 00 00 00 00 01 00 00 01 00 00 01 01 3F 01 01 FA 01 00 00 01 00 00 01 0F (餐厅温湿度虚拟地址)
2025-08-31 08:52:04.574 - 1A 20 00 00 00 86 86 86 0F (调用查询模块-阳台测温湿气压转换, 阳台温湿气压虚拟地址)
2025-08-31 08:52:04.797 - 20 03 00 00 00 03 03 7A (查询阳台温湿度气压)
2025-08-31 08:52:04.819 - 20 03 06 01 4E 01 F9 27 17 56 C8 (阳台温湿度返回)
2025-08-31 08:52:05.320 - 1A 20 00 00 00 00 00 01 00 00 01 00 00 01 01 4E 01 01 F9 01 27 17 01 00 00 01 0F (阳台温湿气压虚拟地址)
2025-08-31 08:52:05.424 - 1A 21 00 00 00 86 86 86 0F (调用查询模块-储藏室测温湿气压转换, 储藏室温湿气压虚拟地址)
2025-08-31 08:52:05.650 - 21 03 00 00 00 03 02 AB (查询储藏室温湿度气压)
2025-08-31 08:52:05.671 - 21 03 06 01 4C 02 1A 27 14 93 2B (储藏室温湿度返回)
2025-08-31 08:52:06.173 - 1A 21 00 00 00 00 00 01 00 00 01 00 00 01 01 4C 01 02 1A 01 27 14 01 00 00 01 0F (储藏室温湿气压虚拟地址)
2025-08-31 08:52:06.315 - 1A 22 00 00 00 86 86 86 0F (调用查询模块-室外测温湿气压转换, 室外温湿气压虚拟地址)
2025-08-31 08:52:06.543 - 22 03 00 00 00 03 02 98 (查询室外温湿度气压)
2025-08-31 08:52:06.565 - 22 03 06 01 5A 02 33 27 12 9F D2 (室外温湿度返回)
2025-08-31 08:52:07.065 - 1A 22 00 00 00 00 00 01 00 00 01 00 00 01 01 5A 01 02 33 01 27 12 01 00 00 01 0F (室外温湿气压虚拟地址)
2025-08-31 08:52:42.354 - 1A 20 00 00 00 86 86 86 0F (调用查询模块-阳台测温湿气压转换, 阳台温湿气压虚拟地址)
2025-08-31 08:52:42.575 - 20 03 00 00 00 03 03 7A (查询阳台温湿度气压)
2025-08-31 08:52:42.598 - 20 03 06 01 4F 01 FD 27 17 2A C9 (阳台温湿度返回)
2025-08-31 08:52:43.098 - 1A 20 00 00 00 00 00 01 00 00 01 00 00 01 01 4F 01 01 FD 01 27 17 01 00 00 01 0F (阳台温湿气压虚拟地址)
2025-08-31 08:52:43.280 - 1A 21 00 00 00 86 86 86 0F (调用查询模块-储藏室测温湿气压转换, 储藏室温湿气压虚拟地址)
2025-08-31 08:52:43.508 - 21 03 00 00 00 03 02 AB (查询储藏室温湿度气压)
2025-08-31 08:52:43.529 - 21 03 06 01 4C 02 19 27 14 63 2B (储藏室温湿度返回)
2025-08-31 08:52:44.030 - 1A 21 00 00 00 00 00 01 00 00 01 00 00 01 01 4C 01 02 19 01 27 14 01 00 00 01 0F (储藏室温湿气压虚拟地址)
2025-08-31 08:52:44.202 - 1A 22 00 00 00 86 86 86 0F (调用查询模块-室外测温湿气压转换, 室外温湿气压虚拟地址)
2025-08-31 08:52:44.422 - 22 03 00 00 00 03 02 98 (查询室外温湿度气压)
2025-08-31 08:52:44.441 - 22 03 06 01 59 02 31 27 12 7A 12 (室外温湿度返回)
2025-08-31 08:52:44.943 - 1A 22 00 00 00 00 00 01 00 00 01 00 00 01 01 59 01 02 31 01 27 12 01 00 00 01 0F (室外温湿气压虚拟地址)
2025-08-31 08:52:45.127 - 1A 23 00 00 00 86 86 86 0F (调用查询模块-客厅测温湿气压转换, 客厅温湿气压虚拟地址)
2025-08-31 08:52:45.354 - 23 03 00 00 00 03 03 49 (查询客厅温湿度气压)
2025-08-31 08:52:45.374 - 23 03 06 01 35 02 29 27 18 E7 8B (客厅温湿度返回)
2025-08-31 08:52:45.877 - 1A 23 00 00 00 00 00 01 00 00 01 00 00 01 01 35 01 02 29 01 27 18 01 00 00 01 0F (客厅温湿气压虚拟地址)
2025-08-31 08:52:46.046 - 1A 24 00 00 00 86 86 86 0F (调用查询模块-餐厅测温湿气压转换, 餐厅温湿气压虚拟地址)
2025-08-31 08:52:46.267 - 24 03 00 00 00 03 02 FE (查询餐厅温湿度气压)
2025-08-31 08:52:46.287 - 24 03 06 01 4A 01 E3 27 14 F4 0E (餐厅温湿度返回)
2025-08-31 08:52:46.789 - 1A 24 00 00 00 00 00 01 00 00 01 00 00 01 01 4A 01 01 E3 01 27 14 01 00 00 01 0F (餐厅温湿气压虚拟地址)
2025-08-31 08:52:47.004 - 1A 25 00 00 00 86 86 86 0F (调用查询模块-主卧测温湿气压转换, 主卧温湿气压虚拟地址)
2025-08-31 08:52:47.230 - 25 03 00 00 00 03 03 2F (查询主卧温湿度气压)
2025-08-31 08:52:47.250 - 25 03 06 01 1E 01 79 27 13 A9 BF (主卧温湿度返回)
2025-08-31 08:52:47.752 - 1A 25 00 00 00 00 00 01 00 00 01 00 00 01 01 1E 01 01 79 01 27 13 01 00 00 01 0F (主卧温湿气压虚拟地址)
2025-08-31 09:02:50.492 - FF FF FF FF 0A (继电器地址-东阳窗帘)
2025-08-31 09:02:50.627 - FF
2025-08-31 09:02:57.120 - 1A FF FF FF 04 (继电器地址-东阳衣架)
2025-08-31 09:02:57.254 - FF
2025-08-31 09:06:00.050 - 19 08 24 03 CC 01 52 00 01 (调用外卫感应灯开的按键)
2025-08-31 09:06:00.101 - 1A 0D 01 07 01 FF 45 01 FF 45 01 FF 00 00 0F (调光器地址-外卫射灯, 外卫感应灯开)
2025-08-31 09:06:23.595 - 19 08 24 03 CC 01 53 00 01 (调用外卫感应灯关的按键)
2025-08-31 09:06:23.648 - 1A 0D 01 07 01 FF 00 01 FF 00 01 FF 00 00 0F (调光器地址-外卫射灯, 外卫感应灯关)
2025-08-31 09:07:13.773 - 19 08 24 03 DD 00 40 00 01 (调用情景-离开主卧)
2025-08-31 09:07:14.282 - EE 00 00 B1 00 00 00 FF FC FF FF (情景执行提示)
2025-08-31 09:07:14.878 - 09 06 00 0F 02 01 78 21 (提示音叮)
2025-08-31 09:07:15.421 - 50 F5 05 (关主卧影视)
2025-08-31 09:07:16.019 - 50 F5 04 (关内卫影视)
2025-08-31 09:07:16.572 - 01 06 07 D6 FF 60 28 9E (主卧空调关)
2025-08-31 09:07:16.605 - 01 06 07 D6 FF 60 28 9E (主卧空调关)
2025-08-31 09:07:17.169 - 55 12 12 03 01 4C 41 (主卧窗帘开)
2025-08-31 09:07:17.207 - 55 12 12 03 01 4C 41 (主卧窗帘开)
2025-08-31 09:07:18.266 - 55 12 12 03 01 4C 41 (主卧窗帘开)
2025-08-31 09:07:18.475 - 55 12 12 03 01 4C 41 (主卧窗帘开)
2025-08-31 09:07:19.312 - 55 11 1D 03 02 3C 07 (主卧纱帘开)
2025-08-31 09:07:19.356 - 55 11 1D 03 02 3C 07 (主卧纱帘开)
2025-08-31 09:07:19.909 - 55 11 1D 03 02 3C 07 (主卧纱帘开)
2025-08-31 09:07:19.951 - 55 11 1D 03 02 3C 07 (主卧纱帘开)
2025-08-31 09:07:20.509 - 1A 22 33 62 0F 00 00 01 0F (正反转地址-内卫卷帘, 内卫卷帘升)
2025-08-31 09:07:21.557 - 1A 20 07 01 40 00 01 00 0F (自保持开关地址-内卫顶灯, 内卫顶灯关)
2025-08-31 09:07:22.602 - 1A 20 07 01 55 00 01 00 0F (自保持开关地址-主卧顶灯, 主卧顶灯只关)
2025-08-31 09:07:23.157 - 1A 0C 02 08 01 FF 00 01 FF 00 01 FF 00 00 0F (调光器地址-内卫射灯, 内卫感应灯关)
2025-08-31 09:07:23.749 - 1A FF FF FF 56 00 00 01 0F (人体感应地址-内卫, 打开内卫感应)
2025-08-31 09:07:23.859 - BF BF
2025-08-31 09:07:24.167 - 19 08 24 03 CC 01 54 00 01 (调用内卫感应灯开的按键)
2025-08-31 09:07:24.221 - 1A 0C 02 08 01 FF 45 01 FF 45 01 FF 00 00 0F (调光器地址-内卫射灯, 内卫射灯微光)
2025-08-31 09:07:27.597 - 1A 0C 02 04 FF FF 00 01 FF 00 01 FF 00 00 0F (主卧调光全关)
2025-08-31 09:07:28.685 - 09 06 00 0F 02 02 38 20 (提示音咚)
2025-08-31 09:07:29.236 - EE 00 00 B1 00 00 02 FF FC FF FF (情景完成返回主页)
2025-08-31 09:08:03.949 - 19 08 24 03 CC 01 55 00 01 (调用内卫感应灯关的按键)
2025-08-31 09:08:03.984 - 1A 0C 02 08 01 FF 00 01 FF 00 01 FF 00 00 0F (调光器地址-内卫射灯, 内卫感应灯关)
2025-08-31 09:08:15.682 - 19 08 24 03 CC 01 CC 00 01 (调用茶吧感应灯开的按键)
2025-08-31 09:08:15.714 - 1A AA AA AA 88 FF B0 01 FF B0 01 0F (调光器地址-茶吧灯带, 茶吧灯带明亮)
2025-08-31 09:09:01.773 - 19 08 24 03 CC 01 CD 00 01 (调用茶吧感应灯关的按键)
2025-08-31 09:09:01.805 - 1A AA AA AA 88 FF 00 01 FF 00 01 0F (调光器地址-茶吧灯带, 茶吧灯带关闭)
2025-08-31 09:09:36.090 - 19 08 24 03 DD 00 3B 00 01 (调用情景-书房照明关帘)
2025-08-31 09:09:36.621 - EE 00 00 B1 00 00 00 FF FC FF FF (情景执行提示)
2025-08-31 09:09:37.217 - 09 06 00 0F 02 01 78 21 (提示音叮)
2025-08-31 09:09:37.773 - 1A 0A 04 06 01 FF F0 01 FF F0 01 FF 00 00 0F (调光器地址-书房射灯, 书房射灯明亮)
2025-08-31 09:09:41.852 - A5 00 B7 FF 00 AA 22 0D (书房纱帘关)
2025-08-31 09:09:42.898 - A5 00 D2 FF 00 AA 22 0C (书房窗帘关)
2025-08-31 09:09:43.944 - 09 06 00 0F 02 02 38 20 (提示音咚)
2025-08-31 09:09:44.496 - EE 00 00 B1 00 00 02 FF FC FF FF (情景完成返回主页)
2025-08-31 09:11:13.056 - 19 08 24 03 CC 00 A6 00 01
2025-08-31 09:11:13.090 - 1A 0A 04 06 01 FF 00 01 FF 00 01 FF 00 00 0F (调光器地址-书房射灯, 书房射灯关闭)
2025-08-31 09:11:27.359 - 19 08 24 03 CC 01 54 00 01 (调用内卫感应灯开的按键)
2025-08-31 09:11:27.393 - 1A 0C 02 08 01 FF 45 01 FF 45 01 FF 00 00 0F (调光器地址-内卫射灯, 内卫射灯微光)
2025-08-31 09:12:11.946 - 19 08 24 03 CC 01 55 00 01 (调用内卫感应灯关的按键)
2025-08-31 09:12:11.981 - 1A 0C 02 08 01 FF 00 01 FF 00 01 FF 00 00 0F (调光器地址-内卫射灯, 内卫感应灯关)
2025-08-31 09:13:52.645 - 19 08 24 03 CC 01 54 00 01 (调用内卫感应灯开的按键)
2025-08-31 09:13:52.679 - 1A 0C 02 08 01 FF 45 01 FF 45 01 FF 00 00 0F (调光器地址-内卫射灯, 内卫射灯微光)
2025-08-31 09:14:13.186 - 19 08 24 03 CC 01 55 00 01 (调用内卫感应灯关的按键)
2025-08-31 09:14:13.220 - 1A 0C 02 08 01 FF 00 01 FF 00 01 FF 00 00 0F (调光器地址-内卫射灯, 内卫感应灯关)
2025-08-31 09:14:23.706 - 19 08 24 03 CC 01 54 00 01 (调用内卫感应灯开的按键)
2025-08-31 09:14:23.741 - 1A 0C 02 08 01 FF 45 01 FF 45 01 FF 00 00 0F (调光器地址-内卫射灯, 内卫射灯微光)
2025-08-31 09:14:40.740 - 19 08 24 03 CC 01 55 00 01 (调用内卫感应灯关的按键)
2025-08-31 09:14:40.774 - 1A 0C 02 08 01 FF 00 01 FF 00 01 FF 00 00 0F (调光器地址-内卫射灯, 内卫感应灯关)
2025-08-31 09:17:03.521 - 19 08 24 03 CC 01 54 00 01 (调用内卫感应灯开的按键)
2025-08-31 09:17:03.554 - 1A 0C 02 08 01 FF 45 01 FF 45 01 FF 00 00 0F (调光器地址-内卫射灯, 内卫射灯微光)
2025-08-31 09:18:17.167 - 19 08 24 03 CC 01 55 00 01 (调用内卫感应灯关的按键)
2025-08-31 09:18:17.232 - 1A 0C 02 08 01 FF 00 01 FF 00 01 FF 00 00 0F (调光器地址-内卫射灯, 内卫感应灯关)
2025-08-31 09:19:59.868 - 19 08 24 03 CC 01 54 00 01 (调用内卫感应灯开的按键)
2025-08-31 09:19:59.903 - 1A 0C 02 08 01 FF 45 01 FF 45 01 FF 00 00 0F (调光器地址-内卫射灯, 内卫射灯微光)
2025-08-31 09:20:20.909 - 19 08 24 03 CC 01 55 00 01 (调用内卫感应灯关的按键)
2025-08-31 09:20:20.943 - 1A 0C 02 08 01 FF 00 01 FF 00 01 FF 00 00 0F (调光器地址-内卫射灯, 内卫感应灯关)
2025-08-31 09:20:58.485 - 19 08 24 03 CC 01 54 00 01 (调用内卫感应灯开的按键)
2025-08-31 09:20:58.518 - 1A 0C 02 08 01 FF 45 01 FF 45 01 FF 00 00 0F (调光器地址-内卫射灯, 内卫射灯微光)
2025-08-31 09:21:44.075 - 19 08 24 03 CC 01 55 00 01 (调用内卫感应灯关的按键)
2025-08-31 09:21:44.108 - 1A 0C 02 08 01 FF 00 01 FF 00 01 FF 00 00 0F (调光器地址-内卫射灯, 内卫感应灯关)
2025-08-31 09:22:35.174 - 19 08 24 03 CC 01 54 00 01 (调用内卫感应灯开的按键)
2025-08-31 09:22:35.210 - 1A 0C 02 08 01 FF 45 01 FF 45 01 FF 00 00 0F (调光器地址-内卫射灯, 内卫射灯微光)
2025-08-31 09:22:56.923 - EE 00 71 B1 01 00 03 FF FC FF FF
2025-08-31 09:22:58.706 - EE 00 71 B1 01 00 04 FF FC FF FF
2025-08-31 09:22:59.032 - 1A 0B 01 03 03 86 86 86 0F (调光器地址-餐厅灯带)
2025-08-31 09:22:59.078 - 1A 0B 01 03 03 00 4C 00 00 4C 00 00 (调光器地址-餐厅灯带)
2025-08-31 09:22:59.081 - 0D 00 0F
2025-08-31 09:22:59.418 - EE 00 71 B1 12 00 09 00 02 00 04 00 00 00 00 00 04 00 04 00 00 00 00 FF FC FF FF
2025-08-31 09:22:59.717 - EE 00 71 B1 12 00 04 00 02 00 04 00 00 00 00 00 04 00 04 00 00 00 00 FF FC FF FF
2025-08-31 09:23:00.464 - EE 00 71 B1 11 00 04 00 04 13 00 00 00 E9 FF FC FF FF
2025-08-31 09:23:00.793 - 1A FF 01 03 FF FF 00 00 FF E9 01 FF 00 00 0F (调光器地址-餐厅区域统配地址)
2025-08-31 09:23:01.241 - 19 08 24 03 CC 01 55 00 01 (调用内卫感应灯关的按键)
2025-08-31 09:23:01.293 - 1A 0C 02 08 01 FF 00 01 FF 00 01 FF 00 00 0F (调光器地址-内卫射灯, 内卫感应灯关)
2025-08-31 09:23:03.350 - EE 00 71 B1 11 00 04 00 04 13 00 00 00 BC FF FC FF FF
2025-08-31 09:23:03.674 - 1A FF 01 03 FF FF 00 00 FF BC 01 FF 00 00 0F (调光器地址-餐厅区域统配地址)
2025-08-31 09:23:04.752 - EE 00 71 B1 01 00 03 FF FC FF FF
2025-08-31 09:23:06.451 - 19 08 24 03 CC 01 CC 00 01 (调用茶吧感应灯开的按键)
2025-08-31 09:23:06.500 - 1A AA AA AA 88 FF B0 01 FF B0 01 0F (调光器地址-茶吧灯带, 茶吧灯带明亮)
2025-08-31 09:23:06.773 - EE 00 71 B1 01 00 02 FF FC FF FF
2025-08-31 09:23:22.984 - 19 08 24 03 CC 01 CD 00 01 (调用茶吧感应灯关的按键)
2025-08-31 09:23:23.016 - 1A AA AA AA 88 FF 00 01 FF 00 01 0F (调光器地址-茶吧灯带, 茶吧灯带关闭)
2025-08-31 09:24:43.441 - 19 08 24 03 CC 01 54 00 01 (调用内卫感应灯开的按键)
2025-08-31 09:24:43.492 - 1A 0C 02 08 01 FF 45 01 FF 45 01 FF 00 00 0F (调光器地址-内卫射灯, 内卫射灯微光)
2025-08-31 09:25:04.984 - 19 08 24 03 CC 01 55 00 01 (调用内卫感应灯关的按键)
2025-08-31 09:25:05.017 - 1A 0C 02 08 01 FF 00 01 FF 00 01 FF 00 00 0F (调光器地址-内卫射灯, 内卫感应灯关)
2025-08-31 09:27:09.201 - 19 08 24 03 DD 00 28 00 01 (调用情景-离开次卧)
2025-08-31 09:27:09.715 - EE 00 00 B1 00 00 00 FF FC FF FF (情景执行提示)
2025-08-31 09:27:10.313 - 09 06 00 0F 02 01 78 21 (提示音叮)
2025-08-31 09:27:10.854 - 50 F5 06 (关次卧影视)
2025-08-31 09:27:11.407 - 01 06 07 D9 FF 60 18 9D (次卧空调关)
2025-08-31 09:27:11.442 - 01 06 07 D9 FF 60 18 9D (次卧空调关)
2025-08-31 09:27:12.003 - A5 00 76 FE 01 AA (次卧窗帘开)
2025-08-31 09:27:12.053 - 55 00 76 02 01 0E 01 1B AA 55 00 76 02 01 0E 01 1B AA (次卧窗帘电机状态返回)
2025-08-31 09:27:13.130 - A5 00 21 FE 01 AA (次卧纱帘开)
2025-08-31 09:27:13.181 - 55 00 21 02 01 27 01 34 AA 55 00 21 02 01 27 01 34 AA (次卧纱帘电机状态返回)
2025-08-31 09:27:14.199 - 1A 20 07 00 70 00 01 00 0F (自保持开关地址-次卧顶灯, 次卧顶灯只关)
2025-08-31 09:27:14.754 - 1A 0E 03 05 FF FF 00 01 FF 00 01 FF 00 00 0F (调光器地址-次卧调光统配符, 次卧调光全关)
2025-08-31 09:27:15.347 - 09 06 00 0F 02 02 38 20 (提示音咚)
2025-08-31 09:27:17.392 - EE 00 00 B1 00 00 02 FF FC FF FF (情景完成返回主页)
2025-08-31 09:27:20.075 - 19 08 24 03 CC 01 52 00 01 (调用外卫感应灯开的按键)
2025-08-31 09:27:20.128 - 1A 0D 01 07 01 FF 45 01 FF 45 01 FF 00 00 0F (调光器地址-外卫射灯, 外卫感应灯开)
2025-08-31 09:27:20.258 - 55 00 76 00 00 0D 01 1B AA 55 00 76 00 00 0D 01 1B AA (次卧窗帘电机状态返回)
2025-08-31 09:27:20.889 - 55 00 21 00 00 0D 01 34 AA 55 00 21 00 00 0D 01 34 AA (次卧纱帘电机状态返回)
2025-08-31 09:37:05.911 - 19 08 24 03 CC 01 54 00 01 (调用内卫感应灯开的按键)
2025-08-31 09:37:05.965 - 1A 0C 02 08 01 FF 45 01 FF 45 01 FF 00 00 0F (调光器地址-内卫射灯, 内卫射灯微光)
2025-08-31 09:39:01.459 - 19 08 24 03 CC 01 53 00 01 (调用外卫感应灯关的按键)
2025-08-31 09:39:01.492 - 1A 0D 01 07 01 FF 00 01 FF 00 01 FF 00 00 0F (调光器地址-外卫射灯, 外卫感应灯关)
2025-08-31 09:39:19.496 - 1A BE B0 DC 09 (继电器地址-客厅窗帘)
2025-08-31 09:39:19.632 - FF
2025-08-31 09:39:35.903 - 19 08 24 03 CC 01 CC 00 01 (调用茶吧感应灯开的按键)
2025-08-31 09:39:35.954 - 1A AA AA AA 88 FF B0 01 FF B0 01 0F (调光器地址-茶吧灯带, 茶吧灯带明亮)
2025-08-31 09:39:47.229 - 19 08 24 03 CC 01 55 00 01 (调用内卫感应灯关的按键)
2025-08-31 09:39:47.282 - 1A 0C 02 08 01 FF 00 01 FF 00 01 FF 00 00 0F (调光器地址-内卫射灯, 内卫感应灯关)
2025-08-31 09:40:04.764 - 19 08 24 03 CC 01 54 00 01 (调用内卫感应灯开的按键)
2025-08-31 09:40:04.798 - 1A 0C 02 08 01 FF 45 01 FF 45 01 FF 00 00 0F (调光器地址-内卫射灯, 内卫射灯微光)
2025-08-31 09:40:19.991 - 19 08 24 03 CC 01 CD 00 01 (调用茶吧感应灯关的按键)
2025-08-31 09:40:20.023 - 1A AA AA AA 88 FF 00 01 FF 00 01 0F (调光器地址-茶吧灯带, 茶吧灯带关闭)
2025-08-31 09:40:48.350 - 19 08 24 03 CC 01 55 00 01 (调用内卫感应灯关的按键)
2025-08-31 09:40:48.384 - 1A 0C 02 08 01 FF 00 01 FF 00 01 FF 00 00 0F (调光器地址-内卫射灯, 内卫感应灯关)
2025-08-31 09:42:20.475 - 1A BE B0 DC 02 FC (正反转地址-外卫卷帘)
2025-08-31 09:42:28.046 - 19 08 24 03 CC 01 54 00 01 (调用内卫感应灯开的按键)
2025-08-31 09:42:28.099 - 1A 0C 02 08 01 FF 45 01 FF 45 01 FF 00 00 0F (调光器地址-内卫射灯, 内卫射灯微光)
2025-08-31 09:43:03.617 - 19 08 24 03 CC 01 55 00 01 (调用内卫感应灯关的按键)
2025-08-31 09:43:03.669 - 1A 0C 02 08 01 FF 00 01 FF 00 01 FF 00 00 0F (调光器地址-内卫射灯, 内卫感应灯关)
2025-08-31 09:43:23.656 - 19 08 24 03 CC 01 54 00 01 (调用内卫感应灯开的按键)
2025-08-31 09:43:23.691 - 1A 0C 02 08 01 FF 45 01 FF 45 01 FF 00 00 0F (调光器地址-内卫射灯, 内卫射灯微光)
2025-08-31 09:44:18.765 - 19 08 24 03 CC 01 55 00 01 (调用内卫感应灯关的按键)
2025-08-31 09:44:18.798 - 1A 0C 02 08 01 FF 00 01 FF 00 01 FF 00 00 0F (调光器地址-内卫射灯, 内卫感应灯关)
2025-08-31 09:44:25.599 - 19 08 24 03 CC 01 52 00 01 (调用外卫感应灯开的按键)
2025-08-31 09:44:25.632 - 1A 0D 01 07 01 FF 45 01 FF 45 01 FF 00 00 0F (调光器地址-外卫射灯, 外卫感应灯开)
2025-08-31 09:44:41.129 - 19 08 24 03 CC 01 53 00 01 (调用外卫感应灯关的按键)
2025-08-31 09:44:41.162 - 1A 0D 01 07 01 FF 00 01 FF 00 01 FF 00 00 0F (调光器地址-外卫射灯, 外卫感应灯关)
2025-08-31 09:45:57.961 - 19 08 24 03 CC 01 54 00 01 (调用内卫感应灯开的按键)
2025-08-31 09:45:57.995 - 1A 0C 02 08 01 FF 45 01 FF 45 01 FF 00 00 0F (调光器地址-内卫射灯, 内卫射灯微光)
2025-08-31 09:46:19.000 - 19 08 24 03 CC 01 55 00 01 (调用内卫感应灯关的按键)
2025-08-31 09:46:19.036 - 1A 0C 02 08 01 FF 00 01 FF 00 01 FF 00 00 0F (调光器地址-内卫射灯, 内卫感应灯关)
2025-08-31 09:46:23.138 - 19 08 24 03 CC 00 D3 00 01 (调用厨房感应灯开的按键)
2025-08-31 09:46:23.173 - 55 0A 32 00 00 00 01 92 55 0A 32 00 00 00 02 93 (厨房顶灯一开, 厨房顶灯二开)
2025-08-31 09:46:37.038 - 19 08 24 03 CC 01 54 00 01 (调用内卫感应灯开的按键)
2025-08-31 09:46:37.071 - 1A 0C 02 08 01 FF 45 01 FF 45 01 FF 00 00 0F (调光器地址-内卫射灯, 内卫射灯微光)
2025-08-31 09:46:59.581 - 19 08 24 03 CC 01 55 00 01 (调用内卫感应灯关的按键)
2025-08-31 09:46:59.616 - 1A 0C 02 08 01 FF 00 01 FF 00 01 FF 00 00 0F (调光器地址-内卫射灯, 内卫感应灯关)
2025-08-31 09:47:05.221 - 19 08 24 03 CC 00 D4 00 01 (调用厨房感应灯关的按键)
2025-08-31 09:47:05.255 - 55 0A 31 00 00 00 01 91 55 0A 31 00 00 00 02 92 (厨房顶灯一关, 厨房顶灯二关)
2025-08-31 09:58:08.018 - 1A BE B0 DC 04 (继电器地址-西阳窗帘)
2025-08-31 09:58:08.154 - FF
2025-08-31 10:07:43.153 - 19 08 24 03 CC 00 D3 00 01 (调用厨房感应灯开的按键)
2025-08-31 10:07:43.208 - 55 0A 32 00 00 00 01 92 55 0A 32 00 00 00 02 93 (厨房顶灯一开, 厨房顶灯二开)
2025-08-31 10:10:09.941 - 19 08 24 03 CC 00 D4 00 01 (调用厨房感应灯关的按键)
2025-08-31 10:10:09.996 - 55 0A 31 00 00 00 01 91 55 0A 31 00 00 00 02 92 (厨房顶灯一关, 厨房顶灯二关)
2025-08-31 10:15:17.008 - 1A BE B0 DC 0A FE (继电器地址-客厅纱帘)
2025-08-31 11:05:51.366 - FF FF FF FF 0E FE (继电器地址-西阳小窗帘)
