2024-09-05 08:46:56.601 - 1A 23 00 00 00 86 86 86 0F (调用查询模块-客厅测温湿气压转换, 客厅温湿气压虚拟地址)
2024-09-05 08:46:56.836 - 23 03 00 00 00 03 03 49 (查询客厅温湿度气压)
2024-09-05 08:46:56.852 - 23 03 06 01 18 01 C6 26 FE FA 26 (客厅温湿度返回)
2024-09-05 08:46:57.355 - 1A 23 00 00 00 00 00 01 00 00 01 00 00 01 01 18 01 01 C6 01 26 FE 01 00 00 01 0F (客厅温湿气压虚拟地址)
2024-09-05 08:47:14.884 - 1A 23 00 00 00 86 86 86 0F (调用查询模块-客厅测温湿气压转换, 客厅温湿气压虚拟地址)
2024-09-05 08:47:15.118 - 23 03 00 00 00 03 03 49 (查询客厅温湿度气压)
2024-09-05 08:47:15.150 - 23 03 06 01 17 01 C8 26 FE CF E4 (客厅温湿度返回)
2024-09-05 08:47:15.652 - 1A 23 00 00 00 00 00 01 00 00 01 00 00 01 01 17 01 01 C8 01 26 FE 01 00 00 01 0F (客厅温湿气压虚拟地址)
2024-09-05 08:47:18.459 - 1A 23 00 00 00 86 86 86 0F (调用查询模块-客厅测温湿气压转换, 客厅温湿气压虚拟地址)
2024-09-05 08:47:18.678 - 23 03 00 00 00 03 03 49 (查询客厅温湿度气压)
2024-09-05 08:47:18.709 - 23 03 06 01 17 01 C8 26 FE CF E4 (客厅温湿度返回)
2024-09-05 08:47:19.211 - 1A 23 00 00 00 00 00 01 00 00 01 00 00 01 01 17 01 01 C8 01 26 FE 01 00 00 01 0F (客厅温湿气压虚拟地址)
2024-09-05 08:57:07.791 - 1A 23 00 00 00 86 86 86 0F (调用查询模块-客厅测温湿气压转换, 客厅温湿气压虚拟地址)
2024-09-05 08:57:08.028 - 23 03 00 00 00 03 03 49 (查询客厅温湿度气压)
2024-09-05 08:57:08.058 - 23 03 06 01 20 01 C3 26 FE 4B E2 (客厅温湿度返回)
2024-09-05 08:57:08.544 - 1A 23 00 00 00 00 00 01 00 00 01 00 00 01 01 20 01 01 C3 01 26 FE 01 00 00 01 0F (客厅温湿气压虚拟地址)
2024-09-05 08:57:35.285 - 19 08 24 03 CC 01 CC 00 01 (调用茶吧感应灯开的按键)
2024-09-05 08:57:35.333 - 1A AA AA AA 88 FF B0 01 FF B0 01 0F (调光器地址-茶吧灯带, 茶吧灯带明亮)
2024-09-05 08:58:00.833 - 19 08 24 03 CC 01 CD 00 01 (调用茶吧感应灯关的按键)
2024-09-05 08:58:00.865 - 1A AA AA AA 88 FF 00 01 FF 00 01 0F (调光器地址-茶吧灯带, 茶吧灯带关闭)
2024-09-05 08:58:07.346 - 19 08 24 03 CC 01 CC 00 01 (调用茶吧感应灯开的按键)
2024-09-05 08:58:07.377 - 1A AA AA AA 88 FF B0 01 FF B0 01 0F (调光器地址-茶吧灯带, 茶吧灯带明亮)
2024-09-05 08:58:36.902 - 19 08 24 03 CC 01 CD 00 01 (调用茶吧感应灯关的按键)
2024-09-05 08:58:36.934 - 1A AA AA AA 88 FF 00 01 FF 00 01 0F (调光器地址-茶吧灯带, 茶吧灯带关闭)
2024-09-05 09:04:27.599 - 19 08 24 03 CC 01 CC 00 01 (调用茶吧感应灯开的按键)
2024-09-05 09:04:27.630 - 1A AA AA AA 88 FF B0 01 FF B0 01 0F (调光器地址-茶吧灯带, 茶吧灯带明亮)
2024-09-05 09:06:33.858 - 1A 24 00 00 00 86 86 86 0F (调用查询模块-餐厅测温湿气压转换, 餐厅温湿气压虚拟地址)
2024-09-05 09:06:34.108 - 24 03 00 00 00 03 02 FE (查询餐厅温湿度气压)
2024-09-05 09:06:34.124 - 24 03 06 01 2F 01 89 26 FC 99 C4 (餐厅温湿度返回)
2024-09-05 09:06:34.626 - 1A 24 00 00 00 00 00 01 00 00 01 00 00 01 01 2F 01 01 89 01 26 FC 01 00 00 01 0F (餐厅温湿气压虚拟地址)
2024-09-05 09:06:35.863 - 19 08 24 03 CC 01 CD 00 01 (调用茶吧感应灯关的按键)
2024-09-05 09:06:35.910 - 1A AA AA AA 88 FF 00 01 FF 00 01 0F (调光器地址-茶吧灯带, 茶吧灯带关闭)
2024-09-05 09:06:46.524 - 1A 24 00 00 00 86 86 86 0F (调用查询模块-餐厅测温湿气压转换, 餐厅温湿气压虚拟地址)
2024-09-05 09:06:46.758 - 24 03 00 00 00 03 02 FE (查询餐厅温湿度气压)
2024-09-05 09:06:46.790 - 24 03 06 01 2F 01 86 26 FC A9 C7 (餐厅温湿度返回)
2024-09-05 09:06:47.291 - 1A 24 00 00 00 00 00 01 00 00 01 00 00 01 01 2F 01 01 86 01 26 FC 01 00 00 01 0F (餐厅温湿气压虚拟地址)
2024-09-05 09:06:52.884 - 19 08 24 03 CC 01 CC 00 01 (调用茶吧感应灯开的按键)
2024-09-05 09:06:52.946 - 1A AA AA AA 88 FF B0 01 FF B0 01 0F (调光器地址-茶吧灯带, 茶吧灯带明亮)
2024-09-05 09:08:44.312 - FF
2024-09-05 09:09:09.056 - 1A 22 33 62 5E 00 02 01 0F (正反转地址-厨房卷帘三, 厨房卷帘一降)
2024-09-05 09:10:04.962 - FF
2024-09-05 09:12:01.481 - FF
2024-09-05 09:12:01.605 - EE 00 73 07 FF FC FF FF
2024-09-05 09:13:03.287 - A5 00 A6 FE 01 AA (餐厅窗帘开)
2024-09-05 09:13:03.334 - 55 00 A6 02 01 67 01 75 AA 55 00 A6 02 01 67 01 75 AA (餐厅窗帘电机状态返回)
2024-09-05 09:13:04.509 - A5 00 A6 FF 00 AA (餐厅窗帘关)
2024-09-05 09:13:04.979 - 55 00 A6 01 01 49 01 75 AA 55 00 A6 01 01 49 01 75 AA (餐厅窗帘电机状态返回)
2024-09-05 09:13:08.567 - 55 00 A6 00 01 67 01 75 AA 55 00 A6 00 01 67 01 75 AA (餐厅窗帘电机状态返回)
2024-09-05 09:13:23.957 - 19 08 24 03 CC 00 D3 00 01 (调用厨房感应灯开的按键)
2024-09-05 09:13:24.004 - 55 0A 32 00 00 00 01 92 55 0A 32 00 00 00 02 93 (厨房顶灯一开, 厨房顶灯二开)
2024-09-05 09:13:36.185 - 19 08 24 03 CC 01 CD 00 01 (调用茶吧感应灯关的按键)
2024-09-05 09:13:36.216 - 1A AA AA AA 88 FF 00 01 FF 00 01 0F (调光器地址-茶吧灯带, 茶吧灯带关闭)
2024-09-05 09:13:50.221 - 19 08 24 03 CC 01 CC 00 01 (调用茶吧感应灯开的按键)
2024-09-05 09:13:50.253 - 1A AA AA AA 88 FF B0 01 FF B0 01 0F (调光器地址-茶吧灯带, 茶吧灯带明亮)
2024-09-05 09:14:11.758 - 19 08 24 03 CC 01 CD 00 01 (调用茶吧感应灯关的按键)
2024-09-05 09:14:11.790 - 1A AA AA AA 88 FF 00 01 FF 00 01 0F (调光器地址-茶吧灯带, 茶吧灯带关闭)
2024-09-05 09:16:20.522 - 19 08 24 03 CC 01 CC 00 01 (调用茶吧感应灯开的按键)
2024-09-05 09:16:20.553 - 1A AA AA AA 88 FF B0 01 FF B0 01 0F (调光器地址-茶吧灯带, 茶吧灯带明亮)
2024-09-05 09:16:29.315 - 19 08 24 03 CC 00 D4 00 01 (调用厨房感应灯关的按键)
2024-09-05 09:16:29.362 - 55 0A 31 00 00 00 01 91 55 0A 31 00 00 00 02 92 (厨房顶灯一关, 厨房顶灯二关)
2024-09-05 09:16:33.537 - 19 08 24 03 CC 01 CD 00 01 (调用茶吧感应灯关的按键)
2024-09-05 09:16:33.568 - 1A AA AA AA 88 FF 00 01 FF 00 01 0F (调光器地址-茶吧灯带, 茶吧灯带关闭)
2024-09-05 09:24:45.018 - 19 08 24 03 CC 01 CC 00 01 (调用茶吧感应灯开的按键)
2024-09-05 09:24:45.048 - 1A AA AA AA 88 FF B0 01 FF B0 01 0F (调光器地址-茶吧灯带, 茶吧灯带明亮)
2024-09-05 09:24:57.541 - 19 08 24 03 CC 01 CD 00 01 (调用茶吧感应灯关的按键)
2024-09-05 09:24:57.573 - 1A AA AA AA 88 FF 00 01 FF 00 01 0F (调光器地址-茶吧灯带, 茶吧灯带关闭)
2024-09-05 09:26:11.260 - 1A 25 00 00 00 86 86 86 0F (调用查询模块-主卧测温湿气压转换, 主卧温湿气压虚拟地址)
2024-09-05 09:26:11.495 - 25 03 00 00 00 03 03 2F (查询主卧温湿度气压)
2024-09-05 09:26:11.516 - 25 03 06 01 19 01 7D 26 F6 9D A5 (主卧温湿度返回)
2024-09-05 09:26:12.016 - 1A 25 00 00 00 00 00 01 00 00 01 00 00 01 01 19 01 01 7D 01 26 F6 01 00 00 01 0F (主卧温湿气压虚拟地址)
2024-09-05 09:26:18.416 - 1A 25 00 00 00 86 86 86 0F (调用查询模块-主卧测温湿气压转换, 主卧温湿气压虚拟地址)
2024-09-05 09:26:18.655 - 25 03 00 00 00 03 03 2F (查询主卧温湿度气压)
2024-09-05 09:26:18.676 - 25 03 06 01 18 01 7E 26 FB 91 A0 (主卧温湿度返回)
2024-09-05 09:26:19.175 - 1A 25 00 00 00 00 00 01 00 00 01 00 00 01 01 18 01 01 7E 01 26 FB 01 00 00 01 0F (主卧温湿气压虚拟地址)
2024-09-05 09:30:29.203 - FC
2024-09-05 09:30:29.611 - EE 00 79 07 FF FC FF FF
2024-09-05 09:31:54.518 - 19 08 24 03 DD 00 4B 00 01 (调用情景-主卧睡觉)
2024-09-05 09:31:55.051 - EE 00 00 B1 00 00 00 FF FC FF FF (情景执行提示)
2024-09-05 09:31:55.646 - 09 06 00 0F 02 01 78 21 (提示音叮)
2024-09-05 09:31:56.178 - 50 F5 04 (关内卫影视)
2024-09-05 09:31:56.742 - A5 00 53 FE 01 AA (主卧纱帘关)
2024-09-05 09:31:57.776 - A5 00 52 FF 00 AA (主卧窗帘关)
2024-09-05 09:31:58.828 - 1A 22 33 62 0F 00 02 01 0F (正反转地址-内卫卷帘, 内卫卷帘降)
2024-09-05 09:31:59.878 - 1A 20 07 01 40 00 01 00 0F (自保持开关地址-内卫顶灯, 内卫顶灯关)
2024-09-05 09:32:00.927 - 1A 20 07 01 55 00 01 00 0F (自保持开关地址-主卧顶灯, 主卧顶灯只关)
2024-09-05 09:32:01.475 - 1A FF FF FF 56 00 00 01 0F (人体感应地址-内卫, 打开内卫感应)
2024-09-05 09:32:01.569 - BC BC
2024-09-05 09:32:05.015 - 1A 0C 02 08 01 FF 00 01 FF 00 01 FF 00 00 0F (调光器地址-内卫射灯, 内卫感应灯关)
2024-09-05 09:32:05.610 - 1A 0C 02 04 01 FF 00 01 FF 00 01 FF 00 00 0F (调光器地址-主卧筒灯, 主卧筒灯关闭)
2024-09-05 09:32:06.221 - 1A 0C 02 04 03 FF 00 01 FF 00 01 FF 00 00 0F (调光器地址-主卧灯带, 主卧灯带关闭)
2024-09-05 09:32:06.816 - 1A 0C 02 04 04 FF 00 01 FF 00 01 FF 00 00 0F (调光器地址-主卧南阅, 主卧南阅关闭)
2024-09-05 09:32:07.410 - 1A 0C 02 04 05 FF 00 01 FF 00 01 FF 00 00 0F (调光器地址-主卧北阅, 主卧北阅关闭)
2024-09-05 09:32:08.005 - 1A 0C 02 04 02 FF 00 01 FF 00 01 FF 00 00 0F (调光器地址-主卧过道, 主卧过道关闭)
2024-09-05 09:32:08.600 - 09 06 00 0F 02 02 38 20 (提示音咚)
2024-09-05 09:32:09.149 - EE 00 00 B1 00 00 02 FF FC FF FF (情景完成返回主页)
2024-09-05 09:32:09.870 - 55 20 20 00 02 09 02 16 AA 55 20 20 00 02 09 02 16 AA (主卧窗帘电机状态返回)
2024-09-05 09:32:16.967 - 55 20 20 02 01 C7 02 16 AA 55 20 20 02 01 C6 02 16 AA (主卧窗帘电机状态返回)
2024-09-05 09:32:26.230 - 55 20 20 00 00 0F 02 16 AA 55 20 20 00 00 0F 02 16 AA (主卧窗帘电机状态返回)
2024-09-05 09:32:35.396 - FC
2024-09-05 09:32:35.819 - EE 00 79 07 FF FC FF FF
2024-09-05 09:33:00.609 - 1A 20 07 01 55 00 01 02 0F (自保持开关地址-主卧顶灯, 主卧顶灯开关)
2024-09-05 09:33:02.225 - 1A 20 07 01 55 00 01 02 0F (自保持开关地址-主卧顶灯, 主卧顶灯开关)
2024-09-05 09:33:03.024 - 1A 20 07 01 55 00 01 02 0F (自保持开关地址-主卧顶灯, 主卧顶灯开关)
2024-09-05 09:33:03.917 - 1A 20 07 01 55 00 01 02 0F (自保持开关地址-主卧顶灯, 主卧顶灯开关)
2024-09-05 09:34:23.005 - 19 08 24 03 DD 00 3A 00 01 (调用情景-离开书房)
2024-09-05 09:34:23.554 - EE 00 00 B1 00 00 00 FF FC FF FF (情景执行提示)
2024-09-05 09:34:24.148 - 09 06 00 0F 02 01 78 21 (提示音叮)
2024-09-05 09:34:24.698 - 01 06 07 DC FF 60 08 9C (书房空调关)
2024-09-05 09:34:24.761 - 01 06 07 DC FF 60 08 9C (书房空调关)
2024-09-05 09:34:25.276 - 50 F5 07 (关书房影视)
2024-09-05 09:34:25.841 - A5 00 D2 FE 01 AA 22 0D (书房窗帘开)
2024-09-05 09:34:25.887 - 55 00 D2 02 00 E5 00 F2 AA 55 00 D2 02 00 E5 00 (书房窗帘电机状态返回)
2024-09-05 09:34:26.936 - A5 00 B7 FF 00 AA 22 0D (书房纱帘关)
2024-09-05 09:34:27.973 - 55 0D 31 00 00 00 01 94 (书房顶灯只关)
2024-09-05 09:34:29.041 - 1A 0A 04 06 01 FF 00 01 FF 00 01 FF 00 00 0F (调光器地址-书房射灯, 书房射灯关闭)
2024-09-05 09:34:32.680 - 1A 25 00 00 00 86 86 86 0F (调用查询模块-主卧测温湿气压转换, 主卧温湿气压虚拟地址)
2024-09-05 09:34:32.680 - 55 00 D2 00 00 0E 00 F2 AA 55 00 D2 80 (书房窗帘电机状态返回)
2024-09-05 09:34:33.119 - 09 06 00 0F 02 02 38 20 (提示音咚)
2024-09-05 09:34:33.671 - EE 00 00 B1 00 00 02 FF FC FF FF (情景完成返回主页)
2024-09-05 09:34:38.117 - 1A 25 00 00 00 86 86 86 0F (调用查询模块-主卧测温湿气压转换, 主卧温湿气压虚拟地址)
2024-09-05 09:34:38.352 - 25 03 00 00 00 03 03 2F (查询主卧温湿度气压)
2024-09-05 09:34:38.367 - 25 03 06 01 15 01 8A 26 FA 3C 53 (主卧温湿度返回)
2024-09-05 09:34:38.868 - 1A 25 00 00 00 00 00 01 00 00 01 00 00 01 01 15 01 01 8A 01 26 FA 01 00 00 01 0F (主卧温湿气压虚拟地址)
2024-09-05 09:34:43.549 - 1A 24 00 00 00 86 86 86 0F (调用查询模块-餐厅测温湿气压转换, 餐厅温湿气压虚拟地址)
2024-09-05 09:34:43.784 - 24 03 00 00 00 03 02 FE (查询餐厅温湿度气压)
2024-09-05 09:34:43.800 - 24 03 06 01 2F 01 77 26 FC F8 34 (餐厅温湿度返回)
2024-09-05 09:34:44.302 - 1A 24 00 00 00 00 00 01 00 00 01 00 00 01 01 2F 01 01 77 01 26 FC 01 00 00 01 0F (餐厅温湿气压虚拟地址)
2024-09-05 09:34:50.185 - 1A 23 00 00 00 86 86 86 0F (调用查询模块-客厅测温湿气压转换, 客厅温湿气压虚拟地址)
2024-09-05 09:34:50.420 - 23 03 00 00 00 03 03 49 (查询客厅温湿度气压)
2024-09-05 09:34:50.436 - 23 03 06 01 0B 01 B4 26 FD 9F FF (客厅温湿度返回)
2024-09-05 09:34:50.937 - 1A 23 00 00 00 00 00 01 00 00 01 00 00 01 01 0B 01 01 B4 01 26 FD 01 00 00 01 0F (客厅温湿气压虚拟地址)
