2024-08-18 13:01:45.556 - 1A 21 00 00 00 86 86 86 0F (调用查询模块-储藏室测温湿气压转换, 储藏室温湿气压虚拟地址)
2024-08-18 13:01:45.779 - 21 03 00 00 00 03 02 AB (查询储藏室温湿度气压)
2024-08-18 13:01:45.806 - 21 03 06 01 4A 01 F1 26 F0 6A 80 (储藏室温湿度返回)
2024-08-18 13:01:46.306 - 1A 21 00 00 00 00 00 01 00 00 01 00 00 01 01 4A 01 01 F1 01 26 F0 01 00 00 01 0F (储藏室温湿气压虚拟地址)
2024-08-18 13:02:06.441 - 1A FF 03 00 00 86 86 86 0F (调用查询模块-主卧空调开关查询, 主卧空调虚拟地址)
2024-08-18 13:02:06.662 - 01 04 07 DC 00 01 F1 44 (查询主卧空调开关状态)
2024-08-18 13:02:06.682 - 01 04 02 70 00 9C F0
2024-08-18 13:02:07.258 - 19 08 24 03 CC 01 54 00 01 (调用内卫感应灯开的按键)
2024-08-18 13:02:07.308 - 1A 0C 02 08 01 FF 45 01 FF 45 01 FF 00 00 0F (调光器地址-内卫射灯, 内卫射灯微光)
2024-08-18 13:02:07.666 - 1A FF 03 00 00 01 00 0F (主卧空调虚拟地址)
2024-08-18 13:02:08.380 - 1A FF 04 00 00 86 86 86 0F (调用查询模块-次卧空调开关查询, 次卧空调虚拟地址)
2024-08-18 13:02:08.601 - 01 04 07 E2 00 01 90 88 (查询次卧空调开关状态)
2024-08-18 13:02:08.629 - 01 04 02 70 00 9C F0
2024-08-18 13:02:09.604 - 1A FF 04 00 00 00 00 0F (次卧空调虚拟地址)
2024-08-18 13:02:09.859 - 1A FF 05 00 00 86 86 86 0F (调用查询模块-书房空调开关查询, 书房空调虚拟地址)
2024-08-18 13:02:10.092 - 01 04 07 E8 00 01 B0 8A (查询书房空调开关状态)
2024-08-18 13:02:10.115 - 01 04 02 70 00 9C F0
2024-08-18 13:02:11.081 - 1A FF 05 00 00 00 00 0F (书房空调虚拟地址)
2024-08-18 13:02:12.833 - 1A FF 02 00 00 86 86 86 0F (调用查询模块-餐厅空调开关查询, 餐厅空调虚拟地址)
2024-08-18 13:02:12.930 - 1A FF 01 00 00 86 86 86 0F (调用查询模块-客厅空调开关查询, 客厅空调虚拟地址)
2024-08-18 13:02:13.058 - 01 04 07 D6 00 01 D1 46 (查询餐厅空调开关状态)
2024-08-18 13:02:13.078 - 01 04 02 70 01 5D 30
2024-08-18 13:02:14.057 - 1A FF 02 00 00 01 00 0F (餐厅空调虚拟地址)
2024-08-18 13:02:14.437 - 1A 10 00 00 00 86 86 86 0F (调用查询模块-主卧测温转换, 主卧温湿度虚拟地址)
2024-08-18 13:02:14.662 - 1D 03 00 00 00 02 C6 57 (查询主卧温湿度)
2024-08-18 13:02:14.684 - 1D 03 04 01 DC 01 11 26 68 (主卧温湿度返回)
2024-08-18 13:02:15.684 - 1A 10 00 00 00 00 00 01 00 00 01 00 00 01 01 11 01 01 DC 01 00 00 01 00 00 01 0F (主卧温湿度虚拟地址)
2024-08-18 13:02:15.905 - 1A 11 00 00 00 86 86 86 0F (调用查询模块-次卧测温转换, 次卧温湿度虚拟地址)
2024-08-18 13:02:16.131 - 11 03 00 00 00 02 C6 9B (查询次卧温湿度)
2024-08-18 13:02:16.152 - 11 03 04 01 C7 01 0C 5A 66 (次卧温湿度返回)
2024-08-18 13:02:17.159 - 1A 11 00 00 00 00 00 01 00 00 01 00 00 01 01 0C 01 01 C7 01 00 00 01 00 00 01 0F (次卧温湿度虚拟地址)
2024-08-18 13:02:17.350 - 1A 12 00 00 00 86 86 86 0F (调用查询模块-书房测温转换, 书房温湿度虚拟地址)
2024-08-18 13:02:17.568 - 12 03 00 00 00 02 C6 A8 (查询书房温湿度)
2024-08-18 13:02:17.600 - 12 03 04 01 93 01 1F 69 7B (书房温湿度返回)
2024-08-18 13:02:18.587 - 1A 12 00 00 00 00 00 01 00 00 01 00 00 01 01 1F 01 01 93 01 00 00 01 00 00 01 0F (书房温湿度虚拟地址)
2024-08-18 13:02:18.795 - 1A 13 00 00 00 86 86 86 0F (调用查询模块-外卫测温转换, 外卫温湿度虚拟地址)
2024-08-18 13:02:19.018 - 13 03 00 00 00 02 C7 79 (查询外卫温湿度)
2024-08-18 13:02:19.037 - 13 03 04 01 A7 01 0E F8 79 (外卫温湿度返回)
2024-08-18 13:02:20.040 - 1A 13 00 00 00 00 00 01 00 00 01 00 00 01 01 0E 01 01 A7 01 00 00 01 00 00 01 0F (外卫温湿度虚拟地址)
2024-08-18 13:02:20.215 - 1A 14 00 00 00 86 86 86 0F (调用查询模块-内卫测温转换, 内卫温湿度虚拟地址)
2024-08-18 13:02:20.443 - 14 03 00 00 00 02 C6 CE (查询内卫温湿度)
2024-08-18 13:02:20.457 - 14 03 04 01 EF 01 1A 0E A0 (内卫温湿度返回)
2024-08-18 13:02:21.461 - 1A 14 00 00 00 00 00 01 00 00 01 00 00 01 01 1A 01 01 EF 01 00 00 01 00 00 01 0F (内卫温湿度虚拟地址)
2024-08-18 13:02:21.621 - 1A 15 00 00 00 86 86 86 0F (调用查询模块-客厅测温转换, 客厅温湿度虚拟地址)
2024-08-18 13:02:21.843 - 15 03 00 00 00 02 C7 1F (查询客厅温湿度)
2024-08-18 13:02:21.868 - 15 03 04 01 E5 00 EC BF B4 (客厅温湿度返回)
2024-08-18 13:02:22.872 - 1A 15 00 00 00 00 00 01 00 00 01 00 00 01 00 EC 01 01 E5 01 00 00 01 00 00 01 0F (客厅温湿度虚拟地址)
2024-08-18 13:02:23.008 - 1A 16 00 00 00 86 86 86 0F (调用查询模块-机柜测温转换, 机柜温湿度虚拟地址)
2024-08-18 13:02:23.230 - 16 03 00 00 00 02 C7 2C (查询机柜温湿度)
2024-08-18 13:02:23.251 - 16 03 04 01 BD 01 01 CC BA (机柜温湿度返回)
2024-08-18 13:02:24.249 - 1A 16 00 00 00 00 00 01 00 00 01 00 00 01 01 01 01 01 BD 01 00 00 01 00 00 01 0F (机柜温湿度虚拟地址)
2024-08-18 13:02:24.392 - 1A 0E 00 00 00 86 86 86 0F (调用查询模块-厨房测温转换, 厨房温湿度虚拟地址)
2024-08-18 13:02:24.604 - 0E 03 00 00 00 02 C4 F4 (查询厨房温湿度)
2024-08-18 13:02:24.633 - 0E 03 04 01 6A 01 2C 24 9E (厨房温湿度返回)
2024-08-18 13:02:25.635 - 1A 0E 00 00 00 00 00 01 00 00 01 00 00 01 01 2C 01 01 6A 01 00 00 01 00 00 01 0F (厨房温湿度虚拟地址)
2024-08-18 13:02:25.811 - 1A 0F 00 00 00 86 86 86 0F (调用查询模块-餐厅测温转换, 餐厅温湿度虚拟地址)
2024-08-18 13:02:26.037 - 1C 03 00 00 00 02 C7 86 (查询餐厅温湿度)
2024-08-18 13:02:26.050 - 1C 03 04 01 96 01 11 17 7E (餐厅温湿度返回)
2024-08-18 13:02:27.055 - 1A 0F 00 00 00 00 00 01 00 00 01 00 00 01 01 11 01 01 96 01 00 00 01 00 00 01 0F (餐厅温湿度虚拟地址)
2024-08-18 13:02:27.199 - 1A 20 00 00 00 86 86 86 0F (调用查询模块-阳台测温湿气压转换, 阳台温湿气压虚拟地址)
2024-08-18 13:02:27.412 - 20 03 00 00 00 03 03 7A (查询阳台温湿度气压)
2024-08-18 13:02:27.438 - 20 03 06 01 7D 00 FF 26 EE 72 E3 (阳台温湿度返回)
2024-08-18 13:02:27.936 - 1A 20 00 00 00 00 00 01 00 00 01 00 00 01 01 7D 01 00 FF 01 26 EE 01 00 00 01 0F (阳台温湿气压虚拟地址)
2024-08-18 13:02:29.722 - 1A FF 03 00 00 86 86 86 0F (调用查询模块-主卧空调开关查询, 主卧空调虚拟地址)
2024-08-18 13:02:29.944 - 01 04 07 DC 00 01 F1 44 (查询主卧空调开关状态)
2024-08-18 13:02:29.977 - 01 04 02 70 00 9C F0
2024-08-18 13:02:30.028 - 1A FF 05 00 00 86 86 86 0F (调用查询模块-书房空调开关查询, 书房空调虚拟地址)
2024-08-18 13:02:30.950 - 1A FF 03 00 00 00 00 0F (主卧空调虚拟地址)
2024-08-18 13:02:31.237 - 1A 20 00 00 00 86 86 86 0F (调用查询模块-阳台测温湿气压转换, 阳台温湿气压虚拟地址)
2024-08-18 13:02:31.459 - 20 03 00 00 00 03 03 7A (查询阳台温湿度气压)
2024-08-18 13:02:31.490 - 20 03 06 01 7D 00 FF 26 EE 72 E3 (阳台温湿度返回)
2024-08-18 13:02:31.985 - 1A 20 00 00 00 00 00 01 00 00 01 00 00 01 01 7D 01 00 FF 01 26 EE 01 00 00 01 0F (阳台温湿气压虚拟地址)
2024-08-18 13:02:32.799 - 19 08 24 03 CC 01 55 00 01 (调用外卫感应灯关的按键)
2024-08-18 13:02:32.862 - 1A 0C 02 08 01 FF 00 01 FF 00 01 FF 00 00 0F (调光器地址-内卫射灯, 内卫感应灯关)
2024-08-18 13:02:33.923 - 1A FF 03 00 00 86 86 86 0F (调用查询模块-主卧空调开关查询, 主卧空调虚拟地址)
2024-08-18 13:02:34.154 - 01 04 07 DC 00 01 F1 44 (查询主卧空调开关状态)
2024-08-18 13:02:34.178 - 01 04 02 70 00 9C F0
2024-08-18 13:02:35.160 - 1A FF 03 00 00 00 00 0F (主卧空调虚拟地址)
2024-08-18 13:02:35.436 - 1A FF 04 00 00 86 86 86 0F (调用查询模块-次卧空调开关查询, 次卧空调虚拟地址)
2024-08-18 13:02:35.662 - 01 04 07 E2 00 01 90 88 (查询次卧空调开关状态)
2024-08-18 13:02:35.695 - 01 04 02 70 00 9C F0
2024-08-18 13:02:36.661 - 1A FF 04 00 00 00 00 0F (次卧空调虚拟地址)
2024-08-18 13:02:36.933 - 1A FF 05 00 00 86 86 86 0F (调用查询模块-书房空调开关查询, 书房空调虚拟地址)
2024-08-18 13:02:37.162 - 01 04 07 E8 00 01 B0 8A (查询书房空调开关状态)
2024-08-18 13:02:37.188 - 01 04 02 70 00 9C F0
2024-08-18 13:02:38.159 - 1A FF 05 00 00 00 00 0F (书房空调虚拟地址)
2024-08-18 13:02:38.318 - 1A FF 02 00 00 86 86 86 0F (调用查询模块-餐厅空调开关查询, 餐厅空调虚拟地址)
2024-08-18 13:02:38.542 - 01 04 07 D6 00 01 D1 46 (查询餐厅空调开关状态)
2024-08-18 13:02:38.574 - 01 04 02 70 01 5D 30
2024-08-18 13:02:39.548 - 1A FF 02 00 00 01 00 0F (餐厅空调虚拟地址)
2024-08-18 13:02:39.757 - 1A FF 01 00 00 86 86 86 0F (调用查询模块-客厅空调开关查询, 客厅空调虚拟地址)
2024-08-18 13:02:39.978 - 01 04 07 D0 00 01 31 47 (查询客厅空调开关状态)
2024-08-18 13:02:40.008 - 01 04 02 70 01 5D 30
2024-08-18 13:02:40.983 - 1A FF 01 00 00 01 00 0F (客厅空调虚拟地址)
2024-08-18 13:02:41.190 - 1A 10 00 00 00 86 86 86 0F (调用查询模块-主卧测温转换, 主卧温湿度虚拟地址)
2024-08-18 13:02:41.413 - 1D 03 00 00 00 02 C6 57 (查询主卧温湿度)
2024-08-18 13:02:41.429 - 1D 03 04 01 DC 01 11 26 68 (主卧温湿度返回)
2024-08-18 13:02:42.435 - 1A 10 00 00 00 00 00 01 00 00 01 00 00 01 01 11 01 01 DC 01 00 00 01 00 00 01 0F (主卧温湿度虚拟地址)
2024-08-18 13:02:42.642 - 1A 11 00 00 00 86 86 86 0F (调用查询模块-次卧测温转换, 次卧温湿度虚拟地址)
2024-08-18 13:02:42.866 - 11 03 00 00 00 02 C6 9B (查询次卧温湿度)
2024-08-18 13:02:42.919 - 11 03 C4
2024-08-18 13:02:43.889 - 1A 11 00 00 00 00 00 01 00 00 01 00 00 01 86 86 01 00 00 01 00 00 01 00 00 01 0F (次卧温湿度虚拟地址)
2024-08-18 13:02:44.080 - 1A 12 00 00 00 86 86 86 0F (调用查询模块-书房测温转换, 书房温湿度虚拟地址)
2024-08-18 13:02:44.304 - 12 03 00 00 00 02 C6 A8 (查询书房温湿度)
2024-08-18 13:02:44.331 - 12 03 04 01 93 01 1F 69 7B (书房温湿度返回)
2024-08-18 13:02:45.323 - 1A 12 00 00 00 00 00 01 00 00 01 00 00 01 01 1F 01 01 93 01 00 00 01 00 00 01 0F (书房温湿度虚拟地址)
2024-08-18 13:02:45.522 - 1A 13 00 00 00 86 86 86 0F (调用查询模块-外卫测温转换, 外卫温湿度虚拟地址)
2024-08-18 13:02:45.753 - 13 03 00 00 00 02 C7 79 (查询外卫温湿度)
2024-08-18 13:02:45.769 - 13 03 04 01 A7 01 0E F8 79 (外卫温湿度返回)
2024-08-18 13:02:46.775 - 1A 13 00 00 00 00 00 01 00 00 01 00 00 01 01 0E 01 01 A7 01 00 00 01 00 00 01 0F (外卫温湿度虚拟地址)
2024-08-18 13:02:46.975 - 1A 14 00 00 00 86 86 86 0F (调用查询模块-内卫测温转换, 内卫温湿度虚拟地址)
2024-08-18 13:02:47.193 - 14 03 00 00 00 02 C6 CE (查询内卫温湿度)
2024-08-18 13:02:47.206 - 14 03 04 01 ED 01 1A AF 60 (内卫温湿度返回)
2024-08-18 13:02:48.211 - 1A 14 00 00 00 00 00 01 00 00 01 00 00 01 01 1A 01 01 ED 01 00 00 01 00 00 01 0F (内卫温湿度虚拟地址)
2024-08-18 13:02:48.396 - 1A 15 00 00 00 86 86 86 0F (调用查询模块-客厅测温转换, 客厅温湿度虚拟地址)
2024-08-18 13:02:48.626 - 15 03 00 00 00 02 C7 1F (查询客厅温湿度)
2024-08-18 13:02:48.651 - 15 03 04 01 E3 00 EC 5F B5 (客厅温湿度返回)
2024-08-18 13:02:49.648 - 1A 15 00 00 00 00 00 01 00 00 01 00 00 01 00 EC 01 01 E3 01 00 00 01 00 00 01 0F (客厅温湿度虚拟地址)
2024-08-18 13:02:49.809 - 1A 16 00 00 00 86 86 86 0F (调用查询模块-机柜测温转换, 机柜温湿度虚拟地址)
2024-08-18 13:02:50.032 - 16 03 00 00 00 02 C7 2C (查询机柜温湿度)
2024-08-18 13:02:50.047 - 16 03 04 01 BD 01 01 CC BA (机柜温湿度返回)
2024-08-18 13:02:51.053 - 1A 16 00 00 00 00 00 01 00 00 01 00 00 01 01 01 01 01 BD 01 00 00 01 00 00 01 0F (机柜温湿度虚拟地址)
2024-08-18 13:02:51.205 - 1A 0E 00 00 00 86 86 86 0F (调用查询模块-厨房测温转换, 厨房温湿度虚拟地址)
2024-08-18 13:02:51.426 - 0E 03 00 00 00 02 C4 F4 (查询厨房温湿度)
2024-08-18 13:02:51.443 - 0E 03 04 01 6A 01 2C 24 9E (厨房温湿度返回)
2024-08-18 13:02:52.447 - 1A 0E 00 00 00 00 00 01 00 00 01 00 00 01 01 2C 01 01 6A 01 00 00 01 00 00 01 0F (厨房温湿度虚拟地址)
2024-08-18 13:02:52.736 - 1A 0F 00 00 00 86 86 86 0F (调用查询模块-餐厅测温转换, 餐厅温湿度虚拟地址)
2024-08-18 13:02:52.957 - 1C 03 00 00 00 02 C7 86 (查询餐厅温湿度)
2024-08-18 13:02:52.977 - 1C 03 04 01 96 01 11 17 7E (餐厅温湿度返回)
2024-08-18 13:02:53.978 - 1A 0F 00 00 00 00 00 01 00 00 01 00 00 01 01 11 01 01 96 01 00 00 01 00 00 01 0F (餐厅温湿度虚拟地址)
2024-08-18 13:02:54.168 - 1A 20 00 00 00 86 86 86 0F (调用查询模块-阳台测温湿气压转换, 阳台温湿气压虚拟地址)
2024-08-18 13:02:54.391 - 20 03 00 00 00 03 03 7A (查询阳台温湿度气压)
2024-08-18 13:02:54.412 - 20 03 06 01 7D 00 FF 26 EE 72 E3 (阳台温湿度返回)
2024-08-18 13:02:54.914 - 1A 20 00 00 00 00 00 01 00 00 01 00 00 01 01 7D 01 00 FF 01 26 EE 01 00 00 01 0F (阳台温湿气压虚拟地址)
2024-08-18 13:02:55.110 - 1A 21 00 00 00 86 86 86 0F (调用查询模块-储藏室测温湿气压转换, 储藏室温湿气压虚拟地址)
2024-08-18 13:02:55.333 - 21 03 00 00 00 03 02 AB (查询储藏室温湿度气压)
2024-08-18 13:02:55.355 - 21 03 06 01 4A 01 EC 26 F0 FA 86 (储藏室温湿度返回)
2024-08-18 13:02:55.848 - 1A 21 00 00 00 00 00 01 00 00 01 00 00 01 01 4A 01 01 EC 01 26 F0 01 00 00 01 0F (储藏室温湿气压虚拟地址)
2024-08-18 13:02:58.765 - 1A FF 03 00 00 86 86 86 0F (调用查询模块-主卧空调开关查询, 主卧空调虚拟地址)
2024-08-18 13:02:58.988 - 01 04 07 DC 00 01 F1 44 (查询主卧空调开关状态)
2024-08-18 13:02:59.012 - 01 04 02 70 00 9C F0
2024-08-18 13:02:59.993 - 1A FF 03 00 00 00 00 0F (主卧空调虚拟地址)
2024-08-18 13:03:00.236 - 1A FF 04 00 00 86 86 86 0F (调用查询模块-次卧空调开关查询, 次卧空调虚拟地址)
2024-08-18 13:03:00.458 - 01 04 07 E2 00 01 90 88 (查询次卧空调开关状态)
2024-08-18 13:03:00.486 - 01 04 02 70 00 9C F0
2024-08-18 13:03:01.461 - 1A FF 04 00 00 00 00 0F (次卧空调虚拟地址)
2024-08-18 13:03:01.680 - 1A FF 05 00 00 86 86 86 0F (调用查询模块-书房空调开关查询, 书房空调虚拟地址)
2024-08-18 13:03:01.888 - 01 04 07 E8 00 01 B0 8A (查询书房空调开关状态)
2024-08-18 13:03:01.920 - 01 04 02 70 00 9C F0
2024-08-18 13:03:02.894 - 1A FF 05 00 00 00 00 0F (书房空调虚拟地址)
2024-08-18 13:03:03.117 - 1A FF 02 00 00 86 86 86 0F (调用查询模块-餐厅空调开关查询, 餐厅空调虚拟地址)
2024-08-18 13:03:03.341 - 01 04 07 D6 00 01 D1 46 (查询餐厅空调开关状态)
2024-08-18 13:03:03.366 - 01 04 02 70 01 5D 30
2024-08-18 13:03:04.347 - 1A FF 02 00 00 01 00 0F (餐厅空调虚拟地址)
2024-08-18 13:03:04.557 - 1A FF 01 00 00 86 86 86 0F (调用查询模块-客厅空调开关查询, 客厅空调虚拟地址)
2024-08-18 13:03:04.778 - 01 04 07 D0 00 01 31 47 (查询客厅空调开关状态)
2024-08-18 13:03:04.807 - 01 04 02 70 01 5D 30
2024-08-18 13:03:05.781 - 1A FF 01 00 00 01 00 0F (客厅空调虚拟地址)
2024-08-18 13:03:06.037 - 1A 10 00 00 00 86 86 86 0F (调用查询模块-主卧测温转换, 主卧温湿度虚拟地址)
2024-08-18 13:03:06.260 - 1D 03 00 00 00 02 C6 57 (查询主卧温湿度)
2024-08-18 13:03:06.291 - 1D 03 04 01 DC 01 11 26 68 (主卧温湿度返回)
2024-08-18 13:03:07.283 - 1A 10 00 00 00 00 00 01 00 00 01 00 00 01 01 11 01 01 DC 01 00 00 01 00 00 01 0F (主卧温湿度虚拟地址)
2024-08-18 13:03:07.482 - 1A 11 00 00 00 86 86 86 0F (调用查询模块-次卧测温转换, 次卧温湿度虚拟地址)
2024-08-18 13:03:07.711 - 11 03 00 00 00 02 C6 9B (查询次卧温湿度)
2024-08-18 13:03:07.730 - 11 03 04 01 C9 01 0C 3B A5 (次卧温湿度返回)
2024-08-18 13:03:08.732 - 1A 11 00 00 00 00 00 01 00 00 01 00 00 01 01 0C 01 01 C9 01 00 00 01 00 00 01 0F (次卧温湿度虚拟地址)
2024-08-18 13:03:08.881 - 1A 12 00 00 00 86 86 86 0F (调用查询模块-书房测温转换, 书房温湿度虚拟地址)
2024-08-18 13:03:09.100 - 12 03 00 00 00 02 C6 A8 (查询书房温湿度)
2024-08-18 13:03:09.115 - 12 03 04 01 93 01 1E A8 BB (书房温湿度返回)
2024-08-18 13:03:10.121 - 1A 12 00 00 00 00 00 01 00 00 01 00 00 01 01 1E 01 01 93 01 00 00 01 00 00 01 0F (书房温湿度虚拟地址)
2024-08-18 13:03:10.318 - 1A 13 00 00 00 86 86 86 0F (调用查询模块-外卫测温转换, 外卫温湿度虚拟地址)
2024-08-18 13:03:10.543 - 13 03 00 00 00 02 C7 79 (查询外卫温湿度)
2024-08-18 13:03:10.571 - 13 03 04 01 A7 01 0E F8 79 (外卫温湿度返回)
2024-08-18 13:03:11.573 - 1A 13 00 00 00 00 00 01 00 00 01 00 00 01 01 0E 01 01 A7 01 00 00 01 00 00 01 0F (外卫温湿度虚拟地址)
2024-08-18 13:03:11.767 - 1A 14 00 00 00 86 86 86 0F (调用查询模块-内卫测温转换, 内卫温湿度虚拟地址)
2024-08-18 13:03:11.988 - 14 03 00 00 00 02 C6 CE (查询内卫温湿度)
2024-08-18 13:03:12.011 - 14 03 04 01 ED 01 1A AF 60 (内卫温湿度返回)
2024-08-18 13:03:13.008 - 1A 14 00 00 00 00 00 01 00 00 01 00 00 01 01 1A 01 01 ED 01 00 00 01 00 00 01 0F (内卫温湿度虚拟地址)
2024-08-18 13:03:13.198 - 1A 15 00 00 00 86 86 86 0F (调用查询模块-客厅测温转换, 客厅温湿度虚拟地址)
2024-08-18 13:03:13.422 - 15 03 00 00 00 02 C7 1F (查询客厅温湿度)
2024-08-18 13:03:13.443 - 15 03 04 01 E5 00 EC BF B4 (客厅温湿度返回)
2024-08-18 13:03:14.443 - 1A 15 00 00 00 00 00 01 00 00 01 00 00 01 00 EC 01 01 E5 01 00 00 01 00 00 01 0F (客厅温湿度虚拟地址)
2024-08-18 13:03:14.607 - 1A 16 00 00 00 86 86 86 0F (调用查询模块-机柜测温转换, 机柜温湿度虚拟地址)
2024-08-18 13:03:14.828 - 16 03 00 00 00 02 C7 2C (查询机柜温湿度)
2024-08-18 13:03:14.862 - 16 03 04 01 BE 01 01 3C BA (机柜温湿度返回)
2024-08-18 13:03:15.862 - 1A 16 00 00 00 00 00 01 00 00 01 00 00 01 01 01 01 01 BE 01 00 00 01 00 00 01 0F (机柜温湿度虚拟地址)
2024-08-18 13:03:16.138 - 1A 0E 00 00 00 86 86 86 0F (调用查询模块-厨房测温转换, 厨房温湿度虚拟地址)
2024-08-18 13:03:16.359 - 0E 03 00 00 00 02 C4 F4 (查询厨房温湿度)
2024-08-18 13:03:16.383 - 0E 03 04 01 6A 01 2C 24 9E (厨房温湿度返回)
2024-08-18 13:03:17.381 - 1A 0E 00 00 00 00 00 01 00 00 01 00 00 01 01 2C 01 01 6A 01 00 00 01 00 00 01 0F (厨房温湿度虚拟地址)
2024-08-18 13:03:17.736 - 1A 0F 00 00 00 86 86 86 0F (调用查询模块-餐厅测温转换, 餐厅温湿度虚拟地址)
2024-08-18 13:03:17.958 - 1C 03 00 00 00 02 C7 86 (查询餐厅温湿度)
2024-08-18 13:03:17.985 - 1C 03 04 01 96 01 11 17 7E (餐厅温湿度返回)
2024-08-18 13:03:18.979 - 1A 0F 00 00 00 00 00 01 00 00 01 00 00 01 01 11 01 01 96 01 00 00 01 00 00 01 0F (餐厅温湿度虚拟地址)
2024-08-18 13:03:19.136 - 1A 20 00 00 00 86 86 86 0F (调用查询模块-阳台测温湿气压转换, 阳台温湿气压虚拟地址)
2024-08-18 13:03:19.370 - 20 03 00 00 00 03 03 7A (查询阳台温湿度气压)
2024-08-18 13:03:19.387 - 20 03 06 01 7D 00 FF 26 EA 73 20 (阳台温湿度返回)
2024-08-18 13:03:19.886 - 1A 20 00 00 00 00 00 01 00 00 01 00 00 01 01 7D 01 00 FF 01 26 EA 01 00 00 01 0F (阳台温湿气压虚拟地址)
2024-08-18 13:03:20.068 - 1A 21 00 00 00 86 86 86 0F (调用查询模块-储藏室测温湿气压转换, 储藏室温湿气压虚拟地址)
2024-08-18 13:03:20.289 - 21 03 00 00 00 03 02 AB (查询储藏室温湿度气压)
2024-08-18 13:03:20.306 - 21 03 06 01 4A 01 EB 26 EF 0A 8F (储藏室温湿度返回)
2024-08-18 13:03:20.812 - 1A 21 00 00 00 00 00 01 00 00 01 00 00 01 01 4A 01 01 EB 01 26 EF 01 00 00 01 0F (储藏室温湿气压虚拟地址)
2024-08-18 13:03:27.127 - 1A FF 03 00 00 86 86 86 0F (调用查询模块-主卧空调开关查询, 主卧空调虚拟地址)
2024-08-18 13:03:27.358 - 01 04 07 DC 00 01 F1 44 (查询主卧空调开关状态)
2024-08-18 13:03:27.381 - 01 04 02 70 00 9C F0
2024-08-18 13:03:28.362 - 1A FF 03 00 00 00 00 0F (主卧空调虚拟地址)
2024-08-18 13:03:28.506 - 1A FF 04 00 00 86 86 86 0F (调用查询模块-次卧空调开关查询, 次卧空调虚拟地址)
2024-08-18 13:03:28.728 - 01 04 07 E2 00 01 90 88 (查询次卧空调开关状态)
2024-08-18 13:03:28.760 - 01 04 02 70 00 9C F0
2024-08-18 13:03:29.733 - 1A FF 04 00 00 00 00 0F (次卧空调虚拟地址)
2024-08-18 13:03:30.483 - 1A FF 05 00 00 86 86 86 0F (调用查询模块-书房空调开关查询, 书房空调虚拟地址)
2024-08-18 13:03:30.707 - 01 04 07 E8 00 01 B0 8A (查询书房空调开关状态)
2024-08-18 13:03:30.733 - 01 04 02 70 00 9C F0
2024-08-18 13:03:31.711 - 1A FF 05 00 00 00 00 0F (书房空调虚拟地址)
2024-08-18 13:03:32.026 - 1A FF 02 00 00 86 86 86 0F (调用查询模块-餐厅空调开关查询, 餐厅空调虚拟地址)
2024-08-18 13:03:32.247 - 01 04 07 D6 00 01 D1 46 (查询餐厅空调开关状态)
2024-08-18 13:03:32.264 - 01 04 02 70 01 5D 30
2024-08-18 13:03:33.251 - 1A FF 02 00 00 01 00 0F (餐厅空调虚拟地址)
2024-08-18 13:03:33.599 - 1A FF 01 00 00 86 86 86 0F (调用查询模块-客厅空调开关查询, 客厅空调虚拟地址)
2024-08-18 13:03:33.819 - 01 04 07 D0 00 01 31 47 (查询客厅空调开关状态)
2024-08-18 13:03:33.836 - 01 04 02 70 01 5D 30
2024-08-18 13:03:34.826 - 1A FF 01 00 00 01 00 0F (客厅空调虚拟地址)
2024-08-18 13:03:34.970 - 1A 10 00 00 00 86 86 86 0F (调用查询模块-主卧测温转换, 主卧温湿度虚拟地址)
2024-08-18 13:03:35.193 - 1D 03 00 00 00 02 C6 57 (查询主卧温湿度)
2024-08-18 13:03:35.209 - 1D 03 04 01 DA 01 11 C6 69 (主卧温湿度返回)
2024-08-18 13:03:36.214 - 1A 10 00 00 00 00 00 01 00 00 01 00 00 01 01 11 01 01 DA 01 00 00 01 00 00 01 0F (主卧温湿度虚拟地址)
2024-08-18 13:03:36.568 - 1A 11 00 00 00 86 86 86 0F (调用查询模块-次卧测温转换, 次卧温湿度虚拟地址)
2024-08-18 13:03:36.789 - 11 03 00 00 00 02 C6 9B (查询次卧温湿度)
2024-08-18 13:03:36.822 - 11 03 04 01 D4 01 0C AB A3 (次卧温湿度返回)
2024-08-18 13:03:37.809 - 1A 11 00 00 00 00 00 01 00 00 01 00 00 01 01 0C 01 01 D4 01 00 00 01 00 00 01 0F (次卧温湿度虚拟地址)
2024-08-18 13:03:38.018 - 1A 12 00 00 00 86 86 86 0F (调用查询模块-书房测温转换, 书房温湿度虚拟地址)
2024-08-18 13:03:38.241 - 12 03 00 00 00 02 C6 A8 (查询书房温湿度)
2024-08-18 13:03:38.259 - 12 03 04 01 95 01 1E 48 BA (书房温湿度返回)
2024-08-18 13:03:39.261 - 1A 12 00 00 00 00 00 01 00 00 01 00 00 01 01 1E 01 01 95 01 00 00 01 00 00 01 0F (书房温湿度虚拟地址)
2024-08-18 13:03:39.422 - 1A 13 00 00 00 86 86 86 0F (调用查询模块-外卫测温转换, 外卫温湿度虚拟地址)
2024-08-18 13:03:39.644 - 13 03 00 00 00 02 C7 79 (查询外卫温湿度)
2024-08-18 13:03:39.664 - 13 03 04 01 A8 01 0E C8 7A (外卫温湿度返回)
2024-08-18 13:03:40.666 - 1A 13 00 00 00 00 00 01 00 00 01 00 00 01 01 0E 01 01 A8 01 00 00 01 00 00 01 0F (外卫温湿度虚拟地址)
2024-08-18 13:03:40.975 - 1A 14 00 00 00 86 86 86 0F (调用查询模块-内卫测温转换, 内卫温湿度虚拟地址)
2024-08-18 13:03:41.193 - 14 03 00 00 00 02 C6 CE (查询内卫温湿度)
2024-08-18 13:03:41.208 - 14 03 04 01 E4 01 1A 7F 62 (内卫温湿度返回)
2024-08-18 13:03:42.212 - 1A 14 00 00 00 00 00 01 00 00 01 00 00 01 01 1A 01 01 E4 01 00 00 01 00 00 01 0F (内卫温湿度虚拟地址)
2024-08-18 13:03:42.484 - 1A 15 00 00 00 86 86 86 0F (调用查询模块-客厅测温转换, 客厅温湿度虚拟地址)
2024-08-18 13:03:42.707 - 15 03 00 00 00 02 C7 1F (查询客厅温湿度)
2024-08-18 13:03:42.727 - 15 03 04 01 E5 00 ED 7E 74 (客厅温湿度返回)
2024-08-18 13:03:43.728 - 1A 15 00 00 00 00 00 01 00 00 01 00 00 01 00 ED 01 01 E5 01 00 00 01 00 00 01 0F (客厅温湿度虚拟地址)
2024-08-18 13:03:43.929 - 1A 16 00 00 00 86 86 86 0F (调用查询模块-机柜测温转换, 机柜温湿度虚拟地址)
2024-08-18 13:03:44.150 - 16 03 00 00 00 02 C7 2C (查询机柜温湿度)
2024-08-18 13:03:44.174 - 16 03 04 01 BE 01 01 3C BA (机柜温湿度返回)
2024-08-18 13:03:45.179 - 1A 16 00 00 00 00 00 01 00 00 01 00 00 01 01 01 01 01 BE 01 00 00 01 00 00 01 0F (机柜温湿度虚拟地址)
2024-08-18 13:03:45.358 - 1A 0E 00 00 00 86 86 86 0F (调用查询模块-厨房测温转换, 厨房温湿度虚拟地址)
2024-08-18 13:03:45.579 - 0E 03 00 00 00 02 C4 F4 (查询厨房温湿度)
2024-08-18 13:03:45.612 - 0E 03 04 01 6A 01 2C 24 9E (厨房温湿度返回)
2024-08-18 13:03:46.599 - 1A 0E 00 00 00 00 00 01 00 00 01 00 00 01 01 2C 01 01 6A 01 00 00 01 00 00 01 0F (厨房温湿度虚拟地址)
2024-08-18 13:03:46.803 - 1A 0F 00 00 00 86 86 86 0F (调用查询模块-餐厅测温转换, 餐厅温湿度虚拟地址)
2024-08-18 13:03:47.014 - 1C 03 00 00 00 02 C7 86 (查询餐厅温湿度)
2024-08-18 13:03:47.046 - 1C 03 04 01 96 01 10 D6 BE (餐厅温湿度返回)
2024-08-18 13:03:48.045 - 1A 0F 00 00 00 00 00 01 00 00 01 00 00 01 01 10 01 01 96 01 00 00 01 00 00 01 0F (餐厅温湿度虚拟地址)
2024-08-18 13:03:48.370 - 1A 20 00 00 00 86 86 86 0F (调用查询模块-阳台测温湿气压转换, 阳台温湿气压虚拟地址)
2024-08-18 13:03:48.594 - 20 03 00 00 00 03 03 7A (查询阳台温湿度气压)
2024-08-18 13:03:48.610 - 20 03 06 01 7D 00 FF 26 EE 72 E3 (阳台温湿度返回)
2024-08-18 13:03:49.116 - 1A 20 00 00 00 00 00 01 00 00 01 00 00 01 01 7D 01 00 FF 01 26 EE 01 00 00 01 0F (阳台温湿气压虚拟地址)
2024-08-18 13:03:49.269 - 1A 21 00 00 00 86 86 86 0F (调用查询模块-储藏室测温湿气压转换, 储藏室温湿气压虚拟地址)
2024-08-18 13:03:49.507 - 21 03 00 00 00 03 02 AB (查询储藏室温湿度气压)
2024-08-18 13:03:49.525 - 21 03 06 01 4A 01 EB 26 F0 4B 47 (储藏室温湿度返回)
2024-08-18 13:03:50.031 - 1A 21 00 00 00 00 00 01 00 00 01 00 00 01 01 4A 01 01 EB 01 26 F0 01 00 00 01 0F (储藏室温湿气压虚拟地址)
2024-08-18 13:04:00.056 - 1A FF 03 00 00 86 86 86 0F (调用查询模块-主卧空调开关查询, 主卧空调虚拟地址)
2024-08-18 13:04:00.294 - 01 04 07 DC 00 01 F1 44 (查询主卧空调开关状态)
2024-08-18 13:04:00.311 - 01 04 02 70 00 9C F0
2024-08-18 13:04:01.284 - 1A FF 03 00 00 00 00 0F (主卧空调虚拟地址)
2024-08-18 13:04:01.506 - 1A FF 04 00 00 86 86 86 0F (调用查询模块-次卧空调开关查询, 次卧空调虚拟地址)
2024-08-18 13:04:01.729 - 01 04 07 E2 00 01 90 88 (查询次卧空调开关状态)
2024-08-18 13:04:01.758 - 01 04 02 70 00 9C F0
2024-08-18 13:04:02.735 - 1A FF 04 00 00 00 00 0F (次卧空调虚拟地址)
2024-08-18 13:04:02.881 - 1A FF 05 00 00 86 86 86 0F (调用查询模块-书房空调开关查询, 书房空调虚拟地址)
2024-08-18 13:04:03.102 - 01 04 07 E8 00 01 B0 8A (查询书房空调开关状态)
2024-08-18 13:04:03.131 - 01 04 02 70 00 9C F0
2024-08-18 13:04:04.109 - 1A FF 05 00 00 00 00 0F (书房空调虚拟地址)
2024-08-18 13:04:04.444 - 1A FF 02 00 00 86 86 86 0F (调用查询模块-餐厅空调开关查询, 餐厅空调虚拟地址)
2024-08-18 13:04:04.682 - 01 04 07 D6 00 01 D1 46 (查询餐厅空调开关状态)
2024-08-18 13:04:04.705 - 01 04 02 70 01 5D 30
2024-08-18 13:04:05.686 - 1A FF 02 00 00 01 00 0F (餐厅空调虚拟地址)
2024-08-18 13:04:05.881 - 1A FF 01 00 00 86 86 86 0F (调用查询模块-客厅空调开关查询, 客厅空调虚拟地址)
2024-08-18 13:04:06.100 - 01 04 07 D0 00 01 31 47 (查询客厅空调开关状态)
2024-08-18 13:04:06.131 - 01 04 02 70 01 5D 30
2024-08-18 13:04:07.107 - 1A FF 01 00 00 01 00 0F (客厅空调虚拟地址)
2024-08-18 13:04:07.335 - 1A 10 00 00 00 86 86 86 0F (调用查询模块-主卧测温转换, 主卧温湿度虚拟地址)
2024-08-18 13:04:07.556 - 1D 03 00 00 00 02 C6 57 (查询主卧温湿度)
2024-08-18 13:04:07.573 - 1D 03 04 01 DA 01 11 C6 69 (主卧温湿度返回)
2024-08-18 13:04:08.575 - 1A 10 00 00 00 00 00 01 00 00 01 00 00 01 01 11 01 01 DA 01 00 00 01 00 00 01 0F (主卧温湿度虚拟地址)
2024-08-18 13:04:08.745 - 1A 11 00 00 00 86 86 86 0F (调用查询模块-次卧测温转换, 次卧温湿度虚拟地址)
2024-08-18 13:04:08.971 - 11 03 00 00 00 02 C6 9B (查询次卧温湿度)
2024-08-18 13:04:08.987 - 11 03 04 01 D1 01 0C BB A2 (次卧温湿度返回)
2024-08-18 13:04:09.993 - 1A 11 00 00 00 00 00 01 00 00 01 00 00 01 01 0C 01 01 D1 01 00 00 01 00 00 01 0F (次卧温湿度虚拟地址)
2024-08-18 13:04:10.185 - 1A 12 00 00 00 86 86 86 0F (调用查询模块-书房测温转换, 书房温湿度虚拟地址)
2024-08-18 13:04:10.412 - 12 03 00 00 00 02 C6 A8 (查询书房温湿度)
2024-08-18 13:04:10.439 - 12 03 04 01 95 01 1E 48 BA (书房温湿度返回)
2024-08-18 13:04:11.433 - 1A 12 00 00 00 00 00 01 00 00 01 00 00 01 01 1E 01 01 95 01 00 00 01 00 00 01 0F (书房温湿度虚拟地址)
2024-08-18 13:04:11.603 - 1A 13 00 00 00 86 86 86 0F (调用查询模块-外卫测温转换, 外卫温湿度虚拟地址)
2024-08-18 13:04:11.827 - 13 03 00 00 00 02 C7 79 (查询外卫温湿度)
2024-08-18 13:04:11.859 - 13 03 04 01 A8 01 0E C8 7A (外卫温湿度返回)
2024-08-18 13:04:12.861 - 1A 13 00 00 00 00 00 01 00 00 01 00 00 01 01 0E 01 01 A8 01 00 00 01 00 00 01 0F (外卫温湿度虚拟地址)
2024-08-18 13:04:13.037 - 1A 14 00 00 00 86 86 86 0F (调用查询模块-内卫测温转换, 内卫温湿度虚拟地址)
2024-08-18 13:04:13.263 - 14 03 00 00 00 02 C6 CE (查询内卫温湿度)
2024-08-18 13:04:13.279 - 14 03 04 01 E3 01 1A CE A3 (内卫温湿度返回)
2024-08-18 13:04:14.285 - 1A 14 00 00 00 00 00 01 00 00 01 00 00 01 01 1A 01 01 E3 01 00 00 01 00 00 01 0F (内卫温湿度虚拟地址)
2024-08-18 13:04:14.477 - 1A 15 00 00 00 86 86 86 0F (调用查询模块-客厅测温转换, 客厅温湿度虚拟地址)
2024-08-18 13:04:14.715 - 15 03 00 00 00 02 C7 1F (查询客厅温湿度)
2024-08-18 13:04:14.735 - 15 03 04 01 E5 00 ED 7E 74 (客厅温湿度返回)
2024-08-18 13:04:15.736 - 1A 15 00 00 00 00 00 01 00 00 01 00 00 01 00 ED 01 01 E5 01 00 00 01 00 00 01 0F (客厅温湿度虚拟地址)
2024-08-18 13:04:15.944 - 1A 16 00 00 00 86 86 86 0F (调用查询模块-机柜测温转换, 机柜温湿度虚拟地址)
2024-08-18 13:04:16.168 - 16 03 00 00 00 02 C7 2C (查询机柜温湿度)
2024-08-18 13:04:16.184 - 16 03 04 01 BE 01 02 7C BB (机柜温湿度返回)
2024-08-18 13:04:17.190 - 1A 16 00 00 00 00 00 01 00 00 01 00 00 01 01 02 01 01 BE 01 00 00 01 00 00 01 0F (机柜温湿度虚拟地址)
2024-08-18 13:04:17.366 - 1A 0E 00 00 00 86 86 86 0F (调用查询模块-厨房测温转换, 厨房温湿度虚拟地址)
2024-08-18 13:04:17.591 - 0E 03 00 00 00 02 C4 F4 (查询厨房温湿度)
2024-08-18 13:04:17.608 - 0E 03 04 01 6A 01 2C 24 9E (厨房温湿度返回)
2024-08-18 13:04:18.612 - 1A 0E 00 00 00 00 00 01 00 00 01 00 00 01 01 2C 01 01 6A 01 00 00 01 00 00 01 0F (厨房温湿度虚拟地址)
2024-08-18 13:04:18.800 - 1A 0F 00 00 00 86 86 86 0F (调用查询模块-餐厅测温转换, 餐厅温湿度虚拟地址)
2024-08-18 13:04:19.026 - 1C 03 00 00 00 02 C7 86 (查询餐厅温湿度)
2024-08-18 13:04:19.042 - 1C 03 04 01 97 01 10 87 7E (餐厅温湿度返回)
2024-08-18 13:04:20.047 - 1A 0F 00 00 00 00 00 01 00 00 01 00 00 01 01 10 01 01 97 01 00 00 01 00 00 01 0F (餐厅温湿度虚拟地址)
2024-08-18 13:04:20.255 - 1A 20 00 00 00 86 86 86 0F (调用查询模块-阳台测温湿气压转换, 阳台温湿气压虚拟地址)
2024-08-18 13:04:20.478 - 20 03 00 00 00 03 03 7A (查询阳台温湿度气压)
2024-08-18 13:04:20.494 - 20 03 06 01 7D 00 FF 26 EE 72 E3 (阳台温湿度返回)
2024-08-18 13:04:20.994 - 1A 20 00 00 00 00 00 01 00 00 01 00 00 01 01 7D 01 00 FF 01 26 EE 01 00 00 01 0F (阳台温湿气压虚拟地址)
2024-08-18 13:04:21.193 - 1A 21 00 00 00 86 86 86 0F (调用查询模块-储藏室测温湿气压转换, 储藏室温湿气压虚拟地址)
2024-08-18 13:04:21.402 - 21 03 00 00 00 03 02 AB (查询储藏室温湿度气压)
2024-08-18 13:04:21.419 - 21 03 06 01 4A 01 EC 26 F0 FA 86 (储藏室温湿度返回)
2024-08-18 13:04:21.929 - 1A 21 00 00 00 00 00 01 00 00 01 00 00 01 01 4A 01 01 EC 01 26 F0 01 00 00 01 0F (储藏室温湿气压虚拟地址)
2024-08-18 13:04:22.246 - 1A 22 00 00 00 86 86 86 0F (调用查询模块-室外测温湿气压转换, 室外温湿气压虚拟地址)
2024-08-18 13:04:22.474 - 22 03 00 00 00 03 02 98 (查询室外温湿度气压)
2024-08-18 13:04:22.983 - 1A 22 00 00 00 00 00 01 00 00 01 00 00 01 00 00 01 86 86 01 86 0F 01 00 00 01 0F (室外温湿气压虚拟地址)
2024-08-18 13:04:24.650 - 1A FF 03 00 00 86 86 86 0F (调用查询模块-主卧空调开关查询, 主卧空调虚拟地址)
2024-08-18 13:04:24.872 - 01 04 07 DC 00 01 F1 44 (查询主卧空调开关状态)
2024-08-18 13:04:24.906 - 01 04 02 70 00 9C F0
2024-08-18 13:04:25.883 - 1A FF 03 00 00 00 00 0F (主卧空调虚拟地址)
2024-08-18 13:04:26.234 - 1A FF 04 00 00 86 86 86 0F (调用查询模块-次卧空调开关查询, 次卧空调虚拟地址)
2024-08-18 13:04:26.457 - 01 04 07 E2 00 01 90 88 (查询次卧空调开关状态)
2024-08-18 13:04:26.489 - 01 04 02 70 00 9C F0
2024-08-18 13:04:27.464 - 1A FF 04 00 00 00 00 0F (次卧空调虚拟地址)
2024-08-18 13:04:27.818 - 1A FF 05 00 00 86 86 86 0F (调用查询模块-书房空调开关查询, 书房空调虚拟地址)
2024-08-18 13:04:28.037 - 01 04 07 E8 00 01 B0 8A (查询书房空调开关状态)
2024-08-18 13:04:28.054 - 01 04 02 70 00 9C F0
2024-08-18 13:04:29.042 - 1A FF 05 00 00 00 00 0F (书房空调虚拟地址)
2024-08-18 13:04:29.202 - 1A FF 02 00 00 86 86 86 0F (调用查询模块-餐厅空调开关查询, 餐厅空调虚拟地址)
2024-08-18 13:04:29.425 - 01 04 07 D6 00 01 D1 46 (查询餐厅空调开关状态)
2024-08-18 13:04:29.448 - 01 04 02 70 01 5D 30
2024-08-18 13:04:30.431 - 1A FF 02 00 00 01 00 0F (餐厅空调虚拟地址)
2024-08-18 13:04:30.656 - 1A FF 01 00 00 86 86 86 0F (调用查询模块-客厅空调开关查询, 客厅空调虚拟地址)
2024-08-18 13:04:30.881 - 01 04 07 D0 00 01 31 47 (查询客厅空调开关状态)
2024-08-18 13:04:30.894 - 01 04 02 70 01 5D 30
2024-08-18 13:04:31.883 - 1A FF 01 00 00 01 00 0F (客厅空调虚拟地址)
2024-08-18 13:04:32.084 - 1A 10 00 00 00 86 86 86 0F (调用查询模块-主卧测温转换, 主卧温湿度虚拟地址)
2024-08-18 13:04:32.315 - 1D 03 00 00 00 02 C6 57 (查询主卧温湿度)
2024-08-18 13:04:32.331 - 1D 03 04 01 DA 01 11 C6 69 (主卧温湿度返回)
2024-08-18 13:04:33.337 - 1A 10 00 00 00 00 00 01 00 00 01 00 00 01 01 11 01 01 DA 01 00 00 01 00 00 01 0F (主卧温湿度虚拟地址)
2024-08-18 13:04:33.496 - 1A 11 00 00 00 86 86 86 0F (调用查询模块-次卧测温转换, 次卧温湿度虚拟地址)
2024-08-18 13:04:33.716 - 11 03 00 00 00 02 C6 9B (查询次卧温湿度)
2024-08-18 13:04:33.736 - 11 03 04 01 CF 01 0C DB A4 (次卧温湿度返回)
2024-08-18 13:04:34.742 - 1A 11 00 00 00 00 00 01 00 00 01 00 00 01 01 0C 01 01 CF 01 00 00 01 00 00 01 0F (次卧温湿度虚拟地址)
2024-08-18 13:04:34.949 - 1A 12 00 00 00 86 86 86 0F (调用查询模块-书房测温转换, 书房温湿度虚拟地址)
2024-08-18 13:04:35.179 - 12 03 00 00 00 02 C6 A8 (查询书房温湿度)
2024-08-18 13:04:35.230 - 12 03 04 01 95 01 1E 48 BA (书房温湿度返回)
2024-08-18 13:04:36.199 - 1A 12 00 00 00 00 00 01 00 00 01 00 00 01 01 1E 01 01 95 01 00 00 01 00 00 01 0F (书房温湿度虚拟地址)
2024-08-18 13:04:36.353 - 1A 13 00 00 00 86 86 86 0F (调用查询模块-外卫测温转换, 外卫温湿度虚拟地址)
2024-08-18 13:04:36.575 - 13 03 00 00 00 02 C7 79 (查询外卫温湿度)
2024-08-18 13:04:36.608 - 13 03 04 01 A8 01 0E C8 7A (外卫温湿度返回)
2024-08-18 13:04:37.595 - 1A 13 00 00 00 00 00 01 00 00 01 00 00 01 01 0E 01 01 A8 01 00 00 01 00 00 01 0F (外卫温湿度虚拟地址)
2024-08-18 13:04:37.787 - 1A 14 00 00 00 86 86 86 0F (调用查询模块-内卫测温转换, 内卫温湿度虚拟地址)
2024-08-18 13:04:38.009 - 14 03 00 00 00 02 C6 CE (查询内卫温湿度)
2024-08-18 13:04:38.025 - 14 03 04 01 E4 01 1A 7F 62 (内卫温湿度返回)
2024-08-18 13:04:39.031 - 1A 14 00 00 00 00 00 01 00 00 01 00 00 01 01 1A 01 01 E4 01 00 00 01 00 00 01 0F (内卫温湿度虚拟地址)
2024-08-18 13:04:39.277 - 1A 15 00 00 00 86 86 86 0F (调用查询模块-客厅测温转换, 客厅温湿度虚拟地址)
2024-08-18 13:04:39.498 - 15 03 00 00 00 02 C7 1F (查询客厅温湿度)
2024-08-18 13:04:39.515 - 15 03 04 01 E3 00 ED 9E 75 (客厅温湿度返回)
2024-08-18 13:04:40.519 - 1A 15 00 00 00 00 00 01 00 00 01 00 00 01 00 ED 01 01 E3 01 00 00 01 00 00 01 0F (客厅温湿度虚拟地址)
2024-08-18 13:04:40.720 - 1A 16 00 00 00 86 86 86 0F (调用查询模块-机柜测温转换, 机柜温湿度虚拟地址)
2024-08-18 13:04:40.944 - 16 03 00 00 00 02 C7 2C (查询机柜温湿度)
2024-08-18 13:04:40.961 - 16 03 04 01 BE 01 02 7C BB (机柜温湿度返回)
2024-08-18 13:04:41.966 - 1A 16 00 00 00 00 00 01 00 00 01 00 00 01 01 02 01 01 BE 01 00 00 01 00 00 01 0F (机柜温湿度虚拟地址)
2024-08-18 13:04:42.307 - 1A 0E 00 00 00 86 86 86 0F (调用查询模块-厨房测温转换, 厨房温湿度虚拟地址)
2024-08-18 13:04:42.528 - 0E 03 00 00 00 02 C4 F4 (查询厨房温湿度)
2024-08-18 13:04:42.548 - 0E 03 04 01 6B 01 2C 75 5E (厨房温湿度返回)
2024-08-18 13:04:43.006 - 1A FF 03 00 00 86 86 86 0F (调用查询模块-主卧空调开关查询, 主卧空调虚拟地址)
2024-08-18 13:04:43.548 - 1A 0E 00 00 00 00 00 01 00 00 01 00 00 01 86 86 01 00 00 01 00 00 01 00 00 01 0F (厨房温湿度虚拟地址)
2024-08-18 13:04:43.750 - 1A FF 04 00 00 86 86 86 0F (调用查询模块-次卧空调开关查询, 次卧空调虚拟地址)
2024-08-18 13:04:43.973 - 01 04 07 E2 00 01 90 88 (查询次卧空调开关状态)
2024-08-18 13:04:43.990 - 01 04 02 70 00 9C F0
2024-08-18 13:04:44.976 - 1A FF 04 00 00 00 00 0F (次卧空调虚拟地址)
2024-08-18 13:04:45.197 - 1A FF 05 00 00 86 86 86 0F (调用查询模块-书房空调开关查询, 书房空调虚拟地址)
2024-08-18 13:04:45.425 - 01 04 07 E8 00 01 B0 8A (查询书房空调开关状态)
2024-08-18 13:04:45.443 - 01 04 02 70 00 9C F0
2024-08-18 13:04:46.422 - 1A FF 05 00 00 00 00 0F (书房空调虚拟地址)
2024-08-18 13:04:46.642 - 1A FF 02 00 00 86 86 86 0F (调用查询模块-餐厅空调开关查询, 餐厅空调虚拟地址)
2024-08-18 13:04:46.864 - 01 04 07 D6 00 01 D1 46 (查询餐厅空调开关状态)
2024-08-18 13:04:46.882 - 01 04 02 70 01 5D 30
2024-08-18 13:04:47.868 - 1A FF 02 00 00 01 00 0F (餐厅空调虚拟地址)
2024-08-18 13:04:48.092 - 1A FF 01 00 00 86 86 86 0F (调用查询模块-客厅空调开关查询, 客厅空调虚拟地址)
2024-08-18 13:04:48.310 - 01 04 07 D0 00 01 31 47 (查询客厅空调开关状态)
2024-08-18 13:04:48.330 - 01 04 02 70 01 5D 30
2024-08-18 13:04:49.314 - 1A FF 01 00 00 01 00 0F (客厅空调虚拟地址)
2024-08-18 13:04:49.518 - 1A 10 00 00 00 86 86 86 0F (调用查询模块-主卧测温转换, 主卧温湿度虚拟地址)
2024-08-18 13:04:49.740 - 1D 03 00 00 00 02 C6 57 (查询主卧温湿度)
2024-08-18 13:04:49.768 - 1D 03 04 01 D8 01 11 67 A9 (主卧温湿度返回)
2024-08-18 13:04:50.760 - 1A 10 00 00 00 00 00 01 00 00 01 00 00 01 01 11 01 01 D8 01 00 00 01 00 00 01 0F (主卧温湿度虚拟地址)
2024-08-18 13:04:50.947 - 1A 11 00 00 00 86 86 86 0F (调用查询模块-次卧测温转换, 次卧温湿度虚拟地址)
2024-08-18 13:04:51.169 - 11 03 00 00 00 02 C6 9B (查询次卧温湿度)
2024-08-18 13:04:51.202 - 11 03 04 01 CD 01 0C 7A 64 (次卧温湿度返回)
2024-08-18 13:04:52.191 - 1A 11 00 00 00 00 00 01 00 00 01 00 00 01 01 0C 01 01 CD 01 00 00 01 00 00 01 0F (次卧温湿度虚拟地址)
2024-08-18 13:04:52.409 - 1A 12 00 00 00 86 86 86 0F (调用查询模块-书房测温转换, 书房温湿度虚拟地址)
2024-08-18 13:04:52.631 - 12 03 00 00 00 02 C6 A8 (查询书房温湿度)
2024-08-18 13:04:52.653 - 12 03 04 01 95 01 1E 48 BA (书房温湿度返回)
2024-08-18 13:04:53.652 - 1A 12 00 00 00 00 00 01 00 00 01 00 00 01 01 1E 01 01 95 01 00 00 01 00 00 01 0F (书房温湿度虚拟地址)
2024-08-18 13:04:53.821 - 1A 13 00 00 00 86 86 86 0F (调用查询模块-外卫测温转换, 外卫温湿度虚拟地址)
2024-08-18 13:04:54.043 - 13 03 00 00 00 02 C7 79 (查询外卫温湿度)
2024-08-18 13:04:54.074 - 13 03 04 01 AA 01 0E 69 BA (外卫温湿度返回)
2024-08-18 13:04:55.078 - 1A 13 00 00 00 00 00 01 00 00 01 00 00 01 01 0E 01 01 AA 01 00 00 01 00 00 01 0F (外卫温湿度虚拟地址)
2024-08-18 13:04:55.365 - 1A 14 00 00 00 86 86 86 0F (调用查询模块-内卫测温转换, 内卫温湿度虚拟地址)
2024-08-18 13:04:55.589 - 14 03 00 00 00 02 C6 CE (查询内卫温湿度)
2024-08-18 13:04:55.607 - 14 03 04 01 E8 01 1A BF 61 (内卫温湿度返回)
2024-08-18 13:04:56.611 - 1A 14 00 00 00 00 00 01 00 00 01 00 00 01 01 1A 01 01 E8 01 00 00 01 00 00 01 0F (内卫温湿度虚拟地址)
2024-08-18 13:04:56.866 - 1A 15 00 00 00 86 86 86 0F (调用查询模块-客厅测温转换, 客厅温湿度虚拟地址)
2024-08-18 13:04:57.099 - 15 03 00 00 00 02 C7 1F (查询客厅温湿度)
2024-08-18 13:04:57.120 - 15 03 04 01 E3 00 ED 9E 75 (客厅温湿度返回)
2024-08-18 13:04:58.126 - 1A 15 00 00 00 00 00 01 00 00 01 00 00 01 00 ED 01 01 E3 01 00 00 01 00 00 01 0F (客厅温湿度虚拟地址)
2024-08-18 13:04:58.333 - 1A 16 00 00 00 86 86 86 0F (调用查询模块-机柜测温转换, 机柜温湿度虚拟地址)
2024-08-18 13:04:58.550 - 16 03 00 00 00 02 C7 2C (查询机柜温湿度)
2024-08-18 13:04:58.572 - 16 03 04 01 BE 01 02 7C BB (机柜温湿度返回)
2024-08-18 13:04:59.580 - 1A 16 00 00 00 00 00 01 00 00 01 00 00 01 01 02 01 01 BE 01 00 00 01 00 00 01 0F (机柜温湿度虚拟地址)
2024-08-18 13:04:59.758 - 1A 0E 00 00 00 86 86 86 0F (调用查询模块-厨房测温转换, 厨房温湿度虚拟地址)
2024-08-18 13:04:59.978 - 0E 03 00 00 00 02 C4 F4 (查询厨房温湿度)
2024-08-18 13:05:00.013 - 0E 03 04 01 6B 01 2C 75 5E (厨房温湿度返回)
2024-08-18 13:05:01.012 - 1A 0E 00 00 00 00 00 01 00 00 01 00 00 01 01 2C 01 01 6B 01 00 00 01 00 00 01 0F (厨房温湿度虚拟地址)
2024-08-18 13:05:01.204 - 1A 0F 00 00 00 86 86 86 0F (调用查询模块-餐厅测温转换, 餐厅温湿度虚拟地址)
2024-08-18 13:05:01.427 - 1C 03 00 00 00 02 C7 86 (查询餐厅温湿度)
2024-08-18 13:05:01.446 - 1C 03 04 01 97 01 10 87 7E (餐厅温湿度返回)
2024-08-18 13:05:02.448 - 1A 0F 00 00 00 00 00 01 00 00 01 00 00 01 01 10 01 01 97 01 00 00 01 00 00 01 0F (餐厅温湿度虚拟地址)
2024-08-18 13:05:02.648 - 1A 20 00 00 00 86 86 86 0F (调用查询模块-阳台测温湿气压转换, 阳台温湿气压虚拟地址)
2024-08-18 13:05:02.869 - 20 03 00 00 00 03 03 7A (查询阳台温湿度气压)
2024-08-18 13:05:02.894 - 20 03 06 01 7D 01 00 26 EE 43 2F (阳台温湿度返回)
2024-08-18 13:05:03.396 - 1A 20 00 00 00 00 00 01 00 00 01 00 00 01 01 7D 01 01 00 01 26 EE 01 00 00 01 0F (阳台温湿气压虚拟地址)
2024-08-18 13:05:03.583 - 1A 21 00 00 00 86 86 86 0F (调用查询模块-储藏室测温湿气压转换, 储藏室温湿气压虚拟地址)
2024-08-18 13:05:03.804 - 21 03 00 00 00 03 02 AB (查询储藏室温湿度气压)
2024-08-18 13:05:03.838 - 21 03 06 01 4A 01 ED 26 F0 AB 46 (储藏室温湿度返回)
2024-08-18 13:05:04.330 - 1A 21 00 00 00 00 00 01 00 00 01 00 00 01 01 4A 01 01 ED 01 26 F0 01 00 00 01 0F (储藏室温湿气压虚拟地址)
2024-08-18 13:05:04.553 - 1A 22 00 00 00 86 86 86 0F (调用查询模块-室外测温湿气压转换, 室外温湿气压虚拟地址)
2024-08-18 13:05:04.776 - 22 03 00 00 00 03 02 98 (查询室外温湿度气压)
2024-08-18 13:05:05.299 - 1A 22 00 00 00 00 00 01 00 00 01 00 00 01 00 00 01 86 86 01 86 0F 01 00 00 01 0F (室外温湿气压虚拟地址)
2024-08-18 13:06:30.481 - 1A 22 00 00 00 86 86 86 0F (调用查询模块-室外测温湿气压转换, 室外温湿气压虚拟地址)
2024-08-18 13:06:30.704 - 22 03 00 00 00 03 02 98 (查询室外温湿度气压)
2024-08-18 13:06:31.103 - 1A 22 00 00 00 86 86 86 0F (调用查询模块-室外测温湿气压转换, 室外温湿气压虚拟地址)
2024-08-18 13:06:31.229 - 32 01 86 0F 01 00 00 01 0F
2024-08-18 13:06:33.306 - 1A 20 00 00 00 86 86 86 0F (调用查询模块-阳台测温湿气压转换, 阳台温湿气压虚拟地址)
2024-08-18 13:06:33.530 - 20 03 00 00 00 03 03 7A (查询阳台温湿度气压)
2024-08-18 13:06:33.547 - 20 03 06 01 7C 01 00 26 EE 7E EF (阳台温湿度返回)
2024-08-18 13:06:34.048 - 1A 20 00 00 00 00 00 01 00 00 01 00 00 01 01 7C 01 01 00 01 26 EE 01 00 00 01 0F (阳台温湿气压虚拟地址)
2024-08-18 13:06:34.823 - 1A 21 00 00 00 86 86 86 0F (调用查询模块-储藏室测温湿气压转换, 储藏室温湿气压虚拟地址)
2024-08-18 13:06:35.047 - 21 03 00 00 00 03 02 AB (查询储藏室温湿度气压)
2024-08-18 13:06:35.068 - 21 03 06 01 4A 01 F0 26 F0 3B 40 (储藏室温湿度返回)
2024-08-18 13:06:35.562 - 1A 21 00 00 00 00 00 01 00 00 01 00 00 01 01 4A 01 01 F0 01 26 F0 01 00 00 01 0F (储藏室温湿气压虚拟地址)
2024-08-18 13:06:36.771 - 1A 20 00 00 00 86 86 86 0F (调用查询模块-阳台测温湿气压转换, 阳台温湿气压虚拟地址)
2024-08-18 13:06:36.992 - 20 03 00 00 00 03 03 7A (查询阳台温湿度气压)
2024-08-18 13:06:37.009 - 20 03 06 01 7C 01 00 26 EE 7E EF (阳台温湿度返回)
2024-08-18 13:06:37.520 - 1A 20 00 00 00 00 00 01 00 00 01 00 00 01 01 7C 01 01 00 01 26 EE 01 00 00 01 0F (阳台温湿气压虚拟地址)
2024-08-18 13:06:39.952 - 1A 21 00 00 00 86 86 86 0F (调用查询模块-储藏室测温湿气压转换, 储藏室温湿气压虚拟地址)
2024-08-18 13:06:40.174 - 21 03 00 00 00 03 02 AB (查询储藏室温湿度气压)
2024-08-18 13:06:40.199 - 21 03 06 01 4A 01 F0 26 F0 3B 40 (储藏室温湿度返回)
2024-08-18 13:06:40.701 - 1A 21 00 00 00 00 00 01 00 00 01 00 00 01 01 4A 01 01 F0 01 26 F0 01 00 00 01 0F (储藏室温湿气压虚拟地址)
2024-08-18 13:07:13.436 - 19 08 24 03 CC 01 54 00 01 (调用内卫感应灯开的按键)
2024-08-18 13:07:13.504 - 1A 0C 02 08 01 FF 45 01 FF 45 01 FF 00 00 0F (调光器地址-内卫射灯, 内卫射灯微光)
2024-08-18 13:07:53.518 - 19 08 24 03 CC 01 55 00 01 (调用外卫感应灯关的按键)
2024-08-18 13:07:53.550 - 1A 0C 02 08 01 FF 00 01 FF 00 01 FF 00 00 0F (调光器地址-内卫射灯, 内卫感应灯关)
2024-08-18 13:08:11.056 - 19 08 24 03 CC 01 54 00 01 (调用内卫感应灯开的按键)
2024-08-18 13:08:11.087 - 1A 0C 02 08 01 FF 45 01 FF 45 01 FF 00 00 0F (调光器地址-内卫射灯, 内卫射灯微光)
2024-08-18 13:08:35.104 - 19 08 24 03 CC 01 55 00 01 (调用外卫感应灯关的按键)
2024-08-18 13:08:35.138 - 1A 0C 02 08 01 FF 00 01 FF 00 01 FF 00 00 0F (调光器地址-内卫射灯, 内卫感应灯关)
2024-08-18 13:08:46.129 - 19 08 24 03 CC 01 54 00 01 (调用内卫感应灯开的按键)
2024-08-18 13:08:46.163 - 1A 0C 02 08 01 FF 45 01 FF 45 01 FF 00 00 0F (调光器地址-内卫射灯, 内卫射灯微光)
2024-08-18 13:09:44.246 - 19 08 24 03 CC 01 55 00 01 (调用外卫感应灯关的按键)
2024-08-18 13:09:44.278 - 1A 0C 02 08 01 FF 00 01 FF 00 01 FF 00 00 0F (调光器地址-内卫射灯, 内卫感应灯关)
2024-08-18 13:10:38.790 - 7E
2024-08-18 13:10:38.795 - 0E F7
2024-08-18 13:10:38.795 - DD
2024-08-18 13:10:38.807 - 26 FE
2024-08-18 13:10:38.811 - E6
2024-08-18 13:10:38.811 - 07
2024-08-18 13:10:38.811 - F6
2024-08-18 13:10:38.818 - B6
2024-08-18 13:10:38.818 - 6E 64 FE
2024-08-18 13:10:38.830 - 6C 06 96 66 D6
2024-08-18 13:10:38.830 - 7B
2024-08-18 13:10:38.830 - 14
2024-08-18 13:10:38.830 - 16 96
2024-08-18 13:10:38.830 - D6
2024-08-18 13:10:38.843 - ED F0
2024-08-18 13:10:38.844 - 3E
2024-08-18 13:10:38.844 - 84 BE
2024-08-18 13:10:38.850 - B7 EF
2024-08-18 13:10:38.850 - 46
2024-08-18 13:10:45.868 - 19 08 24 03 CC 01 54 00 01 (调用内卫感应灯开的按键)
2024-08-18 13:10:45.919 - 1A 0C 02 08 01 FF 45 01 FF 45 01 FF 00 00 0F (调光器地址-内卫射灯, 内卫射灯微光)
2024-08-18 13:11:03.396 - 19 08 24 03 CC 01 55 00 01 (调用外卫感应灯关的按键)
2024-08-18 13:11:03.429 - 1A 0C 02 08 01 FF 00 01 FF 00 01 FF 00 00 0F (调光器地址-内卫射灯, 内卫感应灯关)
2024-08-18 13:12:49.604 - 19 08 24 03 CC 01 54 00 01 (调用内卫感应灯开的按键)
2024-08-18 13:12:49.637 - 1A 0C 02 08 01 FF 45 01 FF 45 01 FF 00 00 0F (调光器地址-内卫射灯, 内卫射灯微光)
2024-08-18 13:13:46.717 - 19 08 24 03 CC 01 55 00 01 (调用外卫感应灯关的按键)
2024-08-18 13:13:46.756 - 1A 0C 02 08 01 FF 00 01 FF 00 01 FF 00 00 0F (调光器地址-内卫射灯, 内卫感应灯关)
2024-08-18 13:13:48.224 - 19 08 24 03 CC 01 54 00 01 (调用内卫感应灯开的按键)
2024-08-18 13:13:48.261 - 1A 0C 02 08 01 FF 45 01 FF 45 01 FF 00 00 0F (调光器地址-内卫射灯, 内卫射灯微光)
2024-08-18 13:14:05.251 - 19 08 24 03 CC 01 55 00 01 (调用外卫感应灯关的按键)
2024-08-18 13:14:05.295 - 1A 0C 02 08 01 FF 00 01 FF 00 01 FF 00 00 0F (调光器地址-内卫射灯, 内卫感应灯关)
2024-08-18 13:14:05.761 - 19 08 24 03 CC 01 54 00 01 (调用内卫感应灯开的按键)
2024-08-18 13:14:05.793 - 1A 0C 02 08 01 FF 45 01 FF 45 01 FF 00 00 0F (调光器地址-内卫射灯, 内卫射灯微光)
2024-08-18 13:14:31.305 - 19 08 24 03 CC 01 55 00 01 (调用外卫感应灯关的按键)
2024-08-18 13:14:31.362 - 1A 0C 02 08 01 FF 00 01 FF 00 01 FF 00 00 0F (调光器地址-内卫射灯, 内卫感应灯关)
2024-08-18 13:14:33.312 - 19 08 24 03 CC 01 54 00 01 (调用内卫感应灯开的按键)
2024-08-18 13:14:33.349 - 1A 0C 02 08 01 FF 45 01 FF 45 01 FF 00 00 0F (调光器地址-内卫射灯, 内卫射灯微光)
2024-08-18 13:14:52.841 - 19 08 24 03 CC 01 55 00 01 (调用外卫感应灯关的按键)
2024-08-18 13:14:52.888 - 1A 0C 02 08 01 FF 00 01 FF 00 01 FF 00 00 0F (调光器地址-内卫射灯, 内卫感应灯关)
2024-08-18 13:14:54.853 - 19 08 24 03 CC 01 54 00 01 (调用内卫感应灯开的按键)
2024-08-18 13:14:54.885 - 1A 0C 02 08 01 FF 45 01 FF 45 01 FF 00 00 0F (调光器地址-内卫射灯, 内卫射灯微光)
2024-08-18 13:15:20.405 - 19 08 24 03 CC 01 55 00 01 (调用外卫感应灯关的按键)
2024-08-18 13:15:20.439 - 1A 0C 02 08 01 FF 00 01 FF 00 01 FF 00 00 0F (调光器地址-内卫射灯, 内卫感应灯关)
2024-08-18 13:16:00.482 - 19 08 24 03 CC 01 54 00 01 (调用内卫感应灯开的按键)
2024-08-18 13:16:00.520 - 1A 0C 02 08 01 FF 45 01 FF 45 01 FF 00 00 0F (调光器地址-内卫射灯, 内卫射灯微光)
2024-08-18 13:16:48.072 - 19 08 24 03 CC 01 55 00 01 (调用外卫感应灯关的按键)
2024-08-18 13:16:48.110 - 1A 0C 02 08 01 FF 00 01 FF 00 01 FF 00 00 0F (调光器地址-内卫射灯, 内卫感应灯关)
2024-08-18 13:16:56.101 - 38 F4
2024-08-18 13:16:56.101 - DE 29
2024-08-18 13:16:56.101 - 38
2024-08-18 13:16:56.101 - 04
2024-08-18 13:16:56.111 - 12 00
2024-08-18 13:16:56.117 - 06 FC
2024-08-18 13:16:56.244 - 00
2024-08-18 13:16:56.248 - 00
2024-08-18 13:16:56.261 - 00
2024-08-18 13:16:56.282 - 00
2024-08-18 13:16:56.298 - 10
2024-08-18 13:16:56.298 - 12
2024-08-18 13:16:56.420 - 00
2024-08-18 13:16:56.434 - 00
2024-08-18 13:16:56.444 - 00
2024-08-18 13:16:56.451 - 00
2024-08-18 13:16:56.468 - 00
2024-08-18 13:16:56.553 - 00
2024-08-18 13:16:56.563 - 00
2024-08-18 13:16:56.571 - 00
2024-08-18 13:16:56.579 - 00
2024-08-18 13:16:56.587 - 00
2024-08-18 13:16:56.602 - 00
2024-08-18 13:16:56.610 - 00
2024-08-18 13:16:56.674 - 00
2024-08-18 13:16:56.693 - 00
2024-08-18 13:16:56.696 - 00
2024-08-18 13:16:56.706 - 00
2024-08-18 13:16:56.723 - 00
2024-08-18 13:16:56.724 - 00
2024-08-18 13:16:56.859 - 00
2024-08-18 13:16:56.865 - 00
2024-08-18 13:16:56.883 - 00
2024-08-18 13:16:56.893 - 00
2024-08-18 13:16:56.926 - 00
2024-08-18 13:16:56.928 - 00
2024-08-18 13:16:56.943 - 00
2024-08-18 13:16:56.947 - 00
2024-08-18 13:16:56.960 - 00
2024-08-18 13:16:57.045 - 00
2024-08-18 13:16:57.045 - 00
2024-08-18 13:16:57.063 - 00
2024-08-18 13:16:57.072 - 00
2024-08-18 13:16:57.089 - 00
2024-08-18 13:16:57.104 - 00
2024-08-18 13:16:57.113 - 00 00
2024-08-18 13:16:57.122 - 00 00
2024-08-18 13:16:57.131 - 00
2024-08-18 13:16:57.152 - 00
2024-08-18 13:16:57.236 - 00
2024-08-18 13:16:57.236 - 00
2024-08-18 13:16:57.249 - 00
2024-08-18 13:16:57.266 - 00
2024-08-18 13:16:57.287 - 00
2024-08-18 13:16:57.359 - 00
2024-08-18 13:16:57.359 - 00
2024-08-18 13:16:57.391 - 00
2024-08-18 13:16:57.403 - 00
2024-08-18 13:16:57.412 - 00
2024-08-18 13:16:57.539 - 00
2024-08-18 13:16:57.573 - 00
2024-08-18 13:16:57.590 - 00
2024-08-18 13:16:57.590 - 00
2024-08-18 13:16:57.664 - 00
2024-08-18 13:16:57.678 - 00
2024-08-18 13:16:57.729 - 00
2024-08-18 13:16:57.743 - 00
2024-08-18 13:16:57.743 - 00
2024-08-18 13:16:57.757 - FE BC
2024-08-18 13:16:57.862 - FE 04 FF
2024-08-18 13:16:57.885 - 02 50 C8 50 7F
2024-08-18 13:16:57.885 - F6
2024-08-18 13:16:58.032 - F8
2024-08-18 13:16:58.043 - FE
2024-08-18 13:16:58.049 - FE
2024-08-18 13:16:58.060 - FF
2024-08-18 13:16:58.162 - FA
2024-08-18 13:16:58.171 - F8 FF
2024-08-18 13:16:58.171 - F6
2024-08-18 13:16:58.193 - FE
2024-08-18 13:16:58.202 - FC F7
2024-08-18 13:16:58.202 - 29
2024-08-18 13:16:58.202 - 04 D8
2024-08-18 13:16:58.219 - 84 F8
2024-08-18 13:16:58.219 - 54 0E
2024-08-18 13:16:58.224 - 00
2024-08-18 13:16:58.224 - 00
2024-08-18 13:16:58.350 - 00
2024-08-18 13:16:58.350 - 00
2024-08-18 13:16:58.361 - 00
2024-08-18 13:16:58.371 - 00
2024-08-18 13:16:58.383 - 00
2024-08-18 13:16:58.392 - 00
2024-08-18 13:16:58.473 - 02
2024-08-18 13:16:58.489 - 00
2024-08-18 13:16:58.591 - 00
2024-08-18 13:16:58.600 - 00 00
2024-08-18 13:16:58.616 - 00
2024-08-18 13:16:58.641 - 00
2024-08-18 13:16:58.650 - 00
2024-08-18 13:16:58.658 - 00
2024-08-18 13:16:58.710 - 00
2024-08-18 13:16:58.725 - 00
2024-08-18 13:16:58.726 - 00 00
2024-08-18 13:16:58.743 - 00
2024-08-18 13:16:58.743 - 00
2024-08-18 13:16:58.760 - 00
2024-08-18 13:16:58.774 - 00
2024-08-18 13:16:58.845 - 00
2024-08-18 13:16:58.854 - 00
2024-08-18 13:16:58.870 - 00
2024-08-18 13:16:58.887 - 00
2024-08-18 13:16:58.902 - 00
2024-08-18 13:16:58.913 - 00
2024-08-18 13:16:58.943 - 00
2024-08-18 13:16:58.949 - 00
2024-08-18 13:16:59.032 - 00
2024-08-18 13:16:59.049 - 00
2024-08-18 13:16:59.068 - 00 00
2024-08-18 13:16:59.093 - 00
2024-08-18 13:16:59.156 - 00
2024-08-18 13:16:59.162 - 00
2024-08-18 13:16:59.173 - 00
2024-08-18 13:16:59.193 - 00
2024-08-18 13:16:59.204 - 00
2024-08-18 13:16:59.273 - 00
2024-08-18 13:16:59.303 - 00
2024-08-18 13:16:59.320 - 00
2024-08-18 13:16:59.459 - 00
2024-08-18 13:16:59.491 - 00
2024-08-18 13:16:59.524 - 00
2024-08-18 13:16:59.586 - 00
2024-08-18 13:16:59.592 - 00 00
2024-08-18 13:16:59.602 - 00
2024-08-18 13:16:59.609 - 00
2024-08-18 13:16:59.652 - 00
2024-08-18 13:16:59.666 - 00
2024-08-18 13:16:59.686 - 00
2024-08-18 13:16:59.698 - 00
2024-08-18 13:16:59.762 - 00
2024-08-18 13:16:59.778 - 00
2024-08-18 13:16:59.794 - 08
2024-08-18 13:16:59.897 - 00
2024-08-18 13:16:59.912 - 00
2024-08-18 13:16:59.931 - 00
2024-08-18 13:16:59.938 - 00
2024-08-18 13:16:59.955 - 00 00
2024-08-18 13:16:59.955 - FF
2024-08-18 13:17:00.085 - 00
2024-08-18 13:17:00.085 - 00
2024-08-18 13:17:00.102 - 00
2024-08-18 13:17:00.102 - 00
2024-08-18 13:17:00.119 - 00
2024-08-18 13:17:00.131 - 00
2024-08-18 13:17:00.136 - 00
2024-08-18 13:17:00.210 - 00
2024-08-18 13:17:00.210 - 00
2024-08-18 13:17:00.220 - 00
2024-08-18 13:17:00.241 - 00
2024-08-18 13:17:00.241 - 00
2024-08-18 13:17:00.322 - 00
2024-08-18 13:17:00.339 - 00
2024-08-18 13:17:00.373 - 00
2024-08-18 13:17:00.381 - 00
2024-08-18 13:17:00.390 - 00
2024-08-18 13:17:00.390 - 00
2024-08-18 13:17:00.399 - 00
2024-08-18 13:17:00.412 - 00
2024-08-18 13:17:00.433 - 80
2024-08-18 13:17:00.443 - 00
2024-08-18 13:17:00.458 - 00
2024-08-18 13:17:00.467 - 00
2024-08-18 13:17:00.479 - 00
2024-08-18 13:17:00.513 - 00
2024-08-18 13:17:00.513 - 00
2024-08-18 13:17:00.543 - 00
2024-08-18 13:17:00.560 - 00
2024-08-18 13:17:00.702 - 00
2024-08-18 13:17:00.713 - 00
2024-08-18 13:17:00.725 - 00
2024-08-18 13:17:00.734 - 00
2024-08-18 13:17:00.734 - 00
2024-08-18 13:17:00.750 - 00
2024-08-18 13:17:00.764 - 00
2024-08-18 13:17:00.831 - 00
2024-08-18 13:17:00.831 - 00
2024-08-18 13:17:00.831 - 00
2024-08-18 13:17:00.862 - 00
2024-08-18 13:17:00.866 - 00
2024-08-18 13:17:00.882 - 00
2024-08-18 13:17:00.893 - FC
2024-08-18 13:17:01.006 - 00
2024-08-18 13:17:01.034 - 00
2024-08-18 13:17:01.053 - 00
2024-08-18 13:17:01.070 - 00
2024-08-18 13:17:01.138 - 00
2024-08-18 13:17:01.138 - 00
2024-08-18 13:17:01.148 - 00
2024-08-18 13:17:01.171 - 00 00
2024-08-18 13:17:01.195 - 00 00
2024-08-18 13:17:01.244 - 10
2024-08-18 13:17:01.246 - 00
2024-08-18 13:17:01.258 - 00
2024-08-18 13:17:01.324 - 00
2024-08-18 13:17:01.324 - 10 00
2024-08-18 13:17:01.341 - 00
2024-08-18 13:17:01.449 - 00
2024-08-18 13:17:01.449 - 00
2024-08-18 13:17:01.464 - 00
2024-08-18 13:17:01.464 - 00
2024-08-18 13:17:01.481 - 00
2024-08-18 13:17:01.481 - 00
2024-08-18 13:17:01.495 - 00
2024-08-18 13:17:01.496 - 00
2024-08-18 13:17:01.511 - 04
2024-08-18 13:17:01.511 - 00
2024-08-18 13:17:01.528 - 00
2024-08-18 13:17:01.538 - FC
2024-08-18 13:17:01.562 - E6
2024-08-18 13:17:01.562 - E6 01
2024-08-18 13:17:01.569 - 00 00
2024-08-18 13:17:01.632 - 00
2024-08-18 13:17:01.639 - 00
2024-08-18 13:17:02.421 - 00
2024-08-18 13:17:02.430 - 40
2024-08-18 13:17:02.443 - 00 00
2024-08-18 13:17:02.452 - 00 00
2024-08-18 13:17:02.452 - 00
2024-08-18 13:17:02.469 - 02 FC
2024-08-18 13:17:02.469 - 92
2024-08-18 13:17:02.475 - 00
2024-08-18 13:17:02.549 - 00
2024-08-18 13:17:02.549 - 00
2024-08-18 13:17:02.564 - 00
2024-08-18 13:17:02.568 - 00 00
2024-08-18 13:17:02.583 - 00
2024-08-18 13:17:02.600 - 00 00
2024-08-18 13:17:02.611 - 00 F0
2024-08-18 13:17:02.736 - 00
2024-08-18 13:17:02.771 - 00
2024-08-18 13:17:02.788 - 00
2024-08-18 13:17:02.854 - 00
2024-08-18 13:17:02.854 - 00
2024-08-18 13:17:02.882 - 00
2024-08-18 13:17:02.888 - 00
2024-08-18 13:17:02.914 - 00
2024-08-18 13:17:02.922 - 00
2024-08-18 13:17:02.929 - 00
2024-08-18 13:17:02.943 - 00
2024-08-18 13:17:02.943 - 00
2024-08-18 13:17:02.960 - 00
2024-08-18 13:17:02.973 - 00
2024-08-18 13:17:03.041 - 00
2024-08-18 13:17:03.053 - 00 00
2024-08-18 13:17:03.070 - 00
2024-08-18 13:17:03.092 - 00
2024-08-18 13:17:03.101 - 00
2024-08-18 13:17:03.109 - 00
2024-08-18 13:17:03.109 - 00
2024-08-18 13:17:03.143 - 00
2024-08-18 13:17:03.148 - 00
2024-08-18 13:17:03.165 - 00
2024-08-18 13:17:03.213 - 00
2024-08-18 13:17:03.214 - 00
2024-08-18 13:17:03.228 - 00
2024-08-18 13:17:03.296 - 00
2024-08-18 13:17:03.296 - 00
2024-08-18 13:17:03.340 - 00 00
2024-08-18 13:17:03.351 - 00
2024-08-18 13:17:03.420 - 00
2024-08-18 13:17:03.420 - 00
2024-08-18 13:17:03.431 - 00
2024-08-18 13:17:03.444 - 00
2024-08-18 13:17:03.455 - 00
2024-08-18 13:17:03.466 - 00
2024-08-18 13:17:03.482 - 00
2024-08-18 13:17:03.482 - 00
2024-08-18 13:17:03.514 - 00
2024-08-18 13:17:03.516 - 00
2024-08-18 13:17:03.539 - 80
2024-08-18 13:17:03.601 - 00
2024-08-18 13:17:03.641 - 00
2024-08-18 13:17:03.725 - 00
2024-08-18 13:17:03.725 - 00
2024-08-18 13:17:03.740 - 00
2024-08-18 13:17:03.754 - 00
2024-08-18 13:17:03.758 - 00
2024-08-18 13:17:03.771 - 00
2024-08-18 13:17:03.771 - 00
2024-08-18 13:17:03.789 - 00
2024-08-18 13:17:03.804 - 20
2024-08-18 13:17:03.838 - 00
2024-08-18 13:17:03.849 - 00
2024-08-18 13:17:03.914 - 00
2024-08-18 13:17:03.930 - 00 00
2024-08-18 13:17:03.943 - 00
2024-08-18 13:17:03.945 - 00 00
2024-08-18 13:17:03.961 - 00
2024-08-18 13:17:03.974 - 00
2024-08-18 13:17:04.040 - 00
2024-08-18 13:17:04.045 - 00
2024-08-18 13:17:04.071 - 00
2024-08-18 13:17:04.076 - 00
2024-08-18 13:17:04.093 - 00
2024-08-18 13:17:04.224 - 00
2024-08-18 13:17:04.230 - 00
2024-08-18 13:17:04.251 - 00 00
2024-08-18 13:17:04.264 - 00
2024-08-18 13:17:04.264 - 00
2024-08-18 13:17:04.281 - 00
2024-08-18 13:17:04.350 - 00
2024-08-18 13:17:04.350 - 00
2024-08-18 13:17:04.357 - 00
2024-08-18 13:17:04.373 - 00
2024-08-18 13:17:04.389 - 00
2024-08-18 13:17:04.412 - 00
2024-08-18 13:17:04.422 - 00
2024-08-18 13:17:04.426 - 80
2024-08-18 13:17:04.454 - 00
2024-08-18 13:17:04.469 - 00
2024-08-18 13:17:04.536 - 00
2024-08-18 13:17:04.538 - 00
2024-08-18 13:17:04.553 - 00
2024-08-18 13:17:04.581 - 00
2024-08-18 13:17:04.587 - 20
2024-08-18 13:17:04.661 - 00
2024-08-18 13:17:04.662 - 00
2024-08-18 13:17:04.708 - 00
2024-08-18 13:17:04.723 - 00
2024-08-18 13:17:04.725 - 00
2024-08-18 13:17:04.740 - 00
2024-08-18 13:17:04.757 - 00
2024-08-18 13:17:04.772 - 00
2024-08-18 13:17:04.774 - 00
2024-08-18 13:17:04.842 - 00
2024-08-18 13:17:04.859 - 00
2024-08-18 13:17:04.893 - 00
2024-08-18 13:17:04.899 - 00
2024-08-18 13:17:04.964 - 00
2024-08-18 13:17:04.964 - 00
2024-08-18 13:17:04.983 - 00
2024-08-18 13:17:04.986 - 00
2024-08-18 13:17:04.996 - 00
2024-08-18 13:17:05.013 - 00 00
2024-08-18 13:17:05.030 - 00
2024-08-18 13:17:05.043 - 00
2024-08-18 13:17:05.047 - 00
2024-08-18 13:17:05.092 - 08
2024-08-18 13:17:05.155 - 00
2024-08-18 13:17:05.182 - 00
2024-08-18 13:17:05.193 - 00
2024-08-18 13:17:05.204 - 00
2024-08-18 13:17:05.204 - 00
2024-08-18 13:17:05.267 - 00
2024-08-18 13:17:05.282 - 00
2024-08-18 13:17:05.289 - 00
2024-08-18 13:17:05.301 - 00
2024-08-18 13:17:05.314 - 00
2024-08-18 13:17:05.320 - FF
2024-08-18 13:17:05.404 - FF
2024-08-18 13:18:28.778 - 19 08 24 03 CC 01 54 00 01 (调用内卫感应灯开的按键)
2024-08-18 13:18:28.830 - 1A 0C 02 08 01 FF 45 01 FF 45 01 FF 00 00 0F (调光器地址-内卫射灯, 内卫射灯微光)
2024-08-18 13:18:46.300 - 19 08 24 03 CC 01 55 00 01 (调用外卫感应灯关的按键)
2024-08-18 13:18:46.368 - 1A 0C 02 08 01 FF 00 01 FF 00 01 FF 00 00 0F (调光器地址-内卫射灯, 内卫感应灯关)
2024-08-18 13:20:25.504 - 19 08 24 03 CC 01 54 00 01 (调用内卫感应灯开的按键)
2024-08-18 13:20:25.538 - 1A 0C 02 08 01 FF 45 01 FF 45 01 FF 00 00 0F (调光器地址-内卫射灯, 内卫射灯微光)
2024-08-18 13:20:42.543 - 19 08 24 03 CC 01 55 00 01 (调用外卫感应灯关的按键)
2024-08-18 13:20:42.575 - 1A 0C 02 08 01 FF 00 01 FF 00 01 FF 00 00 0F (调光器地址-内卫射灯, 内卫感应灯关)
2024-08-18 13:20:55.057 - 19 08 24 03 CC 01 54 00 01 (调用内卫感应灯开的按键)
2024-08-18 13:20:55.100 - 1A 0C 02 08 01 FF 45 01 FF 45 01 FF 00 00 0F (调光器地址-内卫射灯, 内卫射灯微光)
2024-08-18 13:21:12.595 - 19 08 24 03 CC 01 55 00 01 (调用外卫感应灯关的按键)
2024-08-18 13:21:12.631 - 1A 0C 02 08 01 FF 00 01 FF 00 01 FF 00 00 0F (调光器地址-内卫射灯, 内卫感应灯关)
2024-08-18 13:21:13.600 - 19 08 24 03 CC 01 54 00 01 (调用内卫感应灯开的按键)
2024-08-18 13:21:13.636 - 1A 0C 02 08 01 FF 45 01 FF 45 01 FF 00 00 0F (调光器地址-内卫射灯, 内卫射灯微光)
2024-08-18 13:22:02.191 - 19 08 24 03 CC 01 55 00 01 (调用外卫感应灯关的按键)
2024-08-18 13:22:02.225 - 1A 0C 02 08 01 FF 00 01 FF 00 01 FF 00 00 0F (调光器地址-内卫射灯, 内卫感应灯关)
2024-08-18 13:22:14.722 - 19 08 24 03 CC 01 54 00 01 (调用内卫感应灯开的按键)
2024-08-18 13:22:14.756 - 1A 0C 02 08 01 FF 45 01 FF 45 01 FF 00 00 0F (调光器地址-内卫射灯, 内卫射灯微光)
2024-08-18 13:22:41.268 - 19 08 24 03 CC 01 55 00 01 (调用外卫感应灯关的按键)
2024-08-18 13:22:41.300 - 1A 0C 02 08 01 FF 00 01 FF 00 01 FF 00 00 0F (调光器地址-内卫射灯, 内卫感应灯关)
2024-08-18 13:22:48.647 - 1A FF 03 00 00 86 86 86 0F (调用查询模块-主卧空调开关查询, 主卧空调虚拟地址)
2024-08-18 13:22:48.881 - 01 04 07 DC 00 01 F1 44 (查询主卧空调开关状态)
2024-08-18 13:22:48.902 - 01 04 02 70 00 9C F0
2024-08-18 13:22:49.886 - 1A FF 03 00 00 00 00 0F (主卧空调虚拟地址)
2024-08-18 13:22:50.110 - 1A FF 04 00 00 86 86 86 0F (调用查询模块-次卧空调开关查询, 次卧空调虚拟地址)
2024-08-18 13:22:50.333 - 01 04 07 E2 00 01 90 88 (查询次卧空调开关状态)
2024-08-18 13:22:50.352 - 01 04 02 70 00 9C F0
2024-08-18 13:22:51.338 - 1A FF 04 00 00 00 00 0F (次卧空调虚拟地址)
2024-08-18 13:22:51.537 - 1A FF 05 00 00 86 86 86 0F (调用查询模块-书房空调开关查询, 书房空调虚拟地址)
2024-08-18 13:22:51.756 - 01 04 07 E8 00 01 B0 8A (查询书房空调开关状态)
2024-08-18 13:22:51.776 - 01 04 02 70 00 9C F0
2024-08-18 13:22:52.758 - 1A FF 05 00 00 00 00 0F (书房空调虚拟地址)
2024-08-18 13:22:52.967 - 1A FF 02 00 00 86 86 86 0F (调用查询模块-餐厅空调开关查询, 餐厅空调虚拟地址)
2024-08-18 13:22:53.188 - 01 04 07 D6 00 01 D1 46 (查询餐厅空调开关状态)
2024-08-18 13:22:53.205 - 01 04 02 70 01 5D 30
2024-08-18 13:22:54.192 - 1A FF 02 00 00 01 00 0F (餐厅空调虚拟地址)
2024-08-18 13:22:54.415 - 1A FF 01 00 00 86 86 86 0F (调用查询模块-客厅空调开关查询, 客厅空调虚拟地址)
2024-08-18 13:22:54.639 - 01 04 07 D0 00 01 31 47 (查询客厅空调开关状态)
2024-08-18 13:22:54.668 - 01 04 02 70 01 5D 30
2024-08-18 13:22:55.646 - 1A FF 01 00 00 01 00 0F (客厅空调虚拟地址)
2024-08-18 13:22:55.854 - 1A 10 00 00 00 86 86 86 0F (调用查询模块-主卧测温转换, 主卧温湿度虚拟地址)
2024-08-18 13:22:56.076 - 1D 03 00 00 00 02 C6 57 (查询主卧温湿度)
2024-08-18 13:22:56.099 - 1D 03 04 01 FB 01 13 17 A2 (主卧温湿度返回)
2024-08-18 13:22:57.100 - 1A 10 00 00 00 00 00 01 00 00 01 00 00 01 01 13 01 01 FB 01 00 00 01 00 00 01 0F (主卧温湿度虚拟地址)
2024-08-18 13:22:57.289 - 1A 11 00 00 00 86 86 86 0F (调用查询模块-次卧测温转换, 次卧温湿度虚拟地址)
2024-08-18 13:22:57.509 - 11 03 00 00 00 02 C6 9B (查询次卧温湿度)
2024-08-18 13:22:57.529 - 11 03 04 01 CC 01 0B 6A 66 (次卧温湿度返回)
2024-08-18 13:22:58.534 - 1A 11 00 00 00 00 00 01 00 00 01 00 00 01 01 0B 01 01 CC 01 00 00 01 00 00 01 0F (次卧温湿度虚拟地址)
2024-08-18 13:22:58.666 - 1A 12 00 00 00 86 86 86 0F (调用查询模块-书房测温转换, 书房温湿度虚拟地址)
2024-08-18 13:22:58.887 - 12 03 00 00 00 02 C6 A8 (查询书房温湿度)
2024-08-18 13:22:58.912 - 12 03 04 01 90 01 1D 18 BA (书房温湿度返回)
2024-08-18 13:22:59.908 - 1A 12 00 00 00 00 00 01 00 00 01 00 00 01 01 1D 01 01 90 01 00 00 01 00 00 01 0F (书房温湿度虚拟地址)
2024-08-18 13:23:00.068 - 1A 13 00 00 00 86 86 86 0F (调用查询模块-外卫测温转换, 外卫温湿度虚拟地址)
2024-08-18 13:23:00.288 - 13 03 00 00 00 02 C7 79 (查询外卫温湿度)
2024-08-18 13:23:00.316 - 13 03 04 01 9B 01 0D 78 74 (外卫温湿度返回)
2024-08-18 13:23:01.320 - 1A 13 00 00 00 00 00 01 00 00 01 00 00 01 01 0D 01 01 9B 01 00 00 01 00 00 01 0F (外卫温湿度虚拟地址)
2024-08-18 13:23:01.456 - 1A 14 00 00 00 86 86 86 0F (调用查询模块-内卫测温转换, 内卫温湿度虚拟地址)
2024-08-18 13:23:01.677 - 14 03 00 00 00 02 C6 CE (查询内卫温湿度)
2024-08-18 13:23:01.694 - 14 03 04 01 ED 01 1C 2F 62 (内卫温湿度返回)
2024-08-18 13:23:02.697 - 1A 14 00 00 00 00 00 01 00 00 01 00 00 01 01 1C 01 01 ED 01 00 00 01 00 00 01 0F (内卫温湿度虚拟地址)
2024-08-18 13:23:02.841 - 1A 15 00 00 00 86 86 86 0F (调用查询模块-客厅测温转换, 客厅温湿度虚拟地址)
2024-08-18 13:23:03.072 - 15 03 00 00 00 02 C7 1F (查询客厅温湿度)
2024-08-18 13:23:03.089 - 15 03 04 01 D2 00 EA 8E 78 (客厅温湿度返回)
2024-08-18 13:23:04.092 - 1A 15 00 00 00 00 00 01 00 00 01 00 00 01 00 EA 01 01 D2 01 00 00 01 00 00 01 0F (客厅温湿度虚拟地址)
2024-08-18 13:23:04.330 - 1A 16 00 00 00 86 86 86 0F (调用查询模块-机柜测温转换, 机柜温湿度虚拟地址)
2024-08-18 13:23:04.552 - 16 03 00 00 00 02 C7 2C (查询机柜温湿度)
2024-08-18 13:23:04.574 - 16 03 04 01 B1 00 FF 8C A9 (机柜温湿度返回)
2024-08-18 13:23:05.573 - 1A 16 00 00 00 00 00 01 00 00 01 00 00 01 00 FF 01 01 B1 01 00 00 01 00 00 01 0F (机柜温湿度虚拟地址)
2024-08-18 13:23:05.729 - 1A 0E 00 00 00 86 86 86 0F (调用查询模块-厨房测温转换, 厨房温湿度虚拟地址)
2024-08-18 13:23:05.953 - 0E 03 00 00 00 02 C4 F4 (查询厨房温湿度)
2024-08-18 13:23:05.981 - 0E 03 04 01 66 01 2A 64 9F (厨房温湿度返回)
2024-08-18 13:23:06.974 - 1A 0E 00 00 00 00 00 01 00 00 01 00 00 01 01 2A 01 01 66 01 00 00 01 00 00 01 0F (厨房温湿度虚拟地址)
2024-08-18 13:23:07.212 - 1A 0F 00 00 00 86 86 86 0F (调用查询模块-餐厅测温转换, 餐厅温湿度虚拟地址)
2024-08-18 13:23:07.435 - 1C 03 00 00 00 02 C7 86 (查询餐厅温湿度)
2024-08-18 13:23:07.460 - 1C 03 04 01 96 01 0C D7 77 (餐厅温湿度返回)
2024-08-18 13:23:08.464 - 1A 0F 00 00 00 00 00 01 00 00 01 00 00 01 01 0C 01 01 96 01 00 00 01 00 00 01 0F (餐厅温湿度虚拟地址)
2024-08-18 13:23:08.651 - 1A 20 00 00 00 86 86 86 0F (调用查询模块-阳台测温湿气压转换, 阳台温湿气压虚拟地址)
2024-08-18 13:23:08.872 - 20 03 00 00 00 03 03 7A (查询阳台温湿度气压)
2024-08-18 13:23:08.888 - 20 03 06 01 76 01 01 26 EB 77 2D (阳台温湿度返回)
2024-08-18 13:23:09.382 - 1A 20 00 00 00 00 00 01 00 00 01 00 00 01 01 76 01 01 01 01 26 EB 01 00 00 01 0F (阳台温湿气压虚拟地址)
2024-08-18 13:23:09.537 - 1A 21 00 00 00 86 86 86 0F (调用查询模块-储藏室测温湿气压转换, 储藏室温湿气压虚拟地址)
2024-08-18 13:23:09.764 - 21 03 00 00 00 03 02 AB (查询储藏室温湿度气压)
2024-08-18 13:23:10.283 - 1A 21 00 00 00 00 00 01 00 00 01 00 00 01 00 00 01 86 86 01 86 0F 01 00 00 01 0F (储藏室温湿气压虚拟地址)
2024-08-18 13:23:10.573 - 1A 22 00 00 00 86 86 86 0F (调用查询模块-室外测温湿气压转换, 室外温湿气压虚拟地址)
2024-08-18 13:23:10.794 - 22 03 00 00 00 03 02 98 (查询室外温湿度气压)
2024-08-18 13:23:11.321 - 1A 22 00 00 00 00 00 01 00 00 01 00 00 01 00 00 01 86 86 01 86 0F 01 00 00 01 0F (室外温湿气压虚拟地址)
2024-08-18 13:23:11.865 - 19 08 24 03 CC 01 55 00 01 (调用外卫感应灯关的按键)
2024-08-18 13:23:11.918 - 1A 0C 02 08 01 FF 00 01 FF 00 01 FF 00 00 0F (调光器地址-内卫射灯, 内卫感应灯关)
2024-08-18 13:23:19.265 - 1A BE B0 DC 01 FC (继电器地址-回水泵点动)
2024-08-18 13:23:19.387 - F3
2024-08-18 13:23:19.693 - FE
2024-08-18 13:23:20.301 - FC
2024-08-18 13:23:20.632 - 68 86 FF
2024-08-18 13:23:22.371 - 1A BE B0 DC 01 (继电器地址-回水泵点动)
2024-08-18 13:23:22.506 - FC
2024-08-18 13:23:22.802 - FF
2024-08-18 13:23:23.125 - FF
2024-08-18 13:23:23.425 - FC
2024-08-18 13:23:23.744 - 68 86 FE
2024-08-18 13:23:32.616 - 01
2024-08-18 13:23:32.616 - E8
2024-08-18 13:23:32.619 - 00
2024-08-18 13:23:32.648 - FF
2024-08-18 13:23:33.774 - 00
2024-08-18 13:23:33.825 - 00
2024-08-18 13:23:34.916 - 00
2024-08-18 13:23:34.943 - 60 40 48 21
2024-08-18 13:23:34.945 - C8 C6
2024-08-18 13:23:34.948 - F1
2024-08-18 13:23:34.964 - 00
2024-08-18 13:23:34.965 - 00 20
2024-08-18 13:23:36.072 - 00
2024-08-18 13:23:37.198 - FE
2024-08-18 13:23:37.214 - 00
2024-08-18 13:23:37.256 - 82 CC 64 00
2024-08-18 13:23:38.369 - 00
2024-08-18 13:23:38.386 - 20 22 66 07 48
2024-08-18 13:23:38.386 - C0 F8
2024-08-18 13:23:38.403 - 00
2024-08-18 13:23:39.514 - 00
2024-08-18 13:23:39.530 - 0C CD
2024-08-18 13:23:39.537 - B6 7B 7E
2024-08-18 13:23:39.537 - 28 FE
2024-08-18 13:23:39.546 - 00
2024-08-18 13:23:39.562 - 00 01 F7
2024-08-18 13:23:39.562 - 00
2024-08-18 13:23:40.666 - 00 61 66
2024-08-18 13:23:40.666 - 01 08 48 44 24 00
2024-08-18 13:23:40.679 - 24 30 06 01 DD
2024-08-18 13:23:40.687 - EF
2024-08-18 13:23:40.700 - 07
2024-08-18 13:23:41.807 - 00
2024-08-18 13:23:41.829 - 10 04 CA F3 07 40
2024-08-18 13:23:41.840 - 9F
2024-08-18 13:23:41.850 - 00
2024-08-18 13:23:41.857 - 40 D6
2024-08-18 13:23:41.861 - FF
2024-08-18 13:23:42.946 - 01
2024-08-18 13:23:42.963 - 10 FC
2024-08-18 13:23:42.968 - 00
2024-08-18 13:23:44.103 - 00
2024-08-18 13:23:45.243 - FE
2024-08-18 13:23:45.258 - 02 82 8F
2024-08-18 13:23:45.260 - FE
2024-08-18 13:23:45.264 - 00
2024-08-18 13:23:46.400 - 00
2024-08-18 13:23:46.412 - 00
2024-08-18 13:23:46.422 - 00
2024-08-18 13:23:46.454 - 00
2024-08-18 13:23:46.507 - 00 40 8E 74
2024-08-18 13:23:46.507 - C4
2024-08-18 13:23:47.540 - 00
2024-08-18 13:23:47.540 - A2
2024-08-18 13:23:47.588 - 00
2024-08-18 13:23:48.646 - 1A BE B0 DC 01 FE (继电器地址-回水泵点动)
2024-08-18 13:23:48.787 - FC
2024-08-18 13:23:49.075 - FF
2024-08-18 13:23:50.024 - 68 86 FE
2024-08-18 13:24:12.141 - 1A FF 03 00 00 86 86 86 0F (调用查询模块-主卧空调开关查询, 主卧空调虚拟地址)
2024-08-18 13:24:12.362 - 01 04 07 DC 00 01 F1 44 (查询主卧空调开关状态)
2024-08-18 13:24:12.388 - 01 04 02 70 00 9C F0
2024-08-18 13:24:13.361 - 1A FF 03 00 00 00 00 0F (主卧空调虚拟地址)
2024-08-18 13:24:13.489 - 1A FF 04 00 00 86 86 86 0F (调用查询模块-次卧空调开关查询, 次卧空调虚拟地址)
2024-08-18 13:24:13.713 - 01 04 07 E2 00 01 90 88 (查询次卧空调开关状态)
2024-08-18 13:24:13.740 - 01 04 02 70 00 9C F0
2024-08-18 13:24:14.718 - 1A FF 04 00 00 00 00 0F (次卧空调虚拟地址)
2024-08-18 13:24:14.845 - 1A FF 05 00 00 86 86 86 0F (调用查询模块-书房空调开关查询, 书房空调虚拟地址)
2024-08-18 13:24:15.068 - 01 04 07 E8 00 01 B0 8A (查询书房空调开关状态)
2024-08-18 13:24:15.084 - 01 04 02 70 00 9C F0
2024-08-18 13:24:16.069 - 1A FF 05 00 00 00 00 0F (书房空调虚拟地址)
2024-08-18 13:24:16.201 - 1A FF 02 00 00 86 86 86 0F (调用查询模块-餐厅空调开关查询, 餐厅空调虚拟地址)
2024-08-18 13:24:16.427 - 01 04 07 D6 00 01 D1 46 (查询餐厅空调开关状态)
2024-08-18 13:24:16.445 - 01 04 02 70 01 5D 30
2024-08-18 13:24:17.431 - 1A FF 02 00 00 01 00 0F (餐厅空调虚拟地址)
2024-08-18 13:24:17.574 - 1A 21 00 00 00 86 86 86 0F 19 08 24 03 CD B8 B4 AB 1A FF 01 00 00 86 86 86 0F (调用查询模块-储藏室测温湿气压转换, 储藏室温湿气压虚拟地址, 调用查询模块-客厅空调开关查询, 客厅空调虚拟地址)
2024-08-18 13:24:17.803 - 21 03 00 00 00 03 02 AB (查询储藏室温湿度气压)
2024-08-18 13:24:17.820 - 21 03 06 01 47 02 16 26 EC F6 FB (储藏室温湿度返回)
2024-08-18 13:24:18.324 - 1A 21 00 00 00 00 00 01 00 00 01 00 00 01 01 47 01 02 16 01 26 EC 01 00 00 01 0F (储藏室温湿气压虚拟地址)
2024-08-18 13:24:18.483 - 1A 10 00 00 00 86 86 86 0F (调用查询模块-主卧测温转换, 主卧温湿度虚拟地址)
2024-08-18 13:24:18.707 - 1D 03 00 00 00 02 C6 57 (查询主卧温湿度)
2024-08-18 13:24:18.727 - 1D 03 04 01 E1 01 14 77 A7 (主卧温湿度返回)
2024-08-18 13:24:19.728 - 1A 10 00 00 00 00 00 01 00 00 01 00 00 01 01 14 01 01 E1 01 00 00 01 00 00 01 0F (主卧温湿度虚拟地址)
2024-08-18 13:24:19.871 - 1A 11 00 00 00 86 86 86 0F (调用查询模块-次卧测温转换, 次卧温湿度虚拟地址)
2024-08-18 13:24:20.082 - 11 03 00 00 00 02 C6 9B (查询次卧温湿度)
2024-08-18 13:24:20.110 - 11 03 04 01 CA 01 0B 8A 67 (次卧温湿度返回)
2024-08-18 13:24:20.592 - 1A 21 00 00 00 86 86 86 0F (调用查询模块-储藏室测温湿气压转换, 储藏室温湿气压虚拟地址)
2024-08-18 13:24:21.102 - 1A 11 00 00 00 00 00 01 00 00 01 00 00 01 86 86 01 00 00 01 00 00 01 00 00 01 0F (次卧温湿度虚拟地址)
2024-08-18 13:24:21.238 - 1A 12 00 00 00 86 86 86 0F (调用查询模块-书房测温转换, 书房温湿度虚拟地址)
2024-08-18 13:24:21.459 - 12 03 00 00 00 02 C6 A8 (查询书房温湿度)
2024-08-18 13:24:21.476 - 12 03 04 01 8E 01 1D 78 BC (书房温湿度返回)
2024-08-18 13:24:22.480 - 1A 12 00 00 00 00 00 01 00 00 01 00 00 01 01 1D 01 01 8E 01 00 00 01 00 00 01 0F (书房温湿度虚拟地址)
2024-08-18 13:24:22.600 - 1A 13 00 00 00 86 86 86 0F (调用查询模块-外卫测温转换, 外卫温湿度虚拟地址)
2024-08-18 13:24:22.822 - 13 03 00 00 00 02 C7 79 (查询外卫温湿度)
2024-08-18 13:24:22.854 - 13 03 04 01 9B 01 0D 78 74 (外卫温湿度返回)
2024-08-18 13:24:23.858 - 1A 13 00 00 00 00 00 01 00 00 01 00 00 01 01 0D 01 01 9B 01 00 00 01 00 00 01 0F (外卫温湿度虚拟地址)
2024-08-18 13:24:23.976 - 1A 14 00 00 00 86 86 86 0F (调用查询模块-内卫测温转换, 内卫温湿度虚拟地址)
2024-08-18 13:24:24.197 - 14 03 00 00 00 02 C6 CE (查询内卫温湿度)
2024-08-18 13:24:24.227 - 14 03 04 01 F0 01 1D 7E A4 (内卫温湿度返回)
2024-08-18 13:24:25.231 - 1A 14 00 00 00 00 00 01 00 00 01 00 00 01 01 1D 01 01 F0 01 00 00 01 00 00 01 0F (内卫温湿度虚拟地址)
2024-08-18 13:24:25.358 - 1A 15 00 00 00 86 86 86 0F (调用查询模块-客厅测温转换, 客厅温湿度虚拟地址)
2024-08-18 13:24:25.576 - 15 03 00 00 00 02 C7 1F (查询客厅温湿度)
2024-08-18 13:24:25.599 - 15 03 04 01 CF 00 EA 1E 7E (客厅温湿度返回)
2024-08-18 13:24:26.602 - 1A 15 00 00 00 00 00 01 00 00 01 00 00 01 00 EA 01 01 CF 01 00 00 01 00 00 01 0F (客厅温湿度虚拟地址)
2024-08-18 13:24:26.745 - 1A 16 00 00 00 86 86 86 0F (调用查询模块-机柜测温转换, 机柜温湿度虚拟地址)
2024-08-18 13:24:26.970 - 16 03 00 00 00 02 C7 2C (查询机柜温湿度)
2024-08-18 13:24:26.987 - 16 03 04 01 B1 00 FF 8C A9 (机柜温湿度返回)
2024-08-18 13:24:27.991 - 1A 16 00 00 00 00 00 01 00 00 01 00 00 01 00 FF 01 01 B1 01 00 00 01 00 00 01 0F (机柜温湿度虚拟地址)
2024-08-18 13:24:28.120 - 1A 0E 00 00 00 86 86 86 0F (调用查询模块-厨房测温转换, 厨房温湿度虚拟地址)
2024-08-18 13:24:28.343 - 0E 03 00 00 00 02 C4 F4 (查询厨房温湿度)
2024-08-18 13:24:28.365 - 0E 03 04 01 66 01 2A 64 9F (厨房温湿度返回)
2024-08-18 13:24:29.369 - 1A 0E 00 00 00 00 00 01 00 00 01 00 00 01 01 2A 01 01 66 01 00 00 01 00 00 01 0F (厨房温湿度虚拟地址)
2024-08-18 13:24:29.505 - 1A 0F 00 00 00 86 86 86 0F (调用查询模块-餐厅测温转换, 餐厅温湿度虚拟地址)
2024-08-18 13:24:29.726 - 1C 03 00 00 00 02 C7 86 (查询餐厅温湿度)
2024-08-18 13:24:29.747 - 1C 03 04 01 94 01 0C 76 B7 (餐厅温湿度返回)
2024-08-18 13:24:30.752 - 1A 0F 00 00 00 00 00 01 00 00 01 00 00 01 01 0C 01 01 94 01 00 00 01 00 00 01 0F (餐厅温湿度虚拟地址)
2024-08-18 13:24:30.928 - 1A 20 00 00 00 86 86 86 0F (调用查询模块-阳台测温湿气压转换, 阳台温湿气压虚拟地址)
2024-08-18 13:24:31.149 - 20 03 00 00 00 03 03 7A (查询阳台温湿度气压)
2024-08-18 13:24:31.172 - 20 03 06 01 75 01 00 26 EA A3 2D (阳台温湿度返回)
2024-08-18 13:24:31.676 - 1A 20 00 00 00 00 00 01 00 00 01 00 00 01 01 75 01 01 00 01 26 EA 01 00 00 01 0F (阳台温湿气压虚拟地址)
2024-08-18 13:24:31.801 - 1A 21 00 00 00 86 86 86 0F (调用查询模块-储藏室测温湿气压转换, 储藏室温湿气压虚拟地址)
2024-08-18 13:24:32.022 - 21 03 00 00 00 03 02 AB (查询储藏室温湿度气压)
2024-08-18 13:24:32.044 - 21 03 06 01 46 02 0C 26 EC EA FC (储藏室温湿度返回)
2024-08-18 13:24:32.540 - 1A 21 00 00 00 00 00 01 00 00 01 00 00 01 01 46 01 02 0C 01 26 EC 01 00 00 01 0F (储藏室温湿气压虚拟地址)
2024-08-18 13:24:32.669 - 1A 22 00 00 00 86 86 86 0F (调用查询模块-室外测温湿气压转换, 室外温湿气压虚拟地址)
2024-08-18 13:24:32.907 - 22 03 00 00 00 03 02 98 (查询室外温湿度气压)
2024-08-18 13:24:33.417 - 1A 22 00 00 00 00 00 01 00 00 01 00 00 01 00 00 01 86 86 01 86 0F 01 00 00 01 0F (室外温湿气压虚拟地址)
2024-08-18 13:24:36.072 - 19 08 24 03 CC 01 54 00 01 (调用内卫感应灯开的按键)
2024-08-18 13:24:36.123 - 1A 0C 02 08 01 FF 45 01 FF 45 01 FF 00 00 0F (调光器地址-内卫射灯, 内卫射灯微光)
2024-08-18 13:25:54.726 - 19 08 24 03 CC 01 55 00 01 (调用外卫感应灯关的按键)
2024-08-18 13:25:54.758 - 1A 0C 02 08 01 FF 00 01 FF 00 01 FF 00 00 0F (调光器地址-内卫射灯, 内卫感应灯关)
2024-08-18 13:25:59.230 - 19 08 24 03 CC 01 54 00 01 (调用内卫感应灯开的按键)
2024-08-18 13:25:59.261 - 1A 0C 02 08 01 FF 45 01 FF 45 01 FF 00 00 0F (调光器地址-内卫射灯, 内卫射灯微光)
2024-08-18 13:26:34.304 - 19 08 24 03 CC 01 55 00 01 (调用外卫感应灯关的按键)
2024-08-18 13:26:34.337 - 1A 0C 02 08 01 FF 00 01 FF 00 01 FF 00 00 0F (调光器地址-内卫射灯, 内卫感应灯关)
2024-08-18 13:26:35.308 - 19 08 24 03 CC 01 54 00 01 (调用内卫感应灯开的按键)
2024-08-18 13:26:35.342 - 1A 0C 02 08 01 FF 45 01 FF 45 01 FF 00 00 0F (调光器地址-内卫射灯, 内卫射灯微光)
2024-08-18 13:27:13.874 - 19 08 24 03 CC 01 55 00 01 (调用外卫感应灯关的按键)
2024-08-18 13:27:13.918 - 1A 0C 02 08 01 FF 00 01 FF 00 01 FF 00 00 0F (调光器地址-内卫射灯, 内卫感应灯关)
2024-08-18 13:27:19.392 - 19 08 24 03 CC 01 54 00 01 (调用内卫感应灯开的按键)
2024-08-18 13:27:19.424 - 1A 0C 02 08 01 FF 45 01 FF 45 01 FF 00 00 0F (调光器地址-内卫射灯, 内卫射灯微光)
2024-08-18 13:27:36.420 - 19 08 24 03 CC 01 55 00 01 (调用外卫感应灯关的按键)
2024-08-18 13:27:36.454 - 1A 0C 02 08 01 FF 00 01 FF 00 01 FF 00 00 0F (调光器地址-内卫射灯, 内卫感应灯关)
2024-08-18 13:28:02.475 - 19 08 24 03 CC 01 54 00 01 (调用内卫感应灯开的按键)
2024-08-18 13:28:02.506 - 1A 0C 02 08 01 FF 45 01 FF 45 01 FF 00 00 0F (调光器地址-内卫射灯, 内卫射灯微光)
2024-08-18 13:29:51.686 - 19 08 24 03 CC 01 55 00 01 (调用外卫感应灯关的按键)
2024-08-18 13:29:51.725 - 1A 0C 02 08 01 FF 00 01 FF 00 01 FF 00 00 0F (调光器地址-内卫射灯, 内卫感应灯关)
2024-08-18 13:29:53.694 - 19 08 24 03 CC 01 54 00 01 (调用内卫感应灯开的按键)
2024-08-18 13:29:53.728 - 1A 0C 02 08 01 FF 45 01 FF 45 01 FF 00 00 0F (调光器地址-内卫射灯, 内卫射灯微光)
2024-08-18 13:30:28.264 - 19 08 24 03 CC 01 55 00 01 (调用外卫感应灯关的按键)
2024-08-18 13:30:28.296 - 1A 0C 02 08 01 FF 00 01 FF 00 01 FF 00 00 0F (调光器地址-内卫射灯, 内卫感应灯关)
2024-08-18 13:30:41.793 - 19 08 24 03 CC 01 54 00 01 (调用内卫感应灯开的按键)
2024-08-18 13:30:41.825 - 1A 0C 02 08 01 FF 45 01 FF 45 01 FF 00 00 0F (调光器地址-内卫射灯, 内卫射灯微光)
2024-08-18 13:31:23.869 - 19 08 24 03 CC 01 55 00 01 (调用外卫感应灯关的按键)
2024-08-18 13:31:23.903 - 1A 0C 02 08 01 FF 00 01 FF 00 01 FF 00 00 0F (调光器地址-内卫射灯, 内卫感应灯关)
2024-08-18 13:31:47.920 - 19 08 24 03 CC 01 54 00 01 (调用内卫感应灯开的按键)
2024-08-18 13:31:47.954 - 1A 0C 02 08 01 FF 45 01 FF 45 01 FF 00 00 0F (调光器地址-内卫射灯, 内卫射灯微光)
2024-08-18 13:32:19.483 - 19 08 24 03 CC 01 55 00 01 (调用外卫感应灯关的按键)
2024-08-18 13:32:19.515 - 1A 0C 02 08 01 FF 00 01 FF 00 01 FF 00 00 0F (调光器地址-内卫射灯, 内卫感应灯关)
2024-08-18 13:32:45.535 - 19 08 24 03 CC 01 54 00 01 (调用内卫感应灯开的按键)
2024-08-18 13:32:45.570 - 1A 0C 02 08 01 FF 45 01 FF 45 01 FF 00 00 0F (调光器地址-内卫射灯, 内卫射灯微光)
2024-08-18 13:33:25.583 - 1A FF 03 00 00 86 86 86 0F (调用查询模块-主卧空调开关查询, 主卧空调虚拟地址)
2024-08-18 13:33:25.615 - 19 08 24 03 CC 01 55 00 01 (调用外卫感应灯关的按键)
2024-08-18 13:33:25.646 - 1A 0C 02 08 01 FF 00 01 FF 00 01 FF 00 00 0F (调光器地址-内卫射灯, 内卫感应灯关)
2024-08-18 13:33:25.806 - 01 04 07 DC 00 01 F1 44 (查询主卧空调开关状态)
2024-08-18 13:33:25.827 - 01 04 02 70 00 9C F0
2024-08-18 13:33:26.810 - 1A FF 03 00 00 00 00 0F (主卧空调虚拟地址)
2024-08-18 13:33:27.049 - 1A FF 04 00 00 86 86 86 0F (调用查询模块-次卧空调开关查询, 次卧空调虚拟地址)
2024-08-18 13:33:27.272 - 01 04 07 E2 00 01 90 88 (查询次卧空调开关状态)
2024-08-18 13:33:27.295 - 01 04 02 70 00 9C F0
2024-08-18 13:33:28.277 - 1A FF 04 00 00 00 00 0F (次卧空调虚拟地址)
2024-08-18 13:33:28.469 - 1A FF 05 00 00 86 86 86 0F (调用查询模块-书房空调开关查询, 书房空调虚拟地址)
2024-08-18 13:33:28.690 - 01 04 07 E8 00 01 B0 8A (查询书房空调开关状态)
2024-08-18 13:33:28.709 - 01 04 02 70 00 9C F0
2024-08-18 13:33:29.694 - 1A FF 05 00 00 00 00 0F (书房空调虚拟地址)
2024-08-18 13:33:29.841 - 1A FF 02 00 00 86 86 86 0F (调用查询模块-餐厅空调开关查询, 餐厅空调虚拟地址)
2024-08-18 13:33:30.051 - 01 04 07 D6 00 01 D1 46 (查询餐厅空调开关状态)
2024-08-18 13:33:30.081 - 01 04 02 70 01 5D 30
2024-08-18 13:33:31.054 - 1A FF 02 00 00 01 00 0F (餐厅空调虚拟地址)
2024-08-18 13:33:31.242 - 1A FF 01 00 00 86 86 86 0F (调用查询模块-客厅空调开关查询, 客厅空调虚拟地址)
2024-08-18 13:33:31.474 - 01 04 07 D0 00 01 31 47 (查询客厅空调开关状态)
2024-08-18 13:33:31.497 - 01 04 02 70 01 5D 30
2024-08-18 13:33:32.472 - 1A FF 01 00 00 01 00 0F (客厅空调虚拟地址)
2024-08-18 13:33:32.653 - 1A 10 00 00 00 86 86 86 0F (调用查询模块-主卧测温转换, 主卧温湿度虚拟地址)
2024-08-18 13:33:32.874 - 1D 03 00 00 00 02 C6 57 (查询主卧温湿度)
2024-08-18 13:33:32.891 - 1D 03 04 01 F6 01 15 06 63 (主卧温湿度返回)
2024-08-18 13:33:33.894 - 1A 10 00 00 00 00 00 01 00 00 01 00 00 01 01 15 01 01 F6 01 00 00 01 00 00 01 0F (主卧温湿度虚拟地址)
2024-08-18 13:33:34.052 - 1A 11 00 00 00 86 86 86 0F (调用查询模块-次卧测温转换, 次卧温湿度虚拟地址)
2024-08-18 13:33:34.273 - 11 03 00 00 00 02 C6 9B (查询次卧温湿度)
2024-08-18 13:33:34.289 - 11 03 04 01 C2 01 0B 0B A5 (次卧温湿度返回)
2024-08-18 13:33:35.295 - 1A 11 00 00 00 00 00 01 00 00 01 00 00 01 01 0B 01 01 C2 01 00 00 01 00 00 01 0F (次卧温湿度虚拟地址)
2024-08-18 13:33:35.528 - 1A 12 00 00 00 86 86 86 0F (调用查询模块-书房测温转换, 书房温湿度虚拟地址)
2024-08-18 13:33:35.748 - 12 03 00 00 00 02 C6 A8 (查询书房温湿度)
2024-08-18 13:33:35.773 - 12 03 04 01 88 01 1C 59 7D (书房温湿度返回)
2024-08-18 13:33:36.778 - 1A 12 00 00 00 00 00 01 00 00 01 00 00 01 01 1C 01 01 88 01 00 00 01 00 00 01 0F (书房温湿度虚拟地址)
2024-08-18 13:33:36.821 - 1A 22 00 00 00 86 86 86 0F (调用查询模块-室外测温湿气压转换, 室外温湿气压虚拟地址)
2024-08-18 13:33:36.974 - 1A 13 00 00 00 86 86 86 0F (调用查询模块-外卫测温转换, 外卫温湿度虚拟地址)
2024-08-18 13:33:37.569 - 1A 22 00 00 00 00 00 01 00 00 01 00 00 01 00 00 01 86 86 01 86 0F 01 00 00 01 0F (室外温湿气压虚拟地址)
2024-08-18 13:33:37.766 - 1A 14 00 00 00 86 86 86 0F (调用查询模块-内卫测温转换, 内卫温湿度虚拟地址)
2024-08-18 13:33:37.994 - 14 03 00 00 00 02 C6 CE (查询内卫温湿度)
2024-08-18 13:33:38.022 - 14 03 04 01 FB 01 1E 4F 67 (内卫温湿度返回)
2024-08-18 13:33:39.014 - 1A 14 00 00 00 00 00 01 00 00 01 00 00 01 01 1E 01 01 FB 01 00 00 01 00 00 01 0F (内卫温湿度虚拟地址)
2024-08-18 13:33:39.168 - 1A 15 00 00 00 86 86 86 0F (调用查询模块-客厅测温转换, 客厅温湿度虚拟地址)
2024-08-18 13:33:39.392 - 15 03 00 00 00 02 C7 1F (查询客厅温湿度)
2024-08-18 13:33:39.423 - 15 03 04 01 CA 00 E9 4E 7E (客厅温湿度返回)
2024-08-18 13:33:40.204 - 1A 22 00 00 00 86 86 86 0F (调用查询模块-室外测温湿气压转换, 室外温湿气压虚拟地址)
2024-08-18 13:33:40.426 - 1A 15 00 00 00 00 00 01 00 00 01 00 00 01 86 86 01 00 00 01 00 00 01 00 00 01 0F (客厅温湿度虚拟地址)
2024-08-18 13:33:40.700 - 1A 16 00 00 00 86 86 86 0F (调用查询模块-机柜测温转换, 机柜温湿度虚拟地址)
2024-08-18 13:33:40.935 - 16 03 00 00 00 02 C7 2C (查询机柜温湿度)
2024-08-18 13:33:40.955 - 16 03 04 01 AB 00 FE 6C AE (机柜温湿度返回)
2024-08-18 13:33:41.956 - 1A 16 00 00 00 00 00 01 00 00 01 00 00 01 00 FE 01 01 AB 01 00 00 01 00 00 01 0F (机柜温湿度虚拟地址)
2024-08-18 13:33:42.109 - 1A 0E 00 00 00 86 86 86 0F (调用查询模块-厨房测温转换, 厨房温湿度虚拟地址)
2024-08-18 13:33:42.143 - 19 08 24 03 CC 01 54 00 01 (调用内卫感应灯开的按键)
2024-08-18 13:33:42.199 - 1A 0C 02 08 01 FF 45 01 FF 45 01 FF 00 00 0F (调光器地址-内卫射灯, 内卫射灯微光)
2024-08-18 13:33:42.329 - 0E 03 00 00 00 02 C4 F4 (查询厨房温湿度)
2024-08-18 13:33:42.359 - 0E 03 04 01 5E 01 29 A5 53 (厨房温湿度返回)
2024-08-18 13:33:42.635 - 1A 22 00 00 00 86 86 86 0F (调用查询模块-室外测温湿气压转换, 室外温湿气压虚拟地址)
2024-08-18 13:33:43.350 - 1A 0E 00 00 00 00 00 01 00 00 01 00 00 01 86 86 01 00 00 01 00 00 01 00 00 01 0F (厨房温湿度虚拟地址)
2024-08-18 13:33:43.572 - 1A 0F 00 00 00 86 86 86 0F (调用查询模块-餐厅测温转换, 餐厅温湿度虚拟地址)
2024-08-18 13:33:43.791 - 1C 03 00 00 00 02 C7 86 (查询餐厅温湿度)
2024-08-18 13:33:43.811 - 1C 03 04 01 8F 01 0B 47 72 (餐厅温湿度返回)
2024-08-18 13:33:44.812 - 1A 0F 00 00 00 00 00 01 00 00 01 00 00 01 01 0B 01 01 8F 01 00 00 01 00 00 01 0F (餐厅温湿度虚拟地址)
2024-08-18 13:33:44.965 - 1A 20 00 00 00 86 86 86 0F (调用查询模块-阳台测温湿气压转换, 阳台温湿气压虚拟地址)
2024-08-18 13:33:45.194 - 20 03 00 00 00 03 03 7A (查询阳台温湿度气压)
2024-08-18 13:33:45.216 - 20 03 06 01 74 00 FF 26 E6 AF 24 (阳台温湿度返回)
2024-08-18 13:33:45.600 - 1A 22 00 00 00 86 86 86 0F (调用查询模块-室外测温湿气压转换, 室外温湿气压虚拟地址)
2024-08-18 13:33:46.988 - 1A 21 00 00 00 86 86 86 0F (调用查询模块-储藏室测温湿气压转换, 储藏室温湿气压虚拟地址)
2024-08-18 13:33:47.209 - 21 03 00 00 00 03 02 AB (查询储藏室温湿度气压)
2024-08-18 13:33:47.227 - 21 03 06 01 47 02 59 26 EA 47 2E (储藏室温湿度返回)
2024-08-18 13:33:47.719 - 1A 21 00 00 00 00 00 01 00 00 01 00 00 01 01 47 01 02 59 01 26 EA 01 00 00 01 0F (储藏室温湿气压虚拟地址)
2024-08-18 13:33:47.912 - 1A 22 00 00 00 86 86 86 0F (调用查询模块-室外测温湿气压转换, 室外温湿气压虚拟地址)
2024-08-18 13:33:48.134 - 22 03 00 00 00 03 02 98 (查询室外温湿度气压)
2024-08-18 13:33:48.162 - 22 03 06 01 41 02 55 26 EA 1B DD (阳台温湿度返回)
2024-08-18 13:33:48.662 - 1A 22 00 00 00 00 00 01 00 00 01 00 00 01 01 41 01 02 55 01 26 EA 01 00 00 01 0F (室外温湿气压虚拟地址)
2024-08-18 13:33:48.836 - 1A 20 00 00 00 86 86 86 0F (调用查询模块-阳台测温湿气压转换, 阳台温湿气压虚拟地址)
2024-08-18 13:33:49.062 - 20 03 00 00 00 03 03 7A (查询阳台温湿度气压)
2024-08-18 13:33:49.079 - 20 03 06 01 74 00 FF 26 E8 2E E0 (阳台温湿度返回)
2024-08-18 13:33:49.586 - 1A 20 00 00 00 00 00 01 00 00 01 00 00 01 01 74 01 00 FF 01 26 E8 01 00 00 01 0F (阳台温湿气压虚拟地址)
2024-08-18 13:33:52.974 - 1A 22 00 00 00 86 86 86 0F (调用查询模块-室外测温湿气压转换, 室外温湿气压虚拟地址)
2024-08-18 13:33:53.195 - 22 03 00 00 00 03 02 98 (查询室外温湿度气压)
2024-08-18 13:33:53.224 - 22 03 06 01 42 02 53 26 EA BF DC (阳台温湿度返回)
2024-08-18 13:33:53.723 - 1A 22 00 00 00 00 00 01 00 00 01 00 00 01 01 42 01 02 53 01 26 EA 01 00 00 01 0F (室外温湿气压虚拟地址)
2024-08-18 13:33:54.063 - 1A 22 00 00 00 86 86 86 0F (调用查询模块-室外测温湿气压转换, 室外温湿气压虚拟地址)
2024-08-18 13:33:54.284 - 22 03 00 00 00 03 02 98 (查询室外温湿度气压)
2024-08-18 13:33:54.306 - 22 03 06 01 42 02 53 26 E9 FF DD (阳台温湿度返回)
2024-08-18 13:33:54.631 - 1A 22 00 00 00 86 86 86 0F (调用查询模块-室外测温湿气压转换, 室外温湿气压虚拟地址)
2024-08-18 13:33:54.803 - 1A 22 00 00 00 00 00 01 00 00 01 00 00 01 00 00 01 86 86 01 86 0F 01 00 00 01 0F (室外温湿气压虚拟地址)
2024-08-18 13:33:56.615 - 1A 22 00 00 00 86 86 86 0F (调用查询模块-室外测温湿气压转换, 室外温湿气压虚拟地址)
2024-08-18 13:33:56.836 - 22 03 00 00 00 03 02 98 (查询室外温湿度气压)
2024-08-18 13:33:56.862 - 22 03 06 01 43 02 51 26 EA 23 DC (阳台温湿度返回)
2024-08-18 13:33:57.363 - 1A 22 00 00 00 00 00 01 00 00 01 00 00 01 01 43 01 02 51 01 26 EA 01 00 00 01 0F (室外温湿气压虚拟地址)
2024-08-18 13:33:59.702 - 19 08 24 03 CC 01 55 00 01 (调用外卫感应灯关的按键)
2024-08-18 13:33:59.734 - 1A 22 00 00 00 86 86 86 0F (调用查询模块-室外测温湿气压转换, 室外温湿气压虚拟地址)
2024-08-18 13:33:59.799 - 1A 0C 02 08 01 FF 00 01 FF 00 01 FF 00 00 0F (调光器地址-内卫射灯, 内卫感应灯关)
2024-08-18 13:33:59.966 - 22 03 00 00 00 03 02 98 (查询室外温湿度气压)
2024-08-18 13:33:59.990 - 22 03 06 01 43 02 50 26 EA 72 1C (阳台温湿度返回)
2024-08-18 13:34:00.485 - 1A 22 00 00 00 00 00 01 00 00 01 00 00 01 01 43 01 02 50 01 26 EA 01 00 00 01 0F (室外温湿气压虚拟地址)
2024-08-18 13:34:03.232 - 1A 22 00 00 00 86 86 86 0F (调用查询模块-室外测温湿气压转换, 室外温湿气压虚拟地址)
2024-08-18 13:34:03.453 - 22 03 00 00 00 03 02 98 (查询室外温湿度气压)
2024-08-18 13:34:03.477 - 22 03 06 01 43 02 4F 26 EA 43 DA (阳台温湿度返回)
2024-08-18 13:34:03.963 - 1A 22 00 00 00 00 00 01 00 00 01 00 00 01 01 43 01 02 4F 01 26 EA 01 00 00 01 0F (室外温湿气压虚拟地址)
2024-08-18 13:34:05.465 - 1A 22 00 00 00 86 86 86 0F (调用查询模块-室外测温湿气压转换, 室外温湿气压虚拟地址)
2024-08-18 13:34:05.689 - 22 03 00 00 00 03 02 98 (查询室外温湿度气压)
2024-08-18 13:34:05.705 - 22 03 06 01 43 02 4F 26 EA 43 DA (阳台温湿度返回)
2024-08-18 13:34:06.208 - 1A 22 00 00 00 00 00 01 00 00 01 00 00 01 01 43 01 02 4F 01 26 EA 01 00 00 01 0F (室外温湿气压虚拟地址)
2024-08-18 13:34:35.288 - 19 08 24 03 CC 01 54 00 01 (调用内卫感应灯开的按键)
2024-08-18 13:34:35.336 - 1A 0C 02 08 01 FF 45 01 FF 45 01 FF 00 00 0F (调光器地址-内卫射灯, 内卫射灯微光)
2024-08-18 13:34:52.822 - 19 08 24 03 CC 01 55 00 01 (调用外卫感应灯关的按键)
2024-08-18 13:34:52.853 - 1A 0C 02 08 01 FF 00 01 FF 00 01 FF 00 00 0F (调光器地址-内卫射灯, 内卫感应灯关)
2024-08-18 13:35:24.887 - 19 08 24 03 CC 01 54 00 01 (调用内卫感应灯开的按键)
2024-08-18 13:35:24.919 - 1A 0C 02 08 01 FF 45 01 FF 45 01 FF 00 00 0F (调光器地址-内卫射灯, 内卫射灯微光)
2024-08-18 13:35:42.421 - 19 08 24 03 CC 01 55 00 01 (调用外卫感应灯关的按键)
2024-08-18 13:35:42.455 - 1A 0C 02 08 01 FF 00 01 FF 00 01 FF 00 00 0F (调光器地址-内卫射灯, 内卫感应灯关)
2024-08-18 13:36:16.489 - 19 08 24 03 CC 01 54 00 01 (调用内卫感应灯开的按键)
2024-08-18 13:36:16.521 - 1A 0C 02 08 01 FF 45 01 FF 45 01 FF 00 00 0F (调光器地址-内卫射灯, 内卫射灯微光)
2024-08-18 13:36:34.020 - 19 08 24 03 CC 01 55 00 01 (调用外卫感应灯关的按键)
2024-08-18 13:36:34.056 - 1A 0C 02 08 01 FF 00 01 FF 00 01 FF 00 00 0F (调光器地址-内卫射灯, 内卫感应灯关)
2024-08-18 13:36:37.525 - 19 08 24 03 CC 01 54 00 01 (调用内卫感应灯开的按键)
2024-08-18 13:36:37.559 - 1A 0C 02 08 01 FF 45 01 FF 45 01 FF 00 00 0F (调光器地址-内卫射灯, 内卫射灯微光)
2024-08-18 13:36:58.566 - 19 08 24 03 CC 01 55 00 01 (调用外卫感应灯关的按键)
2024-08-18 13:36:58.600 - 1A 0C 02 08 01 FF 00 01 FF 00 01 FF 00 00 0F (调光器地址-内卫射灯, 内卫感应灯关)
2024-08-18 13:39:23.349 - 19 08 24 03 CC 01 54 00 01 (调用内卫感应灯开的按键)
2024-08-18 13:39:23.383 - 1A 0C 02 08 01 FF 45 01 FF 45 01 FF 00 00 0F (调光器地址-内卫射灯, 内卫射灯微光)
2024-08-18 13:39:41.391 - 19 08 24 03 CC 01 55 00 01 (调用外卫感应灯关的按键)
2024-08-18 13:39:41.423 - 1A 0C 02 08 01 FF 00 01 FF 00 01 FF 00 00 0F (调光器地址-内卫射灯, 内卫感应灯关)
2024-08-18 13:41:45.134 - 19 08 24 03 CC 01 54 00 01 (调用内卫感应灯开的按键)
2024-08-18 13:41:45.166 - 1A 0C 02 08 01 FF 45 01 FF 45 01 FF 00 00 0F (调光器地址-内卫射灯, 内卫射灯微光)
2024-08-18 13:42:26.715 - 19 08 24 03 CC 01 55 00 01 (调用外卫感应灯关的按键)
2024-08-18 13:42:26.749 - 1A 0C 02 08 01 FF 00 01 FF 00 01 FF 00 00 0F (调光器地址-内卫射灯, 内卫感应灯关)
2024-08-18 13:42:38.735 - 19 08 24 03 CC 01 54 00 01 (调用内卫感应灯开的按键)
2024-08-18 13:42:38.767 - 1A 0C 02 08 01 FF 45 01 FF 45 01 FF 00 00 0F (调光器地址-内卫射灯, 内卫射灯微光)
2024-08-18 13:44:15.183 - 1A 21 00 00 00 86 86 86 0F (调用查询模块-储藏室测温湿气压转换, 储藏室温湿气压虚拟地址)
2024-08-18 13:44:15.406 - 21 03 00 00 00 03 02 AB (查询储藏室温湿度气压)
2024-08-18 13:44:15.422 - 21 03 06 01 47 02 62 26 E9 76 E2 (储藏室温湿度返回)
2024-08-18 13:44:15.924 - 1A 21 00 00 00 00 00 01 00 00 01 00 00 01 01 47 01 02 62 01 26 E9 01 00 00 01 0F (储藏室温湿气压虚拟地址)
2024-08-18 13:44:23.370 - 1A 22 00 00 00 86 86 86 0F (调用查询模块-室外测温湿气压转换, 室外温湿气压虚拟地址)
2024-08-18 13:44:23.604 - 22 03 00 00 00 03 02 98 (查询室外温湿度气压)
2024-08-18 13:44:23.625 - 22 03 06 01 4F 02 3A 26 E9 02 00 (阳台温湿度返回)
2024-08-18 13:44:24.120 - 1A 22 00 00 00 00 00 01 00 00 01 00 00 01 01 4F 01 02 3A 01 26 E9 01 00 00 01 0F (室外温湿气压虚拟地址)
2024-08-18 13:44:34.006 - 1A 22 00 00 00 86 86 86 0F (调用查询模块-室外测温湿气压转换, 室外温湿气压虚拟地址)
2024-08-18 13:44:34.225 - 22 03 00 00 00 03 02 98 (查询室外温湿度气压)
2024-08-18 13:44:34.240 - 22 03 06 01 4F 02 3A 26 E9 02 00 (阳台温湿度返回)
2024-08-18 13:44:34.751 - 1A 22 00 00 00 00 00 01 00 00 01 00 00 01 01 4F 01 02 3A 01 26 E9 01 00 00 01 0F (室外温湿气压虚拟地址)
2024-08-18 13:44:53.320 - 1B 03 00 00 00 02 C6 31 (查询室外光线)
2024-08-18 13:44:53.337 - 1B 03 04 00 00 03 4F 00 F6 (室外光线返回)
2024-08-18 13:44:55.388 - 1B 03 00 00 00 02 C6 31 (查询室外光线)
2024-08-18 13:44:55.411 - 1B 03 04 00 00 03 50 41 3E (室外光线返回)
2024-08-18 13:44:55.515 - 19 08 24 03 CC 01 55 00 01 (调用外卫感应灯关的按键)
2024-08-18 13:44:55.579 - 1A 0C 02 08 01 FF 00 01 FF 00 01 FF 00 00 0F (调光器地址-内卫射灯, 内卫感应灯关)
2024-08-18 13:44:57.256 - 1B 03 00 00 00 02 C6 31 (查询室外光线)
2024-08-18 13:44:57.270 - 1B 03 04 00 00 03 50 41 3E (室外光线返回)
2024-08-18 13:45:03.900 - 1B 03 00 00 00 02 C6 31 (查询室外光线)
2024-08-18 13:45:03.921 - 1B 03 04 00 00 03 52 C0 FF (室外光线返回)
2024-08-18 13:45:05.213 - 1B 03 00 00 00 02 C6 31 (查询室外光线)
2024-08-18 13:45:05.228 - 1B 03 04 00 00 03 52 C0 FF (室外光线返回)
2024-08-18 13:45:53.131 - 19 08 24 03 CC 01 54 00 01 (调用内卫感应灯开的按键)
2024-08-18 13:45:53.191 - 1A 0C 02 08 01 FF 45 01 FF 45 01 FF 00 00 0F (调光器地址-内卫射灯, 内卫射灯微光)
2024-08-18 13:46:19.185 - 19 08 24 03 CC 01 55 00 01 (调用外卫感应灯关的按键)
2024-08-18 13:46:19.224 - 1A 0C 02 08 01 FF 00 01 FF 00 01 FF 00 00 0F (调光器地址-内卫射灯, 内卫感应灯关)
2024-08-18 13:48:28.603 - 1A FF 03 00 00 86 86 86 0F (调用查询模块-主卧空调开关查询, 主卧空调虚拟地址)
2024-08-18 13:48:28.824 - 01 04 07 DC 00 01 F1 44 (查询主卧空调开关状态)
2024-08-18 13:48:28.850 - 01 04 02 70 00 9C F0
2024-08-18 13:48:29.827 - 1A FF 03 00 00 00 00 0F (主卧空调虚拟地址)
2024-08-18 13:48:30.049 - 1A FF 04 00 00 86 86 86 0F (调用查询模块-次卧空调开关查询, 次卧空调虚拟地址)
2024-08-18 13:48:30.288 - 01 04 07 E2 00 01 90 88 (查询次卧空调开关状态)
2024-08-18 13:48:30.305 - 01 04 02 70 00 9C F0
2024-08-18 13:48:31.290 - 1A FF 04 00 00 00 00 0F (次卧空调虚拟地址)
2024-08-18 13:48:31.487 - 1A FF 05 00 00 86 86 86 0F (调用查询模块-书房空调开关查询, 书房空调虚拟地址)
2024-08-18 13:48:31.710 - 01 04 07 E8 00 01 B0 8A (查询书房空调开关状态)
2024-08-18 13:48:31.733 - 01 04 02 70 00 9C F0
2024-08-18 13:48:32.715 - 1A FF 05 00 00 00 00 0F (书房空调虚拟地址)
2024-08-18 13:48:32.939 - 1A FF 02 00 00 86 86 86 0F (调用查询模块-餐厅空调开关查询, 餐厅空调虚拟地址)
2024-08-18 13:48:33.162 - 01 04 07 D6 00 01 D1 46 (查询餐厅空调开关状态)
2024-08-18 13:48:33.193 - 01 04 02 70 01 5D 30
2024-08-18 13:48:34.166 - 1A FF 02 00 00 01 00 0F (餐厅空调虚拟地址)
2024-08-18 13:48:34.390 - 1A FF 01 00 00 86 86 86 0F (调用查询模块-客厅空调开关查询, 客厅空调虚拟地址)
2024-08-18 13:48:34.613 - 01 04 07 D0 00 01 31 47 (查询客厅空调开关状态)
2024-08-18 13:48:34.647 - 01 04 02 70 01 5D 30
2024-08-18 13:48:35.617 - 1A FF 01 00 00 01 00 0F (客厅空调虚拟地址)
2024-08-18 13:48:35.849 - 1A 10 00 00 00 86 86 86 0F (调用查询模块-主卧测温转换, 主卧温湿度虚拟地址)
2024-08-18 13:48:36.069 - 1D 03 00 00 00 02 C6 57 (查询主卧温湿度)
2024-08-18 13:48:36.095 - 1D 03 04 02 2D 01 17 F7 DD (主卧温湿度返回)
2024-08-18 13:48:37.090 - 1A 10 00 00 00 00 00 01 00 00 01 00 00 01 01 17 01 02 2D 01 00 00 01 00 00 01 0F (主卧温湿度虚拟地址)
2024-08-18 13:48:37.262 - 1A 11 00 00 00 86 86 86 0F (调用查询模块-次卧测温转换, 次卧温湿度虚拟地址)
2024-08-18 13:48:37.485 - 11 03 00 00 00 02 C6 9B (查询次卧温湿度)
2024-08-18 13:48:37.537 - 11 03 04 FF (次卧温湿度返回)
2024-08-18 13:48:38.506 - 1A 11 00 00 00 00 00 01 00 00 01 00 00 01 86 86 01 FF 00 01 00 00 01 00 00 01 0F (次卧温湿度虚拟地址)
2024-08-18 13:48:38.697 - 1A 12 00 00 00 86 86 86 0F (调用查询模块-书房测温转换, 书房温湿度虚拟地址)
2024-08-18 13:48:38.921 - 12 03 00 00 00 02 C6 A8 (查询书房温湿度)
2024-08-18 13:48:38.944 - 12 03 04 01 8E 01 1B F8 BE (书房温湿度返回)
2024-08-18 13:48:39.940 - 1A 12 00 00 00 00 00 01 00 00 01 00 00 01 01 1B 01 01 8E 01 00 00 01 00 00 01 0F (书房温湿度虚拟地址)
2024-08-18 13:48:40.134 - 1A 13 00 00 00 86 86 86 0F (调用查询模块-外卫测温转换, 外卫温湿度虚拟地址)
2024-08-18 13:48:40.357 - 13 03 00 00 00 02 C7 79 (查询外卫温湿度)
2024-08-18 13:48:40.381 - 13 03 04 01 A0 01 0C C8 79 (外卫温湿度返回)
2024-08-18 13:48:41.377 - 1A 13 00 00 00 00 00 01 00 00 01 00 00 01 01 0C 01 01 A0 01 00 00 01 00 00 01 0F (外卫温湿度虚拟地址)
2024-08-18 13:48:41.580 - 1A 14 00 00 00 86 86 86 0F (调用查询模块-内卫测温转换, 内卫温湿度虚拟地址)
2024-08-18 13:48:41.807 - 14 03 00 00 00 02 C6 CE (查询内卫温湿度)
2024-08-18 13:48:41.823 - 14 03 04 02 19 01 1E EF 15 (内卫温湿度返回)
2024-08-18 13:48:42.830 - 1A 14 00 00 00 00 00 01 00 00 01 00 00 01 01 1E 01 02 19 01 00 00 01 00 00 01 0F (内卫温湿度虚拟地址)
2024-08-18 13:48:43.008 - 1A 15 00 00 00 86 86 86 0F (调用查询模块-客厅测温转换, 客厅温湿度虚拟地址)
2024-08-18 13:48:43.230 - 15 03 00 00 00 02 C7 1F (查询客厅温湿度)
2024-08-18 13:48:43.264 - 15 03 04 01 D8 00 E9 EE 7B (客厅温湿度返回)
2024-08-18 13:48:44.267 - 1A 15 00 00 00 00 00 01 00 00 01 00 00 01 00 E9 01 01 D8 01 00 00 01 00 00 01 0F (客厅温湿度虚拟地址)
2024-08-18 13:48:44.454 - 1A 16 00 00 00 86 86 86 0F (调用查询模块-机柜测温转换, 机柜温湿度虚拟地址)
2024-08-18 13:48:44.682 - 16 03 00 00 00 02 C7 2C (查询机柜温湿度)
2024-08-18 13:48:44.702 - 16 03 04 01 B9 00 FF 0D 6B (机柜温湿度返回)
2024-08-18 13:48:45.708 - 1A 16 00 00 00 00 00 01 00 00 01 00 00 01 00 FF 01 01 B9 01 00 00 01 00 00 01 0F (机柜温湿度虚拟地址)
2024-08-18 13:48:45.865 - 1A 0E 00 00 00 86 86 86 0F (调用查询模块-厨房测温转换, 厨房温湿度虚拟地址)
2024-08-18 13:48:46.087 - 0E 03 00 00 00 02 C4 F4 (查询厨房温湿度)
2024-08-18 13:48:46.104 - 0E 03 04 01 66 01 28 E5 5E (厨房温湿度返回)
2024-08-18 13:48:47.107 - 1A 0E 00 00 00 00 00 01 00 00 01 00 00 01 01 28 01 01 66 01 00 00 01 00 00 01 0F (厨房温湿度虚拟地址)
2024-08-18 13:48:47.362 - 1A 0F 00 00 00 86 86 86 0F (调用查询模块-餐厅测温转换, 餐厅温湿度虚拟地址)
2024-08-18 13:48:47.584 - 1C 03 00 00 00 02 C7 86 (查询餐厅温湿度)
2024-08-18 13:48:47.601 - 1C 03 04 01 96 01 0A 57 75 (餐厅温湿度返回)
2024-08-18 13:48:48.610 - 1A 0F 00 00 00 00 00 01 00 00 01 00 00 01 01 0A 01 01 96 01 00 00 01 00 00 01 0F (餐厅温湿度虚拟地址)
2024-08-18 13:48:48.775 - 1A 20 00 00 00 86 86 86 0F (调用查询模块-阳台测温湿气压转换, 阳台温湿气压虚拟地址)
2024-08-18 13:48:48.996 - 20 03 00 00 00 03 03 7A (查询阳台温湿度气压)
2024-08-18 13:48:49.023 - 20 03 06 01 72 01 03 26 E8 67 2C (阳台温湿度返回)
2024-08-18 13:48:49.523 - 1A 20 00 00 00 00 00 01 00 00 01 00 00 01 01 72 01 01 03 01 26 E8 01 00 00 01 0F (阳台温湿气压虚拟地址)
2024-08-18 13:48:49.744 - 1A 21 00 00 00 86 86 86 0F (调用查询模块-储藏室测温湿气压转换, 储藏室温湿气压虚拟地址)
2024-08-18 13:48:49.967 - 21 03 00 00 00 03 02 AB (查询储藏室温湿度气压)
2024-08-18 13:48:49.982 - 21 03 06 01 46 02 42 26 E9 4A E8 (储藏室温湿度返回)
2024-08-18 13:48:50.477 - 1A 21 00 00 00 00 00 01 00 00 01 00 00 01 01 46 01 02 42 01 26 E9 01 00 00 01 0F (储藏室温湿气压虚拟地址)
2024-08-18 13:48:50.696 - 1A 22 00 00 00 86 86 86 0F (调用查询模块-室外测温湿气压转换, 室外温湿气压虚拟地址)
2024-08-18 13:48:50.917 - 22 03 00 00 00 03 02 98 (查询室外温湿度气压)
2024-08-18 13:48:50.940 - 22 03 06 01 50 02 3A 26 EA D7 C3 (阳台温湿度返回)
2024-08-18 13:48:51.436 - 1A 22 00 00 00 00 00 01 00 00 01 00 00 01 01 50 01 02 3A 01 26 EA 01 00 00 01 0F (室外温湿气压虚拟地址)
2024-08-18 13:49:05.035 - 1A 22 00 00 00 86 86 86 0F (调用查询模块-室外测温湿气压转换, 室外温湿气压虚拟地址)
2024-08-18 13:49:05.270 - 22 03 00 00 00 03 02 98 (查询室外温湿度气压)
2024-08-18 13:49:05.291 - 22 03 06 01 50 02 3B 26 E9 C6 02 (阳台温湿度返回)
2024-08-18 13:49:05.784 - 1A 22 00 00 00 00 00 01 00 00 01 00 00 01 01 50 01 02 3B 01 26 E9 01 00 00 01 0F (室外温湿气压虚拟地址)
2024-08-18 13:49:07.826 - 1A 22 00 00 00 86 86 86 0F (调用查询模块-室外测温湿气压转换, 室外温湿气压虚拟地址)
2024-08-18 13:49:08.048 - 22 03 00 00 00 03 02 98 (查询室外温湿度气压)
2024-08-18 13:49:08.069 - 22 03 06 01 50 02 3B 26 E9 C6 02 (阳台温湿度返回)
2024-08-18 13:49:08.558 - 1A 22 00 00 00 00 00 01 00 00 01 00 00 01 01 50 01 02 3B 01 26 E9 01 00 00 01 0F (室外温湿气压虚拟地址)
2024-08-18 13:49:09.069 - 1A 21 00 00 00 86 86 86 0F (调用查询模块-储藏室测温湿气压转换, 储藏室温湿气压虚拟地址)
2024-08-18 13:49:09.293 - 21 03 00 00 00 03 02 AB (查询储藏室温湿度气压)
2024-08-18 13:49:09.322 - 21 03 06 01 46 02 40 26 EA AB 29 (储藏室温湿度返回)
2024-08-18 13:49:09.820 - 1A 21 00 00 00 00 00 01 00 00 01 00 00 01 01 46 01 02 40 01 26 EA 01 00 00 01 0F (储藏室温湿气压虚拟地址)
2024-08-18 13:49:10.275 - 1A 20 00 00 00 86 86 86 0F (调用查询模块-阳台测温湿气压转换, 阳台温湿气压虚拟地址)
2024-08-18 13:49:10.496 - 20 03 00 00 00 03 03 7A (查询阳台温湿度气压)
2024-08-18 13:49:10.523 - 20 03 06 01 72 01 02 26 E8 36 EC (阳台温湿度返回)
2024-08-18 13:49:11.024 - 1A 20 00 00 00 00 00 01 00 00 01 00 00 01 01 72 01 01 02 01 26 E8 01 00 00 01 0F (阳台温湿气压虚拟地址)
2024-08-18 13:49:11.876 - 1A 22 00 00 00 86 86 86 0F (调用查询模块-室外测温湿气压转换, 室外温湿气压虚拟地址)
2024-08-18 13:49:12.100 - 22 03 00 00 00 03 02 98 (查询室外温湿度气压)
2024-08-18 13:49:12.129 - 22 03 06 01 50 02 3B 26 E9 C6 02 (阳台温湿度返回)
2024-08-18 13:49:12.624 - 1A 22 00 00 00 00 00 01 00 00 01 00 00 01 01 50 01 02 3B 01 26 E9 01 00 00 01 0F (室外温湿气压虚拟地址)
2024-08-18 13:49:26.348 - 1A 22 00 00 00 86 86 86 0F (调用查询模块-室外测温湿气压转换, 室外温湿气压虚拟地址)
2024-08-18 13:49:26.571 - 22 03 00 00 00 03 02 98 (查询室外温湿度气压)
2024-08-18 13:49:26.602 - 22 03 06 01 50 02 3C 26 E9 77 C3 (阳台温湿度返回)
2024-08-18 13:49:27.097 - 1A 22 00 00 00 00 00 01 00 00 01 00 00 01 01 50 01 02 3C 01 26 E9 01 00 00 01 0F (室外温湿气压虚拟地址)
