2025-09-08 00:23:01.758 - 19 08 24 03 CC 00 D3 00 01 (调用厨房感应灯开的按键)
2025-09-08 00:23:01.813 - 55 0A 32 00 00 00 01 92 55 0A 32 00 00 00 02 93 (厨房顶灯一开, 厨房顶灯二开)
2025-09-08 00:23:36.827 - 19 08 24 03 CC 00 D4 00 01 (调用厨房感应灯关的按键)
2025-09-08 00:23:36.894 - 55 0A 31 00 00 00 01 91 55 0A 31 00 00 00 02 92 (厨房顶灯一关, 厨房顶灯二关)
2025-09-08 00:37:19.777 - 19 08 24 03 CC 01 54 00 01 (调用内卫感应灯开的按键)
2025-09-08 00:37:19.811 - 1A 0C 02 08 01 FF 45 01 FF 45 01 FF 00 00 0F (调光器地址-内卫射灯, 内卫射灯微光)
2025-09-08 00:40:42.177 - 19 08 24 03 CC 01 55 00 01 (调用内卫感应灯关的按键)
2025-09-08 00:40:42.211 - 1A 0C 02 08 01 FF 00 01 FF 00 01 FF 00 00 0F (调光器地址-内卫射灯, 内卫感应灯关)
2025-09-08 00:42:23.378 - 19 08 24 03 CC 01 54 00 01 (调用内卫感应灯开的按键)
2025-09-08 00:42:23.413 - 1A 0C 02 08 01 FF 45 01 FF 45 01 FF 00 00 0F (调光器地址-内卫射灯, 内卫射灯微光)
2025-09-08 00:42:44.416 - 19 08 24 03 CC 01 55 00 01 (调用内卫感应灯关的按键)
2025-09-08 00:42:44.452 - 1A 0C 02 08 01 FF 00 01 FF 00 01 FF 00 00 0F (调光器地址-内卫射灯, 内卫感应灯关)
2025-09-08 00:43:30.449 - 19 08 24 03 DD 00 4B 00 01 (调用情景-主卧睡觉)
2025-09-08 00:43:30.962 - EE 00 00 B1 00 00 00 FF FC FF FF (情景执行提示)
2025-09-08 00:43:31.555 - 09 06 00 0F 02 01 78 21 (提示音叮)
2025-09-08 00:43:32.100 - 50 F5 04 (关内卫影视)
2025-09-08 00:43:32.751 - 55 11 1D 03 01 7C 06 (主卧纱帘关)
2025-09-08 00:43:32.794 - 55 11 1D 03 01 7C 06 (主卧纱帘关)
2025-09-08 00:43:33.850 - 55 12 12 03 02 0C 40 (主卧窗帘关)
2025-09-08 00:43:33.885 - 55 12 12 03 02 0C 40 (主卧窗帘关)
2025-09-08 00:43:34.944 - 1A 22 33 62 0F 00 02 01 0F (正反转地址-内卫卷帘, 内卫卷帘降)
2025-09-08 00:43:35.993 - 1A 20 07 01 40 00 01 00 0F (自保持开关地址-内卫顶灯, 内卫顶灯关)
2025-09-08 00:43:37.038 - 1A 20 07 01 55 00 01 00 0F (自保持开关地址-主卧顶灯, 主卧顶灯只关)
2025-09-08 00:43:37.586 - 1A FF FF FF 56 00 00 01 0F (人体感应地址-内卫, 打开内卫感应)
2025-09-08 00:43:37.598 - BC BC
2025-09-08 00:43:41.184 - 1A 0C 02 08 01 FF 00 01 FF 00 01 FF 00 00 0F (调光器地址-内卫射灯, 内卫感应灯关)
2025-09-08 00:43:41.780 - 1A 0C 02 04 01 FF 00 01 FF 00 01 FF 00 00 0F (调光器地址-主卧筒灯, 主卧筒灯关闭)
2025-09-08 00:43:42.384 - 1A 0C 02 04 03 FF 00 01 FF 00 01 FF 00 00 0F (调光器地址-主卧灯带, 主卧灯带关闭)
2025-09-08 00:43:42.980 - 1A 0C 02 04 04 FF 00 01 FF 00 01 FF 00 00 0F (调光器地址-主卧南阅, 主卧南阅关闭)
2025-09-08 00:43:43.575 - 1A 0C 02 04 05 FF 00 01 FF 00 01 FF 00 00 0F (调光器地址-主卧北阅, 主卧北阅关闭)
2025-09-08 00:43:44.174 - 1A 0C 02 04 02 FF 00 01 FF 00 01 FF 00 00 0F (调光器地址-主卧过道, 主卧过道关闭)
2025-09-08 00:43:44.765 - 09 06 00 0F 02 02 38 20 (提示音咚)
2025-09-08 00:43:45.315 - EE 00 00 B1 00 00 02 FF FC FF FF (情景完成返回主页)
2025-09-08 01:20:38.245 - 1A BE B0 DC 03 FE (继电器地址-西阳天幕)
2025-09-08 01:33:38.665 - 1A BE B0 DC 01 FC (继电器地址-回水泵点动)
2025-09-08 01:33:38.799 - FF
2025-09-08 01:50:16.819 - 1A BE B0 DC 04 FC (继电器地址-西阳窗帘)
2025-09-08 02:02:38.762 - 1A FF FF FF 04 (继电器地址-东阳衣架)
2025-09-08 02:02:38.899 - FF
2025-09-08 02:16:24.620 - 1A BE B0 DC 02 (正反转地址-外卫卷帘)
2025-09-08 02:16:24.758 - FF
2025-09-08 02:19:20.155 - 1A BE B0 DC 09 FE (继电器地址-客厅窗帘)
2025-09-08 02:19:20.289 - FE
2025-09-08 02:51:15.614 - 19 08 24 03 CC 01 54 00 01 (调用内卫感应灯开的按键)
2025-09-08 02:51:15.665 - 1A 0C 02 08 01 FF 45 01 FF 45 01 FF 00 00 0F (调光器地址-内卫射灯, 内卫射灯微光)
2025-09-08 02:53:12.343 - 19 08 24 03 CC 01 55 00 01 (调用内卫感应灯关的按键)
2025-09-08 02:53:12.397 - 1A 0C 02 08 01 FF 00 01 FF 00 01 FF 00 00 0F (调光器地址-内卫射灯, 内卫感应灯关)
2025-09-08 02:53:21.900 - 1A BE B0 DC 0A FC (继电器地址-客厅纱帘)
2025-09-08 02:53:22.041 - FF
2025-09-08 02:54:54.544 - 19 08 24 03 CC 01 54 00 01 (调用内卫感应灯开的按键)
2025-09-08 02:54:54.598 - 1A 0C 02 08 01 FF 45 01 FF 45 01 FF 00 00 0F (调光器地址-内卫射灯, 内卫射灯微光)
2025-09-08 02:55:14.584 - 19 08 24 03 CC 01 55 00 01 (调用内卫感应灯关的按键)
2025-09-08 02:55:14.635 - 1A 0C 02 08 01 FF 00 01 FF 00 01 FF 00 00 0F (调光器地址-内卫射灯, 内卫感应灯关)
2025-09-08 02:59:41.001 - 50 F7 01 (全屋影音全关)
2025-09-08 03:12:56.594 - FF FF FF FF 0E FC (继电器地址-西阳小窗帘)
2025-09-08 03:12:56.730 - FF
2025-09-08 03:21:04.448 - FF FF FF FF 0A FC (继电器地址-东阳窗帘)
2025-09-08 03:21:04.584 - FF
2025-09-08 04:29:41.532 - EE 00 00 B1 00 00 00 FF FC FF FF (情景执行提示)
2025-09-08 04:29:42.152 - A5 00 A2 FF 00 AA (餐厅纱帘关)
2025-09-08 04:29:43.220 - A5 00 A6 FF 00 AA (餐厅窗帘关)
2025-09-08 04:29:43.271 - 55 00 A6 01 00 0E 01 74 AA 55 00 A6 01 00 0E 01 74 AA (餐厅窗帘电机状态返回)
2025-09-08 04:29:44.319 - A5 00 B7 FF 00 AA 22 0D (书房纱帘关)
2025-09-08 04:29:45.363 - A5 00 D2 FF 00 AA 22 0C (书房窗帘关)
2025-09-08 04:29:45.413 - 55 00 D2 01 00 0D 01 0B AA 55 00 D2 01 00 0D 01 0B AA (书房窗帘电机状态返回)
2025-09-08 04:29:46.463 - EE 00 00 B1 00 00 02 FF FC FF FF (情景完成返回主页)
2025-09-08 04:29:52.108 - 55 00 A6 00 01 66 01 74 AA 55 00 A6 00 01 66 01 74 AA (餐厅窗帘电机状态返回)
2025-09-08 04:29:54.259 - 55 00 D2 00 00 FE 01 0B AA 55 00 D2 00 00 FE 01 0B AA (书房窗帘电机状态返回)
2025-09-08 04:41:32.892 - 1A BE B0 DC 03 FC (继电器地址-西阳天幕)
2025-09-08 04:41:33.031 - FF
2025-09-08 04:54:35.497 - 1A BE B0 DC 01 FE (继电器地址-回水泵点动)
2025-09-08 04:54:35.629 - FF
2025-09-08 05:10:08.712 - 1A BE B0 DC 04 (继电器地址-西阳窗帘)
2025-09-08 05:10:08.850 - FF
2025-09-08 05:23:38.409 - 1A FF FF FF 04 FC (继电器地址-东阳衣架)
2025-09-08 05:36:53.699 - 1A BE B0 DC 02 FC (正反转地址-外卫卷帘)
2025-09-08 05:36:53.833 - FF
2025-09-08 05:39:41.053 - 1A BE B0 DC 09 FE (继电器地址-客厅窗帘)
2025-09-08 05:39:41.189 - FF
2025-09-08 05:46:19.419 - 19 08 24 03 CC 00 D3 00 01 (调用厨房感应灯开的按键)
2025-09-08 05:46:19.472 - 55 0A 32 00 00 00 01 92 55 0A 32 00 00 00 02 93 (厨房顶灯一开, 厨房顶灯二开)
2025-09-08 05:46:54.991 - 19 08 24 03 CC 00 D4 00 01 (调用厨房感应灯关的按键)
2025-09-08 05:46:55.045 - 55 0A 31 00 00 00 01 91 55 0A 31 00 00 00 02 92 (厨房顶灯一关, 厨房顶灯二关)
2025-09-08 06:13:55.384 - 1A BE B0 DC 0A FC (继电器地址-客厅纱帘)
2025-09-08 06:13:55.521 - FF
2025-09-08 06:33:00.318 - FF FF FF FF 0E FC (继电器地址-西阳小窗帘)
2025-09-08 06:41:24.425 - FF FF FF FF 0A FC (继电器地址-东阳窗帘)
2025-09-08 06:41:24.560 - FF
2025-09-08 06:44:40.874 - EE 00 00 B1 00 00 00 FF FC FF FF (情景执行提示)
2025-09-08 06:44:41.469 - 09 06 00 0F 02 01 78 21 (提示音叮)
2025-09-08 06:44:42.061 - 50 F0 04 (开内卫影视)
2025-09-08 06:44:42.610 - 50 F0 05 (开主卧影视)
2025-09-08 06:44:43.164 - 55 11 1D 03 01 7C 06 (主卧纱帘关)
2025-09-08 06:44:43.204 - 55 11 1D 03 01 7C 06 (主卧纱帘关)
2025-09-08 06:44:43.759 - 55 11 1D 03 01 7C 06 (主卧纱帘关)
2025-09-08 06:44:43.807 - 55 11 1D 03 01 7C 06 (主卧纱帘关)
2025-09-08 06:44:44.359 - 55 12 12 03 01 4C 41 (主卧窗帘开)
2025-09-08 06:44:44.398 - 55 12 12 03 01 4C 41 (主卧窗帘开)
2025-09-08 06:44:45.457 - 55 12 12 03 01 4C 41 (主卧窗帘开)
2025-09-08 06:44:45.497 - 55 12 12 03 01 4C 41 (主卧窗帘开)
2025-09-08 06:44:46.553 - 1A 22 33 62 0F 00 02 01 0F (正反转地址-内卫卷帘, 内卫卷帘降)
2025-09-08 06:44:47.105 - 1A FF FF FF 56 00 00 00 0F (人体感应地址-内卫, 关闭内卫感应)
2025-09-08 06:44:47.175 - BC BC
2025-09-08 06:44:47.699 - 1A 20 07 01 55 00 01 00 0F (自保持开关地址-主卧顶灯, 主卧顶灯只关)
2025-09-08 06:44:48.751 - 1A 0C 02 08 01 FF F0 01 FF F0 01 FF 00 00 0F (调光器地址-内卫射灯, 内卫射灯明亮)
2025-09-08 06:44:49.351 - 1A 0C 02 04 01 FF 00 01 FF 00 01 FF 00 00 0F (调光器地址-主卧筒灯, 主卧筒灯关闭)
2025-09-08 06:44:49.947 - 1A 0C 02 04 03 FF 45 01 FF 45 01 FF 00 00 0F (调光器地址-主卧灯带, 主卧灯带微光)
2025-09-08 06:44:50.548 - 1A 0C 02 04 02 FF F0 01 FF 00 01 FF 00 00 0F (调光器地址-主卧过道, 主卧过道暖光)
2025-09-08 06:44:51.143 - 1A 0C 02 04 05 FF 00 01 FF 00 01 FF 00 00 0F (调光器地址-主卧北阅, 主卧北阅关闭)
2025-09-08 06:44:51.743 - 1A 0C 02 04 04 FF 00 01 FF 00 01 FF 00 00 0F (调光器地址-主卧南阅, 主卧南阅关闭)
2025-09-08 06:44:52.826 - 50 F1 24 (内卫—有线2)
2025-09-08 06:44:53.874 - 50 F1 25 (主卧—有线2)
2025-09-08 06:44:54.921 - AF BF CF DF C2 21 (有线2/快捷-凤凰卫视)
2025-09-08 06:44:55.475 - 1A FF FF FF 60 0B 01 01 0F (红外总线地址-主卧发射设备, 主卧电视电源)
2025-09-08 06:44:55.990 - F0 0B 01 08
2025-09-08 06:44:56.521 - 1A BE B0 DC 01 00 01 00 (继电器地址-回水泵点动, 回水泵点动)
2025-09-08 06:45:00.560 - 09 06 00 0F 02 02 38 20 (提示音咚)
2025-09-08 06:45:01.110 - EE 00 00 B1 00 00 02 FF FC FF FF (情景完成返回主页)
2025-09-08 06:45:02.201 - A1 11 11 11 11 01 (内卫浴霸取暖判断)
2025-09-08 06:45:02.429 - 14 03 00 00 00 02 C6 CE (查询内卫温湿度)
2025-09-08 06:45:02.451 - 14 03 04 01 B8 01 06 BE B9 (内卫温湿度返回)
2025-09-08 07:11:58.496 - 19 08 24 03 DD 00 40 00 01 (调用情景-离开主卧)
2025-09-08 07:11:59.074 - EE 00 00 B1 00 00 00 FF FC FF FF (情景执行提示)
2025-09-08 07:11:59.636 - 09 06 00 0F 02 01 78 21 (提示音叮)
2025-09-08 07:12:00.180 - 50 F5 05 (关主卧影视)
2025-09-08 07:12:00.726 - 50 F5 04 (关内卫影视)
2025-09-08 07:12:01.286 - 01 06 07 D6 FF 60 28 9E (主卧空调关)
2025-09-08 07:12:01.308 - 01 06 07 D6 FF 60 28 9E (主卧空调关)
2025-09-08 07:12:01.878 - 55 12 12 03 01 4C 41 (主卧窗帘开)
2025-09-08 07:12:01.920 - 55 12 12 03 01 4C 41 (主卧窗帘开)
2025-09-08 07:12:02.974 - 55 12 12 03 01 4C 41 (主卧窗帘开)
2025-09-08 07:12:03.018 - 55 12 12 03 01 4C 41 (主卧窗帘开)
2025-09-08 07:12:04.071 - 55 11 1D 03 02 3C 07 (主卧纱帘开)
2025-09-08 07:12:04.113 - 55 11 1D 03 02 3C 07 (主卧纱帘开)
2025-09-08 07:12:04.668 - 55 11 1D 03 02 3C 07 (主卧纱帘开)
2025-09-08 07:12:04.711 - 55 11 1D 03 02 3C 07 (主卧纱帘开)
2025-09-08 07:12:05.268 - 1A 22 33 62 0F 00 00 01 0F (正反转地址-内卫卷帘, 内卫卷帘升)
2025-09-08 07:12:06.366 - 1A 20 07 01 40 00 01 00 0F (自保持开关地址-内卫顶灯, 内卫顶灯关)
2025-09-08 07:12:07.488 - 1A 20 07 01 55 00 01 00 0F (自保持开关地址-主卧顶灯, 主卧顶灯只关)
2025-09-08 07:12:08.065 - 1A 0C 02 08 01 FF 00 01 FF 00 01 FF 00 00 0F (调光器地址-内卫射灯, 内卫感应灯关)
2025-09-08 07:12:08.659 - 1A FF FF FF 56 00 00 01 0F (人体感应地址-内卫, 打开内卫感应)
2025-09-08 07:12:08.771 - BC BC
2025-09-08 07:12:09.079 - 19 08 24 03 CC 01 54 00 01 (调用内卫感应灯开的按键)
2025-09-08 07:12:09.134 - 1A 0C 02 08 01 FF 45 01 FF 45 01 FF 00 00 0F (调光器地址-内卫射灯, 内卫射灯微光)
2025-09-08 07:12:12.524 - 1A 0C 02 04 FF FF 00 01 FF 00 01 FF 00 00 0F (主卧调光全关)
2025-09-08 07:12:13.614 - 09 06 00 0F 02 02 38 20 (提示音咚)
2025-09-08 07:12:14.215 - EE 00 00 B1 00 00 02 FF FC FF FF (情景完成返回主页)
2025-09-08 07:12:45.838 - 19 08 24 03 CC 01 CC 00 01 (调用茶吧感应灯开的按键)
2025-09-08 07:12:45.868 - 1A AA AA AA 88 FF B0 01 FF B0 01 0F (调光器地址-茶吧灯带, 茶吧灯带明亮)
2025-09-08 07:12:50.863 - 19 08 24 03 CC 01 55 00 01 (调用内卫感应灯关的按键)
2025-09-08 07:12:50.896 - 1A 0C 02 08 01 FF 00 01 FF 00 01 FF 00 00 0F (调光器地址-内卫射灯, 内卫感应灯关)
2025-09-08 07:13:46.957 - 19 08 24 03 CC 01 CD 00 01 (调用茶吧感应灯关的按键)
2025-09-08 07:13:46.995 - 1A AA AA AA 88 FF 00 01 FF 00 01 0F (调光器地址-茶吧灯带, 茶吧灯带关闭)
2025-09-08 07:14:31.060 - 19 08 24 03 CC 01 54 00 01 (调用内卫感应灯开的按键)
2025-09-08 07:14:31.093 - 1A 0C 02 08 01 FF 45 01 FF 45 01 FF 00 00 0F (调光器地址-内卫射灯, 内卫射灯微光)
2025-09-08 07:14:52.605 - 19 08 24 03 CC 01 55 00 01 (调用内卫感应灯关的按键)
2025-09-08 07:14:52.637 - 1A 0C 02 08 01 FF 00 01 FF 00 01 FF 00 00 0F (调光器地址-内卫射灯, 内卫感应灯关)
2025-09-08 07:15:16.135 - 19 08 24 03 CC 01 CC 00 01 (调用茶吧感应灯开的按键)
2025-09-08 07:15:16.164 - 1A AA AA AA 88 FF B0 01 FF B0 01 0F (调光器地址-茶吧灯带, 茶吧灯带明亮)
2025-09-08 07:16:16.253 - 19 08 24 03 CC 01 CD 00 01 (调用茶吧感应灯关的按键)
2025-09-08 07:16:16.285 - 1A AA AA AA 88 FF 00 01 FF 00 01 0F (调光器地址-茶吧灯带, 茶吧灯带关闭)
2025-09-08 07:16:51.322 - 19 08 24 03 CC 01 CC 00 01 (调用茶吧感应灯开的按键)
2025-09-08 07:16:51.353 - 1A AA AA AA 88 FF B0 01 FF B0 01 0F (调光器地址-茶吧灯带, 茶吧灯带明亮)
2025-09-08 07:17:30.401 - 19 08 24 03 CC 01 CD 00 01 (调用茶吧感应灯关的按键)
2025-09-08 07:17:30.430 - 1A AA AA AA 88 FF 00 01 FF 00 01 0F (调光器地址-茶吧灯带, 茶吧灯带关闭)
2025-09-08 07:18:11.980 - 19 08 24 03 CC 01 CC 00 01 (调用茶吧感应灯开的按键)
2025-09-08 07:18:12.012 - 1A AA AA AA 88 FF B0 01 FF B0 01 0F (调光器地址-茶吧灯带, 茶吧灯带明亮)
2025-09-08 07:18:28.016 - 19 08 24 03 CC 01 CD 00 01 (调用茶吧感应灯关的按键)
2025-09-08 07:18:28.044 - 1A AA AA AA 88 FF 00 01 FF 00 01 0F (调光器地址-茶吧灯带, 茶吧灯带关闭)
2025-09-08 07:57:13.590 - 19 08 24 03 DD 00 3E 00 01 (调用情景-外卫照明关帘)
2025-09-08 07:57:14.100 - EE 00 00 B1 00 00 00 FF FC FF FF (情景执行提示)
2025-09-08 07:57:14.693 - 09 06 00 0F 02 01 78 21 (提示音叮)
2025-09-08 07:57:15.247 - 1A FF FF FF 55 00 00 00 0F (人体感应地址-外卫, 关闭外卫感应)
2025-09-08 07:57:15.256 - BC BC
2025-09-08 07:57:16.347 - 1A 0D 01 07 01 FF F0 01 FF F0 01 FF 00 00 0F (调光器地址-外卫射灯, 外卫射灯明亮)
2025-09-08 07:57:16.935 - 09 06 00 0F 02 02 38 20 (提示音咚)
2025-09-08 07:57:17.491 - EE 00 00 B1 00 00 02 FF FC FF FF (情景完成返回主页)
2025-09-08 08:03:09.115 - 1A BE B0 DC 03 (继电器地址-西阳天幕)
2025-09-08 08:16:09.728 - 1A BE B0 DC 01 (继电器地址-回水泵点动)
2025-09-08 08:16:09.860 - FF
2025-09-08 08:30:43.483 - 1A BE B0 DC 04 (继电器地址-西阳窗帘)
2025-09-08 08:45:10.840 - 1A FF FF FF 04 (继电器地址-东阳衣架)
2025-09-08 08:45:10.975 - FF
2025-09-08 08:57:54.493 - 1A BE B0 DC 02 FC (正反转地址-外卫卷帘)
2025-09-08 09:00:49.661 - 1A BE B0 DC 09 FC (继电器地址-客厅窗帘)
2025-09-08 09:00:49.793 - FF
2025-09-08 09:11:39.917 - 19 08 24 03 CC 01 54 00 01 (调用内卫感应灯开的按键)
2025-09-08 09:11:39.968 - 1A 0C 02 08 01 FF 45 01 FF 45 01 FF 00 00 0F (调光器地址-内卫射灯, 内卫射灯微光)
2025-09-08 09:11:57.450 - 19 08 24 03 CC 01 55 00 01 (调用内卫感应灯关的按键)
2025-09-08 09:11:57.502 - 1A 0C 02 08 01 FF 00 01 FF 00 01 FF 00 00 0F (调光器地址-内卫射灯, 内卫感应灯关)
2025-09-08 09:12:09.978 - 19 08 24 03 CC 01 54 00 01 (调用内卫感应灯开的按键)
2025-09-08 09:12:10.012 - 1A 0C 02 08 01 FF 45 01 FF 45 01 FF 00 00 0F (调光器地址-内卫射灯, 内卫射灯微光)
2025-09-08 09:12:27.009 - 19 08 24 03 CC 01 55 00 01 (调用内卫感应灯关的按键)
2025-09-08 09:12:27.043 - 1A 0C 02 08 01 FF 00 01 FF 00 01 FF 00 00 0F (调光器地址-内卫射灯, 内卫感应灯关)
2025-09-08 09:12:45.046 - 19 08 24 03 CC 01 54 00 01 (调用内卫感应灯开的按键)
2025-09-08 09:12:45.080 - 1A 0C 02 08 01 FF 45 01 FF 45 01 FF 00 00 0F (调光器地址-内卫射灯, 内卫射灯微光)
2025-09-08 09:13:21.118 - 19 08 24 03 CC 01 55 00 01 (调用内卫感应灯关的按键)
2025-09-08 09:13:21.148 - 1A 0C 02 08 01 FF 00 01 FF 00 01 FF 00 00 0F (调光器地址-内卫射灯, 内卫感应灯关)
2025-09-08 09:13:33.646 - 19 08 24 03 CC 01 54 00 01 (调用内卫感应灯开的按键)
2025-09-08 09:13:33.675 - 1A 0C 02 08 01 FF 45 01 FF 45 01 FF 00 00 0F (调光器地址-内卫射灯, 内卫射灯微光)
2025-09-08 09:14:12.716 - 19 08 24 03 CC 01 55 00 01 (调用内卫感应灯关的按键)
2025-09-08 09:14:12.752 - 1A 0C 02 08 01 FF 00 01 FF 00 01 FF 00 00 0F (调光器地址-内卫射灯, 内卫感应灯关)
2025-09-08 09:14:26.745 - 19 08 24 03 CC 01 54 00 01 (调用内卫感应灯开的按键)
2025-09-08 09:14:26.778 - 1A 0C 02 08 01 FF 45 01 FF 45 01 FF 00 00 0F (调光器地址-内卫射灯, 内卫射灯微光)
2025-09-08 09:14:45.283 - 19 08 24 03 CC 01 55 00 01 (调用内卫感应灯关的按键)
2025-09-08 09:14:45.316 - 1A 0C 02 08 01 FF 00 01 FF 00 01 FF 00 00 0F (调光器地址-内卫射灯, 内卫感应灯关)
2025-09-08 09:15:23.857 - 19 08 24 03 CC 01 54 00 01 (调用内卫感应灯开的按键)
2025-09-08 09:15:23.891 - 1A 0C 02 08 01 FF 45 01 FF 45 01 FF 00 00 0F (调光器地址-内卫射灯, 内卫射灯微光)
2025-09-08 09:16:13.454 - 19 08 24 03 CC 01 55 00 01 (调用内卫感应灯关的按键)
2025-09-08 09:16:13.491 - 1A 0C 02 08 01 FF 00 01 FF 00 01 FF 00 00 0F (调光器地址-内卫射灯, 内卫感应灯关)
2025-09-08 09:34:51.415 - 1A BE B0 DC 0A (继电器地址-客厅纱帘)
2025-09-08 09:34:51.551 - FF
2025-09-08 09:53:25.184 - FF FF FF FF 0E FF (继电器地址-西阳小窗帘)
2025-09-08 10:00:13.960 - 19 08 24 03 DD 00 28 00 01 (调用情景-离开次卧)
2025-09-08 10:00:14.505 - EE 00 00 B1 00 00 00 FF FC FF FF (情景执行提示)
2025-09-08 10:00:15.099 - 09 06 00 0F 02 01 78 21 (提示音叮)
2025-09-08 10:00:15.642 - 50 F5 06 (关次卧影视)
2025-09-08 10:00:16.196 - 01 06 07 D9 FF 60 18 9D (次卧空调关)
2025-09-08 10:00:16.229 - 01 06 07 D9 FF 60 18 9D (次卧空调关)
2025-09-08 10:00:16.793 - A5 00 76 FE 01 AA (次卧窗帘开)
2025-09-08 10:00:16.846 - 55 00 76 02 01 0E 01 1B AA 55 00 76 02 01 0E 01 1B AA (次卧窗帘电机状态返回)
2025-09-08 10:00:17.889 - A5 00 21 FE 01 AA (次卧纱帘开)
2025-09-08 10:00:17.943 - 55 00 21 02 01 27 01 34 AA 55 00 21 02 01 27 01 34 AA (次卧纱帘电机状态返回)
2025-09-08 10:00:19.018 - 1A 20 07 00 70 00 01 00 0F (自保持开关地址-次卧顶灯, 次卧顶灯只关)
2025-09-08 10:00:19.591 - 1A 0E 03 05 FF FF 00 01 FF 00 01 FF 00 00 0F (调光器地址-次卧调光统配符, 次卧调光全关)
2025-09-08 10:00:20.182 - 09 06 00 0F 02 02 38 20 (提示音咚)
2025-09-08 10:00:22.229 - EE 00 00 B1 00 00 02 FF FC FF FF (情景完成返回主页)
2025-09-08 10:00:24.190 - 55 00 76 00 00 0E 01 1B AA 55 00 76 00 00 0E 01 1B AA (次卧窗帘电机状态返回)
2025-09-08 10:00:25.565 - 55 00 21 00 00 0D 01 34 AA 55 00 21 00 00 0D 01 34 AA (次卧纱帘电机状态返回)
2025-09-08 10:00:59.783 - 19 08 24 03 CC 01 CC 00 01 (调用茶吧感应灯开的按键)
2025-09-08 10:00:59.893 - 1A AA AA AA 88 FF B0 01 FF B0 01 0F (调光器地址-茶吧灯带, 茶吧灯带明亮)
2025-09-08 10:01:39.044 - 19 08 24 03 CC 00 D3 00 01 (调用厨房感应灯开的按键)
2025-09-08 10:01:39.074 - 55 0A 32 00 00 00 01 92 55 0A 32 00 00 00 02 93 (厨房顶灯一开, 厨房顶灯二开)
2025-09-08 10:01:47.377 - 19 08 24 03 CC 01 CD 00 01 (调用茶吧感应灯关的按键)
2025-09-08 10:01:47.404 - 1A AA AA AA 88 FF 00 01 FF 00 01 0F (调光器地址-茶吧灯带, 茶吧灯带关闭)
2025-09-08 10:01:55.393 - 19 08 24 03 CC 01 CC 00 01 (调用茶吧感应灯开的按键)
2025-09-08 10:01:55.421 - 1A AA AA AA 88 FF B0 01 FF B0 01 0F (调光器地址-茶吧灯带, 茶吧灯带明亮)
2025-09-08 10:02:08.916 - 19 08 24 03 CC 01 CD 00 01 (调用茶吧感应灯关的按键)
2025-09-08 10:02:08.948 - 1A AA AA AA 88 FF 00 01 FF 00 01 0F (调光器地址-茶吧灯带, 茶吧灯带关闭)
2025-09-08 10:04:46.624 - FF FF FF FF 0A FC (继电器地址-东阳窗帘)
2025-09-08 10:04:46.759 - FE
2025-09-08 10:06:31.618 - 19 08 24 03 CC 00 D4 00 01 (调用厨房感应灯关的按键)
2025-09-08 10:06:31.669 - 55 0A 31 00 00 00 01 91 55 0A 31 00 00 00 02 92 (厨房顶灯一关, 厨房顶灯二关)
2025-09-08 11:11:03.086 - 19 08 24 03 CC 01 CC 00 01 (调用茶吧感应灯开的按键)
2025-09-08 11:11:03.135 - 1A AA AA AA 88 FF B0 01 FF B0 01 0F (调光器地址-茶吧灯带, 茶吧灯带明亮)
2025-09-08 11:11:46.671 - 19 08 24 03 CC 01 CD 00 01 (调用茶吧感应灯关的按键)
2025-09-08 11:11:46.703 - 1A AA AA AA 88 FF 00 01 FF 00 01 0F (调光器地址-茶吧灯带, 茶吧灯带关闭)
2025-09-08 11:21:30.323 - 19 08 24 03 CC 01 CC 00 01 (调用茶吧感应灯开的按键)
2025-09-08 11:21:30.355 - 1A AA AA AA 88 FF B0 01 FF B0 01 0F (调光器地址-茶吧灯带, 茶吧灯带明亮)
2025-09-08 11:23:16.533 - 19 08 24 03 CC 01 CD 00 01 (调用茶吧感应灯关的按键)
2025-09-08 11:23:16.567 - 1A AA AA AA 88 FF 00 01 FF 00 01 0F (调光器地址-茶吧灯带, 茶吧灯带关闭)
2025-09-08 11:23:41.084 - 19 08 24 03 CC 01 CC 00 01 (调用茶吧感应灯开的按键)
2025-09-08 11:23:41.112 - 1A AA AA AA 88 FF B0 01 FF B0 01 0F (调光器地址-茶吧灯带, 茶吧灯带明亮)
2025-09-08 11:24:03.449 - 1A BE B0 DC 03 FE (继电器地址-西阳天幕)
2025-09-08 11:24:03.581 - FC
2025-09-08 11:25:59.856 - 19 08 24 03 CC 01 CD 00 01 (调用茶吧感应灯关的按键)
2025-09-08 11:25:59.905 - 1A AA AA AA 88 FF 00 01 FF 00 01 0F (调光器地址-茶吧灯带, 茶吧灯带关闭)
2025-09-08 11:35:02.930 - 19 08 24 03 CC 01 CC 00 01 (调用茶吧感应灯开的按键)
2025-09-08 11:35:02.981 - 1A AA AA AA 88 FF B0 01 FF B0 01 0F (调光器地址-茶吧灯带, 茶吧灯带明亮)
2025-09-08 11:36:04.552 - 19 08 24 03 CC 01 CD 00 01 (调用茶吧感应灯关的按键)
2025-09-08 11:36:04.585 - 1A AA AA AA 88 FF 00 01 FF 00 01 0F (调光器地址-茶吧灯带, 茶吧灯带关闭)
2025-09-08 11:37:07.424 - 1A BE B0 DC 01 FE (继电器地址-回水泵点动)
2025-09-08 11:37:07.555 - FF
2025-09-08 11:50:36.281 - 1A BE B0 DC 04 (继电器地址-西阳窗帘)
2025-09-08 11:50:36.418 - FF
2025-09-08 11:56:30.591 - 19 08 24 03 CC 00 D3 00 01 (调用厨房感应灯开的按键)
2025-09-08 11:56:30.644 - 55 0A 32 00 00 00 01 92 55 0A 32 00 00 00 02 93 (厨房顶灯一开, 厨房顶灯二开)
2025-09-08 11:57:06.158 - 19 08 24 03 CC 00 D4 00 01 (调用厨房感应灯关的按键)
2025-09-08 11:57:06.213 - 55 0A 31 00 00 00 01 91 55 0A 31 00 00 00 02 92 (厨房顶灯一关, 厨房顶灯二关)
2025-09-08 12:01:09.139 - 19 08 24 03 CC 00 D3 00 01 (调用厨房感应灯开的按键)
2025-09-08 12:01:09.173 - 55 0A 32 00 00 00 01 92 55 0A 32 00 00 00 02 93 (厨房顶灯一开, 厨房顶灯二开)
2025-09-08 12:04:49.072 - 19 08 24 03 CC 00 D4 00 01 (调用厨房感应灯关的按键)
2025-09-08 12:04:49.145 - 55 0A 31 00 00 00 01 91 55 0A 31 00 00 00 02 92 (厨房顶灯一关, 厨房顶灯二关)
2025-09-08 12:05:03.602 - 19 08 24 03 CC 00 D3 00 01 (调用厨房感应灯开的按键)
2025-09-08 12:05:03.635 - 55 0A 32 00 00 00 01 92 55 0A 32 00 00 00 02 93 (厨房顶灯一开, 厨房顶灯二开)
2025-09-08 12:06:13.830 - 1A FF FF FF 04 FF (继电器地址-东阳衣架)
2025-09-08 12:06:13.969 - FE
2025-09-08 12:09:06.972 - 19 08 24 03 CC 01 CC 00 01 (调用茶吧感应灯开的按键)
2025-09-08 12:09:07.037 - 1A AA AA AA 88 FF B0 01 FF B0 01 0F (调光器地址-茶吧灯带, 茶吧灯带明亮)
2025-09-08 12:09:07.577 - 19 08 24 03 CC 00 D4 00 01 (调用厨房感应灯关的按键)
2025-09-08 12:09:07.632 - 55 0A 31 00 00 00 01 91 55 0A 31 00 00 00 02 92 (厨房顶灯一关, 厨房顶灯二关)
2025-09-08 12:09:19.500 - 19 08 24 03 CC 01 CD 00 01 (调用茶吧感应灯关的按键)
2025-09-08 12:09:19.528 - 1A AA AA AA 88 FF 00 01 FF 00 01 0F (调光器地址-茶吧灯带, 茶吧灯带关闭)
2025-09-08 12:18:00.129 - 19 08 24 03 CC 00 D3 00 01 (调用厨房感应灯开的按键)
2025-09-08 12:18:00.162 - 55 0A 32 00 00 00 01 92 55 0A 32 00 00 00 02 93 (厨房顶灯一开, 厨房顶灯二开)
2025-09-08 12:18:23.654 - 1A BE B0 DC 02 FF (正反转地址-外卫卷帘)
2025-09-08 12:18:23.788 - FF
2025-09-08 12:19:16.275 - 19 08 24 03 CC 00 D4 00 01 (调用厨房感应灯关的按键)
2025-09-08 12:19:16.333 - 55 0A 31 00 00 00 01 91 55 0A 31 00 00 00 02 92 (厨房顶灯一关, 厨房顶灯二关)
2025-09-08 12:21:10.687 - 1A BE B0 DC 09 (继电器地址-客厅窗帘)
2025-09-08 12:21:10.821 - FF
2025-09-08 12:23:18.251 - 19 08 24 03 CC 00 D3 00 01 (调用厨房感应灯开的按键)
2025-09-08 12:23:18.304 - 55 0A 32 00 00 00 01 92 55 0A 32 00 00 00 02 93 (厨房顶灯一开, 厨房顶灯二开)
2025-09-08 12:24:04.342 - 19 08 24 03 CC 00 D4 00 01 (调用厨房感应灯关的按键)
2025-09-08 12:24:04.397 - 55 0A 31 00 00 00 01 91 55 0A 31 00 00 00 02 92 (厨房顶灯一关, 厨房顶灯二关)
2025-09-08 12:27:27.743 - 19 08 24 03 CC 00 D3 00 01 (调用厨房感应灯开的按键)
2025-09-08 12:27:27.776 - 55 0A 32 00 00 00 01 92 55 0A 32 00 00 00 02 93 (厨房顶灯一开, 厨房顶灯二开)
2025-09-08 12:29:17.963 - 19 08 24 03 CC 00 D4 00 01 (调用厨房感应灯关的按键)
2025-09-08 12:29:17.993 - 55 0A 31 00 00 00 01 91 55 0A 31 00 00 00 02 92 (厨房顶灯一关, 厨房顶灯二关)
2025-09-08 12:30:09.043 - 19 08 24 03 DD 00 33 00 01 (调用情景-次卧睡觉)
2025-09-08 12:30:09.553 - EE 00 00 B1 00 00 00 FF FC FF FF (情景执行提示)
2025-09-08 12:30:10.144 - 09 06 00 0F 02 01 78 21 (提示音叮)
2025-09-08 12:30:10.724 - 1A 20 07 00 70 00 01 00 0F (自保持开关地址-次卧顶灯, 次卧顶灯只关)
2025-09-08 12:30:11.293 - A5 00 21 FF 00 AA (次卧纱帘关)
2025-09-08 12:30:11.338 - 55 00 21 01 00 0D 01 34 AA 55 00 21 01 00 0D 01 34 AA (次卧纱帘电机状态返回)
2025-09-08 12:30:12.383 - A5 00 76 FF 00 AA (次卧窗帘关)
2025-09-08 12:30:12.443 - 55 00 76 01 00 0E 01 1B AA 55 00 76 01 00 0E 01 1B AA (次卧窗帘电机状态返回)
2025-09-08 12:30:13.480 - 50 F5 06 (关次卧影视)
2025-09-08 12:30:14.039 - 1A 0E 03 05 03 FF 00 01 FF 00 01 FF 00 00 0F (调光器地址-次卧阅读灯, 次卧阅读关闭)
2025-09-08 12:30:14.638 - 1A 0E 03 05 02 FF 00 01 FF 00 01 FF 00 00 0F (调光器地址-次卧灯带, 次卧灯带关闭)
2025-09-08 12:30:15.235 - 1A 0E 03 05 04 FF 00 01 FF 00 01 FF 00 00 0F (调光器地址-次卧北筒灯, 次卧北筒灯关闭)
2025-09-08 12:30:15.832 - 1A 0E 03 05 05 FF 00 01 FF 00 01 FF 00 00 0F (调光器地址-次卧南筒灯, 次卧南筒灯关闭)
2025-09-08 12:30:16.429 - 1A 0E 03 05 01 FF 00 01 FF 00 01 FF 00 00 0F (调光器地址-次卧射灯, 次卧射灯关闭)
2025-09-08 12:30:17.022 - 09 06 00 0F 02 02 38 20 (提示音咚)
2025-09-08 12:30:17.571 - EE 00 00 B1 00 00 02 FF FC FF FF (情景完成返回主页)
2025-09-08 12:30:18.678 - 55 00 21 00 01 27 01 34 AA 55 00 21 00 01 27 01 34 AA (次卧纱帘电机状态返回)
2025-09-08 12:30:20.008 - 55 00 76 00 01 0E 01 1B AA 55 00 76 00 01 0E 01 1B AA (次卧窗帘电机状态返回)
2025-09-08 12:55:25.302 - 1A BE B0 DC 0A (继电器地址-客厅纱帘)
2025-09-08 13:13:29.234 - FF FF FF FF 0E (继电器地址-西阳小窗帘)
2025-09-08 13:13:29.369 - FF
2025-09-08 13:28:50.967 - FF FF FF FF 0A FF (继电器地址-东阳窗帘)
2025-09-08 14:44:59.352 - 1A BE B0 DC 03 (继电器地址-西阳天幕)
2025-09-08 14:58:05.847 - 1A BE B0 DC 01 FC (继电器地址-回水泵点动)
2025-09-08 15:04:53.332 - 19 08 24 03 CC 00 D3 00 01 (调用厨房感应灯开的按键)
2025-09-08 15:04:53.383 - 55 0A 32 00 00 00 01 92 55 0A 32 00 00 00 02 93 (厨房顶灯一开, 厨房顶灯二开)
2025-09-08 15:05:41.931 - 19 08 24 03 CC 00 D4 00 01 (调用厨房感应灯关的按键)
2025-09-08 15:05:41.984 - 55 0A 31 00 00 00 01 91 55 0A 31 00 00 00 02 92 (厨房顶灯一关, 厨房顶灯二关)
2025-09-08 15:09:10.337 - 19 08 24 03 CC 00 D3 00 01 (调用厨房感应灯开的按键)
2025-09-08 15:09:10.375 - 55 0A 32 00 00 00 01 92 55 0A 32 00 00 00 02 93 (厨房顶灯一开, 厨房顶灯二开)
2025-09-08 15:10:40.451 - 1A BE B0 DC 04 FE (继电器地址-西阳窗帘)
2025-09-08 15:10:40.585 - FF
2025-09-08 15:11:54.662 - 19 08 24 03 CC 00 D4 00 01 (调用厨房感应灯关的按键)
2025-09-08 15:11:54.713 - 55 0A 31 00 00 00 01 91 55 0A 31 00 00 00 02 92 (厨房顶灯一关, 厨房顶灯二关)
2025-09-08 15:27:25.954 - 1A FF FF FF 04 (继电器地址-东阳衣架)
2025-09-08 15:27:26.091 - C0
2025-09-08 15:31:17.947 - 19 08 24 03 CC 00 D3 00 01 (调用厨房感应灯开的按键)
2025-09-08 15:31:18.000 - 55 0A 32 00 00 00 01 92 55 0A 32 00 00 00 02 93 (厨房顶灯一开, 厨房顶灯二开)
2025-09-08 15:32:02.536 - 19 08 24 03 CC 00 D4 00 01 (调用厨房感应灯关的按键)
2025-09-08 15:32:02.589 - 55 0A 31 00 00 00 01 91 55 0A 31 00 00 00 02 92 (厨房顶灯一关, 厨房顶灯二关)
2025-09-08 15:38:53.218 - 1A BE B0 DC 02 (正反转地址-外卫卷帘)
2025-09-08 15:38:53.353 - FF
2025-09-08 15:41:35.126 - 1A BE B0 DC 09 (继电器地址-客厅窗帘)
2025-09-08 15:41:53.201 - 19 08 24 03 CC 00 D3 00 01 (调用厨房感应灯开的按键)
2025-09-08 15:41:53.250 - 55 0A 32 00 00 00 01 92 55 0A 32 00 00 00 02 93 (厨房顶灯一开, 厨房顶灯二开)
2025-09-08 15:42:42.296 - 19 08 24 03 CC 00 D4 00 01 (调用厨房感应灯关的按键)
2025-09-08 15:42:42.349 - 55 0A 31 00 00 00 01 91 55 0A 31 00 00 00 02 92 (厨房顶灯一关, 厨房顶灯二关)
2025-09-08 15:56:30.925 - 19 08 24 03 CC 00 D3 00 01 (调用厨房感应灯开的按键)
2025-09-08 15:56:30.959 - 55 0A 32 00 00 00 01 92 55 0A 32 00 00 00 02 93 (厨房顶灯一开, 厨房顶灯二开)
2025-09-08 15:57:21.025 - 19 08 24 03 CC 00 D4 00 01 (调用厨房感应灯关的按键)
2025-09-08 15:57:21.058 - 55 0A 31 00 00 00 01 91 55 0A 31 00 00 00 02 92 (厨房顶灯一关, 厨房顶灯二关)
2025-09-08 16:13:57.481 - 19 08 24 03 CC 00 D3 00 01 (调用厨房感应灯开的按键)
2025-09-08 16:13:57.516 - 55 0A 32 00 00 00 01 92 55 0A 32 00 00 00 02 93 (厨房顶灯一开, 厨房顶灯二开)
2025-09-08 16:15:00.104 - 19 08 24 03 CC 00 D4 00 01 (调用厨房感应灯关的按键)
2025-09-08 16:15:00.140 - 55 0A 31 00 00 00 01 91 55 0A 31 00 00 00 02 92 (厨房顶灯一关, 厨房顶灯二关)
2025-09-08 16:15:56.083 - 1A BE B0 DC 0A FC (继电器地址-客厅纱帘)
2025-09-08 16:33:35.817 - FF FF FF FF 0E FC (继电器地址-西阳小窗帘)
2025-09-08 16:33:35.954 - FF
