2024-09-07 00:21:51.812 - 1A 18 05 21 89 00 01 01 0F (自保持开关地址-客厅顶灯, 客厅顶灯一开)
2024-09-07 00:21:53.862 - 1A 18 05 21 89 00 01 00 0F (自保持开关地址-客厅顶灯, 客厅顶灯一关)
2024-09-07 00:25:41.307 - 19 08 24 03 CC 01 CC 00 01 (调用茶吧感应灯开的按键)
2024-09-07 00:25:41.358 - 1A AA AA AA 88 FF B0 01 FF B0 01 0F (调光器地址-茶吧灯带, 茶吧灯带明亮)
2024-09-07 00:25:53.173 - 19 08 24 03 CC 00 D3 00 01 (调用厨房感应灯开的按键)
2024-09-07 00:25:53.208 - 55 0A 32 00 00 00 01 92 55 0A 32 00 00 00 02 93 (厨房顶灯一开, 厨房顶灯二开)
2024-09-07 00:26:29.013 - 19 08 24 03 DD 00 13 00 01 (调用情景-公共区域关)
2024-09-07 00:26:29.560 - EE 00 00 B1 00 00 00 FF FC FF FF (情景执行提示)
2024-09-07 00:26:30.155 - 09 06 00 0F 02 01 78 21 (提示音叮)
2024-09-07 00:26:30.752 - 55 0B 31 00 00 00 01 92 (厨房风扇只关)
2024-09-07 00:26:31.798 - 01 06 07 D3 FF 60 38 9F (餐厅空调关)
2024-09-07 00:26:31.833 - 01 06 07 D3 FF 60 38 9F (餐厅空调关)
2024-09-07 00:26:32.894 - 01 06 07 D0 FF 60 C8 9F (客厅空调关)
2024-09-07 00:26:32.924 - 01 06 07 D0 FF 60 C8 9F (客厅空调关)
2024-09-07 00:26:36.257 - 19 08 24 03 CC 00 D4 00 01 (调用厨房感应灯关的按键)
2024-09-07 00:26:36.341 - 55 0A 31 00 00 00 01 91 55 0A 31 00 00 00 02 92 (厨房顶灯一关, 厨房顶灯二关)
2024-09-07 00:26:36.980 - 50 F5 02 (关厨房影视)
2024-09-07 00:26:38.025 - 50 F5 01 (关餐厅影视)
2024-09-07 00:26:39.070 - 50 F5 08 (关客厅影视)
2024-09-07 00:26:40.118 - 50 F5 03 (关外卫影视)
2024-09-07 00:26:41.169 - 55 0A 31 00 00 00 01 91 (厨房顶灯一关)
2024-09-07 00:26:41.431 - 19 08 24 03 CC 01 CD 00 01 (调用茶吧感应灯关的按键)
2024-09-07 00:26:41.461 - 1A AA AA AA 88 FF 00 01 FF 00 01 0F (调光器地址-茶吧灯带, 茶吧灯带关闭)
2024-09-07 00:26:42.216 - 55 0A 31 00 00 00 02 92 (厨房顶灯二关)
2024-09-07 00:26:43.263 - 55 0C 31 00 00 00 01 93 (餐厅顶灯关)
2024-09-07 00:26:44.309 - 1A 18 05 10 31 00 01 00 0F (自保持开关地址-门厅顶灯, 门厅顶灯关)
2024-09-07 00:26:45.357 - 1A 20 07 00 42 00 01 00 0F (自保持开关地址-外卫顶灯, 外卫顶灯关)
2024-09-07 00:26:46.403 - 1A 18 05 21 89 00 01 00 0F (自保持开关地址-客厅顶灯, 客厅顶灯一关)
2024-09-07 00:26:47.448 - 1A 18 05 01 94 00 01 00 0F (自保持开关地址-客厅顶灯, 客厅顶灯二关)
2024-09-07 00:26:48.496 - 1A 20 07 01 30 00 01 00 0F (自保持开关地址-西阳顶灯, 西阳顶灯关)
2024-09-07 00:26:49.548 - 1A FF 01 FF FF FF 00 01 FF 00 01 FF 00 00 0F (调光器地址-公共区域统配地址, 公共区域灯光全关)
2024-09-07 00:26:50.638 - 09 06 00 0F 02 02 38 20 (提示音咚)
2024-09-07 00:26:52.683 - EE 00 00 B1 00 00 02 FF FC FF FF (情景完成返回主页)
2024-09-07 00:27:34.678 - 1A BE B0 DC 04 (继电器地址-西阳窗帘)
2024-09-07 00:27:34.813 - FE
2024-09-07 00:27:34.996 - FF FF FF FF 0E FC (继电器地址-西阳小窗帘)
2024-09-07 00:28:34.630 - 1A BE B0 DC 09 FC (继电器地址-客厅窗帘)
2024-09-07 00:29:20.191 - FF
2024-09-07 00:29:34.566 - 1A BE B0 DC 02 FF (正反转地址-外卫卷帘)
2024-09-07 00:29:34.623 - FA
2024-09-07 00:29:34.762 - FE
2024-09-07 00:30:34.839 - 1A BE B0 DC 01 FC (继电器地址-回水泵点动)
2024-09-07 00:30:34.974 - FE
2024-09-07 00:30:35.223 - FE
2024-09-07 00:30:37.860 - 19 08 24 03 DD 00 4F 00 01 (调用情景-内卫使用完毕)
2024-09-07 00:30:38.421 - EE 00 00 B1 00 00 00 FF FC FF FF (情景执行提示)
2024-09-07 00:30:39.016 - 09 06 00 0F 02 01 78 21 (提示音叮)
2024-09-07 00:30:39.571 - 1A 0C 02 08 01 FF 00 01 FF 00 01 FF 00 00 0F (调光器地址-内卫射灯, 内卫感应灯关)
2024-09-07 00:30:43.644 - 50 F5 04 (关内卫影视)
2024-09-07 00:30:44.200 - 1A 20 07 01 40 00 01 00 0F (自保持开关地址-内卫顶灯, 内卫顶灯关)
2024-09-07 00:30:44.748 - 1A FF FF FF 56 00 00 01 0F (人体感应地址-内卫, 打开内卫感应)
2024-09-07 00:30:44.851 - BC BC
2024-09-07 00:30:45.159 - 19 08 24 03 CC 01 54 00 01 (调用内卫感应灯开的按键)
2024-09-07 00:30:45.212 - 1A 0C 02 08 01 FF 45 01 FF 45 01 FF 00 00 0F (调光器地址-内卫射灯, 内卫射灯微光)
2024-09-07 00:30:47.639 - 09 06 00 0F 02 02 38 20 (提示音咚)
2024-09-07 00:30:48.241 - EE 00 00 B1 00 00 02 FF FC FF FF (情景完成返回主页)
2024-09-07 00:33:51.187 - FF
