2024-09-24 22:23:14.881 - 19 08 24 03 CC 01 CC 00 01 (调用茶吧感应灯开的按键)
2024-09-24 22:23:18.377 - 19 08 24 03 CC 00 D3 00 01 (调用厨房感应灯开的按键)
2024-09-24 22:23:18.432 - 55 0A 32 00 00 00 01 92 55 0A 32 00 00 00 02 93 (厨房顶灯一开, 厨房顶灯二开)
2024-09-24 22:23:28.416 - 19 08 24 03 CC 01 CD 00 01 (调用茶吧感应灯关的按键)
2024-09-24 22:23:28.447 - 1A AA AA AA 88 FF 00 01 FF 00 01 0F (调光器地址-茶吧灯带, 茶吧灯带关闭)
2024-09-24 22:25:10.117 - 19 08 24 03 CC 01 CC 00 01 (调用茶吧感应灯开的按键)
2024-09-24 22:25:10.148 - 1A AA AA AA 88 FF B0 01 FF B0 01 0F (调光器地址-茶吧灯带, 茶吧灯带明亮)
2024-09-24 22:25:16.938 - 19 08 24 03 DD 00 13 00 01 (调用情景-公共区域关)
2024-09-24 22:25:17.485 - EE 00 00 B1 00 00 00 FF FC FF FF (情景执行提示)
2024-09-24 22:25:18.079 - 09 06 00 0F 02 01 78 21 (提示音叮)
2024-09-24 22:25:18.627 - 55 0B 31 00 00 00 01 92 (厨房风扇只关)
2024-09-24 22:25:19.673 - 01 06 07 D3 FF 60 38 9F (餐厅空调关)
2024-09-24 22:25:19.708 - 01 06 07 D3 FF 60 38 9F (餐厅空调关)
2024-09-24 22:25:20.770 - 01 06 07 D0 FF 60 C8 9F (客厅空调关)
2024-09-24 22:25:20.799 - 01 06 07 D0 FF 60 C8 9F (客厅空调关)
2024-09-24 22:25:24.854 - 50 F5 02 (关厨房影视)
2024-09-24 22:25:25.902 - 50 F5 01 (关餐厅影视)
2024-09-24 22:25:26.948 - 50 F5 08 (关客厅影视)
2024-09-24 22:25:27.994 - 50 F5 03 (关外卫影视)
2024-09-24 22:25:29.045 - 55 0A 31 00 00 00 01 91 (厨房顶灯一关)
2024-09-24 22:25:30.093 - 55 0A 31 00 00 00 02 92 (厨房顶灯二关)
2024-09-24 22:25:31.139 - 55 0C 31 00 00 00 01 93 (餐厅顶灯关)
2024-09-24 22:25:32.185 - 1A 18 05 10 31 00 01 00 0F (自保持开关地址-门厅顶灯, 门厅顶灯关)
2024-09-24 22:25:33.233 - 1A 20 07 00 42 00 01 00 0F (自保持开关地址-外卫顶灯, 外卫顶灯关)
2024-09-24 22:25:34.281 - 1A 18 05 21 89 00 01 00 0F (自保持开关地址-客厅顶灯, 客厅顶灯一关)
2024-09-24 22:25:35.325 - 1A 18 05 01 94 00 01 00 0F (自保持开关地址-客厅顶灯, 客厅顶灯二关)
2024-09-24 22:25:36.373 - 1A 20 07 01 30 00 01 00 0F (自保持开关地址-西阳顶灯, 西阳顶灯关)
2024-09-24 22:25:37.426 - 1A FF 01 FF FF FF 00 01 FF 00 01 FF 00 00 0F (调光器地址-公共区域统配地址, 公共区域灯光全关)
2024-09-24 22:25:38.513 - 09 06 00 0F 02 02 38 20 (提示音咚)
2024-09-24 22:25:40.611 - EE 00 00 B1 00 00 02 FF FC FF FF (情景完成返回主页)
2024-09-24 22:25:48.673 - 19 08 24 03 CC 00 D4 00 01 (调用厨房感应灯关的按键)
2024-09-24 22:25:48.705 - 19 08 24 03 CC 01 CD 00 01 (调用茶吧感应灯关的按键)
2024-09-24 22:25:48.765 - 55 0A 31 00 00 00 01 91 55 0A 31 00 00 00 02 92 (厨房顶灯一关, 厨房顶灯二关)
2024-09-24 22:29:38.279 - 19 08 24 03 DD 00 4F 00 01 (调用情景-内卫使用完毕)
2024-09-24 22:29:38.852 - EE 00 00 B1 00 00 00 FF FC FF FF (情景执行提示)
2024-09-24 22:29:39.448 - 09 06 00 0F 02 01 78 21 (提示音叮)
2024-09-24 22:29:40.003 - 1A 0C 02 08 01 FF 00 01 FF 00 01 FF 00 00 0F (调光器地址-内卫射灯, 内卫感应灯关)
2024-09-24 22:29:44.077 - 50 F5 04 (关内卫影视)
2024-09-24 22:29:44.631 - 1A 20 07 01 40 00 01 00 0F (自保持开关地址-内卫顶灯, 内卫顶灯关)
2024-09-24 22:29:45.179 - 1A FF FF FF 56 00 00 01 0F (人体感应地址-内卫, 打开内卫感应)
2024-09-24 22:29:45.282 - BC BC
2024-09-24 22:29:45.589 - 19 08 24 03 CC 01 54 00 01 (调用内卫感应灯开的按键)
2024-09-24 22:29:45.642 - 1A 0C 02 08 01 FF 45 01 FF 45 01 FF 00 00 0F (调光器地址-内卫射灯, 内卫射灯微光)
2024-09-24 22:29:48.021 - 09 06 00 0F 02 02 38 20 (提示音咚)
2024-09-24 22:29:48.623 - EE 00 00 B1 00 00 02 FF FC FF FF (情景完成返回主页)
2024-09-24 22:30:00.820 - 19 08 24 03 CC 01 55 00 01 (调用内卫感应灯关的按键)
2024-09-24 22:30:00.854 - 1A 0C 02 08 01 FF 00 01 FF 00 01 FF 00 00 0F (调光器地址-内卫射灯, 内卫感应灯关)
2024-09-24 22:30:17.354 - 19 08 24 03 CC 01 54 00 01 (调用内卫感应灯开的按键)
2024-09-24 22:30:17.389 - 1A 0C 02 08 01 FF 45 01 FF 45 01 FF 00 00 0F (调光器地址-内卫射灯, 内卫射灯微光)
2024-09-24 22:30:44.406 - 19 08 24 03 CC 01 55 00 01 (调用内卫感应灯关的按键)
2024-09-24 22:30:44.442 - 1A 0C 02 08 01 FF 00 01 FF 00 01 FF 00 00 0F (调光器地址-内卫射灯, 内卫感应灯关)
2024-09-24 22:31:43.525 - 19 08 24 03 CC 01 54 00 01 (调用内卫感应灯开的按键)
2024-09-24 22:31:43.557 - 1A 0C 02 08 01 FF 45 01 FF 45 01 FF 00 00 0F (调光器地址-内卫射灯, 内卫射灯微光)
2024-09-24 22:32:03.563 - 19 08 24 03 CC 01 55 00 01 (调用内卫感应灯关的按键)
2024-09-24 22:32:03.596 - 1A 0C 02 08 01 FF 00 01 FF 00 01 FF 00 00 0F (调光器地址-内卫射灯, 内卫感应灯关)
2024-09-24 22:47:54.279 - FF
2024-09-24 22:59:52.284 - FF
2024-09-24 23:00:34.487 - 1A BE B0 DC 04 (继电器地址-西阳窗帘)
2024-09-24 23:04:44.400 - FF
2024-09-24 23:08:00.329 - FF
2024-09-24 23:08:35.179 - FF FF FF FF 0E (继电器地址-西阳小窗帘)
2024-09-24 23:08:35.314 - FF
2024-09-24 23:16:42.335 - 19 08 24 03 CC 01 54 00 01 (调用内卫感应灯开的按键)
2024-09-24 23:16:42.387 - 1A 0C 02 08 01 FF 45 01 FF 45 01 FF 00 00 0F (调光器地址-内卫射灯, 内卫射灯微光)
2024-09-24 23:21:54.951 - 19 08 24 03 CC 01 55 00 01 (调用内卫感应灯关的按键)
2024-09-24 23:21:55.004 - 1A 0C 02 08 01 FF 00 01 FF 00 01 FF 00 00 0F (调光器地址-内卫射灯, 内卫感应灯关)
2024-09-24 23:21:57.457 - 19 08 24 03 CC 01 54 00 01 (调用内卫感应灯开的按键)
2024-09-24 23:21:57.522 - 1A 0C 02 08 01 FF 45 01 FF 45 01 FF 00 00 0F (调光器地址-内卫射灯, 内卫射灯微光)
2024-09-24 23:24:34.541 - 1A FF FF FF 04 FC (继电器地址-东阳衣架)
2024-09-24 23:24:34.675 - FF
2024-09-24 23:26:45.523 - 19 08 24 03 CC 01 55 00 01 (调用内卫感应灯关的按键)
2024-09-24 23:26:45.576 - 1A 0C 02 08 01 FF 00 01 FF 00 01 FF 00 00 0F (调光器地址-内卫射灯, 内卫感应灯关)
2024-09-24 23:26:49.030 - 19 08 24 03 CC 01 54 00 01 (调用内卫感应灯开的按键)
2024-09-24 23:26:49.084 - 1A 0C 02 08 01 FF 45 01 FF 45 01 FF 00 00 0F (调光器地址-内卫射灯, 内卫射灯微光)
2024-09-24 23:31:36.557 - 1A BE B0 DC 02 (正反转地址-外卫卷帘)
2024-09-24 23:31:36.691 - FF
2024-09-24 23:34:52.982 - 19 08 24 03 CC 01 55 00 01 (调用内卫感应灯关的按键)
2024-09-24 23:34:53.035 - 1A 0C 02 08 01 FF 00 01 FF 00 01 FF 00 00 0F (调光器地址-内卫射灯, 内卫感应灯关)
2024-09-24 23:34:54.917 - FF
2024-09-24 23:36:36.189 - 19 08 24 03 CC 01 54 00 01 (调用内卫感应灯开的按键)
2024-09-24 23:36:36.222 - 1A 0C 02 08 01 FF 45 01 FF 45 01 FF 00 00 0F (调光器地址-内卫射灯, 内卫射灯微光)
2024-09-24 23:36:56.731 - 19 08 24 03 CC 01 55 00 01 (调用内卫感应灯关的按键)
2024-09-24 23:36:56.788 - 1A 0C 02 08 01 FF 00 01 FF 00 01 FF 00 00 0F (调光器地址-内卫射灯, 内卫感应灯关)
2024-09-24 23:36:59.010 - 19 08 24 03 DD 00 4B 00 01 (调用情景-主卧睡觉)
2024-09-24 23:36:59.549 - EE 00 00 B1 00 00 00 FF FC FF FF (情景执行提示)
2024-09-24 23:37:00.144 - 09 06 00 0F 02 01 78 21 (提示音叮)
2024-09-24 23:37:00.686 - 50 F5 04 (关内卫影视)
2024-09-24 23:37:01.287 - A5 00 53 FE 01 AA (主卧纱帘关)
2024-09-24 23:37:02.333 - A5 00 52 FF 00 AA (主卧窗帘关)
2024-09-24 23:37:03.383 - 1A 22 33 62 0F 00 02 01 0F (正反转地址-内卫卷帘, 内卫卷帘降)
2024-09-24 23:37:04.430 - 1A 20 07 01 40 00 01 00 0F (自保持开关地址-内卫顶灯, 内卫顶灯关)
2024-09-24 23:37:05.476 - 1A 20 07 01 55 00 01 00 0F (自保持开关地址-主卧顶灯, 主卧顶灯只关)
2024-09-24 23:37:06.024 - 1A FF FF FF 56 00 00 01 0F (人体感应地址-内卫, 打开内卫感应)
2024-09-24 23:37:06.038 - BC BC
2024-09-24 23:37:09.621 - 1A 0C 02 08 01 FF 00 01 FF 00 01 FF 00 00 0F (调光器地址-内卫射灯, 内卫感应灯关)
2024-09-24 23:37:10.218 - 1A 0C 02 04 01 FF 00 01 FF 00 01 FF 00 00 0F (调光器地址-主卧筒灯, 主卧筒灯关闭)
2024-09-24 23:37:10.817 - 1A 0C 02 04 03 FF 00 01 FF 00 01 FF 00 00 0F (调光器地址-主卧灯带, 主卧灯带关闭)
2024-09-24 23:37:11.414 - 1A 0C 02 04 04 FF 00 01 FF 00 01 FF 00 00 0F (调光器地址-主卧南阅, 主卧南阅关闭)
2024-09-24 23:37:12.013 - 1A 0C 02 04 05 FF 00 01 FF 00 01 FF 00 00 0F (调光器地址-主卧北阅, 主卧北阅关闭)
2024-09-24 23:37:12.611 - 1A 0C 02 04 02 FF 00 01 FF 00 01 FF 00 00 0F (调光器地址-主卧过道, 主卧过道关闭)
2024-09-24 23:37:13.202 - 09 06 00 0F 02 02 38 20 (提示音咚)
2024-09-24 23:37:13.753 - EE 00 00 B1 00 00 02 FF FC FF FF (情景完成返回主页)
2024-09-24 23:46:07.019 - 1A BE B0 DC 01 FE (继电器地址-回水泵点动)
2024-09-24 23:51:07.291 - 1A BE B0 DC 03 FD (继电器地址-西阳天幕)
2024-09-24 23:51:07.424 - FE
2024-09-24 23:53:04.279 - 1A BE B0 DC 09 FC (继电器地址-客厅窗帘)
2024-09-24 23:53:04.413 - FF
2024-09-24 23:57:05.284 - 1A BE B0 DC 0A FC (继电器地址-客厅纱帘)
2024-09-24 23:57:05.419 - FE
2024-09-25 00:26:48.494 - FF
2024-09-25 01:00:44.645 - FF FF FF FF 0A (继电器地址-东阳窗帘)
2024-09-25 01:00:44.781 - FF
2024-09-25 02:21:00.470 - 1A BE B0 DC 04 (继电器地址-西阳窗帘)
2024-09-25 02:29:15.358 - FF FF FF FF 0E (继电器地址-西阳小窗帘)
2024-09-25 02:45:25.383 - 1A FF FF FF 04 FF (继电器地址-东阳衣架)
2024-09-25 02:52:34.160 - 1A BE B0 DC 02 FC (正反转地址-外卫卷帘)
2024-09-25 02:52:34.294 - FF
2024-09-25 02:59:24.705 - 50 F7 01 (全屋影音全关)
2024-09-25 03:06:52.848 - 1A BE B0 DC 01 (继电器地址-回水泵点动)
2024-09-25 03:08:30.201 - 03 00 00 2F 2A E0 00 00 00 00 00 43 6F 6F 6B 69 65 3A 20 6D 73 74 73 68 61 73 68 3D 41 64 6D 69
2024-09-25 03:08:30.217 - 6E 69 73 74 72 0D 0A 01 00 08 00 03 00 00 00
2024-09-25 03:12:00.483 - 1A BE B0 DC 03 (继电器地址-西阳天幕)
2024-09-25 03:12:00.619 - FF
2024-09-25 03:13:21.973 - 1A BE B0 DC 09 FC (继电器地址-客厅窗帘)
2024-09-25 03:13:22.107 - FE
2024-09-25 03:17:41.668 - 1A BE B0 DC 0A (继电器地址-客厅纱帘)
2024-09-25 03:17:41.804 - FF
2024-09-25 04:19:36.140 - 19 08 24 03 CC 01 54 00 01 (调用内卫感应灯开的按键)
2024-09-25 04:19:36.193 - 1A 0C 02 08 01 FF 45 01 FF 45 01 FF 00 00 0F (调光器地址-内卫射灯, 内卫射灯微光)
2024-09-25 04:20:49.476 - FF FF FF FF 0A FF (继电器地址-东阳窗帘)
2024-09-25 04:20:49.610 - FE
2024-09-25 04:22:30.986 - 19 08 24 03 CC 01 55 00 01 (调用内卫感应灯关的按键)
2024-09-25 04:22:31.039 - 1A 0C 02 08 01 FF 00 01 FF 00 01 FF 00 00 0F (调光器地址-内卫射灯, 内卫感应灯关)
2024-09-25 04:24:12.185 - 19 08 24 03 CC 01 54 00 01 (调用内卫感应灯开的按键)
2024-09-25 04:24:12.238 - 1A 0C 02 08 01 FF 45 01 FF 45 01 FF 00 00 0F (调光器地址-内卫射灯, 内卫射灯微光)
2024-09-25 04:24:33.227 - 19 08 24 03 CC 01 55 00 01 (调用内卫感应灯关的按键)
2024-09-25 04:24:33.260 - 1A 0C 02 08 01 FF 00 01 FF 00 01 FF 00 00 0F (调光器地址-内卫射灯, 内卫感应灯关)
2024-09-25 04:49:24.562 - EE 00 00 B1 00 00 00 FF FC FF FF (情景执行提示)
2024-09-25 04:49:25.154 - A5 00 A2 FF 00 AA (餐厅纱帘关)
2024-09-25 04:49:26.249 - A5 00 A6 FF 00 AA (餐厅窗帘关)
2024-09-25 04:49:26.308 - 55 00 A6 01 00 0E 01 74 AA 55 00 A6 01 00 0E 01 FC (餐厅窗帘电机状态返回)
2024-09-25 04:49:27.350 - A5 00 B7 FF 00 AA 22 0D (书房纱帘关)
2024-09-25 04:49:28.474 - A5 00 D2 FF 00 AA 22 0C (书房窗帘关)
2024-09-25 04:49:28.522 - 55 00 D2 01 00 0D 01 0B AA 55 00 D2 01 00 0D 01 0B AA (书房窗帘电机状态返回)
2024-09-25 04:49:29.546 - EE 00 00 B1 00 00 02 FF FC FF FF (情景完成返回主页)
2024-09-25 04:49:35.042 - 55 00 A6 00 01 66 01 74 AA 55 00 A6 00 01 66 01 74 AA (餐厅窗帘电机状态返回)
2024-09-25 04:49:38.150 - 55 00 D2 00 00 FE 01 0B AA 55 00 D2 00 00 FE 01 0B AA (书房窗帘电机状态返回)
2024-09-25 05:03:58.427 - 19 08 24 03 CC 01 CC 00 01 (调用茶吧感应灯开的按键)
2024-09-25 05:03:58.476 - 1A AA AA AA 88 FF B0 01 FF B0 01 0F (调光器地址-茶吧灯带, 茶吧灯带明亮)
2024-09-25 05:04:05.440 - 19 08 24 03 CC 01 CD 00 01 (调用茶吧感应灯关的按键)
2024-09-25 05:04:05.471 - 1A AA AA AA 88 FF 00 01 FF 00 01 0F (调光器地址-茶吧灯带, 茶吧灯带关闭)
2024-09-25 05:12:34.946 - 19 08 24 03 CC 01 CC 00 01 (调用茶吧感应灯开的按键)
2024-09-25 05:12:34.977 - 1A AA AA AA 88 FF B0 01 FF B0 01 0F (调光器地址-茶吧灯带, 茶吧灯带明亮)
2024-09-25 05:12:41.960 - 19 08 24 03 CC 01 CD 00 01 (调用茶吧感应灯关的按键)
2024-09-25 05:12:41.991 - 1A AA AA AA 88 FF 00 01 FF 00 01 0F (调光器地址-茶吧灯带, 茶吧灯带关闭)
2024-09-25 05:40:38.661 - 1A BE B0 DC 04 FC (继电器地址-西阳窗帘)
2024-09-25 05:43:58.424 - 19 08 24 03 CC 00 D3 00 01 (调用厨房感应灯开的按键)
2024-09-25 05:43:58.477 - 55 0A 32 00 00 00 01 92 55 0A 32 00 00 00 02 93 (厨房顶灯一开, 厨房顶灯二开)
2024-09-25 05:44:33.994 - 19 08 24 03 CC 00 D4 00 01 (调用厨房感应灯关的按键)
2024-09-25 05:44:34.047 - 55 0A 31 00 00 00 01 91 55 0A 31 00 00 00 02 92 (厨房顶灯一关, 厨房顶灯二关)
2024-09-25 05:49:14.266 - FF FF FF FF 0E FC (继电器地址-西阳小窗帘)
2024-09-25 06:06:15.848 - 1A FF FF FF 04 (继电器地址-东阳衣架)
2024-09-25 06:12:59.806 - 1A BE B0 DC 02 (正反转地址-外卫卷帘)
2024-09-25 06:12:59.941 - FE
2024-09-25 06:27:38.391 - 1A BE B0 DC 01 FF (继电器地址-回水泵点动)
2024-09-25 06:27:38.525 - FF
2024-09-25 06:29:24.786 - EE 00 00 B1 00 00 00 FF FC FF FF (情景执行提示)
2024-09-25 06:29:25.484 - 09 06 00 0F 02 01 78 21 (提示音叮)
2024-09-25 06:29:26.180 - 50 F0 04 (开内卫影视)
2024-09-25 06:29:26.879 - 50 F0 04 (开内卫影视)
2024-09-25 06:29:27.581 - 50 F0 05 (开主卧影视)
2024-09-25 06:29:28.281 - 50 F0 05 (开主卧影视)
2024-09-25 06:29:28.987 - FF FF FF FF 09 00 01 00
2024-09-25 06:29:29.690 - FF FF FF FF 08 00 01 00
2024-09-25 06:29:30.390 - FF FF FF FF 08 00 01 00
2024-09-25 06:29:31.093 - 1A 22 33 62 0F 00 02 01 0F (正反转地址-内卫卷帘, 内卫卷帘降)
2024-09-25 06:29:31.793 - 1A FF FF FF 56 0C 00 01 (人体感应地址-内卫)
2024-09-25 06:29:32.024 - 1A FF FF FF 56 00 00 00 0F (人体感应地址-内卫, 关闭内卫感应)
2024-09-25 06:29:32.494 - 1A FF FF FF A5 00 01 02
2024-09-25 06:29:33.200 - 1A AA AA AA 84 FF B0 01 FF 00 00 0F
2024-09-25 06:29:34.903 - 1A AA AA AA 27 FF 00 01 FF 00 00 0F
2024-09-25 06:29:36.605 - 1A AA AA AA 6F FF 27 01 FF 00 00 0F
2024-09-25 06:29:38.307 - 1A AA AA AA 55 FF 45 01 FF 00 00 0F
2024-09-25 06:29:40.011 - 1A AA AA AA 2C FF 00 00 FF 00 01 0F
2024-09-25 06:29:41.764 - 1A AA AA AA 84 FF 00 00 FF B0 01 0F
2024-09-25 06:29:43.466 - 1A AA AA AA 5B FF 00 01 FF 00 00 0F
2024-09-25 06:29:45.169 - 1A AA AA AA 27 FF 00 00 FF 00 01 0F
2024-09-25 06:29:46.870 - 1A AA AA AA 6F FF 00 00 FF 27 01 0F
2024-09-25 06:29:48.573 - 1A AA AA AA 55 FF 00 00 FF 45 01 0F
2024-09-25 06:29:50.326 - 1A AA AA AA 2C FF 00 01 FF 00 00 0F
2024-09-25 06:29:52.029 - 1A AA AA AA 5B FF 00 00 FF 00 01 0F
2024-09-25 06:29:53.721 - 50 F1 25 (主卧—有线2)
2024-09-25 06:29:55.425 - 50 F1 25 (主卧—有线2)
2024-09-25 06:29:57.131 - A1 11 11 11 11 01 (内卫浴霸取暖判断)
2024-09-25 06:29:57.359 - 14 03 00 00 00 02 C6 CE (查询内卫温湿度)
2024-09-25 06:29:57.385 - 14 03 04 02 B6 01 0C 5F 39 (内卫温湿度返回)
2024-09-25 06:29:58.411 - 1A BE B0 DC 01 00 01 00 (继电器地址-回水泵点动, 回水泵点动)
2024-09-25 06:29:59.635 - 1A BE B0 DC 01 00 01 00 (继电器地址-回水泵点动, 回水泵点动)
2024-09-25 06:30:01.839 - 1A BE B0 DC 01 00 01 00 (继电器地址-回水泵点动, 回水泵点动)
2024-09-25 06:30:03.543 - 1A FF FF FF 60 0B 01 01 0F (红外总线地址-主卧发射设备, 主卧电视电源)
2024-09-25 06:30:06.689 - EE 00 00 B1 00 00 02 FF FC FF FF (情景完成返回主页)
2024-09-25 06:33:05.918 - 1A BE B0 DC 03 FF (继电器地址-西阳天幕)
2024-09-25 06:33:06.053 - FF
2024-09-25 06:34:05.210 - 1A BE B0 DC 09 (继电器地址-客厅窗帘)
2024-09-25 06:34:05.345 - FF
2024-09-25 06:39:05.034 - 1A BE B0 DC 0A FD (继电器地址-客厅纱帘)
2024-09-25 06:44:24.347 - EE 00 00 B1 00 00 00 FF FC FF FF (情景执行提示)
2024-09-25 06:44:24.969 - 09 06 00 0F 02 01 78 21 (提示音叮)
2024-09-25 06:44:25.533 - 50 F0 04 (开内卫影视)
2024-09-25 06:44:26.082 - 50 F0 05 (开主卧影视)
2024-09-25 06:44:26.633 - A5 00 53 FE 01 AA (主卧纱帘关)
2024-09-25 06:44:27.181 - A5 00 53 FE 01 AA (主卧纱帘关)
2024-09-25 06:44:27.731 - A5 00 52 FE 01 AA (主卧窗帘开)
2024-09-25 06:44:28.775 - A5 00 52 FE 01 AA (主卧窗帘开)
2024-09-25 06:44:29.826 - 1A 22 33 62 0F 00 02 01 0F (正反转地址-内卫卷帘, 内卫卷帘降)
2024-09-25 06:44:30.374 - 1A FF FF FF 56 00 00 00 0F (人体感应地址-内卫, 关闭内卫感应)
2024-09-25 06:44:30.385 - BC BC
2024-09-25 06:44:30.973 - 1A 20 07 01 55 00 01 00 0F (自保持开关地址-主卧顶灯, 主卧顶灯只关)
2024-09-25 06:44:32.024 - 1A 0C 02 08 01 FF F0 01 FF F0 01 FF 00 00 0F (调光器地址-内卫射灯, 内卫射灯明亮)
2024-09-25 06:44:32.623 - 1A 0C 02 04 01 FF 00 01 FF 00 01 FF 00 00 0F (调光器地址-主卧筒灯, 主卧筒灯关闭)
2024-09-25 06:44:33.221 - 1A 0C 02 04 03 FF 45 01 FF 45 01 FF 00 00 0F (调光器地址-主卧灯带, 主卧灯带微光)
2024-09-25 06:44:33.819 - 1A 0C 02 04 02 FF F0 01 FF 00 01 FF 00 00 0F (调光器地址-主卧过道, 主卧过道暖光)
2024-09-25 06:44:34.416 - 1A 0C 02 04 05 FF 00 01 FF 00 01 FF 00 00 0F (调光器地址-主卧北阅, 主卧北阅关闭)
2024-09-25 06:44:35.014 - 1A 0C 02 04 04 FF 00 01 FF 00 01 FF 00 00 0F (调光器地址-主卧南阅, 主卧南阅关闭)
2024-09-25 06:44:36.098 - 50 F1 24 (内卫—有线2)
2024-09-25 06:44:37.145 - 50 F1 25 (主卧—有线2)
2024-09-25 06:44:38.194 - AF BF CF DF C2 21 (有线2/快捷-凤凰卫视)
2024-09-25 06:44:38.745 - 1A FF FF FF 60 0B 01 01 0F (红外总线地址-主卧发射设备, 主卧电视电源)
2024-09-25 06:44:39.266 - F0 0B 01 08
2024-09-25 06:44:39.790 - 1A BE B0 DC 01 00 01 00 (继电器地址-回水泵点动, 回水泵点动)
2024-09-25 06:44:41.579 - 55 20 20 00 00 0F 02 16 AA 55 20 20 00 00 0F 02 16 AA (主卧窗帘电机状态返回)
2024-09-25 06:44:43.830 - 09 06 00 0F 02 02 38 20 (提示音咚)
2024-09-25 06:44:44.481 - EE 00 00 B1 00 00 02 FF FC FF FF (情景完成返回主页)
2024-09-25 06:44:45.573 - A1 11 11 11 11 01 (内卫浴霸取暖判断)
2024-09-25 06:44:45.794 - 14 03 00 00 00 02 C6 CE (查询内卫温湿度)
2024-09-25 06:44:45.817 - 14 03 04 02 B4 01 0C FE F9 (内卫温湿度返回)
2024-09-25 07:08:11.153 - 19 08 24 03 CC 01 CC 00 01 (调用茶吧感应灯开的按键)
2024-09-25 07:08:11.202 - 1A AA AA AA 88 FF B0 01 FF B0 01 0F (调光器地址-茶吧灯带, 茶吧灯带明亮)
2024-09-25 07:08:22.030 - A5 00 A6 FE 01 AA (餐厅窗帘开)
2024-09-25 07:08:22.085 - 55 00 A6 02 01 66 01 74 AA 55 00 A6 02 01 66 01 74 AA (餐厅窗帘电机状态返回)
2024-09-25 07:08:27.933 - 19 08 24 03 CC 00 D3 00 01 (调用厨房感应灯开的按键)
2024-09-25 07:08:27.988 - 55 0A 32 00 00 00 01 92 55 0A 32 00 00 00 02 93 (厨房顶灯一开, 厨房顶灯二开)
2024-09-25 07:08:31.101 - 55 00 A6 00 00 0E 01 74 AA 55 00 A6 00 00 0E 01 74 AA (餐厅窗帘电机状态返回)
2024-09-25 07:09:21.792 - 19 08 24 03 CC 01 CD 00 01 (调用茶吧感应灯关的按键)
2024-09-25 07:09:21.842 - 1A AA AA AA 88 FF 00 01 FF 00 01 0F (调光器地址-茶吧灯带, 茶吧灯带关闭)
2024-09-25 07:10:26.921 - 19 08 24 03 CC 01 CC 00 01 (调用茶吧感应灯开的按键)
2024-09-25 07:10:26.951 - 1A AA AA AA 88 FF B0 01 FF B0 01 0F (调光器地址-茶吧灯带, 茶吧灯带明亮)
2024-09-25 07:10:46.960 - 19 08 24 03 CC 01 CD 00 01 (调用茶吧感应灯关的按键)
2024-09-25 07:10:46.991 - 1A AA AA AA 88 FF 00 01 FF 00 01 0F (调光器地址-茶吧灯带, 茶吧灯带关闭)
2024-09-25 07:13:54.576 - 19 08 24 03 CC 00 D4 00 01 (调用厨房感应灯关的按键)
2024-09-25 07:13:54.610 - 55 0A 31 00 00 00 01 91 55 0A 31 00 00 00 02 92 (厨房顶灯一关, 厨房顶灯二关)
2024-09-25 07:13:56.079 - 19 08 24 03 CC 00 D3 00 01 (调用厨房感应灯开的按键)
2024-09-25 07:13:56.113 - 55 0A 32 00 00 00 01 92 55 0A 32 00 00 00 02 93 (厨房顶灯一开, 厨房顶灯二开)
2024-09-25 07:17:10.218 - 19 08 24 03 CC 01 CC 00 01 (调用茶吧感应灯开的按键)
2024-09-25 07:17:10.247 - 1A AA AA AA 88 FF B0 01 FF B0 01 0F (调光器地址-茶吧灯带, 茶吧灯带明亮)
2024-09-25 07:17:41.779 - 19 08 24 03 CC 01 CD 00 01 (调用茶吧感应灯关的按键)
2024-09-25 07:17:41.810 - 1A AA AA AA 88 FF 00 01 FF 00 01 0F (调光器地址-茶吧灯带, 茶吧灯带关闭)
2024-09-25 07:17:48.538 - 19 08 24 03 CC 00 D4 00 01 (调用厨房感应灯关的按键)
2024-09-25 07:17:48.571 - 55 0A 31 00 00 00 01 91 55 0A 31 00 00 00 02 92 (厨房顶灯一关, 厨房顶灯二关)
2024-09-25 07:28:24.549 - 19 08 24 03 CC 01 CC 00 01 (调用茶吧感应灯开的按键)
2024-09-25 07:28:24.580 - 1A AA AA AA 88 FF B0 01 FF B0 01 0F (调光器地址-茶吧灯带, 茶吧灯带明亮)
2024-09-25 07:28:27.292 - 19 08 24 03 CC 00 D3 00 01 (调用厨房感应灯开的按键)
2024-09-25 07:28:27.328 - 55 0A 32 00 00 00 01 92 55 0A 32 00 00 00 02 93 (厨房顶灯一开, 厨房顶灯二开)
2024-09-25 07:28:37.574 - 19 08 24 03 CC 01 CD 00 01 (调用茶吧感应灯关的按键)
2024-09-25 07:28:37.605 - 1A AA AA AA 88 FF 00 01 FF 00 01 0F (调光器地址-茶吧灯带, 茶吧灯带关闭)
2024-09-25 07:29:45.710 - 19 08 24 03 CC 01 CC 00 01 (调用茶吧感应灯开的按键)
2024-09-25 07:29:45.740 - 1A AA AA AA 88 FF B0 01 FF B0 01 0F (调光器地址-茶吧灯带, 茶吧灯带明亮)
2024-09-25 07:30:07.752 - 19 08 24 03 CC 01 CD 00 01 (调用茶吧感应灯关的按键)
2024-09-25 07:30:07.784 - 1A AA AA AA 88 FF 00 01 FF 00 01 0F (调光器地址-茶吧灯带, 茶吧灯带关闭)
2024-09-25 07:30:09.255 - 19 08 24 03 CC 01 CC 00 01 (调用茶吧感应灯开的按键)
2024-09-25 07:30:09.296 - 1A AA AA AA 88 FF B0 01 FF B0 01 0F (调光器地址-茶吧灯带, 茶吧灯带明亮)
2024-09-25 07:30:24.523 - 19 08 24 03 CC 00 D4 00 01 (调用厨房感应灯关的按键)
2024-09-25 07:30:24.557 - 55 0A 31 00 00 00 01 91 55 0A 31 00 00 00 02 92 (厨房顶灯一关, 厨房顶灯二关)
2024-09-25 07:30:28.794 - 19 08 24 03 CC 01 CD 00 01 (调用茶吧感应灯关的按键)
2024-09-25 07:30:28.825 - 1A AA AA AA 88 FF 00 01 FF 00 01 0F (调光器地址-茶吧灯带, 茶吧灯带关闭)
2024-09-25 07:38:08.251 - FF
2024-09-25 07:43:22.574 - FF FF FF FF 0A (继电器地址-东阳窗帘)
2024-09-25 07:49:16.208 - 19 08 24 03 DD 00 40 00 01 (调用情景-离开主卧)
2024-09-25 07:49:16.757 - EE 00 00 B1 00 00 00 FF FC FF FF (情景执行提示)
2024-09-25 07:49:17.350 - 09 06 00 0F 02 01 78 21 (提示音叮)
2024-09-25 07:49:17.893 - 50 F5 05 (关主卧影视)
2024-09-25 07:49:18.442 - 50 F5 04 (关内卫影视)
2024-09-25 07:49:18.996 - 01 06 07 D6 FF 60 28 9E (主卧空调关)
2024-09-25 07:49:19.026 - 01 06 07 D6 FF 60 28 9E (主卧空调关)
2024-09-25 07:49:19.590 - A5 00 52 FE 01 AA (主卧窗帘开)
2024-09-25 07:49:20.638 - A5 00 52 FE 01 AA (主卧窗帘开)
2024-09-25 07:49:21.685 - A5 00 53 FF 00 AA (主卧纱帘开)
2024-09-25 07:49:21.741 - 55 00 53 01 00 0C 02 2F AA 55 00 53 01 00 0C 02 2F (主卧纱帘电机状态返回)
2024-09-25 07:49:22.283 - A5 00 53 FF 00 AA (主卧纱帘开)
2024-09-25 07:49:22.834 - 1A 22 33 62 0F 00 00 01 0F (正反转地址-内卫卷帘, 内卫卷帘升)
2024-09-25 07:49:23.547 - 55 20 20 00 00 0F 02 16 AA 55 20 20 00 00 0F 02 16 AA (主卧窗帘电机状态返回)
2024-09-25 07:49:23.958 - 1A 20 07 01 40 00 01 00 0F (自保持开关地址-内卫顶灯, 内卫顶灯关)
2024-09-25 07:49:25.025 - 1A 20 07 01 55 00 01 00 0F (自保持开关地址-主卧顶灯, 主卧顶灯只关)
2024-09-25 07:49:25.580 - 1A 0C 02 08 01 FF 00 01 FF 00 01 FF 00 00 0F (调光器地址-内卫射灯, 内卫感应灯关)
2024-09-25 07:49:26.173 - 1A FF FF FF 56 00 00 01 0F (人体感应地址-内卫, 打开内卫感应)
2024-09-25 07:49:26.583 - 19 08 24 03 CC 01 54 00 01 (调用内卫感应灯开的按键)
2024-09-25 07:49:26.636 - 1A 0C 02 08 01 FF 45 01 FF 45 01 FF 00 00 0F (调光器地址-内卫射灯, 内卫射灯微光)
2024-09-25 07:49:30.019 - 1A 0C 02 04 FF FF 00 01 FF 00 01 FF 00 00 0F (主卧调光全关)
2024-09-25 07:49:31.109 - 09 06 00 0F 02 02 38 20 (提示音咚)
2024-09-25 07:49:31.709 - EE 00 00 B1 00 00 02 FF FC FF FF (情景完成返回主页)
2024-09-25 07:49:32.433 - 55 00 53 00 02 22 02 2F AA 55 00 53 00 02 22 02 2F AA (主卧纱帘电机状态返回)
2024-09-25 07:49:55.325 - 19 08 24 03 CC 00 D3 00 01 (调用厨房感应灯开的按键)
2024-09-25 07:49:55.380 - 55 0A 32 00 00 00 01 92 55 0A 32 00 00 00 02 93 (厨房顶灯一开, 厨房顶灯二开)
2024-09-25 07:50:06.863 - 19 08 24 03 CC 01 55 00 01 (调用内卫感应灯关的按键)
2024-09-25 07:50:06.896 - 1A 0C 02 08 01 FF 00 01 FF 00 01 FF 00 00 0F (调光器地址-内卫射灯, 内卫感应灯关)
2024-09-25 07:50:43.547 - 19 08 24 03 DD 00 00 00 01 (调用情景-离家（末）)
2024-09-25 07:50:44.070 - EE 00 00 B1 00 00 00 FF FC FF FF (情景执行提示)
2024-09-25 07:50:44.665 - 09 06 00 0F 02 02 38 20 (提示音咚)
2024-09-25 07:50:45.208 - 50 F7 01 (全屋影音全关)
2024-09-25 07:50:45.761 - 01 06 07 D0 FF 60 C8 9F (客厅空调关)
2024-09-25 07:50:45.797 - 01 06 07 D0 FF 60 C8 9F (客厅空调关)
2024-09-25 07:50:46.359 - 01 06 07 D0 FF 60 C8 9F (客厅空调关)
2024-09-25 07:50:46.393 - 01 06 07 D0 FF 60 C8 9F (客厅空调关)
2024-09-25 07:50:46.927 - 19 08 24 03 CC 00 D4 00 01 (调用厨房感应灯关的按键)
2024-09-25 07:50:46.982 - 55 0A 31 00 00 00 01 91 55 0A 31 00 00 00 02 92 (厨房顶灯一关, 厨房顶灯二关)
2024-09-25 07:50:47.382 - 01 06 07 D3 FF 60 38 9F (餐厅空调关)
2024-09-25 07:50:47.413 - 01 06 07 D3 FF 60 38 9F (餐厅空调关)
2024-09-25 07:50:47.953 - 01 06 07 D3 FF 60 38 9F (餐厅空调关)
2024-09-25 07:50:47.989 - 01 06 07 D3 FF 60 38 9F (餐厅空调关)
2024-09-25 07:50:48.553 - 01 06 07 D6 FF 60 28 9E (主卧空调关)
2024-09-25 07:50:48.584 - 01 06 07 D6 FF 60 28 9E (主卧空调关)
2024-09-25 07:50:49.149 - 01 06 07 D6 FF 60 28 9E (主卧空调关)
2024-09-25 07:50:49.180 - 01 06 07 D6 FF 60 28 9E (主卧空调关)
2024-09-25 07:50:49.748 - 01 06 07 D9 FF 60 18 9D (次卧空调关)
2024-09-25 07:50:49.775 - 01 06 07 D9 FF 60 18 9D (次卧空调关)
2024-09-25 07:50:50.346 - 01 06 07 D9 FF 60 18 9D (次卧空调关)
2024-09-25 07:50:50.382 - 01 06 07 D9 FF 60 18 9D (次卧空调关)
2024-09-25 07:50:50.714 - 19 08 24 03 CC 01 CD 00 01 (调用茶吧感应灯关的按键)
2024-09-25 07:50:50.764 - 1A AA AA AA 88 FF 00 01 FF 00 01 0F (调光器地址-茶吧灯带, 茶吧灯带关闭)
2024-09-25 07:50:51.165 - 01 06 07 DC FF 60 08 9C (书房空调关)
2024-09-25 07:50:51.200 - 01 06 07 DC FF 60 08 9C (书房空调关)
2024-09-25 07:50:51.741 - 01 06 07 DC FF 60 08 9C (书房空调关)
2024-09-25 07:50:51.775 - 01 06 07 DC FF 60 08 9C (书房空调关)
2024-09-25 07:50:52.340 - 09 06 00 0F 02 02 38 20 (提示音咚)
2024-09-25 07:50:52.889 - 1A FF FF FF 56 00 00 00 0F (人体感应地址-内卫, 关闭内卫感应)
2024-09-25 07:50:53.437 - 1A FF FF FF 55 00 00 00 0F (人体感应地址-外卫, 关闭外卫感应)
2024-09-25 07:50:53.532 - BC BC
2024-09-25 07:50:53.985 - 1A FF FF FF 57 00 00 00 0F (人体感应地址-厨房, 关闭厨房感应)
2024-09-25 07:50:54.533 - 1A FF FF FF 58 00 00 00 0F (人体感应地址-茶吧, 关闭茶吧感应)
2024-09-25 07:50:54.583 - BC BC
2024-09-25 07:50:55.131 - 1A 20 07 00 93 00 01 00 0F (自保持开关地址-设备区顶, 设备区顶灯关)
2024-09-25 07:50:56.178 - 1A 20 07 01 40 00 01 00 0F (自保持开关地址-内卫顶灯, 内卫顶灯关)
2024-09-25 07:50:57.225 - 1A 20 07 01 55 00 01 00 0F (自保持开关地址-主卧顶灯, 主卧顶灯只关)
2024-09-25 07:50:58.271 - 1A 20 07 00 42 00 01 00 0F (自保持开关地址-外卫顶灯, 外卫顶灯关)
2024-09-25 07:50:59.317 - 55 0D 31 00 00 00 01 94 (书房顶灯只关)
2024-09-25 07:51:00.362 - 55 0A 31 00 00 00 01 91 (厨房顶灯一关)
2024-09-25 07:51:01.409 - 55 0A 31 00 00 00 02 92 (厨房顶灯二关)
2024-09-25 07:51:02.456 - 55 0B 31 00 00 00 01 92 (厨房风扇只关)
2024-09-25 07:51:03.503 - 55 0C 31 00 00 00 01 93 (餐厅顶灯关)
2024-09-25 07:51:04.550 - 1A 20 07 01 30 00 01 00 0F (自保持开关地址-西阳顶灯, 西阳顶灯关)
2024-09-25 07:51:05.597 - 1A 18 05 21 89 00 01 00 0F (自保持开关地址-客厅顶灯, 客厅顶灯一关)
2024-09-25 07:51:06.644 - 1A 18 05 01 94 00 01 00 0F (自保持开关地址-客厅顶灯, 客厅顶灯二关)
2024-09-25 07:51:07.689 - 1A 20 07 00 70 00 01 00 0F (自保持开关地址-次卧顶灯, 次卧顶灯只关)
2024-09-25 07:51:08.737 - 1A 18 05 10 31 00 01 00 0F (自保持开关地址-门厅顶灯, 门厅顶灯关)
2024-09-25 07:51:09.781 - 1A FF FF FF 04 00 03 02 (继电器地址-东阳衣架, 东阳衣架照明关)
2024-09-25 07:51:10.330 - 09 06 00 0F 02 02 38 20 (提示音咚)
2024-09-25 07:51:10.876 - A5 00 A6 FE 01 AA (餐厅窗帘开)
2024-09-25 07:51:11.426 - FF FF FF FF 0A 00 01 00 (继电器地址-东阳窗帘, 东阳窗帘开)
2024-09-25 07:51:11.974 - 1A BE B0 DC 04 00 01 00 (继电器地址-西阳窗帘, 西阳窗帘开)
2024-09-25 07:51:12.523 - FF FF FF FF 0E 00 01 00 (继电器地址-西阳小窗帘, 西阳小窗帘开)
2024-09-25 07:51:13.072 - 1A 22 33 62 0F 00 00 01 0F (正反转地址-内卫卷帘, 内卫卷帘升)
2024-09-25 07:51:13.617 - A5 00 52 FE 01 AA (主卧窗帘开)
2024-09-25 07:51:14.165 - A5 00 53 FF 00 AA (主卧纱帘开)
2024-09-25 07:51:14.762 - A5 00 76 FE 01 AA (次卧窗帘开)
2024-09-25 07:51:15.360 - A5 00 21 FE 01 AA (次卧纱帘开)
2024-09-25 07:51:15.912 - A5 00 D2 FE 01 AA 22 0D (书房窗帘开)
2024-09-25 07:51:15.960 - 55 00 D2 02 00 FE 01 0B AA 55 00 D2 02 00 FE 01 0B AA (书房窗帘电机状态返回)
2024-09-25 07:51:16.510 - 1A BE B0 DC 09 00 01 00 (继电器地址-客厅窗帘, 客厅窗帘开)
2024-09-25 07:51:17.057 - 1A BE B0 DC 0A 00 02 00 (继电器地址-客厅纱帘, 客厅纱帘开)
2024-09-25 07:51:17.605 - 09 06 00 0F 02 02 38 20 (提示音咚)
2024-09-25 07:51:18.653 - 1A EC A0 DC 02 00 00 00 0F (自保持开关地址-天花12V供电, 天花12V 供电关)
2024-09-25 07:51:19.201 - 1A EC A0 DC 02 00 00 00 0F (自保持开关地址-天花12V供电, 天花12V 供电关)
2024-09-25 07:51:19.750 - 1A EC A0 DC 01 00 00 00 0F (自保持开关地址-电视、设备12V供电, 12V 电视供电关)
2024-09-25 07:51:20.297 - 1A EC A0 DC 01 00 00 00 0F (自保持开关地址-电视、设备12V供电, 12V 电视供电关)
2024-09-25 07:51:20.846 - 1A EC A0 DC 04 00 01 00 0F (自保持开关地址-次卧西阳内外卫供电, 内卫外卫关)
2024-09-25 07:51:21.395 - 1A EC A0 DC 04 00 01 00 0F (自保持开关地址-次卧西阳内外卫供电, 内卫外卫关)
2024-09-25 07:51:22.936 - 1A BB BB BB 01 02 00 (开水器电源关)
2024-09-25 07:51:24.247 - 55 00 D2 00 00 0D 01 0B AA 55 00 D2 00 00 0D 01 0B AA (书房窗帘电机状态返回)
2024-09-25 07:51:35.990 - 09 06 00 0F 02 02 38 20 (提示音咚)
2024-09-25 07:51:36.538 - 1A 27 89 12 AA 00 00 00 0F (状态寄存器地址, 无人状态)
2024-09-25 07:51:37.087 - 1A 27 89 12 AA 00 00 00 0F (状态寄存器地址, 无人状态)
2024-09-25 07:51:37.630 - A1 11 11 11 4D (天花供电关闭确认)
2024-09-25 07:51:37.853 - 1A EC A0 DC 02 86 86 86 0F (查询天花供电状态, 自保持开关地址-天花12V供电)
2024-09-25 07:51:38.287 - 1A EC A0 DC 02 00 01 0F (自保持开关地址-天花12V供电)
2024-09-25 07:51:40.670 - A1 11 11 11 4E (卫生供电关闭确认)
2024-09-25 07:51:40.893 - 1A EC A0 DC 04 86 86 86 0F (查询卫生间供电状态, 自保持开关地址-次卧西阳内外卫供电)
2024-09-25 07:51:41.324 - 1A EC A0 DC 04 01 00 0F (自保持开关地址-次卧西阳内外卫供电)
2024-09-25 07:51:43.710 - A1 11 11 11 4F (电视供电关闭确认)
2024-09-25 07:51:43.932 - 1A EC A0 DC 01 86 86 86 0F (查询电视供电状态, 自保持开关地址-电视、设备12V供电)
2024-09-25 07:51:44.361 - 1A EC A0 DC 01 00 01 0F (自保持开关地址-电视、设备12V供电)
2024-09-25 07:51:46.753 - 09 06 00 0F 02 02 38 20 (提示音咚)
2024-09-25 07:51:47.302 - 09 06 00 0F 02 02 38 20 (提示音咚)
2024-09-25 07:51:47.853 - EE 00 00 B1 00 00 02 FF FC FF FF (情景完成返回主页)
2024-09-25 07:51:48.944 - BA BA EE EE BA BA (离家设置信科变量)
2024-09-25 07:51:49.989 - A1 11 11 11 46 (天热离家遮阳)
2024-09-25 07:51:50.218 - 1A 27 89 12 AA 86 86 86 0F (查询寄存器状态, 状态寄存器地址)
2024-09-25 07:51:50.601 - 1A 27 89 12 AA 00 00 00 00 00 00 00 00 00 00 00 00 00 00 00 00 0F (状态寄存器地址)
2024-09-25 09:02:02.505 - 1A BE B0 DC 04 (继电器地址-西阳窗帘)
2024-09-25 09:02:02.641 - FF
2024-09-25 09:10:07.642 - FF FF FF FF 0E FC (继电器地址-西阳小窗帘)
2024-09-25 09:28:35.364 - 1A FF FF FF 04 (继电器地址-东阳衣架)
2024-09-25 09:35:13.560 - 1A BE B0 DC 02 FC (正反转地址-外卫卷帘)
2024-09-25 09:35:13.694 - FF
2024-09-25 09:50:23.251 - 1A BE B0 DC 01 (继电器地址-回水泵点动)
2024-09-25 09:50:23.386 - FF
2024-09-25 09:55:27.226 - 1A BE B0 DC 03 (继电器地址-西阳天幕)
2024-09-25 09:57:07.858 - 1A BE B0 DC 09 FD (继电器地址-客厅窗帘)
2024-09-25 10:02:19.564 - 1A BE B0 DC 0A FC (继电器地址-客厅纱帘)
2024-09-25 10:02:19.699 - FE
