2025-09-17 22:43:12.323 - 19 08 24 03 CC 01 54 00 01 (调用内卫感应灯开的按键)
2025-09-17 22:43:12.359 - 1A 0C 02 08 01 FF 45 01 FF 45 01 FF 00 00 0F (调光器地址-内卫射灯, 内卫射灯微光)
2025-09-17 22:43:32.369 - 19 08 24 03 CC 01 55 00 01 (调用内卫感应灯关的按键)
2025-09-17 22:43:32.397 - 1A 0C 02 08 01 FF 00 01 FF 00 01 FF 00 00 0F (调光器地址-内卫射灯, 内卫感应灯关)
2025-09-17 22:44:24.270 - 01 04 07 D0 00 06 70 85
2025-09-17 22:44:24.296 - 01 04 0C 70 00 42 02 00 FA 00 00 01 04 00 00 74 84
2025-09-17 22:44:24.424 - 01 04 07 D6 00 06 90 84
2025-09-17 22:44:24.459 - 01 04 0C 70 00 42 02 00 FA 00 00 01 18 00 00 B5 42
2025-09-17 22:44:24.580 - 01 04 07 DC 00 06 B0 86
2025-09-17 22:44:24.611 - 01 04 0C 50 01 42 02 00 DC 00 00 01 0E 00 00 96 07
2025-09-17 22:44:24.738 - 01 04 07 E2 00 06 D1 4A
2025-09-17 22:44:24.772 - 01 04 0C 70 01 42 02 00 FA 00 00 00 FA 00 00 10 74
2025-09-17 22:44:24.899 - 01 04 07 E8 00 06 F1 48
2025-09-17 22:44:24.933 - 01 04 0C 70 00 42 02 00 FA 00 00 01 18 00 00 B5 42
2025-09-17 23:17:03.510 - 1A BE B0 DC 04 (继电器地址-西阳窗帘)
2025-09-17 23:17:03.645 - FE
2025-09-17 23:57:13.846 - 1A BE B0 DC 03 FC (继电器地址-西阳天幕)
2025-09-18 00:10:13.735 - 1A BE B0 DC 01 (继电器地址-回水泵点动)
2025-09-18 00:26:59.336 - 1A BE B0 DC 02 (正反转地址-外卫卷帘)
2025-09-18 00:26:59.471 - FF
2025-09-18 00:32:53.706 - 1A BE B0 DC 09 FD (继电器地址-客厅窗帘)
2025-09-18 00:44:12.980 - 1A FF FF FF 04 (继电器地址-东阳衣架)
2025-09-18 00:53:24.204 - FF FF FF FF 0E FE (继电器地址-西阳小窗帘)
2025-09-18 01:09:56.616 - 1A BE B0 DC 0A FF (继电器地址-客厅纱帘)
2025-09-18 01:32:20.537 - FF FF FF FF 0A FC (继电器地址-东阳窗帘)
2025-09-18 01:32:20.672 - FF
2025-09-18 02:20:51.964 - 19 08 24 03 CC 01 CC 00 01 (调用茶吧感应灯开的按键)
2025-09-18 02:20:52.011 - 1A AA AA AA 88 FF B0 01 FF B0 01 0F (调光器地址-茶吧灯带, 茶吧灯带明亮)
2025-09-18 02:20:58.979 - 19 08 24 03 CC 01 CD 00 01 (调用茶吧感应灯关的按键)
2025-09-18 02:20:59.027 - 1A AA AA AA 88 FF 00 01 FF 00 01 0F (调光器地址-茶吧灯带, 茶吧灯带关闭)
2025-09-18 02:36:52.127 - 1A BE B0 DC 04 (继电器地址-西阳窗帘)
2025-09-18 02:36:52.261 - FF
2025-09-18 02:42:44.386 - 19 08 24 03 CC 00 D3 00 01 (调用厨房感应灯开的按键)
2025-09-18 02:42:44.437 - 55 0A 32 00 00 00 01 92 55 0A 32 00 00 00 02 93 (厨房顶灯一开, 厨房顶灯二开)
2025-09-18 02:43:19.957 - 19 08 24 03 CC 00 D4 00 01 (调用厨房感应灯关的按键)
2025-09-18 02:43:20.008 - 55 0A 31 00 00 00 01 91 55 0A 31 00 00 00 02 92 (厨房顶灯一关, 厨房顶灯二关)
2025-09-18 02:43:58.784 - 19 08 24 03 CC 01 54 00 01 (调用内卫感应灯开的按键)
2025-09-18 02:43:58.817 - 1A 0C 02 08 01 FF 45 01 FF 45 01 FF 00 00 0F (调光器地址-内卫射灯, 内卫射灯微光)
2025-09-18 02:46:35.768 - 19 08 24 03 DD 00 4B 00 01 (调用情景-主卧睡觉)
2025-09-18 02:46:36.309 - EE 00 00 B1 00 00 00 FF FC FF FF (情景执行提示)
2025-09-18 02:46:36.904 - 09 06 00 0F 02 01 78 21 (提示音叮)
2025-09-18 02:46:37.445 - 50 F5 04 (关内卫影视)
2025-09-18 02:46:38.000 - 55 11 1D 03 01 7C 06 (主卧纱帘关)
2025-09-18 02:46:38.045 - 55 11 1D 03 01 7C 06 (主卧纱帘关)
2025-09-18 02:46:39.095 - 55 12 12 03 02 0C 40 (主卧窗帘关)
2025-09-18 02:46:39.139 - 55 12 12 03 02 0C 40 (主卧窗帘关)
2025-09-18 02:46:40.195 - 1A 22 33 62 0F 00 02 01 0F (正反转地址-内卫卷帘, 内卫卷帘降)
2025-09-18 02:46:41.240 - 1A 20 07 01 40 00 01 00 0F (自保持开关地址-内卫顶灯, 内卫顶灯关)
2025-09-18 02:46:42.286 - 1A 20 07 01 55 00 01 00 0F (自保持开关地址-主卧顶灯, 主卧顶灯只关)
2025-09-18 02:46:42.834 - 1A FF FF FF 56 00 00 01 0F (人体感应地址-内卫, 打开内卫感应)
2025-09-18 02:46:42.848 - BC BC
2025-09-18 02:46:46.434 - 1A 0C 02 08 01 FF 00 01 FF 00 01 FF 00 00 0F (调光器地址-内卫射灯, 内卫感应灯关)
2025-09-18 02:46:47.030 - 1A 0C 02 04 01 FF 00 01 FF 00 01 FF 00 00 0F (调光器地址-主卧筒灯, 主卧筒灯关闭)
2025-09-18 02:46:47.628 - 1A 0C 02 04 03 FF 00 01 FF 00 01 FF 00 00 0F (调光器地址-主卧灯带, 主卧灯带关闭)
2025-09-18 02:46:48.225 - 1A 0C 02 04 04 FF 00 01 FF 00 01 FF 00 00 0F (调光器地址-主卧南阅, 主卧南阅关闭)
2025-09-18 02:46:48.822 - 1A 0C 02 04 05 FF 00 01 FF 00 01 FF 00 00 0F (调光器地址-主卧北阅, 主卧北阅关闭)
2025-09-18 02:46:49.424 - 1A 0C 02 04 02 FF 00 01 FF 00 01 FF 00 00 0F (调光器地址-主卧过道, 主卧过道关闭)
2025-09-18 02:46:50.011 - 09 06 00 0F 02 02 38 20 (提示音咚)
2025-09-18 02:46:50.564 - EE 00 00 B1 00 00 02 FF FC FF FF (情景完成返回主页)
2025-09-18 02:46:51.655 - 19 08 24 03 CC 01 55 00 01 (调用内卫感应灯关的按键)
2025-09-18 02:46:51.706 - 1A 0C 02 08 01 FF 00 01 FF 00 01 FF 00 00 0F (调光器地址-内卫射灯, 内卫感应灯关)
2025-09-18 02:48:33.856 - 19 08 24 03 CC 01 54 00 01 (调用内卫感应灯开的按键)
2025-09-18 02:48:33.891 - 1A 0C 02 08 01 FF 45 01 FF 45 01 FF 00 00 0F (调光器地址-内卫射灯, 内卫射灯微光)
2025-09-18 02:48:53.895 - 19 08 24 03 CC 01 55 00 01 (调用内卫感应灯关的按键)
2025-09-18 02:48:53.931 - 1A 0C 02 08 01 FF 00 01 FF 00 01 FF 00 00 0F (调光器地址-内卫射灯, 内卫感应灯关)
2025-09-18 03:00:00.003 - 50 F7 01 (全屋影音全关)
2025-09-18 03:18:43.335 - 1A BE B0 DC 03 FC (继电器地址-西阳天幕)
2025-09-18 03:18:43.471 - FF
2025-09-18 03:31:43.098 - 1A BE B0 DC 01 (继电器地址-回水泵点动)
2025-09-18 03:31:43.236 - FE
2025-09-18 03:37:26.551 - 19 08 24 03 CC 01 CC 00 01 (调用茶吧感应灯开的按键)
2025-09-18 03:37:26.599 - 1A AA AA AA 88 FF B0 01 FF B0 01 0F (调光器地址-茶吧灯带, 茶吧灯带明亮)
2025-09-18 03:37:34.066 - 19 08 24 03 CC 01 CD 00 01 (调用茶吧感应灯关的按键)
2025-09-18 03:37:34.115 - 1A AA AA AA 88 FF 00 01 FF 00 01 0F (调光器地址-茶吧灯带, 茶吧灯带关闭)
2025-09-18 03:47:34.847 - 1A BE B0 DC 02 (正反转地址-外卫卷帘)
2025-09-18 03:47:34.977 - FF
2025-09-18 03:53:31.373 - 1A BE B0 DC 09 (继电器地址-客厅窗帘)
2025-09-18 04:05:42.804 - 1A FF FF FF 04 FC (继电器地址-东阳衣架)
2025-09-18 04:05:42.940 - FF
2025-09-18 04:14:18.891 - FF FF FF FF 0E (继电器地址-西阳小窗帘)
2025-09-18 04:30:00.549 - EE 00 00 B1 00 00 00 FF FC FF FF (情景执行提示)
2025-09-18 04:30:01.169 - A5 00 A2 FF 00 AA (餐厅纱帘关)
2025-09-18 04:30:02.240 - A5 00 A6 FF 00 AA (餐厅窗帘关)
2025-09-18 04:30:02.293 - 55 00 A6 01 00 0F 01 74 AA 55 00 A6 01 00 0F 01 (餐厅窗帘电机状态返回)
2025-09-18 04:30:02.295 - FF
2025-09-18 04:30:03.334 - A5 00 B7 FF 00 AA 22 0D (书房纱帘关)
2025-09-18 04:30:04.380 - A5 00 D2 FF 00 AA 22 0C (书房窗帘关)
2025-09-18 04:30:04.431 - 55 00 D2 01 00 0D 01 0B AA 55 00 D2 01 00 0D 01 0B AA (书房窗帘电机状态返回)
2025-09-18 04:30:05.481 - EE 00 00 B1 00 00 02 FF FC FF FF (情景完成返回主页)
2025-09-18 04:30:10.908 - 55 00 A6 00 01 66 01 74 AA 55 00 A6 00 01 66 01 74 AA (餐厅窗帘电机状态返回)
2025-09-18 04:30:13.846 - 55 00 D2 00 00 FE 01 0B AA 55 00 D2 00 00 FE 01 0B AA (书房窗帘电机状态返回)
2025-09-18 04:31:30.446 - 1A BE B0 DC 0A (继电器地址-客厅纱帘)
2025-09-18 04:31:30.582 - FE
2025-09-18 04:53:13.683 - FF FF FF FF 0A FC (继电器地址-东阳窗帘)
2025-09-18 04:53:13.820 - FF
2025-09-18 04:59:11.987 - 19 08 24 03 CC 00 D3 00 01 (调用厨房感应灯开的按键)
2025-09-18 04:59:12.047 - 55 0A 32 00 00 00 01 92 55 0A 32 00 00 00 02 93 (厨房顶灯一开, 厨房顶灯二开)
2025-09-18 04:59:47.058 - 19 08 24 03 CC 00 D4 00 01 (调用厨房感应灯关的按键)
2025-09-18 04:59:47.110 - 55 0A 31 00 00 00 01 91 55 0A 31 00 00 00 02 92 (厨房顶灯一关, 厨房顶灯二关)
2025-09-18 05:57:35.468 - 1A BE B0 DC 04 (继电器地址-西阳窗帘)
2025-09-18 05:57:35.600 - FF
2025-09-18 06:39:36.916 - 1A BE B0 DC 03 FC (继电器地址-西阳天幕)
2025-09-18 06:39:37.048 - FF
2025-09-18 06:45:00.735 - EE 00 00 B1 00 00 00 FF FC FF FF (情景执行提示)
2025-09-18 06:45:01.333 - 09 06 00 0F 02 01 78 21 (提示音叮)
2025-09-18 06:45:01.924 - 50 F0 04 (开内卫影视)
2025-09-18 06:45:02.474 - 50 F0 05 (开主卧影视)
2025-09-18 06:45:03.027 - 55 11 1D 03 01 7C 06 (主卧纱帘关)
2025-09-18 06:45:03.069 - 55 11 1D 03 01 7C 06 (主卧纱帘关)
2025-09-18 06:45:03.625 - 55 11 1D 03 01 7C 06 (主卧纱帘关)
2025-09-18 06:45:03.670 - 55 11 1D 03 01 7C 06 (主卧纱帘关)
2025-09-18 06:45:04.222 - 55 12 12 03 01 4C 41 (主卧窗帘开)
2025-09-18 06:45:04.263 - 55 12 12 03 01 4C 41 (主卧窗帘开)
2025-09-18 06:45:05.319 - 55 12 12 03 01 4C 41 (主卧窗帘开)
2025-09-18 06:45:05.360 - 55 12 12 03 01 4C 41 (主卧窗帘开)
2025-09-18 06:45:06.416 - 1A 22 33 62 0F 00 02 01 0F (正反转地址-内卫卷帘, 内卫卷帘降)
2025-09-18 06:45:06.965 - 1A FF FF FF 56 00 00 00 0F (人体感应地址-内卫, 关闭内卫感应)
2025-09-18 06:45:07.073 - BC BC
2025-09-18 06:45:07.512 - 1A 20 07 01 55 00 01 00 0F (自保持开关地址-主卧顶灯, 主卧顶灯只关)
2025-09-18 06:45:08.565 - 1A 0C 02 08 01 FF F0 01 FF F0 01 FF 00 00 0F (调光器地址-内卫射灯, 内卫射灯明亮)
2025-09-18 06:45:09.163 - 1A 0C 02 04 01 FF 00 01 FF 00 01 FF 00 00 0F (调光器地址-主卧筒灯, 主卧筒灯关闭)
2025-09-18 06:45:09.760 - 1A 0C 02 04 03 FF 45 01 FF 45 01 FF 00 00 0F (调光器地址-主卧灯带, 主卧灯带微光)
2025-09-18 06:45:10.358 - 1A 0C 02 04 02 FF F0 01 FF 00 01 FF 00 00 0F (调光器地址-主卧过道, 主卧过道暖光)
2025-09-18 06:45:10.959 - 1A 0C 02 04 05 FF 00 01 FF 00 01 FF 00 00 0F (调光器地址-主卧北阅, 主卧北阅关闭)
2025-09-18 06:45:11.554 - 1A 0C 02 04 04 FF 00 01 FF 00 01 FF 00 00 0F (调光器地址-主卧南阅, 主卧南阅关闭)
2025-09-18 06:45:12.640 - 50 F1 24 (内卫—有线2)
2025-09-18 06:45:13.687 - 50 F1 25 (主卧—有线2)
2025-09-18 06:45:14.734 - AF BF CF DF C2 21 (有线2/快捷-凤凰卫视)
2025-09-18 06:45:15.285 - 1A FF FF FF 60 0B 01 01 0F (红外总线地址-主卧发射设备, 主卧电视电源)
2025-09-18 06:45:15.815 - F0 0B 01 08
2025-09-18 06:45:16.331 - 1A BE B0 DC 01 00 01 00 (继电器地址-回水泵点动, 回水泵点动)
2025-09-18 06:45:20.370 - 09 06 00 0F 02 02 38 20 (提示音咚)
2025-09-18 06:45:20.923 - EE 00 00 B1 00 00 02 FF FC FF FF (情景完成返回主页)
2025-09-18 06:45:22.012 - A1 11 11 11 11 01 (内卫浴霸取暖判断)
2025-09-18 06:45:22.241 - 14 03 00 00 00 02 C6 CE (查询内卫温湿度)
2025-09-18 06:45:22.257 - 14 03 04 01 D0 01 0A 3F 60 (内卫温湿度返回)
2025-09-18 06:50:05.420 - 19 08 24 03 CC 01 CC 00 01 (调用茶吧感应灯开的按键)
2025-09-18 06:50:05.469 - 1A AA AA AA 88 FF B0 01 FF B0 01 0F (调光器地址-茶吧灯带, 茶吧灯带明亮)
2025-09-18 06:50:12.434 - 19 08 24 03 CC 01 CD 00 01 (调用茶吧感应灯关的按键)
2025-09-18 06:50:12.466 - 1A AA AA AA 88 FF 00 01 FF 00 01 0F (调光器地址-茶吧灯带, 茶吧灯带关闭)
2025-09-18 06:53:19.117 - 1A BE B0 DC 01 (继电器地址-回水泵点动)
2025-09-18 06:53:19.251 - FF
2025-09-18 06:59:22.186 - 19 08 24 03 CC 00 D3 00 01 (调用厨房感应灯开的按键)
2025-09-18 06:59:22.237 - 55 0A 32 00 00 00 01 92 55 0A 32 00 00 00 02 93 (厨房顶灯一开, 厨房顶灯二开)
2025-09-18 07:00:19.798 - 19 08 24 03 CC 00 D4 00 01 (调用厨房感应灯关的按键)
2025-09-18 07:00:19.856 - 55 0A 31 00 00 00 01 91 55 0A 31 00 00 00 02 92 (厨房顶灯一关, 厨房顶灯二关)
2025-09-18 07:08:15.734 - 1A BE B0 DC 02 FD (正反转地址-外卫卷帘)
2025-09-18 07:08:15.864 - FF
2025-09-18 07:11:25.946 - 19 08 24 03 DD 00 40 00 01 (调用情景-离开主卧)
2025-09-18 07:11:26.478 - EE 00 00 B1 00 00 00 FF FC FF FF (情景执行提示)
2025-09-18 07:11:27.078 - 09 06 00 0F 02 01 78 21 (提示音叮)
2025-09-18 07:11:27.612 - 50 F5 05 (关主卧影视)
2025-09-18 07:11:28.159 - 50 F5 04 (关内卫影视)
2025-09-18 07:11:28.715 - 01 06 07 D6 FF 60 28 9E (主卧空调关)
2025-09-18 07:11:28.743 - 01 06 07 D6 FF 60 28 9E (主卧空调关)
2025-09-18 07:11:29.311 - 55 12 12 03 01 4C 41 (主卧窗帘开)
2025-09-18 07:11:29.352 - 55 12 12 03 01 4C 41 (主卧窗帘开)
2025-09-18 07:11:30.405 - 55 12 12 03 01 4C 41 (主卧窗帘开)
2025-09-18 07:11:30.444 - 55 12 12 03 01 4C 41 (主卧窗帘开)
2025-09-18 07:11:31.501 - 55 11 1D 03 02 3C 07 (主卧纱帘开)
2025-09-18 07:11:31.545 - 55 11 1D 03 02 3C 07 (主卧纱帘开)
2025-09-18 07:11:32.102 - 55 11 1D 03 02 3C 07 (主卧纱帘开)
2025-09-18 07:11:32.141 - 55 11 1D 03 02 3C 07 (主卧纱帘开)
2025-09-18 07:11:32.702 - 1A 22 33 62 0F 00 00 01 0F (正反转地址-内卫卷帘, 内卫卷帘升)
2025-09-18 07:11:33.749 - 1A 20 07 01 40 00 01 00 0F (自保持开关地址-内卫顶灯, 内卫顶灯关)
2025-09-18 07:11:34.794 - 1A 20 07 01 55 00 01 00 0F (自保持开关地址-主卧顶灯, 主卧顶灯只关)
2025-09-18 07:11:35.349 - 1A 0C 02 08 01 FF 00 01 FF 00 01 FF 00 00 0F (调光器地址-内卫射灯, 内卫感应灯关)
2025-09-18 07:11:35.942 - 1A FF FF FF 56 00 00 01 0F (人体感应地址-内卫, 打开内卫感应)
2025-09-18 07:11:36.055 - BF BE
2025-09-18 07:11:36.365 - 19 08 24 03 CC 01 54 00 01 (调用内卫感应灯开的按键)
2025-09-18 07:11:36.414 - 1A 0C 02 08 01 FF 45 01 FF 45 01 FF 00 00 0F (调光器地址-内卫射灯, 内卫射灯微光)
2025-09-18 07:11:39.806 - 1A 0C 02 04 FF FF 00 01 FF 00 01 FF 00 00 0F (主卧调光全关)
2025-09-18 07:11:40.899 - 09 06 00 0F 02 02 38 20 (提示音咚)
2025-09-18 07:11:41.449 - EE 00 00 B1 00 00 02 FF FC FF FF (情景完成返回主页)
2025-09-18 07:11:49.497 - 19 08 24 03 CC 01 CC 00 01 (调用茶吧感应灯开的按键)
2025-09-18 07:11:49.527 - 1A AA AA AA 88 FF B0 01 FF B0 01 0F (调光器地址-茶吧灯带, 茶吧灯带明亮)
2025-09-18 07:12:16.143 - 19 08 24 03 CC 01 55 00 01 (调用内卫感应灯关的按键)
2025-09-18 07:12:16.178 - 1A 0C 02 08 01 FF 00 01 FF 00 01 FF 00 00 0F (调光器地址-内卫射灯, 内卫感应灯关)
2025-09-18 07:12:38.095 - 19 08 24 03 CC 01 CD 00 01 (调用茶吧感应灯关的按键)
2025-09-18 07:12:38.128 - 1A AA AA AA 88 FF 00 01 FF 00 01 0F (调光器地址-茶吧灯带, 茶吧灯带关闭)
2025-09-18 07:13:38.804 - 19 08 24 03 CC 01 54 00 01 (调用内卫感应灯开的按键)
2025-09-18 07:13:38.840 - 1A 0C 02 08 01 FF 45 01 FF 45 01 FF 00 00 0F (调光器地址-内卫射灯, 内卫射灯微光)
2025-09-18 07:13:59.847 - 19 08 24 03 CC 01 55 00 01 (调用内卫感应灯关的按键)
2025-09-18 07:13:59.881 - 1A 0C 02 08 01 FF 00 01 FF 00 01 FF 00 00 0F (调光器地址-内卫射灯, 内卫感应灯关)
2025-09-18 07:14:37.215 - 1A BE B0 DC 09 (继电器地址-客厅窗帘)
2025-09-18 07:14:37.350 - FF
2025-09-18 07:24:05.559 - 19 08 24 03 CC 01 52 00 01 (调用外卫感应灯开的按键)
2025-09-18 07:24:05.610 - 1A 0D 01 07 01 FF 45 01 FF 45 01 FF 00 00 0F (调光器地址-外卫射灯, 外卫感应灯开)
2025-09-18 07:27:37.616 - 1A FF FF FF 04 (继电器地址-东阳衣架)
2025-09-18 07:27:37.754 - FE
2025-09-18 07:28:20.063 - 19 08 24 03 CC 01 53 00 01 (调用外卫感应灯关的按键)
2025-09-18 07:28:20.112 - 1A 0D 01 07 01 FF 00 01 FF 00 01 FF 00 00 0F (调光器地址-外卫射灯, 外卫感应灯关)
2025-09-18 07:28:37.176 - 19 08 24 03 DD 00 29 00 01 (调用情景-次卧照明关帘)
2025-09-18 07:28:37.732 - EE 00 00 B1 00 00 00 FF FC FF FF (情景执行提示)
2025-09-18 07:28:38.329 - 09 06 00 0F 02 01 78 21 (提示音叮)
2025-09-18 07:28:38.881 - 1A 0E 03 05 01 FF F0 01 FF F0 01 FF 00 00 0F (调光器地址-次卧射灯, 次卧射灯明亮)
2025-09-18 07:28:39.478 - 1A 0E 03 05 02 FF F0 01 FF F0 01 FF 00 00 0F (调光器地址-次卧灯带, 次卧灯带明亮)
2025-09-18 07:28:40.067 - A5 00 21 FF 00 AA (次卧纱帘关)
2025-09-18 07:28:41.115 - A5 00 76 FF 00 AA (次卧窗帘关)
2025-09-18 07:28:42.170 - 1A 0E 03 05 04 FF F0 01 FF F0 01 FF 00 00 0F (调光器地址-次卧北筒灯, 次卧北筒灯明亮)
2025-09-18 07:28:42.770 - 1A 0E 03 05 05 FF F0 01 FF F0 01 FF 00 00 0F (调光器地址-次卧南筒灯, 次卧南筒灯明亮)
2025-09-18 07:28:43.362 - 09 06 00 0F 02 02 38 20 (提示音咚)
2025-09-18 07:28:43.910 - EE 00 00 B1 00 00 02 FF FC FF FF (情景完成返回主页)
2025-09-18 07:35:30.857 - FF FF FF FF 0E (继电器地址-西阳小窗帘)
2025-09-18 07:35:30.992 - FE
2025-09-18 07:35:34.458 - 19 08 24 03 CC 00 D3 00 01 (调用厨房感应灯开的按键)
2025-09-18 07:35:34.511 - 55 0A 32 00 00 00 01 92 55 0A 32 00 00 00 02 93 (厨房顶灯一开, 厨房顶灯二开)
2025-09-18 07:36:02.874 - 19 08 24 03 CC 01 CC 00 01 (调用茶吧感应灯开的按键)
2025-09-18 07:36:02.923 - 1A AA AA AA 88 FF B0 01 FF B0 01 0F (调光器地址-茶吧灯带, 茶吧灯带明亮)
2025-09-18 07:36:31.068 - 19 08 24 03 CC 00 D4 00 01 (调用厨房感应灯关的按键)
2025-09-18 07:36:31.104 - 55 0A 31 00 00 00 01 91 55 0A 31 00 00 00 02 92 (厨房顶灯一关, 厨房顶灯二关)
2025-09-18 07:36:52.972 - 19 08 24 03 CC 01 CD 00 01 (调用茶吧感应灯关的按键)
2025-09-18 07:36:53.003 - 1A AA AA AA 88 FF 00 01 FF 00 01 0F (调光器地址-茶吧灯带, 茶吧灯带关闭)
2025-09-18 07:37:18.735 - 19 08 24 03 DD 00 00 00 01 (调用情景-离家（末）)
2025-09-18 07:37:19.274 - EE 00 00 B1 00 00 00 FF FC FF FF (情景执行提示)
2025-09-18 07:37:19.871 - 09 06 00 0F 02 02 38 20 (提示音咚)
2025-09-18 07:37:20.414 - 50 F7 01 (全屋影音全关)
2025-09-18 07:37:20.967 - 01 06 07 D0 FF 60 C8 9F (客厅空调关)
2025-09-18 07:37:20.993 - 01 06 07 D0 FF 60 C8 9F (客厅空调关)
2025-09-18 07:37:21.567 - 01 06 07 D0 FF 60 C8 9F (客厅空调关)
2025-09-18 07:37:21.600 - 01 06 07 D0 FF 60 C8 9F (客厅空调关)
2025-09-18 07:37:22.163 - 01 06 07 D3 FF 60 38 9F (餐厅空调关)
2025-09-18 07:37:22.197 - 01 06 07 D3 FF 60 38 9F (餐厅空调关)
2025-09-18 07:37:22.760 - 01 06 07 D3 FF 60 38 9F (餐厅空调关)
2025-09-18 07:37:22.791 - 01 06 07 D3 FF 60 38 9F (餐厅空调关)
2025-09-18 07:37:23.359 - 01 06 07 D6 FF 60 28 9E (主卧空调关)
2025-09-18 07:37:23.388 - 01 06 07 D6 FF 60 28 9E (主卧空调关)
2025-09-18 07:37:23.957 - 01 06 07 D6 FF 60 28 9E (主卧空调关)
2025-09-18 07:37:23.984 - 01 06 07 D6 FF 60 28 9E (主卧空调关)
2025-09-18 07:37:24.556 - 01 06 07 D9 FF 60 18 9D (次卧空调关)
2025-09-18 07:37:24.592 - 01 06 07 D9 FF 60 18 9D (次卧空调关)
2025-09-18 07:37:25.153 - 01 06 07 D9 FF 60 18 9D (次卧空调关)
2025-09-18 07:37:25.189 - 01 06 07 D9 FF 60 18 9D (次卧空调关)
2025-09-18 07:37:25.757 - 01 06 07 DC FF 60 08 9C (书房空调关)
2025-09-18 07:37:25.782 - 01 06 07 DC FF 60 08 9C (书房空调关)
2025-09-18 07:37:26.348 - 01 06 07 DC FF 60 08 9C (书房空调关)
2025-09-18 07:37:26.377 - 01 06 07 DC FF 60 08 9C (书房空调关)
2025-09-18 07:37:26.951 - 09 06 00 0F 02 02 38 20 (提示音咚)
2025-09-18 07:37:27.544 - 1A FF FF FF 56 00 00 00 0F (人体感应地址-内卫, 关闭内卫感应)
2025-09-18 07:37:27.660 - BF BF
2025-09-18 07:37:28.092 - 1A FF FF FF 55 00 00 00 0F (人体感应地址-外卫, 关闭外卫感应)
2025-09-18 07:37:28.204 - BC BC
2025-09-18 07:37:28.645 - 1A FF FF FF 57 00 00 00 0F (人体感应地址-厨房, 关闭厨房感应)
2025-09-18 07:37:28.750 - BF BF
2025-09-18 07:37:29.188 - 1A FF FF FF 58 00 00 00 0F (人体感应地址-茶吧, 关闭茶吧感应)
2025-09-18 07:37:29.241 - BC BC
2025-09-18 07:37:29.788 - 1A 20 07 00 93 00 01 00 0F (自保持开关地址-设备区顶, 设备区顶灯关)
2025-09-18 07:37:30.835 - 1A 20 07 01 40 00 01 00 0F (自保持开关地址-内卫顶灯, 内卫顶灯关)
2025-09-18 07:37:31.881 - 1A 20 07 01 55 00 01 00 0F (自保持开关地址-主卧顶灯, 主卧顶灯只关)
2025-09-18 07:37:32.928 - 1A 20 07 00 42 00 01 00 0F (自保持开关地址-外卫顶灯, 外卫顶灯关)
2025-09-18 07:37:33.971 - 55 0D 31 00 00 00 01 94 (书房顶灯只关)
2025-09-18 07:37:35.021 - 55 0A 31 00 00 00 01 91 (厨房顶灯一关)
2025-09-18 07:37:36.064 - 55 0A 31 00 00 00 02 92 (厨房顶灯二关)
2025-09-18 07:37:37.115 - 55 0B 31 00 00 00 01 92 (厨房风扇只关)
2025-09-18 07:37:38.156 - 55 0C 31 00 00 00 01 93 (餐厅顶灯关)
2025-09-18 07:37:39.206 - 1A 20 07 01 30 00 01 00 0F (自保持开关地址-西阳顶灯, 西阳顶灯关)
2025-09-18 07:37:40.251 - 1A 18 05 21 89 00 01 00 0F (自保持开关地址-客厅顶灯, 客厅顶灯一关)
2025-09-18 07:37:41.298 - 1A 18 05 01 94 00 01 00 0F (自保持开关地址-客厅顶灯, 客厅顶灯二关)
2025-09-18 07:37:42.351 - 1A 20 07 00 70 00 01 00 0F (自保持开关地址-次卧顶灯, 次卧顶灯只关)
2025-09-18 07:37:43.392 - 1A 18 05 10 31 00 01 00 0F (自保持开关地址-门厅顶灯, 门厅顶灯关)
2025-09-18 07:37:44.439 - 1A FF FF FF 04 00 03 02 (继电器地址-东阳衣架, 东阳衣架照明关)
2025-09-18 07:37:44.985 - 09 06 00 0F 02 02 38 20 (提示音咚)
2025-09-18 07:37:45.531 - A5 00 A6 FE 01 AA (餐厅窗帘开)
2025-09-18 07:37:45.590 - 55 00 A6 02 01 66 01 74 AA 55 00 A6 02 01 66 E1 (餐厅窗帘电机状态返回)
2025-09-18 07:37:45.591 - EF
2025-09-18 07:37:46.130 - FF FF FF FF 0A 00 01 00 (继电器地址-东阳窗帘, 东阳窗帘开)
2025-09-18 07:37:46.678 - 1A BE B0 DC 04 00 01 00 (继电器地址-西阳窗帘, 西阳窗帘开)
2025-09-18 07:37:47.230 - FF FF FF FF 0E 00 01 00 (继电器地址-西阳小窗帘, 西阳小窗帘开)
2025-09-18 07:37:47.778 - 1A 22 33 62 0F 00 00 01 0F (正反转地址-内卫卷帘, 内卫卷帘升)
2025-09-18 07:37:48.322 - 55 12 12 03 01 4C 41 (主卧窗帘开)
2025-09-18 07:37:48.367 - 55 12 12 03 01 4C 41 (主卧窗帘开)
2025-09-18 07:37:48.921 - 55 11 1D 03 02 3C 07 (主卧纱帘开)
2025-09-18 07:37:48.965 - 55 11 1D 03 02 3C 07 (主卧纱帘开)
2025-09-18 07:37:49.518 - A5 00 76 FE 01 AA (次卧窗帘开)
2025-09-18 07:37:49.574 - 55 00 76 02 01 0E 01 1B AA 55 00 76 02 01 0E 01 1B AA (次卧窗帘电机状态返回)
2025-09-18 07:37:50.168 - A5 00 21 FE 01 AA (次卧纱帘开)
2025-09-18 07:37:50.221 - 55 00 21 02 01 27 01 34 AA 55 00 21 02 01 27 01 34 AA (次卧纱帘电机状态返回)
2025-09-18 07:37:50.767 - A5 00 D2 FE 01 AA 22 0D (书房窗帘开)
2025-09-18 07:37:50.821 - 55 00 D2 02 00 FE 01 0B AA 55 00 D2 02 00 FE 01 0B AA (书房窗帘电机状态返回)
2025-09-18 07:37:51.365 - 1A BE B0 DC 09 00 01 00 (继电器地址-客厅窗帘, 客厅窗帘开)
2025-09-18 07:37:51.910 - 1A BE B0 DC 0A 00 02 00 (继电器地址-客厅纱帘, 客厅纱帘开)
2025-09-18 07:37:52.460 - 09 06 00 0F 02 02 38 20 (提示音咚)
2025-09-18 07:37:53.507 - 1A EC A0 DC 02 00 00 00 0F (自保持开关地址-天花12V供电, 天花12V 供电关)
2025-09-18 07:37:54.058 - 1A EC A0 DC 02 00 00 00 0F (自保持开关地址-天花12V供电, 天花12V 供电关)
2025-09-18 07:37:54.547 - 55 00 A6 00 00 0E 01 74 AA 55 00 A6 00 00 0E 01 74 AA (餐厅窗帘电机状态返回)
2025-09-18 07:37:54.603 - 1A EC A0 DC 01 00 00 00 0F (自保持开关地址-电视、设备12V供电, 12V 电视供电关)
2025-09-18 07:37:55.152 - 1A EC A0 DC 01 00 00 00 0F (自保持开关地址-电视、设备12V供电, 12V 电视供电关)
2025-09-18 07:37:55.701 - 1A EC A0 DC 04 00 01 00 0F (自保持开关地址-次卧西阳内外卫供电, 内卫外卫关)
2025-09-18 07:37:56.249 - 1A EC A0 DC 04 00 01 00 0F (自保持开关地址-次卧西阳内外卫供电, 内卫外卫关)
2025-09-18 07:37:57.288 - 55 00 21 00 00 0D 01 34 AA 55 00 21 00 00 0D 01 34 AA (次卧纱帘电机状态返回)
2025-09-18 07:37:57.840 - 1A BB BB BB 01 02 00 (开水器电源关)
2025-09-18 07:37:58.567 - 55 00 D2 00 00 0D 01 0B AA 55 00 D2 00 00 0D 01 0B AA (书房窗帘电机状态返回)
2025-09-18 07:37:59.044 - 55 00 76 00 00 0F 01 1B AA 55 00 76 00 00 0F 01 1B AA (次卧窗帘电机状态返回)
2025-09-18 07:38:02.293 - 55 00 A6 00 00 0F 01 74 AA 55 00 A6 00 00 0F 01 74 AA (餐厅窗帘电机状态返回)
2025-09-18 07:38:10.993 - 09 06 00 0F 02 02 38 20 (提示音咚)
2025-09-18 07:38:11.541 - 1A 27 89 12 AA 00 00 00 0F (状态寄存器地址, 无人状态)
2025-09-18 07:38:12.089 - 1A 27 89 12 AA 00 00 00 0F (状态寄存器地址, 无人状态)
2025-09-18 07:38:12.630 - A1 11 11 11 4D (天花供电关闭确认)
2025-09-18 07:38:12.858 - 1A EC A0 DC 02 86 86 86 0F (查询天花供电状态, 自保持开关地址-天花12V供电)
2025-09-18 07:38:13.289 - 1A EC A0 DC 02 00 01 0F (自保持开关地址-天花12V供电)
2025-09-18 07:38:15.672 - A1 11 11 11 4E (卫生供电关闭确认)
2025-09-18 07:38:15.894 - 1A EC A0 DC 04 86 86 86 0F (查询卫生间供电状态, 自保持开关地址-次卧西阳内外卫供电)
2025-09-18 07:38:16.327 - 1A EC A0 DC 04 01 00 0F (自保持开关地址-次卧西阳内外卫供电)
2025-09-18 07:38:18.710 - A1 11 11 11 4F (电视供电关闭确认)
2025-09-18 07:38:18.932 - 1A EC A0 DC 01 86 86 86 0F (查询电视供电状态, 自保持开关地址-电视、设备12V供电)
2025-09-18 07:38:19.365 - 1A EC A0 DC 01 00 01 0F (自保持开关地址-电视、设备12V供电)
2025-09-18 07:38:21.753 - 09 06 00 0F 02 02 38 20 (提示音咚)
2025-09-18 07:38:22.302 - 09 06 00 0F 02 02 38 20 (提示音咚)
2025-09-18 07:38:22.853 - EE 00 00 B1 00 00 02 FF FC FF FF (情景完成返回主页)
2025-09-18 07:38:23.943 - BA BA EE EE BA BA (离家设置信科变量)
2025-09-18 07:38:24.992 - A1 11 11 11 46 (天热离家遮阳)
2025-09-18 07:38:25.221 - 1A 27 89 12 AA 86 86 86 0F (查询寄存器状态, 状态寄存器地址)
2025-09-18 07:38:25.601 - 1A 27 89 12 AA 00 00 00 00 00 00 00 00 00 00 00 01 00 00 00 00 0F (状态寄存器地址)
2025-09-18 07:38:26.219 - 19 08 24 03 DD 00 05 00 01 (调用情景-天热遮阳关帘)
2025-09-18 07:38:26.789 - EE 00 00 B1 00 00 00 FF FC FF FF (情景执行提示)
2025-09-18 07:38:27.384 - 09 06 00 0F 02 01 78 21 (提示音叮)
2025-09-18 07:38:27.981 - A5 00 A2 FF 00 AA (餐厅纱帘关)
2025-09-18 07:38:29.025 - A5 00 A6 FF 00 AA (餐厅窗帘关)
2025-09-18 07:38:29.079 - 55 00 A6 01 00 0F 01 74 AA 55 00 A6 01 00 0F 01 74 AA (餐厅窗帘电机状态返回)
2025-09-18 07:38:30.126 - 55 11 1D 03 01 7C 06 (主卧纱帘关)
2025-09-18 07:38:30.168 - 55 11 1D 03 01 7C 06 (主卧纱帘关)
2025-09-18 07:38:31.223 - 55 12 12 03 02 0C 40 (主卧窗帘关)
2025-09-18 07:38:31.264 - 55 12 12 03 02 0C 40 (主卧窗帘关)
2025-09-18 07:38:32.314 - A5 00 21 FF 00 AA (次卧纱帘关)
2025-09-18 07:38:32.379 - 55 00 21 01 00 0D 01 34 AA 55 00 21 01 00 0D 01 FC (次卧纱帘电机状态返回)
2025-09-18 07:38:33.414 - A5 00 76 FF 00 AA (次卧窗帘关)
2025-09-18 07:38:33.471 - 55 00 76 01 00 0F 01 1B AA 55 00 76 01 00 0F 01 1B AF (次卧窗帘电机状态返回)
2025-09-18 07:38:34.511 - A5 00 B7 FF 00 AA 22 0D (书房纱帘关)
2025-09-18 07:38:35.559 - A5 00 D2 FF 00 AA 22 0C (书房窗帘关)
2025-09-18 07:38:35.612 - 55 00 D2 01 00 0D 01 0B AA 55 00 D2 01 00 0D 01 0B AA (书房窗帘电机状态返回)
2025-09-18 07:38:37.156 - 1A 22 33 62 5E 00 02 01 0F (正反转地址-厨房卷帘三, 厨房卷帘一降)
2025-09-18 07:38:38.018 - 55 00 A6 00 01 66 01 74 AA 55 00 A6 00 01 66 01 74 AA (餐厅窗帘电机状态返回)
2025-09-18 07:38:38.197 - 1A 22 33 62 56 00 02 01 0F (正反转地址-厨房卷帘二, 厨房卷帘二降)
2025-09-18 07:38:39.244 - 1A 22 33 62 4F 00 00 01 0F (正反转地址-厨房卷帘一, 厨房卷帘三降)
2025-09-18 07:38:39.826 - 55 00 21 00 01 27 01 34 AA 55 00 21 00 01 27 01 34 AA (次卧纱帘电机状态返回)
2025-09-18 07:38:40.294 - 1A BE B0 DC 04 00 02 00 (继电器地址-西阳窗帘, 西阳窗帘关)
2025-09-18 07:38:41.338 - FF FF FF FF 0E 00 02 00 (继电器地址-西阳小窗帘, 西阳小窗帘关)
2025-09-18 07:38:42.215 - 55 00 76 00 01 0E 01 1B AA 55 00 76 00 01 0E 01 1B AA (次卧窗帘电机状态返回)
2025-09-18 07:38:42.387 - 1A BE B0 DC 03 00 03 00 (继电器地址-西阳天幕, 西阳天幕关)
2025-09-18 07:38:43.430 - 1A BE B0 DC 03 00 03 00 (继电器地址-西阳天幕, 西阳天幕关)
2025-09-18 07:38:44.480 - 09 06 00 0F 02 02 38 20 (提示音咚)
2025-09-18 07:38:45.027 - EE 00 00 B1 00 00 02 FF FC FF FF (情景完成返回主页)
2025-09-18 07:38:45.558 - 55 00 D2 00 00 FE 01 0B AA 55 00 D2 00 00 FE 01 0B AA (书房窗帘电机状态返回)
2025-09-18 07:53:07.978 - 1A BE B0 DC 0A FC (继电器地址-客厅纱帘)
2025-09-18 07:53:08.110 - FF
2025-09-18 08:15:49.576 - FF FF FF FF 0A FE (继电器地址-东阳窗帘)
2025-09-18 08:15:49.710 - FE
2025-09-18 09:18:30.310 - 1A BE B0 DC 04 FC (继电器地址-西阳窗帘)
2025-09-18 10:02:01.779 - 1A BE B0 DC 03 FC (继电器地址-西阳天幕)
2025-09-18 10:02:01.915 - FF
2025-09-18 10:15:01.793 - 1A BE B0 DC 01 (继电器地址-回水泵点动)
2025-09-18 10:15:01.927 - FF
2025-09-18 10:29:38.952 - 1A BE B0 DC 02 FC (正反转地址-外卫卷帘)
2025-09-18 10:29:39.087 - FF
2025-09-18 10:35:35.525 - 1A BE B0 DC 09 (继电器地址-客厅窗帘)
2025-09-18 10:35:35.659 - FF
2025-09-18 10:49:03.370 - 1A FF FF FF 04 (继电器地址-东阳衣架)
2025-09-18 10:56:08.293 - FF FF FF FF 0E (继电器地址-西阳小窗帘)
2025-09-18 11:13:40.748 - 1A BE B0 DC 0A (继电器地址-客厅纱帘)
2025-09-18 11:36:50.792 - FF FF FF FF 0A FC (继电器地址-东阳窗帘)
2025-09-18 11:36:50.932 - FF
2025-09-18 12:38:17.281 - 1A BE B0 DC 04 (继电器地址-西阳窗帘)
2025-09-18 12:38:17.417 - FF
2025-09-18 13:22:54.698 - 1A BE B0 DC 03 (继电器地址-西阳天幕)
2025-09-18 13:35:54.411 - 1A BE B0 DC 01 (继电器地址-回水泵点动)
2025-09-18 13:35:54.547 - FE
2025-09-18 13:50:07.689 - 1A BE B0 DC 02 FC (正反转地址-外卫卷帘)
2025-09-18 13:50:07.823 - FC
2025-09-18 13:55:56.981 - 1A BE B0 DC 09 FC (继电器地址-客厅窗帘)
2025-09-18 13:55:57.119 - FF
2025-09-18 14:09:59.857 - 1A FF FF FF 04 FC (继电器地址-东阳衣架)
2025-09-18 14:09:59.991 - FE
2025-09-18 14:16:10.251 - FF FF FF FF 0E (继电器地址-西阳小窗帘)
2025-09-18 14:34:13.563 - 1A BE B0 DC 0A (继电器地址-客厅纱帘)
2025-09-18 14:48:15.404 - 02 AF 06 17 01 CD FF (门锁开门指令)
2025-09-18 14:48:19.153 - 02 AF 06 17 01 CD FF (门锁开门指令)
2025-09-18 14:48:42.420 - 02 AF 06 17 01 CD FF (门锁开门指令)
2025-09-18 14:48:54.811 - 02 AF 06 17 01 CD FF (门锁开门指令)
2025-09-18 14:49:02.865 - 02 AF 06 17 01 CD FF (门锁开门指令)
2025-09-18 14:49:38.929 - 02 AF 06 17 01 CD FF (门锁开门指令)
2025-09-18 14:50:06.350 - 02 AF 06 17 01 CD FF (门锁开门指令)
2025-09-18 14:50:31.624 - 02 AF 06 17 01 CD FF (门锁开门指令)
2025-09-18 14:50:52.029 - 02 AF 06 17 01 CD FF (门锁开门指令)
2025-09-18 14:50:54.399 - 1A FF 03 00 00 86 86 86 0F (调用查询模块-主卧空调开关查询, 主卧空调虚拟地址)
2025-09-18 14:50:54.630 - 01 04 07 DC 00 01 F1 44 (查询主卧空调开关状态)
2025-09-18 14:50:54.656 - 01 04 02 50 00 85 30
2025-09-18 14:50:55.632 - 1A FF 03 00 00 00 00 0F (主卧空调虚拟地址)
2025-09-18 14:50:55.751 - 1A FF 04 00 00 86 86 86 0F (调用查询模块-次卧空调开关查询, 次卧空调虚拟地址)
2025-09-18 14:50:55.976 - 01 04 07 E2 00 01 90 88 (查询次卧空调开关状态)
2025-09-18 14:50:55.999 - 01 04 02 70 00 9C F0
2025-09-18 14:50:56.978 - 1A FF 04 00 00 00 00 0F (次卧空调虚拟地址)
2025-09-18 14:50:57.258 - 1A FF 05 00 00 86 86 86 0F (调用查询模块-书房空调开关查询, 书房空调虚拟地址)
2025-09-18 14:50:57.490 - 01 04 07 E8 00 01 B0 8A (查询书房空调开关状态)
2025-09-18 14:50:57.514 - 01 04 02 70 00 9C F0
2025-09-18 14:50:58.492 - 1A FF 05 00 00 00 00 0F (书房空调虚拟地址)
2025-09-18 14:50:58.904 - 1A FF 02 00 00 86 86 86 0F (调用查询模块-餐厅空调开关查询, 餐厅空调虚拟地址)
2025-09-18 14:50:59.130 - 01 04 07 D6 00 01 D1 46 (查询餐厅空调开关状态)
2025-09-18 14:50:59.158 - 01 04 02 70 00 9C F0
2025-09-18 14:51:00.135 - 1A FF 02 00 00 00 00 0F (餐厅空调虚拟地址)
2025-09-18 14:51:00.454 - 1A FF 01 00 00 86 86 86 0F (调用查询模块-客厅空调开关查询, 客厅空调虚拟地址)
2025-09-18 14:51:00.677 - 01 04 07 D0 00 01 31 47 (查询客厅空调开关状态)
2025-09-18 14:51:00.693 - 01 04 02 70 00 9C F0
2025-09-18 14:51:01.681 - 1A FF 01 00 00 00 00 0F (客厅空调虚拟地址)
2025-09-18 14:51:02.064 - 1A 10 00 00 00 86 86 86 0F (调用查询模块-主卧测温转换, 主卧温湿度虚拟地址)
2025-09-18 14:51:02.290 - 1D 03 00 00 00 02 C6 57 (查询主卧温湿度)
2025-09-18 14:51:02.313 - 1D 03 04 02 6B 01 24 56 1D (主卧温湿度返回)
2025-09-18 14:51:03.313 - 1A 10 00 00 00 00 00 01 00 00 01 00 00 01 01 24 01 02 6B 01 00 00 01 00 00 01 0F (主卧温湿度虚拟地址)
2025-09-18 14:51:03.433 - 1A 11 00 00 00 86 86 86 0F (调用查询模块-次卧测温转换, 次卧温湿度虚拟地址)
2025-09-18 14:51:03.662 - 11 03 00 00 00 02 C6 9B (查询次卧温湿度)
2025-09-18 14:51:03.683 - 11 03 04 02 66 01 21 CB DD (次卧温湿度返回)
2025-09-18 14:51:04.686 - 1A 11 00 00 00 00 00 01 00 00 01 00 00 01 01 21 01 02 66 01 00 00 01 00 00 01 0F (次卧温湿度虚拟地址)
2025-09-18 14:51:04.939 - 1A 12 00 00 00 86 86 86 0F (调用查询模块-书房测温转换, 书房温湿度虚拟地址)
2025-09-18 14:51:05.166 - 12 03 00 00 00 02 C6 A8 (查询书房温湿度)
2025-09-18 14:51:05.187 - 12 03 04 02 77 01 2A E9 1F (书房温湿度返回)
2025-09-18 14:51:06.190 - 1A 12 00 00 00 00 00 01 00 00 01 00 00 01 01 2A 01 02 77 01 00 00 01 00 00 01 0F (书房温湿度虚拟地址)
2025-09-18 14:51:06.517 - 02 AF 06 17 01 CD FF (门锁开门指令)
2025-09-18 14:51:09.541 - 02 AF 06 17 01 CD FF (门锁开门指令)
2025-09-18 14:51:12.608 - 02 AF 06 17 01 CD FF (门锁开门指令)
2025-09-18 14:51:58.126 - 02 AF 06 17 01 CD FF (门锁开门指令)
2025-09-18 14:52:05.227 - 02 AF 06 17 01 CD FF (门锁开门指令)
2025-09-18 14:52:07.054 - 02 AF 06 17 01 CD FF (门锁开门指令)
2025-09-18 14:53:29.250 - 02 AF 06 17 01 CD FF (门锁开门指令)
2025-09-18 14:55:54.155 - 02 AF 06 17 01 CD FF (门锁开门指令)
2025-09-18 14:55:58.273 - 02 AF 06 17 01 CD FF (门锁开门指令)
2025-09-18 14:57:34.895 - 1B 03 00 00 00 02 C6 31 (查询室外光线)
2025-09-18 14:57:34.915 - 1B 03 04 00 00 02 23 01 4B (室外光线返回)
2025-09-18 14:57:35.692 - 1A EC A0 DC 02 00 00 01 0F (自保持开关地址-天花12V供电, 天花12V 供电开)
2025-09-18 14:57:35.995 - 19 08 24 03 DD 00 0C 00 01 (调用情景-信科调用进门亮)
2025-09-18 14:57:36.222 - 1A AA AA AA 88 (调光器地址-茶吧灯带)
2025-09-18 14:57:36.505 - EE 00 00 B1 00 00 00 FF FC FF FF (情景执行提示)
2025-09-18 14:57:37.100 - 09 06 00 0F 02 01 78 21 (提示音叮)
2025-09-18 14:57:37.648 - 1A EC A0 DC 02 00 00 01 0F (自保持开关地址-天花12V供电, 天花12V 供电开)
2025-09-18 14:57:38.248 - 1A EC A0 DC 04 00 01 01 0F (自保持开关地址-次卧西阳内外卫供电, 内卫外卫开)
2025-09-18 14:57:38.795 - 1A EC A0 DC 04 00 01 01 0F (自保持开关地址-次卧西阳内外卫供电, 内卫外卫开)
2025-09-18 14:57:39.411 - 1A EC A0 DC 01 00 00 01 0F (自保持开关地址-电视、设备12V供电, 12V 电视供电开)
2025-09-18 14:57:39.992 - 1A BB BB BB 01 01 00 (开水器电源开)
2025-09-18 14:57:41.537 - 1A 27 89 12 AA 00 00 01 0F (状态寄存器地址, 有人状态)
2025-09-18 14:57:42.085 - 1A 27 89 12 AA 00 00 01 0F (状态寄存器地址, 有人状态)
2025-09-18 14:57:42.640 - 1A 0C 02 08 01 FF 45 01 FF 45 01 FF 00 00 0F (调光器地址-内卫射灯, 内卫射灯微光)
2025-09-18 14:57:43.238 - 1A 0D 01 07 01 FF 45 01 FF 45 01 FF 00 00 0F (调光器地址-外卫射灯, 外卫感应灯开)
2025-09-18 14:57:43.830 - 1A FF FF FF 57 00 00 01 0F (人体感应地址-厨房, 打开厨房感应)
2025-09-18 14:57:43.935 - BF BF
2025-09-18 14:57:44.243 - 19 08 24 03 CC 00 D3 00 01 (调用厨房感应灯开的按键)
2025-09-18 14:57:44.300 - 55 0A 32 00 00 00 01 92 55 0A 32 00 00 00 02 93 (厨房顶灯一开, 厨房顶灯二开)
2025-09-18 14:57:44.695 - 1A FF FF FF 57 00 00 01 0F (人体感应地址-厨房, 打开厨房感应)
2025-09-18 14:57:44.707 - BC BC
2025-09-18 14:57:45.276 - 1A FF FF FF 58 00 00 01 0F (人体感应地址-茶吧, 打开茶吧感应)
2025-09-18 14:57:45.324 - BC BC
2025-09-18 14:57:45.872 - 1A BE B0 DC 01 00 01 00 (继电器地址-回水泵点动, 回水泵点动)
2025-09-18 14:57:46.422 - 1A BE B0 DC 01 00 01 00 (继电器地址-回水泵点动, 回水泵点动)
2025-09-18 14:57:46.968 - 09 06 00 0F 02 01 78 21 (提示音叮)
2025-09-18 14:57:47.516 - 09 06 00 0F 02 01 78 21 (提示音叮)
2025-09-18 14:57:48.068 - EE 00 00 B1 00 00 02 FF FC FF FF (情景完成返回主页)
2025-09-18 14:57:48.658 - A1 11 11 11 50 (天花供电打开确认)
2025-09-18 14:57:48.881 - 1A EC A0 DC 02 86 86 86 0F (查询天花供电状态, 自保持开关地址-天花12V供电)
2025-09-18 14:57:49.315 - 1A EC A0 DC 02 01 01 0F (自保持开关地址-天花12V供电)
2025-09-18 14:57:50.494 - FF FF FF FF 0A FE (继电器地址-东阳窗帘)
2025-09-18 14:57:51.200 - A1 11 11 11 51 (卫生供电打开确认)
2025-09-18 14:57:51.427 - 1A EC A0 DC 04 86 86 86 0F (查询卫生间供电状态, 自保持开关地址-次卧西阳内外卫供电)
2025-09-18 14:57:51.860 - 1A EC A0 DC 04 01 01 0F (自保持开关地址-次卧西阳内外卫供电)
2025-09-18 14:57:53.743 - A1 11 11 11 52 (电视供电打开确认)
2025-09-18 14:57:53.964 - 1A EC A0 DC 01 86 86 86 0F (查询电视供电状态, 自保持开关地址-电视、设备12V供电)
2025-09-18 14:57:54.397 - 1A EC A0 DC 01 01 01 0F (自保持开关地址-电视、设备12V供电)
2025-09-18 14:57:58.776 - A1 11 11 11 47 (天热回家开帘)
2025-09-18 14:57:59.007 - 1A 27 89 12 AA 86 86 86 0F (查询寄存器状态, 状态寄存器地址)
2025-09-18 14:57:59.389 - 1A 27 89 12 AA 01 00 00 00 00 00 00 00 00 00 00 01 00 00 00 00 0F (状态寄存器地址)
2025-09-18 14:58:00.009 - 19 08 24 03 DD 00 06 00 01 (调用情景-天热遮阳开帘)
2025-09-18 14:58:00.577 - EE 00 00 B1 00 00 00 FF FC FF FF (情景执行提示)
2025-09-18 14:58:01.174 - 09 06 00 0F 02 01 78 21 (提示音叮)
2025-09-18 14:58:01.716 - A5 00 A6 FE 01 AA (餐厅窗帘开)
2025-09-18 14:58:01.768 - 55 00 A6 02 01 66 01 74 AA 55 00 A6 02 01 66 01 74 AA (餐厅窗帘电机状态返回)
2025-09-18 14:58:02.815 - 55 12 12 03 01 4C 41 (主卧窗帘开)
2025-09-18 14:58:02.854 - 55 12 12 03 01 4C 41 (主卧窗帘开)
2025-09-18 14:58:03.910 - 55 11 1D 03 02 3C 07 (主卧纱帘开)
2025-09-18 14:58:03.952 - 55 11 1D 03 02 3C 07 (主卧纱帘开)
2025-09-18 14:58:05.035 - A5 00 76 FE 01 AA (次卧窗帘开)
2025-09-18 14:58:05.090 - 55 00 76 02 01 0E 01 1B AA 55 00 76 02 01 0E 01 1B AA (次卧窗帘电机状态返回)
2025-09-18 14:58:06.103 - A5 00 21 FE 01 AA (次卧纱帘开)
2025-09-18 14:58:06.162 - 55 00 21 02 01 27 01 34 AA 55 00 21 02 01 27 01 34 AA (次卧纱帘电机状态返回)
2025-09-18 14:58:07.202 - 1A BE B0 DC 04 00 01 00 (继电器地址-西阳窗帘, 西阳窗帘开)
2025-09-18 14:58:08.249 - FF FF FF FF 0E 00 01 00 (继电器地址-西阳小窗帘, 西阳小窗帘开)
2025-09-18 14:58:09.296 - A5 00 D2 FE 01 AA 22 0D (书房窗帘开)
2025-09-18 14:58:09.351 - 55 00 D2 02 00 FE 01 0B AA 55 00 D2 02 00 FE 01 0B FD (书房窗帘电机状态返回)
2025-09-18 14:58:10.392 - 09 06 00 0F 02 02 38 20 (提示音咚)
2025-09-18 14:58:10.824 - 55 00 A6 00 00 0E 01 74 AA 55 00 A6 00 00 0E 01 74 AA (餐厅窗帘电机状态返回)
2025-09-18 14:58:10.942 - EE 00 00 B1 00 00 02 FF FC FF FF (情景完成返回主页)
2025-09-18 14:58:13.848 - 55 00 21 00 00 0D 01 34 AA 55 00 21 00 00 0D 01 34 AA (次卧纱帘电机状态返回)
2025-09-18 14:58:13.943 - 55 FF 77 FF FF EF FD DB AB 55 FF 77 FE FF CF F9 9B AB
2025-09-18 14:58:15.650 - 55 00 A6 00 00 0F 01 74 AA 55 00 A6 00 00 0F 01 74 AA (餐厅窗帘电机状态返回)
2025-09-18 14:58:17.161 - 55 00 D2 00 00 0D 01 0B AA 55 00 D2 00 00 0D 01 0B AA (书房窗帘电机状态返回)
2025-09-18 14:58:31.369 - 1A 27 89 12 AA 86 86 86 0F (查询寄存器状态, 状态寄存器地址)
2025-09-18 14:58:31.750 - 1A 27 89 12 AA 01 00 00 00 00 00 00 00 00 00 00 01 00 00 00 00 0F (状态寄存器地址)
2025-09-18 14:58:31.963 - 1A EC A0 DC 02 86 86 86 0F (查询天花供电状态, 自保持开关地址-天花12V供电)
2025-09-18 14:58:32.395 - 1A EC A0 DC 02 01 01 0F (自保持开关地址-天花12V供电)
2025-09-18 14:58:32.656 - 1A EC A0 DC 01 86 86 86 0F (查询电视供电状态, 自保持开关地址-电视、设备12V供电)
2025-09-18 14:58:33.084 - 1A EC A0 DC 01 01 01 0F (自保持开关地址-电视、设备12V供电)
2025-09-18 14:58:33.246 - 1A EC A0 DC 03 86 86 86 0F (自保持开关地址-书房餐厅厨房供电)
2025-09-18 14:58:33.679 - 1A EC A0 DC 03 01 01 0F (自保持开关地址-书房餐厅厨房供电)
2025-09-18 14:58:33.887 - 1A EC A0 DC 04 86 86 86 0F (查询卫生间供电状态, 自保持开关地址-次卧西阳内外卫供电)
2025-09-18 14:58:34.316 - 1A EC A0 DC 04 01 01 0F (自保持开关地址-次卧西阳内外卫供电)
2025-09-18 14:59:50.188 - 19 08 24 03 CC 00 D4 00 01 (调用厨房感应灯关的按键)
2025-09-18 14:59:50.242 - 55 0A 31 00 00 00 01 91 55 0A 31 00 00 00 02 92 (厨房顶灯一关, 厨房顶灯二关)
2025-09-18 15:01:31.889 - 19 08 24 03 CC 00 D3 00 01 (调用厨房感应灯开的按键)
2025-09-18 15:01:31.924 - 55 0A 32 00 00 00 01 92 55 0A 32 00 00 00 02 93 (厨房顶灯一开, 厨房顶灯二开)
2025-09-18 15:03:08.078 - 19 08 24 03 CC 00 D4 00 01 (调用厨房感应灯关的按键)
2025-09-18 15:03:08.111 - 55 0A 31 00 00 00 01 91 55 0A 31 00 00 00 02 92 (厨房顶灯一关, 厨房顶灯二关)
2025-09-18 15:03:16.094 - 19 08 24 03 CC 00 D3 00 01 (调用厨房感应灯开的按键)
2025-09-18 15:03:16.129 - 55 0A 32 00 00 00 01 92 55 0A 32 00 00 00 02 93 (厨房顶灯一开, 厨房顶灯二开)
2025-09-18 15:04:28.737 - 19 08 24 03 CC 00 D4 00 01 (调用厨房感应灯关的按键)
2025-09-18 15:04:28.772 - 55 0A 31 00 00 00 01 91 55 0A 31 00 00 00 02 92 (厨房顶灯一关, 厨房顶灯二关)
2025-09-18 15:05:17.335 - 19 08 24 03 CC 00 D3 00 01 (调用厨房感应灯开的按键)
2025-09-18 15:05:17.368 - 55 0A 32 00 00 00 01 92 55 0A 32 00 00 00 02 93 (厨房顶灯一开, 厨房顶灯二开)
2025-09-18 15:07:49.632 - 19 08 24 03 CC 00 D4 00 01 (调用厨房感应灯关的按键)
2025-09-18 15:07:49.667 - 55 0A 31 00 00 00 01 91 55 0A 31 00 00 00 02 92 (厨房顶灯一关, 厨房顶灯二关)
2025-09-18 15:07:53.538 - 19 08 24 03 CC 01 CC 00 01 (调用茶吧感应灯开的按键)
2025-09-18 15:07:53.569 - 1A AA AA AA 88 FF B0 01 FF B0 01 0F (调光器地址-茶吧灯带, 茶吧灯带明亮)
2025-09-18 15:08:20.590 - 19 08 24 03 CC 01 CD 00 01 (调用茶吧感应灯关的按键)
2025-09-18 15:08:20.624 - 1A AA AA AA 88 FF 00 01 FF 00 01 0F (调光器地址-茶吧灯带, 茶吧灯带关闭)
2025-09-18 15:08:54.761 - 19 08 24 03 CC 00 D3 00 01 (调用厨房感应灯开的按键)
2025-09-18 15:08:54.794 - 55 0A 32 00 00 00 01 92 55 0A 32 00 00 00 02 93 (厨房顶灯一开, 厨房顶灯二开)
2025-09-18 15:10:13.816 - 19 08 24 03 CC 01 CC 00 01 (调用茶吧感应灯开的按键)
2025-09-18 15:10:13.847 - 1A AA AA AA 88 FF B0 01 FF B0 01 0F (调光器地址-茶吧灯带, 茶吧灯带明亮)
2025-09-18 15:10:41.371 - 19 08 24 03 CC 01 CD 00 01 (调用茶吧感应灯关的按键)
2025-09-18 15:10:41.401 - 1A AA AA AA 88 FF 00 01 FF 00 01 0F (调光器地址-茶吧灯带, 茶吧灯带关闭)
2025-09-18 15:11:23.053 - 19 08 24 03 CC 00 D4 00 01 (调用厨房感应灯关的按键)
2025-09-18 15:11:23.086 - 55 0A 31 00 00 00 01 91 55 0A 31 00 00 00 02 92 (厨房顶灯一关, 厨房顶灯二关)
2025-09-18 15:11:48.003 - 19 08 24 03 CC 01 CC 00 01 (调用茶吧感应灯开的按键)
2025-09-18 15:11:48.033 - 1A AA AA AA 88 FF B0 01 FF B0 01 0F (调光器地址-茶吧灯带, 茶吧灯带明亮)
2025-09-18 15:12:37.602 - 19 08 24 03 CC 01 CD 00 01 (调用茶吧感应灯关的按键)
2025-09-18 15:12:37.631 - 1A AA AA AA 88 FF 00 01 FF 00 01 0F (调光器地址-茶吧灯带, 茶吧灯带关闭)
2025-09-18 15:12:44.712 - 19 08 24 03 CC 00 D3 00 01 (调用厨房感应灯开的按键)
2025-09-18 15:12:44.746 - 55 0A 32 00 00 00 01 92 55 0A 32 00 00 00 02 93 (厨房顶灯一开, 厨房顶灯二开)
2025-09-18 15:12:46.118 - 19 08 24 03 CC 01 CC 00 01 (调用茶吧感应灯开的按键)
2025-09-18 15:12:46.149 - 1A AA AA AA 88 FF B0 01 FF B0 01 0F (调光器地址-茶吧灯带, 茶吧灯带明亮)
2025-09-18 15:13:23.692 - 19 08 24 03 CC 01 CD 00 01 (调用茶吧感应灯关的按键)
2025-09-18 15:13:23.723 - 1A AA AA AA 88 FF 00 01 FF 00 01 0F (调光器地址-茶吧灯带, 茶吧灯带关闭)
2025-09-18 15:13:53.348 - 19 08 24 03 CC 00 D4 00 01 (调用厨房感应灯关的按键)
2025-09-18 15:13:53.381 - 55 0A 31 00 00 00 01 91 55 0A 31 00 00 00 02 92 (厨房顶灯一关, 厨房顶灯二关)
2025-09-18 15:16:07.112 - 19 08 24 03 CC 00 D3 00 01 (调用厨房感应灯开的按键)
2025-09-18 15:16:07.146 - 55 0A 32 00 00 00 01 92 55 0A 32 00 00 00 02 93 (厨房顶灯一开, 厨房顶灯二开)
2025-09-18 15:16:20.039 - 19 08 24 03 CC 01 CC 00 01 (调用茶吧感应灯开的按键)
2025-09-18 15:16:20.070 - 1A AA AA AA 88 FF B0 01 FF B0 01 0F (调光器地址-茶吧灯带, 茶吧灯带明亮)
2025-09-18 15:16:51.198 - 19 08 24 03 CC 00 D4 00 01 (调用厨房感应灯关的按键)
2025-09-18 15:16:51.233 - 55 0A 31 00 00 00 01 91 55 0A 31 00 00 00 02 92 (厨房顶灯一关, 厨房顶灯二关)
2025-09-18 15:17:59.737 - 19 08 24 03 CC 01 CD 00 01 (调用茶吧感应灯关的按键)
2025-09-18 15:17:59.771 - 1A AA AA AA 88 FF 00 01 FF 00 01 0F (调光器地址-茶吧灯带, 茶吧灯带关闭)
2025-09-18 15:19:30.916 - 19 08 24 03 CC 01 CC 00 01 (调用茶吧感应灯开的按键)
2025-09-18 15:19:30.948 - 1A AA AA AA 88 FF B0 01 FF B0 01 0F (调光器地址-茶吧灯带, 茶吧灯带明亮)
2025-09-18 15:19:51.457 - 19 08 24 03 CC 01 CD 00 01 (调用茶吧感应灯关的按键)
2025-09-18 15:19:51.488 - 1A AA AA AA 88 FF 00 01 FF 00 01 0F (调光器地址-茶吧灯带, 茶吧灯带关闭)
2025-09-18 15:20:19.606 - 19 08 24 03 CC 00 D3 00 01 (调用厨房感应灯开的按键)
2025-09-18 15:20:19.641 - 55 0A 32 00 00 00 01 92 55 0A 32 00 00 00 02 93 (厨房顶灯一开, 厨房顶灯二开)
2025-09-18 15:21:08.203 - 19 08 24 03 CC 00 D4 00 01 (调用厨房感应灯关的按键)
2025-09-18 15:21:08.238 - 55 0A 31 00 00 00 01 91 55 0A 31 00 00 00 02 92 (厨房顶灯一关, 厨房顶灯二关)
2025-09-18 15:24:16.479 - 19 08 24 03 CC 01 CC 00 01 (调用茶吧感应灯开的按键)
2025-09-18 15:24:16.512 - 1A AA AA AA 88 FF B0 01 FF B0 01 0F (调光器地址-茶吧灯带, 茶吧灯带明亮)
2025-09-18 15:25:11.089 - 19 08 24 03 CC 01 CD 00 01 (调用茶吧感应灯关的按键)
2025-09-18 15:25:11.121 - 1A AA AA AA 88 FF 00 01 FF 00 01 0F (调光器地址-茶吧灯带, 茶吧灯带关闭)
2025-09-18 15:27:03.816 - 19 08 24 03 CC 01 CC 00 01 (调用茶吧感应灯开的按键)
2025-09-18 15:27:03.842 - 1A AA AA AA 88 FF B0 01 FF B0 01 0F (调光器地址-茶吧灯带, 茶吧灯带明亮)
2025-09-18 15:27:09.414 - 19 08 24 03 CC 00 D3 00 01 (调用厨房感应灯开的按键)
2025-09-18 15:27:09.447 - 55 0A 32 00 00 00 01 92 55 0A 32 00 00 00 02 93 (厨房顶灯一开, 厨房顶灯二开)
2025-09-18 15:27:55.655 - 19 08 24 03 DD 00 3B 00 01 (调用情景-书房照明关帘)
2025-09-18 15:27:56.173 - EE 00 00 B1 00 00 00 FF FC FF FF (情景执行提示)
2025-09-18 15:27:56.768 - 09 06 00 0F 02 01 78 21 (提示音叮)
2025-09-18 15:27:57.324 - 1A 0A 04 06 01 FF F0 01 FF F0 01 FF 00 00 0F (调光器地址-书房射灯, 书房射灯明亮)
2025-09-18 15:28:01.405 - A5 00 B7 FF 00 AA 22 0D (书房纱帘关)
2025-09-18 15:28:02.451 - A5 00 D2 FF 00 AA 22 0C (书房窗帘关)
2025-09-18 15:28:02.498 - 55 00 D2 01 00 0D 01 0B AA 55 00 D2 01 00 0D 01 0B AA (书房窗帘电机状态返回)
2025-09-18 15:28:03.546 - 09 06 00 0F 02 02 38 20 (提示音咚)
2025-09-18 15:28:04.097 - EE 00 00 B1 00 00 02 FF FC FF FF (情景完成返回主页)
2025-09-18 15:28:12.434 - 55 00 D2 00 00 FD 01 0B AA 55 00 D2 00 00 FD 01 0B AA (书房窗帘电机状态返回)
2025-09-18 15:28:22.056 - 19 08 24 03 CC 00 D4 00 01 (调用厨房感应灯关的按键)
2025-09-18 15:28:22.115 - 55 0A 31 00 00 00 01 91 55 0A 31 00 00 00 02 92 (厨房顶灯一关, 厨房顶灯二关)
2025-09-18 15:28:29.571 - 19 08 24 03 CC 00 D3 00 01 (调用厨房感应灯开的按键)
2025-09-18 15:28:29.607 - 55 0A 32 00 00 00 01 92 55 0A 32 00 00 00 02 93 (厨房顶灯一开, 厨房顶灯二开)
2025-09-18 15:28:33.882 - EE 00 71 B1 01 00 0C FF FC FF FF
2025-09-18 15:28:41.448 - EE 00 71 B1 01 00 02 FF FC FF FF
2025-09-18 15:28:51.743 - A5 00 A2 FF 00 AA (餐厅纱帘关)
2025-09-18 15:29:02.741 - A5 00 A2 FF 00 AA (餐厅纱帘关)
2025-09-18 15:29:19.573 - A5 00 A2 FF 00 AA (餐厅纱帘关)
2025-09-18 15:29:22.547 - A5 00 A6 FF 00 AA (餐厅窗帘关)
2025-09-18 15:29:22.596 - 55 00 A6 01 00 0F 01 74 AA 55 00 A6 01 00 0F 01 74 AA (餐厅窗帘电机状态返回)
2025-09-18 15:29:26.564 - A5 00 A6 FF 00 AA (餐厅窗帘关)
2025-09-18 15:29:27.028 - 55 00 A6 01 00 E4 01 74 AA 55 00 A6 01 00 E4 01 74 AA (餐厅窗帘电机状态返回)
2025-09-18 15:29:27.474 - A5 00 A6 FE 01 AA (餐厅窗帘开)
2025-09-18 15:29:27.938 - 55 00 A6 02 01 03 01 74 AA 55 00 A6 02 01 03 01 74 AA (餐厅窗帘电机状态返回)
2025-09-18 15:29:33.277 - A5 00 A2 FE 01 AA (餐厅纱帘开)
2025-09-18 15:29:36.366 - 55 00 A6 00 00 0E 01 74 AA 55 00 A6 00 00 0E 01 74 AA (餐厅窗帘电机状态返回)
2025-09-18 15:29:41.043 - 55 00 A6 00 00 0F 01 74 AA 55 00 A6 00 00 0F 01 74 AA (餐厅窗帘电机状态返回)
2025-09-18 15:29:42.877 - 55 00 A2 00 00 05 01 73 AA 55 00 A2 00 00 05 01 73 AA (餐厅纱帘电机状态返回)
2025-09-18 15:29:54.579 - 55 00 A2 00 00 06 01 73 AA 55 00 A2 00 00 06 01 73 AA (餐厅纱帘电机状态返回)
2025-09-18 15:30:08.267 - 19 08 24 03 CC 00 D4 00 01 (调用厨房感应灯关的按键)
2025-09-18 15:30:08.318 - 55 0A 31 00 00 00 01 91 55 0A 31 00 00 00 02 92 (厨房顶灯一关, 厨房顶灯二关)
2025-09-18 15:30:27.745 - 19 08 24 03 CC 01 CD 00 01 (调用茶吧感应灯关的按键)
2025-09-18 15:30:27.776 - 1A AA AA AA 88 FF 00 01 FF 00 01 0F (调光器地址-茶吧灯带, 茶吧灯带关闭)
2025-09-18 15:32:14.957 - 19 08 24 03 CC 01 CC 00 01 (调用茶吧感应灯开的按键)
2025-09-18 15:32:14.998 - 1A AA AA AA 88 FF B0 01 FF B0 01 0F (调光器地址-茶吧灯带, 茶吧灯带明亮)
2025-09-18 15:34:22.768 - 19 08 24 03 CC 00 D3 00 01 (调用厨房感应灯开的按键)
2025-09-18 15:34:22.804 - 55 0A 32 00 00 00 01 92 55 0A 32 00 00 00 02 93 (厨房顶灯一开, 厨房顶灯二开)
2025-09-18 15:35:27.897 - 19 08 24 03 CC 00 D4 00 01 (调用厨房感应灯关的按键)
2025-09-18 15:35:27.932 - 55 0A 31 00 00 00 01 91 55 0A 31 00 00 00 02 92 (厨房顶灯一关, 厨房顶灯二关)
2025-09-18 15:38:28.253 - 19 08 24 03 CC 00 D3 00 01 (调用厨房感应灯开的按键)
2025-09-18 15:38:28.290 - 55 0A 32 00 00 00 01 92 55 0A 32 00 00 00 02 93 (厨房顶灯一开, 厨房顶灯二开)
2025-09-18 15:39:46.405 - 19 08 24 03 CC 00 D4 00 01 (调用厨房感应灯关的按键)
2025-09-18 15:39:46.440 - 55 0A 31 00 00 00 01 91 55 0A 31 00 00 00 02 92 (厨房顶灯一关, 厨房顶灯二关)
2025-09-18 15:42:16.700 - 19 08 24 03 CC 00 D3 00 01 (调用厨房感应灯开的按键)
2025-09-18 15:42:16.737 - 55 0A 32 00 00 00 01 92 55 0A 32 00 00 00 02 93 (厨房顶灯一开, 厨房顶灯二开)
2025-09-18 15:43:52.335 - 19 08 24 03 CC 01 CD 00 01 (调用茶吧感应灯关的按键)
2025-09-18 15:43:52.363 - 1A AA AA AA 88 FF 00 01 FF 00 01 0F (调光器地址-茶吧灯带, 茶吧灯带关闭)
2025-09-18 15:44:24.452 - 19 08 24 03 CC 00 D4 00 01 (调用厨房感应灯关的按键)
2025-09-18 15:44:24.486 - 55 0A 31 00 00 00 01 91 55 0A 31 00 00 00 02 92 (厨房顶灯一关, 厨房顶灯二关)
2025-09-18 15:47:28.761 - 19 08 24 03 CC 01 CC 00 01 (调用茶吧感应灯开的按键)
2025-09-18 15:47:28.790 - 1A AA AA AA 88 FF B0 01 FF B0 01 0F (调光器地址-茶吧灯带, 茶吧灯带明亮)
2025-09-18 15:48:09.844 - 19 08 24 03 CC 01 CD 00 01 (调用茶吧感应灯关的按键)
2025-09-18 15:48:09.873 - 1A AA AA AA 88 FF 00 01 FF 00 01 0F (调光器地址-茶吧灯带, 茶吧灯带关闭)
2025-09-18 15:48:10.343 - 19 08 24 03 CC 01 CC 00 01 (调用茶吧感应灯开的按键)
2025-09-18 15:48:10.373 - 1A AA AA AA 88 FF B0 01 FF B0 01 0F (调光器地址-茶吧灯带, 茶吧灯带明亮)
2025-09-18 15:48:13.904 - 19 08 24 03 CC 00 D3 00 01 (调用厨房感应灯开的按键)
2025-09-18 15:48:13.939 - 55 0A 32 00 00 00 01 92 55 0A 32 00 00 00 02 93 (厨房顶灯一开, 厨房顶灯二开)
2025-09-18 15:48:33.931 - A5 00 A2 FF 00 AA (餐厅纱帘关)
2025-09-18 15:48:33.986 - 55 00 A2 01 00 06 01 73 AA 55 00 A2 01 00 06 01 73 AA (餐厅纱帘电机状态返回)
2025-09-18 15:48:42.429 - 55 00 A2 00 01 67 01 73 AA 55 00 A2 00 01 67 01 73 AA (餐厅纱帘电机状态返回)
2025-09-18 15:48:54.930 - 19 08 24 03 CC 01 CD 00 01 (调用茶吧感应灯关的按键)
2025-09-18 15:48:54.982 - 1A AA AA AA 88 FF 00 01 FF 00 01 0F (调光器地址-茶吧灯带, 茶吧灯带关闭)
2025-09-18 15:50:14.655 - 19 08 24 03 CC 00 D4 00 01 (调用厨房感应灯关的按键)
2025-09-18 15:50:14.689 - 55 0A 31 00 00 00 01 91 55 0A 31 00 00 00 02 92 (厨房顶灯一关, 厨房顶灯二关)
2025-09-18 15:50:31.549 - 19 08 24 03 DD 00 00 00 01 (调用情景-离家（末）)
2025-09-18 15:50:32.063 - EE 00 00 B1 00 00 00 FF FC FF FF (情景执行提示)
2025-09-18 15:50:32.657 - 09 06 00 0F 02 02 38 20 (提示音咚)
2025-09-18 15:50:33.202 - 50 F7 01 (全屋影音全关)
2025-09-18 15:50:33.755 - 01 06 07 D0 FF 60 C8 9F (客厅空调关)
2025-09-18 15:50:33.792 - 01 06 07 D0 FF 60 C8 9F (客厅空调关)
2025-09-18 15:50:34.352 - 01 06 07 D0 FF 60 C8 9F (客厅空调关)
2025-09-18 15:50:34.385 - 01 06 07 D0 FF 60 C8 9F (客厅空调关)
2025-09-18 15:50:34.950 - 01 06 07 D3 FF 60 38 9F (餐厅空调关)
2025-09-18 15:50:34.982 - 01 06 07 D3 FF 60 38 9F (餐厅空调关)
2025-09-18 15:50:35.549 - 01 06 07 D3 FF 60 38 9F (餐厅空调关)
2025-09-18 15:50:35.638 - FD F7 F7 DB FF 7F BF DF
2025-09-18 15:50:36.097 - 01 06 07 D6 FF 60 28 9E (主卧空调关)
2025-09-18 15:50:36.133 - 01 06 07 D6 FF 60 28 9E (主卧空调关)
2025-09-18 15:50:36.694 - 01 06 07 D6 FF 60 28 9E (主卧空调关)
2025-09-18 15:50:36.729 - 01 06 07 D6 FF 60 28 9E (主卧空调关)
2025-09-18 15:50:37.293 - 01 06 07 D9 FF 60 18 9D (次卧空调关)
2025-09-18 15:50:37.325 - 01 06 07 D9 FF 60 18 9D (次卧空调关)
2025-09-18 15:50:37.891 - 01 06 07 D9 FF 60 18 9D (次卧空调关)
2025-09-18 15:50:37.921 - 01 06 07 D9 FF 60 18 9D (次卧空调关)
2025-09-18 15:50:38.488 - 01 06 07 DC FF 60 08 9C (书房空调关)
2025-09-18 15:50:38.522 - 01 06 07 DC FF 60 08 9C (书房空调关)
2025-09-18 15:50:39.088 - 01 06 07 DC FF 60 08 9C (书房空调关)
2025-09-18 15:50:39.123 - 01 06 07 DC FF 60 08 9C (书房空调关)
2025-09-18 15:50:39.686 - 09 06 00 0F 02 02 38 20 (提示音咚)
2025-09-18 15:50:40.235 - 1A FF FF FF 56 00 00 00 0F (人体感应地址-内卫, 关闭内卫感应)
2025-09-18 15:50:40.247 - BC BC
2025-09-18 15:50:40.832 - 1A FF FF FF 55 00 00 00 0F (人体感应地址-外卫, 关闭外卫感应)
2025-09-18 15:50:40.846 - BC BC
2025-09-18 15:50:41.481 - 1A FF FF FF 57 00 00 00 0F (人体感应地址-厨房, 关闭厨房感应)
2025-09-18 15:50:41.589 - BF BF
2025-09-18 15:50:42.029 - 1A FF FF FF 58 00 00 00 0F (人体感应地址-茶吧, 关闭茶吧感应)
2025-09-18 15:50:42.079 - BC BC
2025-09-18 15:50:42.627 - 1A 20 07 00 93 00 01 00 0F (自保持开关地址-设备区顶, 设备区顶灯关)
2025-09-18 15:50:43.674 - 1A 20 07 01 40 00 01 00 0F (自保持开关地址-内卫顶灯, 内卫顶灯关)
2025-09-18 15:50:44.720 - 1A 20 07 01 55 00 01 00 0F (自保持开关地址-主卧顶灯, 主卧顶灯只关)
2025-09-18 15:50:45.765 - 1A 20 07 00 42 00 01 00 0F (自保持开关地址-外卫顶灯, 外卫顶灯关)
2025-09-18 15:50:46.811 - 55 0D 31 00 00 00 01 94 (书房顶灯只关)
2025-09-18 15:50:47.858 - 55 0A 31 00 00 00 01 91 (厨房顶灯一关)
2025-09-18 15:50:48.905 - 55 0A 31 00 00 00 02 92 (厨房顶灯二关)
2025-09-18 15:50:49.953 - 55 0B 31 00 00 00 01 92 (厨房风扇只关)
2025-09-18 15:50:50.998 - 55 0C 31 00 00 00 01 93 (餐厅顶灯关)
2025-09-18 15:50:52.047 - 1A 20 07 01 30 00 01 00 0F (自保持开关地址-西阳顶灯, 西阳顶灯关)
2025-09-18 15:50:53.094 - 1A 18 05 21 89 00 01 00 0F (自保持开关地址-客厅顶灯, 客厅顶灯一关)
2025-09-18 15:50:54.141 - 1A 18 05 01 94 00 01 00 0F (自保持开关地址-客厅顶灯, 客厅顶灯二关)
2025-09-18 15:50:55.189 - 1A 20 07 00 70 00 01 00 0F (自保持开关地址-次卧顶灯, 次卧顶灯只关)
2025-09-18 15:50:56.234 - 1A 18 05 10 31 00 01 00 0F (自保持开关地址-门厅顶灯, 门厅顶灯关)
2025-09-18 15:50:57.280 - 1A FF FF FF 04 00 03 02 (继电器地址-东阳衣架, 东阳衣架照明关)
2025-09-18 15:50:57.828 - 09 06 00 0F 02 02 38 20 (提示音咚)
2025-09-18 15:50:58.374 - A5 00 A6 FE 01 AA (餐厅窗帘开)
2025-09-18 15:50:58.427 - 55 00 A6 02 00 0F 01 74 AA 55 00 A6 02 00 0F 01 74 AA (餐厅窗帘电机状态返回)
2025-09-18 15:50:58.973 - FF FF FF FF 0A 00 01 00 (继电器地址-东阳窗帘, 东阳窗帘开)
2025-09-18 15:50:59.522 - 1A BE B0 DC 04 00 01 00 (继电器地址-西阳窗帘, 西阳窗帘开)
2025-09-18 15:51:00.072 - FF FF FF FF 0E 00 01 00 (继电器地址-西阳小窗帘, 西阳小窗帘开)
2025-09-18 15:51:00.359 - 55 00 A6 00 00 0E 01 74 AA 55 00 A6 00 00 0E 01 74 AA (餐厅窗帘电机状态返回)
2025-09-18 15:51:00.620 - 1A 22 33 62 0F 00 00 01 0F (正反转地址-内卫卷帘, 内卫卷帘升)
2025-09-18 15:51:01.165 - 55 12 12 03 01 4C 41 (主卧窗帘开)
2025-09-18 15:51:01.208 - 55 12 12 03 01 4C 41 (主卧窗帘开)
2025-09-18 15:51:01.764 - 55 11 1D 03 02 3C 07 (主卧纱帘开)
2025-09-18 15:51:01.803 - 55 11 1D 03 02 3C 07 (主卧纱帘开)
2025-09-18 15:51:02.360 - A5 00 76 FE 01 AA (次卧窗帘开)
2025-09-18 15:51:02.908 - A5 00 21 FE 01 AA (次卧纱帘开)
2025-09-18 15:51:03.459 - A5 00 D2 FE 01 AA 22 0D (书房窗帘开)
2025-09-18 15:51:03.513 - 55 00 D2 02 00 FD 01 0B AA 55 00 D2 02 00 FD 01 0B AA (书房窗帘电机状态返回)
2025-09-18 15:51:04.057 - 1A BE B0 DC 09 00 01 00 (继电器地址-客厅窗帘, 客厅窗帘开)
2025-09-18 15:51:04.607 - 1A BE B0 DC 0A 00 02 00 (继电器地址-客厅纱帘, 客厅纱帘开)
2025-09-18 15:51:05.153 - 09 06 00 0F 02 02 38 20 (提示音咚)
2025-09-18 15:51:06.202 - 1A EC A0 DC 02 00 00 00 0F (自保持开关地址-天花12V供电, 天花12V 供电关)
2025-09-18 15:51:06.749 - 1A EC A0 DC 02 00 00 00 0F (自保持开关地址-天花12V供电, 天花12V 供电关)
2025-09-18 15:51:07.297 - 1A EC A0 DC 01 00 00 00 0F (自保持开关地址-电视、设备12V供电, 12V 电视供电关)
2025-09-18 15:51:07.847 - 1A EC A0 DC 01 00 00 00 0F (自保持开关地址-电视、设备12V供电, 12V 电视供电关)
2025-09-18 15:51:08.394 - 1A EC A0 DC 04 00 01 00 0F (自保持开关地址-次卧西阳内外卫供电, 内卫外卫关)
2025-09-18 15:51:08.942 - 1A EC A0 DC 04 00 01 00 0F (自保持开关地址-次卧西阳内外卫供电, 内卫外卫关)
2025-09-18 15:51:10.486 - 1A BB BB BB 01 02 00 (开水器电源关)
2025-09-18 15:51:11.200 - 55 00 D2 00 00 0D 01 0B AA 55 00 D2 00 00 0D 01 0B AA (书房窗帘电机状态返回)
2025-09-18 15:51:23.490 - 09 06 00 0F 02 02 38 20 (提示音咚)
2025-09-18 15:51:24.041 - 1A 27 89 12 AA 00 00 00 0F (状态寄存器地址, 无人状态)
2025-09-18 15:51:24.587 - 1A 27 89 12 AA 00 00 00 0F (状态寄存器地址, 无人状态)
2025-09-18 15:51:25.130 - A1 11 11 11 4D (天花供电关闭确认)
2025-09-18 15:51:25.353 - 1A EC A0 DC 02 86 86 86 0F (查询天花供电状态, 自保持开关地址-天花12V供电)
2025-09-18 15:51:25.784 - 1A EC A0 DC 02 00 01 0F (自保持开关地址-天花12V供电)
2025-09-18 15:51:28.171 - A1 11 11 11 4E (卫生供电关闭确认)
2025-09-18 15:51:28.401 - 1A EC A0 DC 04 86 86 86 0F (查询卫生间供电状态, 自保持开关地址-次卧西阳内外卫供电)
2025-09-18 15:51:28.831 - 1A EC A0 DC 04 01 00 0F (自保持开关地址-次卧西阳内外卫供电)
2025-09-18 15:51:31.210 - A1 11 11 11 4F (电视供电关闭确认)
2025-09-18 15:51:31.438 - 1A EC A0 DC 01 86 86 86 0F (查询电视供电状态, 自保持开关地址-电视、设备12V供电)
2025-09-18 15:51:31.871 - 1A EC A0 DC 01 00 01 0F (自保持开关地址-电视、设备12V供电)
2025-09-18 15:51:34.254 - 09 06 00 0F 02 02 38 20 (提示音咚)
2025-09-18 15:51:34.801 - 09 06 00 0F 02 02 38 20 (提示音咚)
2025-09-18 15:51:35.354 - EE 00 00 B1 00 00 02 FF FC FF FF (情景完成返回主页)
2025-09-18 15:51:36.443 - BA BA EE EE BA BA (离家设置信科变量)
2025-09-18 15:51:37.489 - A1 11 11 11 46 (天热离家遮阳)
2025-09-18 15:51:37.712 - 1A 27 89 12 AA 86 86 86 0F (查询寄存器状态, 状态寄存器地址)
2025-09-18 15:51:38.095 - 1A 27 89 12 AA 00 00 00 00 00 00 00 00 00 00 00 01 00 00 00 00 0F (状态寄存器地址)
2025-09-18 15:51:38.716 - 19 08 24 03 DD 00 05 00 01 (调用情景-天热遮阳关帘)
2025-09-18 15:51:39.240 - EE 00 00 B1 00 00 00 FF FC FF FF (情景执行提示)
2025-09-18 15:51:39.834 - 09 06 00 0F 02 01 78 21 (提示音叮)
2025-09-18 15:51:40.380 - A5 00 A2 FF 00 AA (餐厅纱帘关)
2025-09-18 15:51:41.428 - A5 00 A6 FF 00 AA (餐厅窗帘关)
2025-09-18 15:51:41.480 - 55 00 A6 01 00 0E 01 74 AA 55 00 A6 01 00 0E 01 74 AA (餐厅窗帘电机状态返回)
2025-09-18 15:51:42.524 - 55 11 1D 03 01 7C 06 (主卧纱帘关)
2025-09-18 15:51:42.564 - 55 11 1D 03 01 7C 06 (主卧纱帘关)
2025-09-18 15:51:43.650 - 55 12 12 03 02 0C 40 (主卧窗帘关)
2025-09-18 15:51:43.688 - 55 12 12 03 02 0C 40 (主卧窗帘关)
2025-09-18 15:51:44.719 - A5 00 21 FF 00 AA (次卧纱帘关)
2025-09-18 15:51:44.768 - 55 00 21 01 00 0D 01 34 AA 55 00 21 01 00 0D 01 34 AA (次卧纱帘电机状态返回)
2025-09-18 15:51:45.814 - A5 00 76 FF 00 AA (次卧窗帘关)
2025-09-18 15:51:45.871 - 55 00 76 01 00 0E 01 1B AA 55 00 76 01 00 0E 01 1B AA (次卧窗帘电机状态返回)
2025-09-18 15:51:46.910 - A5 00 B7 FF 00 AA 22 0D (书房纱帘关)
2025-09-18 15:51:47.970 - A5 00 D2 FF 00 AA 22 0C (书房窗帘关)
2025-09-18 15:51:48.019 - 55 00 D2 01 00 0D 01 0B AA 55 00 D2 01 00 0D 01 0B AA (书房窗帘电机状态返回)
2025-09-18 15:51:49.553 - 1A 22 33 62 5E 00 02 01 0F (正反转地址-厨房卷帘三, 厨房卷帘一降)
2025-09-18 15:51:50.603 - 1A 22 33 62 56 00 02 01 0F (正反转地址-厨房卷帘二, 厨房卷帘二降)
2025-09-18 15:51:51.109 - 55 00 A2 00 01 62 01 73 AA 55 00 A2 00 01 62 01 73 AA (餐厅纱帘电机状态返回)
2025-09-18 15:51:51.648 - 1A 22 33 62 4F 00 00 01 0F (正反转地址-厨房卷帘一, 厨房卷帘三降)
2025-09-18 15:51:51.847 - 55 00 A6 00 01 65 01 74 AA 55 00 A6 00 01 65 01 74 AA (餐厅窗帘电机状态返回)
2025-09-18 15:51:52.113 - 55 00 21 00 01 27 01 34 AA 55 00 21 00 01 27 01 34 AA (次卧纱帘电机状态返回)
2025-09-18 15:51:52.693 - 1A BE B0 DC 04 00 02 00 (继电器地址-西阳窗帘, 西阳窗帘关)
2025-09-18 15:51:53.740 - FF FF FF FF 0E 00 02 00 (继电器地址-西阳小窗帘, 西阳小窗帘关)
2025-09-18 15:51:54.016 - 55 00 76 00 01 0E 01 1B AA 55 00 76 00 01 0E 01 1B AA (次卧窗帘电机状态返回)
2025-09-18 15:51:54.788 - 1A BE B0 DC 03 00 03 00 (继电器地址-西阳天幕, 西阳天幕关)
2025-09-18 15:51:55.834 - 1A BE B0 DC 03 00 03 00 (继电器地址-西阳天幕, 西阳天幕关)
2025-09-18 15:51:56.880 - 09 06 00 0F 02 02 38 20 (提示音咚)
2025-09-18 15:51:57.430 - EE 00 00 B1 00 00 02 FF FC FF FF (情景完成返回主页)
2025-09-18 15:51:57.688 - 55 00 D2 00 00 FD 01 0B AA 55 00 D2 00 00 FD 01 0B AA (书房窗帘电机状态返回)
2025-09-18 15:58:16.656 - 1A BE B0 DC 04 (继电器地址-西阳窗帘)
2025-09-18 15:58:16.792 - FF
2025-09-18 16:05:09.148 - 1A 27 89 12 AA 86 86 86 0F (查询寄存器状态, 状态寄存器地址)
2025-09-18 16:05:09.531 - 1A 27 89 12 AA 00 00 00 00 00 00 00 00 00 00 00 01 00 00 00 00 0F (状态寄存器地址)
2025-09-18 16:05:11.107 - 1A EC A0 DC 02 86 86 86 0F (查询天花供电状态, 自保持开关地址-天花12V供电)
2025-09-18 16:05:11.544 - 1A EC A0 DC 02 00 01 0F (自保持开关地址-天花12V供电)
2025-09-18 16:05:11.704 - 1A EC A0 DC 01 86 86 86 0F (查询电视供电状态, 自保持开关地址-电视、设备12V供电)
2025-09-18 16:05:12.141 - 1A EC A0 DC 01 00 01 0F (自保持开关地址-电视、设备12V供电)
2025-09-18 16:05:12.274 - 1A EC A0 DC 03 86 86 86 0F (自保持开关地址-书房餐厅厨房供电)
2025-09-18 16:05:12.702 - 1A EC A0 DC 03 01 01 0F (自保持开关地址-书房餐厅厨房供电)
2025-09-18 16:05:12.858 - 1A EC A0 DC 04 86 86 86 0F (查询卫生间供电状态, 自保持开关地址-次卧西阳内外卫供电)
2025-09-18 16:05:13.288 - 1A EC A0 DC 04 01 00 0F (自保持开关地址-次卧西阳内外卫供电)
2025-09-18 16:05:13.526 - 1A 27 89 12 AA 86 86 86 0F (查询寄存器状态, 状态寄存器地址)
2025-09-18 16:05:13.909 - 1A 27 89 12 AA 00 00 00 00 00 00 00 00 00 00 00 01 00 00 00 00 0F (状态寄存器地址)
2025-09-18 16:44:17.622 - 1A BE B0 DC 03 FC (继电器地址-西阳天幕)
2025-09-18 16:44:17.755 - FC
2025-09-18 16:57:16.748 - 1A BE B0 DC 01 FC (继电器地址-回水泵点动)
2025-09-18 16:57:16.882 - FF
2025-09-18 17:11:06.366 - 1A BE B0 DC 02 (正反转地址-外卫卷帘)
2025-09-18 17:18:05.805 - 1A BE B0 DC 09 FE (继电器地址-客厅窗帘)
2025-09-18 17:18:05.939 - FF
2025-09-18 17:31:18.459 - 1A FF FF FF 04 (继电器地址-东阳衣架)
2025-09-18 17:31:18.595 - FE
2025-09-18 17:36:48.448 - FF FF FF FF 0E FC (继电器地址-西阳小窗帘)
2025-09-18 17:55:05.938 - 1A BE B0 DC 0A FF (继电器地址-客厅纱帘)
2025-09-18 17:55:06.072 - FE
2025-09-18 18:19:45.997 - FF FF FF FF 0A (继电器地址-东阳窗帘)
2025-09-18 18:19:46.131 - FF
2025-09-18 18:43:36.153 - 1B 03 00 00 00 02 C6 31 (查询室外光线)
2025-09-18 18:43:36.173 - 1B 03 04 00 00 00 00 41 F2 (室外光线返回)
2025-09-18 18:43:36.953 - 1A EC A0 DC 02 00 00 01 0F (自保持开关地址-天花12V供电, 天花12V 供电开)
2025-09-18 18:43:37.525 - 1A AA AA AA 88 (调光器地址-茶吧灯带)
2025-09-18 18:43:37.658 - 1A FF 01 FF FF FF 60 01 FF 60 01 FF 00 00 0F (调光器地址-公共区域统配地址)
2025-09-18 18:43:38.650 - 19 08 24 03 DD 00 0D 00 01 (调用情景-信科调用进门暗)
2025-09-18 18:43:40.712 - 1A FF 01 FF FF FF 60 01 FF 60 01 FF 00 00 0F (调光器地址-公共区域统配地址)
2025-09-18 18:43:42.798 - 1A EC A0 DC 01 00 00 01 0F (自保持开关地址-电视、设备12V供电, 12V 电视供电开)
2025-09-18 18:43:43.346 - 1A EC A0 DC 01 00 00 01 0F (自保持开关地址-电视、设备12V供电, 12V 电视供电开)
2025-09-18 18:43:43.892 - 1A EC A0 DC 04 00 01 01 0F (自保持开关地址-次卧西阳内外卫供电, 内卫外卫开)
2025-09-18 18:43:44.492 - 1A EC A0 DC 04 00 01 01 0F (自保持开关地址-次卧西阳内外卫供电, 内卫外卫开)
2025-09-18 18:43:45.038 - 1A BB BB BB 01 01 00 (开水器电源开)
2025-09-18 18:43:46.584 - 1A 27 89 12 AA 00 00 01 0F (状态寄存器地址, 有人状态)
2025-09-18 18:43:47.136 - 1A 27 89 12 AA 00 00 01 0F (状态寄存器地址, 有人状态)
2025-09-18 18:43:47.680 - 1A BE B0 DC 01 00 01 00 (继电器地址-回水泵点动, 回水泵点动)
2025-09-18 18:43:48.232 - 1A FF FF FF 56 00 00 01 0F (人体感应地址-内卫, 打开内卫感应)
2025-09-18 18:43:48.343 - BE BF
2025-09-18 18:43:48.777 - 1A FF FF FF 55 00 00 01 0F (人体感应地址-外卫, 打开外卫感应)
2025-09-18 18:43:48.848 - BC BC
2025-09-18 18:43:49.376 - 1A FF FF FF 57 00 00 01 0F (人体感应地址-厨房, 打开厨房感应)
2025-09-18 18:43:49.479 - BF BF
2025-09-18 18:43:49.924 - 1A FF FF FF 57 00 00 01 0F (人体感应地址-厨房, 打开厨房感应)
2025-09-18 18:43:49.937 - BC BC
2025-09-18 18:43:50.522 - 1A FF FF FF 58 00 00 01 0F (人体感应地址-茶吧, 打开茶吧感应)
2025-09-18 18:43:50.573 - BC BC
2025-09-18 18:43:51.120 - 1A BE B0 DC 01 00 01 00 (继电器地址-回水泵点动, 回水泵点动)
2025-09-18 18:43:51.667 - A5 00 B7 FF 00 AA 22 0D (书房纱帘关)
2025-09-18 18:43:52.216 - A5 00 A2 FF 00 AA (餐厅纱帘关)
2025-09-18 18:43:52.269 - 55 00 A2 01 01 62 01 73 AA 55 00 A2 01 01 62 01 73 FE (餐厅纱帘电机状态返回)
2025-09-18 18:43:52.814 - 09 06 00 0F 02 01 78 21 (提示音叮)
2025-09-18 18:43:53.362 - 09 06 00 0F 02 01 78 21 (提示音叮)
2025-09-18 18:43:53.962 - EE 00 00 B1 00 00 02 FF FC FF FF (情景完成返回主页)
2025-09-18 18:43:54.554 - A1 11 11 11 50 (天花供电打开确认)
2025-09-18 18:43:54.714 - 55 00 A2 00 01 66 01 73 AA 55 00 A2 00 01 66 01 73 AA (餐厅纱帘电机状态返回)
2025-09-18 18:43:57.098 - A1 11 11 11 51 (卫生供电打开确认)
2025-09-18 18:43:57.320 - 1A EC A0 DC 04 86 86 86 0F (查询卫生间供电状态, 自保持开关地址-次卧西阳内外卫供电)
2025-09-18 18:43:57.750 - 1A EC A0 DC 04 01 01 0F (自保持开关地址-次卧西阳内外卫供电)
2025-09-18 18:43:59.637 - A1 11 11 11 52 (电视供电打开确认)
2025-09-18 18:43:59.866 - 1A EC A0 DC 01 86 86 86 0F (查询电视供电状态, 自保持开关地址-电视、设备12V供电)
2025-09-18 18:44:00.300 - 1A EC A0 DC 01 01 01 0F (自保持开关地址-电视、设备12V供电)
2025-09-18 18:44:04.721 - A1 11 11 11 47 (天热回家开帘)
2025-09-18 18:44:04.948 - 1A 27 89 12 AA 86 86 86 0F (查询寄存器状态, 状态寄存器地址)
2025-09-18 18:44:05.332 - 1A 27 89 12 AA 01 00 00 00 00 00 00 00 00 00 00 01 00 00 00 00 0F (状态寄存器地址)
2025-09-18 18:44:05.955 - 19 08 24 03 DD 00 06 00 01 (调用情景-天热遮阳开帘)
2025-09-18 18:44:06.520 - EE 00 00 B1 00 00 00 FF FC FF FF (情景执行提示)
2025-09-18 18:44:07.114 - 09 06 00 0F 02 01 78 21 (提示音叮)
2025-09-18 18:44:07.662 - A5 00 A6 FE 01 AA (餐厅窗帘开)
2025-09-18 18:44:07.719 - 55 00 A6 02 01 65 01 74 AA 55 00 A6 02 01 65 01 74 EA (餐厅窗帘电机状态返回)
2025-09-18 18:44:08.758 - 55 12 12 03 01 4C 41 (主卧窗帘开)
2025-09-18 18:44:08.798 - 55 12 12 03 01 4C 41 (主卧窗帘开)
2025-09-18 18:44:09.855 - 55 11 1D 03 02 3C 07 (主卧纱帘开)
2025-09-18 18:44:09.896 - 55 11 1D 03 02 3C 07 (主卧纱帘开)
2025-09-18 18:44:10.951 - A5 00 76 FE 01 AA (次卧窗帘开)
2025-09-18 18:44:11.000 - 55 00 76 02 01 0E 01 1B AA 55 00 76 02 01 0E 01 1B AA (次卧窗帘电机状态返回)
2025-09-18 18:44:12.047 - A5 00 21 FE 01 AA (次卧纱帘开)
2025-09-18 18:44:12.095 - 55 00 21 02 01 27 01 34 AA 55 00 21 02 01 27 01 34 AA (次卧纱帘电机状态返回)
2025-09-18 18:44:13.146 - 1A BE B0 DC 04 00 01 00 (继电器地址-西阳窗帘, 西阳窗帘开)
2025-09-18 18:44:14.191 - FF FF FF FF 0E 00 01 00 (继电器地址-西阳小窗帘, 西阳小窗帘开)
2025-09-18 18:44:15.237 - A5 00 D2 FE 01 AA 22 0D (书房窗帘开)
2025-09-18 18:44:15.292 - 55 00 D2 02 00 FD 01 0B AA 55 00 D2 02 00 FD 01 0B FA (书房窗帘电机状态返回)
2025-09-18 18:44:16.333 - 09 06 00 0F 02 02 38 20 (提示音咚)
2025-09-18 18:44:16.755 - 55 00 A6 00 00 0E 01 74 AA 55 00 A6 00 00 0E 01 74 AA (餐厅窗帘电机状态返回)
2025-09-18 18:44:16.885 - EE 00 00 B1 00 00 02 FF FC FF FF (情景完成返回主页)
2025-09-18 18:44:19.542 - 55 00 76 00 00 0D 01 1B AA 55 00 76 00 00 0D 01 1B AA (次卧窗帘电机状态返回)
2025-09-18 18:44:19.793 - 55 00 21 00 00 0D 01 34 AA 55 00 21 00 00 0D 01 34 AA (次卧纱帘电机状态返回)
2025-09-18 18:44:21.204 - 19 08 24 03 DD 00 29 00 01 (调用情景-次卧照明关帘)
2025-09-18 18:44:21.769 - EE 00 00 B1 00 00 00 FF FC FF FF (情景执行提示)
2025-09-18 18:44:22.363 - 09 06 00 0F 02 01 78 21 (提示音叮)
2025-09-18 18:44:22.918 - 55 00 D2 1A 0E 03 05 01 FF F0 01 FF F0 01 FF 00 00 0F (书房窗帘电机状态返回, 调光器地址-次卧射灯, 次卧射灯明亮)
2025-09-18 18:44:23.516 - 1A 0E 03 05 02 FF F0 01 FF F0 01 FF 00 00 0F (调光器地址-次卧灯带, 次卧灯带明亮)
2025-09-18 18:44:24.106 - A5 00 21 FF 00 AA (次卧纱帘关)
2025-09-18 18:44:24.161 - 55 00 21 01 00 0D 01 34 AA 55 00 21 01 00 0D 01 B4 (次卧纱帘电机状态返回)
2025-09-18 18:44:24.165 - FD
2025-09-18 18:44:25.203 - A5 00 76 FF 00 AA (次卧窗帘关)
2025-09-18 18:44:25.262 - 55 00 76 01 00 0E 01 1B AA 55 00 76 01 00 0E 01 1B AB (次卧窗帘电机状态返回)
2025-09-18 18:44:26.308 - 1A 0E 03 05 04 FF F0 01 FF F0 01 FF 00 00 0F (调光器地址-次卧北筒灯, 次卧北筒灯明亮)
2025-09-18 18:44:26.905 - 1A 0E 03 05 05 FF F0 01 FF F0 01 FF 00 00 0F (调光器地址-次卧南筒灯, 次卧南筒灯明亮)
2025-09-18 18:44:27.497 - 09 06 00 0F 02 02 38 20 (提示音咚)
2025-09-18 18:44:28.077 - EE 00 00 B1 00 00 02 FF FC FF FF (情景完成返回主页)
2025-09-18 18:44:31.274 - 55 00 21 00 01 28 01 34 AA 55 00 21 00 01 28 01 34 AA (次卧纱帘电机状态返回)
2025-09-18 18:44:32.440 - 55 00 21 00 01 27 01 34 AA 55 00 21 00 01 27 01 34 AA (次卧纱帘电机状态返回)
2025-09-18 18:44:34.859 - 55 00 76 00 01 0E 01 1B AA 55 00 76 00 01 0E 01 1B AA (次卧窗帘电机状态返回)
2025-09-18 18:46:08.648 - 19 08 24 03 CC 01 52 00 01 (调用外卫感应灯开的按键)
2025-09-18 18:46:08.699 - 1A 0D 01 07 01 FF 45 01 FF 45 01 FF 00 00 0F (调光器地址-外卫射灯, 外卫感应灯开)
2025-09-18 18:46:11.338 - 19 08 24 03 DD 00 3E 00 01 (调用情景-外卫照明关帘)
2025-09-18 18:46:11.853 - EE 00 00 B1 00 00 00 FF FC FF FF (情景执行提示)
2025-09-18 18:46:12.447 - 09 06 00 0F 02 01 78 21 (提示音叮)
2025-09-18 18:46:12.998 - 1A FF FF FF 55 00 00 00 0F (人体感应地址-外卫, 关闭外卫感应)
2025-09-18 18:46:13.065 - BF BF
2025-09-18 18:46:14.098 - 1A 0D 01 07 01 FF F0 01 FF F0 01 FF 00 00 0F (调光器地址-外卫射灯, 外卫射灯明亮)
2025-09-18 18:46:14.689 - 09 06 00 0F 02 02 38 20 (提示音咚)
2025-09-18 18:46:15.240 - EE 00 00 B1 00 00 02 FF FC FF FF (情景完成返回主页)
2025-09-18 18:52:33.190 - 19 08 24 03 DD 00 10 00 01 (调用情景-客餐厅空调开)
2025-09-18 18:52:33.757 - EE 00 00 B1 00 00 00 FF FC FF FF (情景执行提示)
2025-09-18 18:52:34.348 - 09 06 00 0F 02 01 78 21 (提示音叮)
2025-09-18 18:52:34.895 - A1 11 11 11 40 (客厅空调自动开)
2025-09-18 18:52:35.116 - 19 08 24 03 F0 BB 78 02 02 00
2025-09-18 18:52:35.167 - 23 AA 56 02 12 34 26 19 09 12 04 73 65 6F 6B 65 6E 64
2025-09-18 18:52:36.127 - 01 10 07 D0 00 03 06 70 61 00 02 00 FA 6F 26 (客厅空调冷25度)
2025-09-18 18:52:36.162 - 01 10 07 D0 00 03 06 70 61 00 02 00 FA 6F 26 (客厅空调冷25度)
2025-09-18 18:52:38.931 - A1 11 11 11 41 (餐厅空调自动开)
2025-09-18 18:52:39.157 - 19 08 24 03 F0 BB 78 02 02 00
2025-09-18 18:52:39.207 - 23 AA 56 02 12 34 2A 19 09 12 04 73 65 6F 6B 65 6E 64
2025-09-18 18:52:40.167 - 01 10 07 D3 00 03 06 70 61 00 02 00 FA 9F 29 (餐厅空调冷25度)
2025-09-18 18:52:40.205 - 01 10 07 D3 00 03 06 70 61 00 02 00 FA 9F 29 (餐厅空调冷25度)
2025-09-18 18:52:42.972 - 09 06 00 0F 02 02 38 20 (提示音咚)
2025-09-18 18:52:43.524 - EE 00 00 B1 00 00 02 FF FC FF FF (情景完成返回主页)
2025-09-18 18:53:09.120 - 19 08 24 03 CC 00 D3 00 01 (调用厨房感应灯开的按键)
2025-09-18 18:53:09.175 - 55 0A 32 00 00 00 01 92 55 0A 32 00 00 00 02 93 (厨房顶灯一开, 厨房顶灯二开)
2025-09-18 18:55:57.835 - 1A AA AA AA 66 00 00 02 0F (调光器地址-东阳筒灯, 东阳筒灯开关)
2025-09-18 18:56:04.136 - 1A AA AA AA 66 00 64 01 00 64 01 0F (调光器地址-东阳筒灯)
2025-09-18 18:56:05.053 - 1A AA AA AA 66 01 0F (调光器地址-东阳筒灯)
2025-09-18 18:56:17.995 - 19 08 24 03 CC 00 D4 00 01 (调用厨房感应灯关的按键)
2025-09-18 18:56:18.048 - 55 0A 31 00 00 00 01 91 55 0A 31 00 00 00 02 92 (厨房顶灯一关, 厨房顶灯二关)
2025-09-18 18:59:51.914 - 19 08 24 03 CC 00 D3 00 01 (调用厨房感应灯开的按键)
2025-09-18 18:59:51.947 - 55 0A 32 00 00 00 01 92 55 0A 32 00 00 00 02 93 (厨房顶灯一开, 厨房顶灯二开)
2025-09-18 19:01:55.155 - 19 08 24 03 CC 00 D4 00 01 (调用厨房感应灯关的按键)
2025-09-18 19:01:55.192 - 55 0A 31 00 00 00 01 91 55 0A 31 00 00 00 02 92 (厨房顶灯一关, 厨房顶灯二关)
2025-09-18 19:01:56.159 - 19 08 24 03 CC 00 D3 00 01 (调用厨房感应灯开的按键)
2025-09-18 19:01:56.192 - 55 0A 32 00 00 00 01 92 55 0A 32 00 00 00 02 93 (厨房顶灯一开, 厨房顶灯二开)
2025-09-18 19:07:47.848 - 19 08 24 03 CC 00 D4 00 01 (调用厨房感应灯关的按键)
2025-09-18 19:07:47.884 - 55 0A 31 00 00 00 01 91 55 0A 31 00 00 00 02 92 (厨房顶灯一关, 厨房顶灯二关)
2025-09-18 19:09:16.024 - 19 08 24 03 CC 00 D3 00 01 (调用厨房感应灯开的按键)
2025-09-18 19:09:16.057 - 55 0A 32 00 00 00 01 92 55 0A 32 00 00 00 02 93 (厨房顶灯一开, 厨房顶灯二开)
2025-09-18 19:11:15.760 - 19 08 24 03 CC 00 D4 00 01 (调用厨房感应灯关的按键)
2025-09-18 19:11:15.794 - 55 0A 31 00 00 00 01 91 55 0A 31 00 00 00 02 92 (厨房顶灯一关, 厨房顶灯二关)
2025-09-18 19:11:20.267 - 19 08 24 03 CC 00 D3 00 01 (调用厨房感应灯开的按键)
2025-09-18 19:11:20.301 - 55 0A 32 00 00 00 01 92 55 0A 32 00 00 00 02 93 (厨房顶灯一开, 厨房顶灯二开)
2025-09-18 19:12:34.249 - 19 08 24 03 DD 00 1C 00 01 (调用情景-外卫使用完毕)
2025-09-18 19:12:34.795 - EE 00 00 B1 00 00 00 FF FC FF FF (情景执行提示)
2025-09-18 19:12:35.389 - 09 06 00 0F 02 01 78 21 (提示音叮)
2025-09-18 19:12:35.945 - 1A 0D 01 07 01 FF 00 01 FF 00 01 FF 00 00 0F (调光器地址-外卫射灯, 外卫感应灯关)
2025-09-18 19:12:36.528 - 50 F5 03 (关外卫影视)
2025-09-18 19:12:37.113 - 1A 20 07 00 42 00 01 00 0F (自保持开关地址-外卫顶灯, 外卫顶灯关)
2025-09-18 19:12:37.682 - 1A FF FF FF 55 00 00 01 0F (人体感应地址-外卫, 打开外卫感应)
2025-09-18 19:12:37.788 - BC BC
2025-09-18 19:12:40.225 - 09 06 00 0F 02 02 38 20 (提示音咚)
2025-09-18 19:12:40.777 - EE 00 00 B1 00 00 02 FF FC FF FF (情景完成返回主页)
2025-09-18 19:12:48.318 - 19 08 24 03 CC 01 53 00 01 (调用外卫感应灯关的按键)
2025-09-18 19:12:48.372 - 1A 0D 01 07 01 FF 00 01 FF 00 01 FF 00 00 0F (调光器地址-外卫射灯, 外卫感应灯关)
2025-09-18 19:13:49.060 - 19 08 24 03 CC 00 D4 00 01 (调用厨房感应灯关的按键)
2025-09-18 19:13:49.095 - 55 0A 31 00 00 00 01 91 55 0A 31 00 00 00 02 92 (厨房顶灯一关, 厨房顶灯二关)
2025-09-18 19:13:53.567 - 19 08 24 03 CC 00 D3 00 01 (调用厨房感应灯开的按键)
2025-09-18 19:13:53.605 - 55 0A 32 00 00 00 01 92 55 0A 32 00 00 00 02 93 (厨房顶灯一开, 厨房顶灯二开)
2025-09-18 19:14:09.201 - 19 08 24 03 CC 01 CC 00 01 (调用茶吧感应灯开的按键)
2025-09-18 19:14:09.232 - 1A AA AA AA 88 FF B0 01 FF B0 01 0F (调光器地址-茶吧灯带, 茶吧灯带明亮)
2025-09-18 19:14:52.286 - 19 08 24 03 CC 01 CD 00 01 (调用茶吧感应灯关的按键)
2025-09-18 19:14:52.317 - 1A AA AA AA 88 FF 00 01 FF 00 01 0F (调光器地址-茶吧灯带, 茶吧灯带关闭)
2025-09-18 19:16:13.843 - 19 08 24 03 CC 00 D4 00 01 (调用厨房感应灯关的按键)
2025-09-18 19:16:13.883 - 55 0A 31 00 00 00 01 91 55 0A 31 00 00 00 02 92 (厨房顶灯一关, 厨房顶灯二关)
2025-09-18 19:16:46.912 - 19 08 24 03 CC 00 D3 00 01 (调用厨房感应灯开的按键)
2025-09-18 19:16:46.944 - 55 0A 32 00 00 00 01 92 55 0A 32 00 00 00 02 93 (厨房顶灯一开, 厨房顶灯二开)
2025-09-18 19:18:22.098 - 19 08 24 03 CC 00 D4 00 01 (调用厨房感应灯关的按键)
2025-09-18 19:18:22.133 - 55 0A 31 00 00 00 01 91 55 0A 31 00 00 00 02 92 (厨房顶灯一关, 厨房顶灯二关)
2025-09-18 19:18:37.096 - 1A BE B0 DC 04 (继电器地址-西阳窗帘)
2025-09-18 19:18:37.231 - FF
2025-09-18 19:19:15.703 - 19 08 24 03 CC 00 D3 00 01 (调用厨房感应灯开的按键)
2025-09-18 19:19:15.754 - 55 0A 32 00 00 00 01 92 55 0A 32 00 00 00 02 93 (厨房顶灯一开, 厨房顶灯二开)
2025-09-18 19:29:04.862 - 19 08 24 03 CC 00 D4 00 01 (调用厨房感应灯关的按键)
2025-09-18 19:29:04.914 - 55 0A 31 00 00 00 01 91 55 0A 31 00 00 00 02 92 (厨房顶灯一关, 厨房顶灯二关)
2025-09-18 19:30:51.069 - 19 08 24 03 CC 00 D3 00 01 (调用厨房感应灯开的按键)
2025-09-18 19:30:51.105 - 55 0A 32 00 00 00 01 92 55 0A 32 00 00 00 02 93 (厨房顶灯一开, 厨房顶灯二开)
2025-09-18 19:30:56.914 - 1A AA AA AA 66 00 00 02 0F (调光器地址-东阳筒灯, 东阳筒灯开关)
2025-09-18 19:31:03.189 - 1A AA AA AA 66 00 64 00 00 64 00 0F (调光器地址-东阳筒灯)
2025-09-18 19:31:04.109 - 1A AA AA AA 66 00 0F (调光器地址-东阳筒灯)
2025-09-18 19:32:09.724 - 19 08 24 03 CC 00 D4 00 01 (调用厨房感应灯关的按键)
2025-09-18 19:32:09.780 - 55 0A 31 00 00 00 01 91 55 0A 31 00 00 00 02 92 (厨房顶灯一关, 厨房顶灯二关)
2025-09-18 19:33:49.420 - 19 08 24 03 CC 00 D3 00 01 (调用厨房感应灯开的按键)
2025-09-18 19:33:49.457 - 55 0A 32 00 00 00 01 92 55 0A 32 00 00 00 02 93 (厨房顶灯一开, 厨房顶灯二开)
2025-09-18 19:38:19.953 - 19 08 24 03 CC 00 D4 00 01 (调用厨房感应灯关的按键)
2025-09-18 19:38:19.988 - 55 0A 31 00 00 00 01 91 55 0A 31 00 00 00 02 92 (厨房顶灯一关, 厨房顶灯二关)
2025-09-18 19:38:38.992 - 19 08 24 03 CC 00 D3 00 01 (调用厨房感应灯开的按键)
2025-09-18 19:38:39.024 - 55 0A 32 00 00 00 01 92 55 0A 32 00 00 00 02 93 (厨房顶灯一开, 厨房顶灯二开)
2025-09-18 19:40:31.713 - 19 08 24 03 CC 00 D4 00 01 (调用厨房感应灯关的按键)
2025-09-18 19:40:31.766 - 55 0A 31 00 00 00 01 91 55 0A 31 00 00 00 02 92 (厨房顶灯一关, 厨房顶灯二关)
2025-09-18 19:40:35.721 - 19 08 24 03 CC 00 D3 00 01 (调用厨房感应灯开的按键)
2025-09-18 19:40:35.756 - 55 0A 32 00 00 00 01 92 55 0A 32 00 00 00 02 93 (厨房顶灯一开, 厨房顶灯二开)
2025-09-18 19:44:55.950 - 55 00 A6 00 00 0F 01 74 AA 55 00 A6 00 00 0F 01 74 AA (餐厅窗帘电机状态返回)
2025-09-18 20:02:00.751 - 19 08 24 03 CC 00 D4 00 01 (调用厨房感应灯关的按键)
2025-09-18 20:02:00.803 - 55 0A 31 00 00 00 01 91 55 0A 31 00 00 00 02 92 (厨房顶灯一关, 厨房顶灯二关)
2025-09-18 20:02:50.346 - 19 08 24 03 CC 00 D3 00 01 (调用厨房感应灯开的按键)
2025-09-18 20:02:50.381 - 55 0A 32 00 00 00 01 92 55 0A 32 00 00 00 02 93 (厨房顶灯一开, 厨房顶灯二开)
2025-09-18 20:05:37.568 - 1A BE B0 DC 03 (继电器地址-西阳天幕)
2025-09-18 20:05:37.704 - FF
2025-09-18 20:10:49.788 - 19 08 24 03 CC 00 D4 00 01 (调用厨房感应灯关的按键)
2025-09-18 20:10:49.842 - 55 0A 31 00 00 00 01 91 55 0A 31 00 00 00 02 92 (厨房顶灯一关, 厨房顶灯二关)
2025-09-18 20:11:47.400 - 19 08 24 03 CC 00 D3 00 01 (调用厨房感应灯开的按键)
2025-09-18 20:11:47.456 - 55 0A 32 00 00 00 01 92 55 0A 32 00 00 00 02 93 (厨房顶灯一开, 厨房顶灯二开)
2025-09-18 20:13:43.629 - 19 08 24 03 CC 00 D4 00 01 (调用厨房感应灯关的按键)
2025-09-18 20:13:43.668 - 55 0A 31 00 00 00 01 91 55 0A 31 00 00 00 02 92 (厨房顶灯一关, 厨房顶灯二关)
2025-09-18 20:17:56.628 - 19 08 24 03 CC 00 D3 00 01 (调用厨房感应灯开的按键)
2025-09-18 20:17:56.663 - 55 0A 32 00 00 00 01 92 55 0A 32 00 00 00 02 93 (厨房顶灯一开, 厨房顶灯二开)
2025-09-18 20:18:36.545 - 1A BE B0 DC 01 FC (继电器地址-回水泵点动)
2025-09-18 20:19:24.301 - 19 08 24 03 CC 00 D4 00 01 (调用厨房感应灯关的按键)
2025-09-18 20:19:24.354 - 55 0A 31 00 00 00 01 91 55 0A 31 00 00 00 02 92 (厨房顶灯一关, 厨房顶灯二关)
2025-09-18 20:19:33.820 - 19 08 24 03 CC 00 D3 00 01 (调用厨房感应灯开的按键)
2025-09-18 20:19:33.873 - 55 0A 32 00 00 00 01 92 55 0A 32 00 00 00 02 93 (厨房顶灯一开, 厨房顶灯二开)
2025-09-18 20:20:39.948 - 19 08 24 03 CC 00 D4 00 01 (调用厨房感应灯关的按键)
2025-09-18 20:20:39.987 - 55 0A 31 00 00 00 01 91 55 0A 31 00 00 00 02 92 (厨房顶灯一关, 厨房顶灯二关)
2025-09-18 20:21:35.057 - 19 08 24 03 CC 00 D3 00 01 (调用厨房感应灯开的按键)
2025-09-18 20:21:35.093 - 55 0A 32 00 00 00 01 92 55 0A 32 00 00 00 02 93 (厨房顶灯一开, 厨房顶灯二开)
2025-09-18 20:23:44.312 - 19 08 24 03 CC 00 D4 00 01 (调用厨房感应灯关的按键)
2025-09-18 20:23:44.347 - 55 0A 31 00 00 00 01 91 55 0A 31 00 00 00 02 92 (厨房顶灯一关, 厨房顶灯二关)
2025-09-18 20:30:02.056 - 19 08 24 03 CC 00 D3 00 01 (调用厨房感应灯开的按键)
2025-09-18 20:30:02.090 - 55 0A 32 00 00 00 01 92 55 0A 32 00 00 00 02 93 (厨房顶灯一开, 厨房顶灯二开)
2025-09-18 20:31:18.707 - 19 08 24 03 CC 00 D4 00 01 (调用厨房感应灯关的按键)
2025-09-18 20:31:18.743 - 55 0A 31 00 00 00 01 91 55 0A 31 00 00 00 02 92 (厨房顶灯一关, 厨房顶灯二关)
2025-09-18 20:32:26.357 - 1A BE B0 DC 02 (正反转地址-外卫卷帘)
2025-09-18 20:37:36.448 - 19 08 24 03 CC 00 D3 00 01 (调用厨房感应灯开的按键)
2025-09-18 20:37:36.501 - 55 0A 32 00 00 00 01 92 55 0A 32 00 00 00 02 93 (厨房顶灯一开, 厨房顶灯二开)
2025-09-18 20:38:30.557 - 19 08 24 03 CC 00 D4 00 01 (调用厨房感应灯关的按键)
2025-09-18 20:38:30.609 - 55 0A 31 00 00 00 01 91 55 0A 31 00 00 00 02 92 (厨房顶灯一关, 厨房顶灯二关)
2025-09-18 20:38:58.924 - 01 04 07 D0 00 06 70 85
2025-09-18 20:38:58.960 - 01 04 0C 70 01 42 02 00 FA 00 00 01 04 00 00 70 78
2025-09-18 20:38:59.086 - 01 04 07 D6 00 06 90 84
2025-09-18 20:38:59.122 - 01 04 0C 70 01 42 02 00 FA 00 00 01 18 00 00 B1 BE
2025-09-18 20:38:59.244 - 01 04 07 DC 00 06 B0 86
2025-09-18 20:38:59.274 - 01 04 0C 50 00 42 02 01 04 00 00 01 22 00 00 CA F3
2025-09-18 20:38:59.400 - 01 04 07 E2 00 06 D1 4A
2025-09-18 20:38:59.435 - 01 04 0C 70 00 42 02 00 FA 00 00 01 0E 00 00 54 86
2025-09-18 20:38:59.560 - 01 04 07 E8 00 06 F1 48
2025-09-18 20:38:59.595 - 01 04 0C 70 00 42 02 00 FA 00 00 01 22 00 00 95 4F
2025-09-18 20:39:05.336 - 01 06 07 D6 FF 61 E9 5E
2025-09-18 20:39:05.365 - 01 06 07 D6 FF 61 E9 5E
2025-09-18 20:39:06.643 - 01 04 07 DC 00 06 B0 86
2025-09-18 20:39:06.676 - 01 04 0C 50 01 42 02 01 04 00 00 01 22 00 00 CE 0F
2025-09-18 20:39:07.717 - 01 06 07 D8 00 FA 88 C6
2025-09-18 20:39:07.748 - 01 06 07 D8 00 FA 88 C6
2025-09-18 20:39:08.506 - 01 06 07 D8 00 F0 08 C1
2025-09-18 20:39:08.536 - 01 06 07 D8 00 F0 08 C1
2025-09-18 20:39:09.035 - 01 04 07 DC 00 06 B0 86
2025-09-18 20:39:09.069 - 01 04 0C 50 01 42 02 00 F0 00 00 01 22 00 00 BA 0C
2025-09-18 20:39:09.795 - 01 04 07 DC 00 06 B0 86
2025-09-18 20:39:09.827 - 01 04 0C 50 01 42 02 00 F0 00 00 01 22 00 00 BA 0C
2025-09-18 20:39:10.402 - 01 06 07 D8 00 E6 89 0F
2025-09-18 20:39:10.434 - 01 06 07 D8 00 E6 89 0F
2025-09-18 20:39:11.487 - 01 06 07 D8 00 DC 09 1C
2025-09-18 20:39:11.566 - FD
2025-09-18 20:39:11.572 - DF DF F7
2025-09-18 20:39:11.574 - DF EF DF
2025-09-18 20:39:11.707 - 01 04 07 DC 00 06 B0 86
2025-09-18 20:39:11.762 - 01 04 0C 50 01 42 02 00 E6 00 00 01 E2 FF
2025-09-18 20:39:11.766 - EF FF
2025-09-18 20:39:12.815 - 01 04 07 DC 00 06 B0 86
2025-09-18 20:39:12.847 - 01 04 0C 50 01 42 02 00 DC 00 00 01 22 00 00 57 CE
2025-09-18 20:39:13.322 - 01 04 07 DC 00 06 B0 86
2025-09-18 20:39:13.351 - 01 04 0C 50 01 42 02 00 DC 00 00 01 22 00 00 57 CE
2025-09-18 20:39:15.661 - 01 04 07 DC 00 06 B0 86
2025-09-18 20:39:15.695 - 01 04 0C 50 01 42 02 00 DC 00 00 01 22 00 00 57 CE
2025-09-18 20:39:17.284 - 01 04 07 DC 00 06 B0 86
2025-09-18 20:39:17.320 - 01 04 0C 50 01 42 02 00 DC 00 00 01 22 00 00 57 CE
2025-09-18 20:39:21.090 - 1A BE B0 DC 09 FF (继电器地址-客厅窗帘)
2025-09-18 20:39:21.224 - FF
2025-09-18 20:39:35.398 - 1A 27 89 12 AA 86 86 86 0F (查询寄存器状态, 状态寄存器地址)
2025-09-18 20:39:35.779 - 1A 27 89 12 AA 01 00 00 00 00 00 00 00 00 00 00 01 00 00 00 00 0F (状态寄存器地址)
2025-09-18 20:39:37.394 - 1A EC A0 DC 02 86 86 86 0F (查询天花供电状态, 自保持开关地址-天花12V供电)
2025-09-18 20:39:37.828 - 1A EC A0 DC 02 01 01 0F (自保持开关地址-天花12V供电)
2025-09-18 20:39:37.972 - 1A EC A0 DC 01 86 86 86 0F (查询电视供电状态, 自保持开关地址-电视、设备12V供电)
2025-09-18 20:39:38.406 - 1A EC A0 DC 01 01 01 0F (自保持开关地址-电视、设备12V供电)
2025-09-18 20:39:38.557 - 1A EC A0 DC 03 86 86 86 0F (自保持开关地址-书房餐厅厨房供电)
2025-09-18 20:39:38.988 - 1A EC A0 DC 03 01 01 0F (自保持开关地址-书房餐厅厨房供电)
2025-09-18 20:39:39.118 - 1A EC A0 DC 04 86 86 86 0F (查询卫生间供电状态, 自保持开关地址-次卧西阳内外卫供电)
2025-09-18 20:39:39.549 - 1A EC A0 DC 04 01 01 0F (自保持开关地址-次卧西阳内外卫供电)
2025-09-18 20:39:39.675 - 1A 27 89 12 AA 86 86 86 0F (查询寄存器状态, 状态寄存器地址)
2025-09-18 20:39:40.060 - 1A 27 89 12 AA 01 00 00 00 00 00 00 00 00 00 00 01 00 00 00 00 0F (状态寄存器地址)
2025-09-18 20:40:00.793 - 1A FF 03 00 00 86 86 86 0F (调用查询模块-主卧空调开关查询, 主卧空调虚拟地址)
2025-09-18 20:40:01.017 - 01 04 07 DC 00 01 F1 44 (查询主卧空调开关状态)
2025-09-18 20:40:01.037 - 01 04 02 50 01 44 F0
2025-09-18 20:40:02.021 - 1A FF 03 00 00 01 00 0F (主卧空调虚拟地址)
2025-09-18 20:40:02.157 - 1A FF 04 00 00 86 86 86 0F (调用查询模块-次卧空调开关查询, 次卧空调虚拟地址)
2025-09-18 20:40:02.382 - 01 04 07 E2 00 01 90 88 (查询次卧空调开关状态)
2025-09-18 20:40:02.404 - 01 04 02 70 00 9C F0
2025-09-18 20:40:03.384 - 1A FF 04 00 00 00 00 0F (次卧空调虚拟地址)
2025-09-18 20:40:05.567 - 1A FF 02 00 00 86 86 86 0F (调用查询模块-餐厅空调开关查询, 餐厅空调虚拟地址)
2025-09-18 20:40:05.788 - 01 04 07 D6 00 01 D1 46 (查询餐厅空调开关状态)
2025-09-18 20:40:05.815 - 01 04 02 70 01 5D 30
2025-09-18 20:40:06.791 - 1A FF 02 00 00 01 00 0F (餐厅空调虚拟地址)
2025-09-18 20:40:06.929 - 1A FF 01 00 00 86 86 86 0F (调用查询模块-客厅空调开关查询, 客厅空调虚拟地址)
2025-09-18 20:40:07.150 - 01 04 07 D0 00 01 31 47 (查询客厅空调开关状态)
2025-09-18 20:40:07.178 - 01 04 02 70 01 5D 30
2025-09-18 20:40:08.153 - 1A FF 01 00 00 01 00 0F (客厅空调虚拟地址)
2025-09-18 20:40:08.294 - 1A 10 00 00 00 86 86 86 0F (调用查询模块-主卧测温转换, 主卧温湿度虚拟地址)
2025-09-18 20:40:08.514 - 1D 03 00 00 00 02 C6 57 (查询主卧温湿度)
2025-09-18 20:40:08.534 - 1D 03 04 02 55 01 23 76 13 (主卧温湿度返回)
2025-09-18 20:40:09.537 - 1A 10 00 00 00 00 00 01 00 00 01 00 00 01 01 23 01 02 55 01 00 00 01 00 00 01 0F (主卧温湿度虚拟地址)
2025-09-18 20:40:09.681 - 1A 11 00 00 00 86 86 86 0F (调用查询模块-次卧测温转换, 次卧温湿度虚拟地址)
2025-09-18 20:40:09.907 - 11 03 00 00 00 02 C6 9B (查询次卧温湿度)
2025-09-18 20:40:09.929 - 11 03 04 02 1E 01 10 8A 10 (次卧温湿度返回)
2025-09-18 20:40:10.931 - 1A 11 00 00 00 00 00 01 00 00 01 00 00 01 01 10 01 02 1E 01 00 00 01 00 00 01 0F (次卧温湿度虚拟地址)
2025-09-18 20:40:11.060 - 1A 12 00 00 00 86 86 86 0F (调用查询模块-书房测温转换, 书房温湿度虚拟地址)
2025-09-18 20:40:11.291 - 12 03 00 00 00 02 C6 A8 (查询书房温湿度)
2025-09-18 20:40:11.313 - 12 03 04 01 E0 01 18 D9 62 (书房温湿度返回)
2025-09-18 20:40:12.312 - 1A 12 00 00 00 00 00 01 00 00 01 00 00 01 01 18 01 01 E0 01 00 00 01 00 00 01 0F (书房温湿度虚拟地址)
2025-09-18 20:40:12.485 - 1A 13 00 00 00 86 86 86 0F (调用查询模块-外卫测温转换, 外卫温湿度虚拟地址)
2025-09-18 20:40:12.712 - 13 03 00 00 00 02 C7 79 (查询外卫温湿度)
2025-09-18 20:40:12.735 - 13 03 04 01 AE 01 13 E8 72 (外卫温湿度返回)
2025-09-18 20:40:13.739 - 1A 13 00 00 00 00 00 01 00 00 01 00 00 01 01 13 01 01 AE 01 00 00 01 00 00 01 0F (外卫温湿度虚拟地址)
2025-09-18 20:40:13.873 - 1A 14 00 00 00 86 86 86 0F (调用查询模块-内卫测温转换, 内卫温湿度虚拟地址)
2025-09-18 20:40:14.096 - 14 03 00 00 00 02 C6 CE (查询内卫温湿度)
2025-09-18 20:40:14.116 - 14 03 04 02 94 01 26 7E EC (内卫温湿度返回)
2025-09-18 20:40:15.120 - 1A 14 00 00 00 00 00 01 00 00 01 00 00 01 01 26 01 02 94 01 00 00 01 00 00 01 0F (内卫温湿度虚拟地址)
2025-09-18 20:40:15.301 - 1A 15 00 00 00 86 86 86 0F (调用查询模块-客厅测温转换, 客厅温湿度虚拟地址)
2025-09-18 20:40:15.529 - 15 03 00 00 00 02 C7 1F (查询客厅温湿度)
2025-09-18 20:40:15.549 - 15 03 04 01 BF 00 FE 1F AA (客厅温湿度返回)
2025-09-18 20:40:16.552 - 1A 15 00 00 00 00 00 01 00 00 01 00 00 01 00 FE 01 01 BF 01 00 00 01 00 00 01 0F (客厅温湿度虚拟地址)
2025-09-18 20:40:16.708 - 1A 16 00 00 00 86 86 86 0F (调用查询模块-机柜测温转换, 机柜温湿度虚拟地址)
2025-09-18 20:40:16.932 - 16 03 00 00 00 02 C7 2C (查询机柜温湿度)
2025-09-18 20:40:17.954 - 1A 16 00 00 00 00 00 01 00 00 01 00 00 01 86 86 01 00 00 01 00 00 01 00 00 01 0F (机柜温湿度虚拟地址)
2025-09-18 20:40:18.084 - 1A 0E 00 00 00 86 86 86 0F (调用查询模块-厨房测温转换, 厨房温湿度虚拟地址)
2025-09-18 20:40:18.305 - 0E 03 00 00 00 02 C4 F4 (查询厨房温湿度)
2025-09-18 20:40:18.329 - 0E 03 04 01 9D 01 22 14 A8 (厨房温湿度返回)
2025-09-18 20:40:19.328 - 1A 0E 00 00 00 00 00 01 00 00 01 00 00 01 01 22 01 01 9D 01 00 00 01 00 00 01 0F (厨房温湿度虚拟地址)
2025-09-18 20:40:19.461 - 1A 0F 00 00 00 86 86 86 0F (调用查询模块-餐厅测温转换, 餐厅温湿度虚拟地址)
2025-09-18 20:40:19.688 - 1C 03 00 00 00 02 C7 86 (查询餐厅温湿度)
2025-09-18 20:40:19.710 - 1C 03 04 01 BA 01 11 D6 B7 (餐厅温湿度返回)
2025-09-18 20:40:20.711 - 1A 0F 00 00 00 00 00 01 00 00 01 00 00 01 01 11 01 01 BA 01 00 00 01 00 00 01 0F (餐厅温湿度虚拟地址)
2025-09-18 20:40:20.848 - 1A 20 00 00 00 86 86 86 0F (调用查询模块-阳台测温湿气压转换, 阳台温湿气压虚拟地址)
2025-09-18 20:40:21.069 - 20 03 00 00 00 03 03 7A (查询阳台温湿度气压)
2025-09-18 20:40:21.095 - 20 03 06 01 05 01 9B 27 56 93 28 (阳台温湿度返回)
2025-09-18 20:40:21.592 - 1A 20 00 00 00 00 00 01 00 00 01 00 00 01 01 05 01 01 9B 01 27 56 01 00 00 01 0F (阳台温湿气压虚拟地址)
2025-09-18 20:40:21.732 - 1A 21 00 00 00 86 86 86 0F (调用查询模块-储藏室测温湿气压转换, 储藏室温湿气压虚拟地址)
2025-09-18 20:40:21.952 - 21 03 00 00 00 03 02 AB (查询储藏室温湿度气压)
2025-09-18 20:40:21.974 - 21 03 06 01 2F 02 7A 27 56 D7 0C (储藏室温湿度返回)
2025-09-18 20:40:22.473 - 1A 21 00 00 00 00 00 01 00 00 01 00 00 01 01 2F 01 02 7A 01 27 56 01 00 00 01 0F (储藏室温湿气压虚拟地址)
2025-09-18 20:40:22.655 - 1A 22 00 00 00 86 86 86 0F 19 08 24 03 AB 00 00 33 01 (调用查询模块-室外测温湿气压转换, 室外温湿气压虚拟地址)
2025-09-18 20:40:22.885 - 22 03 00 00 00 03 02 98 (查询室外温湿度气压)
2025-09-18 20:40:22.907 - 22 03 06 01 0F 02 FC 27 55 E3 D3 (室外温湿度返回)
2025-09-18 20:40:23.407 - 1A 22 00 00 00 00 00 01 00 00 01 00 00 01 01 0F 01 02 FC 01 27 55 01 00 00 01 0F (室外温湿气压虚拟地址)
2025-09-18 20:40:23.578 - 1A FF 05 00 00 86 86 86 0F (调用查询模块-书房空调开关查询, 书房空调虚拟地址)
2025-09-18 20:40:23.807 - 01 04 07 E8 00 01 B0 8A (查询书房空调开关状态)
2025-09-18 20:40:23.833 - 01 04 02 70 00 9C F0
2025-09-18 20:40:24.809 - 1A FF 05 00 00 00 00 0F (书房空调虚拟地址)
2025-09-18 20:40:37.306 - 19 08 24 03 CC 00 D3 00 01 (调用厨房感应灯开的按键)
2025-09-18 20:40:37.360 - 55 0A 32 00 00 00 01 92 55 0A 32 00 00 00 02 93 (厨房顶灯一开, 厨房顶灯二开)
2025-09-18 20:41:05.912 - 02 AF 06 17 01 CD FF (门锁开门指令)
2025-09-18 20:41:14.596 - 02 AF 06 17 01 CD FF 19 08 24 03 CD B8 B4 AB 02 AF 06 17 01 CD FF 19 08 24 03 CD B8 B4 AB 02 AF (门锁开门指令)
2025-09-18 20:41:14.630 - 06 17 01 CD FF 19 08 24 03 CD B8 B4 AB 02 AF 06 17 01 CD FF F0 BB 78 52 14 29 12 19 09 12 04 23 (门锁开门指令)
2025-09-18 20:41:14.632 - E8
2025-09-18 20:41:36.424 - 19 08 24 03 CC 00 D4 00 01 (调用厨房感应灯关的按键)
2025-09-18 20:41:36.460 - 55 0A 31 00 00 00 01 91 55 0A 31 00 00 00 02 92 (厨房顶灯一关, 厨房顶灯二关)
2025-09-18 20:42:06.753 - 19 08 24 03 CC 01 CC 00 01 (调用茶吧感应灯开的按键)
2025-09-18 20:42:06.785 - 1A AA AA AA 88 FF B0 01 FF B0 01 0F (调光器地址-茶吧灯带, 茶吧灯带明亮)
2025-09-18 20:42:12.994 - 19 08 24 03 CC 00 D3 00 01 (调用厨房感应灯开的按键)
2025-09-18 20:42:13.030 - 55 0A 32 00 00 00 01 92 55 0A 32 00 00 00 02 93 (厨房顶灯一开, 厨房顶灯二开)
2025-09-18 20:42:27.796 - 19 08 24 03 CC 01 CD 00 01 (调用茶吧感应灯关的按键)
2025-09-18 20:42:27.826 - 1A AA AA AA 88 FF 00 01 FF 00 01 0F (调光器地址-茶吧灯带, 茶吧灯带关闭)
2025-09-18 20:43:00.094 - 19 08 24 03 CC 00 D4 00 01 (调用厨房感应灯关的按键)
2025-09-18 20:43:00.123 - 55 0A 31 00 00 00 01 91 55 0A 31 00 00 00 02 92 (厨房顶灯一关, 厨房顶灯二关)
2025-09-18 20:43:24.908 - 19 08 24 03 CC 01 CC 00 01 (调用茶吧感应灯开的按键)
2025-09-18 20:43:24.938 - 1A AA AA AA 88 FF B0 01 FF B0 01 0F (调光器地址-茶吧灯带, 茶吧灯带明亮)
2025-09-18 20:44:00.480 - 19 08 24 03 CC 01 CD 00 01 (调用茶吧感应灯关的按键)
2025-09-18 20:44:00.509 - 1A AA AA AA 88 FF 00 01 FF 00 01 0F (调光器地址-茶吧灯带, 茶吧灯带关闭)
2025-09-18 20:44:14.192 - 19 08 24 03 CC 01 52 00 01 (调用外卫感应灯开的按键)
2025-09-18 20:44:14.226 - 1A 0D 01 07 01 FF 45 01 FF 45 01 FF 00 00 0F (调光器地址-外卫射灯, 外卫感应灯开)
2025-09-18 20:44:46.756 - 19 08 24 03 CC 01 53 00 01 (调用外卫感应灯关的按键)
2025-09-18 20:44:46.790 - 1A 0D 01 07 01 FF 00 01 FF 00 01 FF 00 00 0F (调光器地址-外卫射灯, 外卫感应灯关)
2025-09-18 20:44:54.591 - 19 08 24 03 DD 00 42 00 01 (调用情景-主卧电视空调)
2025-09-18 20:44:55.126 - EE 00 00 B1 00 00 00 FF FC FF FF (情景执行提示)
2025-09-18 20:44:55.719 - 09 06 00 0F 02 01 78 21 (提示音叮)
2025-09-18 20:44:56.264 - 50 F0 05 (开主卧影视)
2025-09-18 20:44:57.308 - 50 F0 04 (开内卫影视)
2025-09-18 20:44:57.863 - 1A FF FF FF 56 00 00 00 0F (人体感应地址-内卫, 关闭内卫感应)
2025-09-18 20:44:57.975 - BF BF
2025-09-18 20:44:58.462 - 1A 22 33 62 0F 00 02 01 0F (正反转地址-内卫卷帘, 内卫卷帘降)
2025-09-18 20:44:59.036 - 55 11 1D 03 01 7C 06 (主卧纱帘关)
2025-09-18 20:44:59.083 - 55 11 1D 03 01 7C 06 (主卧纱帘关)
2025-09-18 20:45:00.107 - 55 12 12 03 02 0C 40 (主卧窗帘关)
2025-09-18 20:45:00.145 - 55 12 12 03 02 0C 40 (主卧窗帘关)
2025-09-18 20:45:01.209 - 1A 0C 02 04 FF FF 45 01 FF 45 01 FF 00 00 0F (主卧调光微光)
2025-09-18 20:45:05.296 - 1A 0C 02 08 01 FF 45 01 FF 45 01 FF 00 00 0F (调光器地址-内卫射灯, 内卫射灯微光)
2025-09-18 20:45:05.883 - 50 F1 25 (主卧—有线2)
2025-09-18 20:45:06.460 - A1 11 11 11 42 (主卧空调自动开)
2025-09-18 20:45:06.683 - 19 08 24 03 F0 BB 78 02 02 00
2025-09-18 20:45:06.735 - 23 AA 56 02 14 2D 0A 19 09 12 04 73 65 6F 6B 65 6E 64
2025-09-18 20:45:07.029 - 50 F1 24 (内卫—有线2)
2025-09-18 20:45:07.693 - 01 10 07 D6 00 03 06 70 61 00 02 00 F0 0F 3E (主卧空调冷24度)
2025-09-18 20:45:07.732 - 01 10 07 D6 00 03 06 70 61 00 02 00 F0 0F 3E (主卧空调冷24度)
2025-09-18 20:45:09.074 - AF BF CF DF C2 21 (有线2/快捷-凤凰卫视)
2025-09-18 20:45:11.123 - 1A FF FF FF 60 0B 01 01 0F (红外总线地址-主卧发射设备, 主卧电视电源)
2025-09-18 20:45:11.642 - F0 0B 01 08
2025-09-18 20:45:19.147 - 09 06 00 0F 02 02 38 20 (提示音咚)
2025-09-18 20:45:19.702 - EE 00 00 B1 00 00 02 FF FC FF FF (情景完成返回主页)
2025-09-18 20:45:48.931 - 19 08 24 03 CC 00 D3 00 01 (调用厨房感应灯开的按键)
2025-09-18 20:45:48.984 - 55 0A 32 00 00 00 01 92 55 0A 32 00 00 00 02 93 (厨房顶灯一开, 厨房顶灯二开)
2025-09-18 20:46:47.544 - 19 08 24 03 CC 00 D4 00 01 (调用厨房感应灯关的按键)
2025-09-18 20:46:47.581 - 55 0A 31 00 00 00 01 91 55 0A 31 00 00 00 02 92 (厨房顶灯一关, 厨房顶灯二关)
2025-09-18 20:48:41.269 - 19 08 24 03 CC 00 D3 00 01 (调用厨房感应灯开的按键)
2025-09-18 20:48:41.305 - 55 0A 32 00 00 00 01 92 55 0A 32 00 00 00 02 93 (厨房顶灯一开, 厨房顶灯二开)
2025-09-18 20:50:12.952 - 19 08 24 03 CC 00 D4 00 01 (调用厨房感应灯关的按键)
2025-09-18 20:50:12.985 - 55 0A 31 00 00 00 01 91 55 0A 31 00 00 00 02 92 (厨房顶灯一关, 厨房顶灯二关)
2025-09-18 20:52:38.238 - 19 08 24 03 CC 00 D3 00 01 (调用厨房感应灯开的按键)
2025-09-18 20:52:38.272 - 55 0A 32 00 00 00 01 92 55 0A 32 00 00 00 02 93 (厨房顶灯一开, 厨房顶灯二开)
2025-09-18 20:53:17.804 - 1A FF FF FF 04 FC (继电器地址-东阳衣架)
2025-09-18 20:53:17.938 - FF
2025-09-18 20:53:36.351 - 19 08 24 03 CC 00 D4 00 01 (调用厨房感应灯关的按键)
2025-09-18 20:53:36.403 - 55 0A 31 00 00 00 01 91 55 0A 31 00 00 00 02 92 (厨房顶灯一关, 厨房顶灯二关)
2025-09-18 20:54:22.442 - 19 08 24 03 CC 00 D3 00 01 (调用厨房感应灯开的按键)
2025-09-18 20:54:22.495 - 55 0A 32 00 00 00 01 92 55 0A 32 00 00 00 02 93 (厨房顶灯一开, 厨房顶灯二开)
2025-09-18 20:57:14.647 - FF FF FF FF 0E (继电器地址-西阳小窗帘)
2025-09-18 20:57:14.785 - FF
2025-09-18 20:58:24.415 - 19 08 24 03 CC 00 D4 00 01 (调用厨房感应灯关的按键)
2025-09-18 20:58:24.471 - 55 0A 31 00 00 00 01 91 55 0A 31 00 00 00 02 92 (厨房顶灯一关, 厨房顶灯二关)
2025-09-18 21:00:04.614 - 19 08 24 03 CC 00 D3 00 01 (调用厨房感应灯开的按键)
2025-09-18 21:00:04.668 - 55 0A 32 00 00 00 01 92 55 0A 32 00 00 00 02 93 (厨房顶灯一开, 厨房顶灯二开)
2025-09-18 21:02:25.891 - 19 08 24 03 CC 00 D4 00 01 (调用厨房感应灯关的按键)
2025-09-18 21:02:25.927 - 55 0A 31 00 00 00 01 91 55 0A 31 00 00 00 02 92 (厨房顶灯一关, 厨房顶灯二关)
2025-09-18 21:04:55.686 - 19 08 24 03 CC 00 D3 00 01 (调用厨房感应灯开的按键)
2025-09-18 21:04:55.722 - 55 0A 32 00 00 00 01 92 55 0A 32 00 00 00 02 93 (厨房顶灯一开, 厨房顶灯二开)
2025-09-18 21:05:54.281 - 19 08 24 03 CC 01 52 00 01 (调用外卫感应灯开的按键)
2025-09-18 21:05:54.314 - 1A 0D 01 07 01 FF 45 01 FF 45 01 FF 00 00 0F (调光器地址-外卫射灯, 外卫感应灯开)
2025-09-18 21:05:54.938 - 19 08 24 03 DD 00 1B 00 01 (调用情景-外卫使用)
2025-09-18 21:05:55.464 - EE 00 00 B1 00 00 00 FF FC FF FF (情景执行提示)
2025-09-18 21:05:56.060 - 09 06 00 0F 02 01 78 21 (提示音叮)
2025-09-18 21:05:56.605 - 50 F0 03 (开外卫影视)
2025-09-18 21:05:57.158 - 1A FF FF FF 55 00 00 00 0F (人体感应地址-外卫, 关闭外卫感应)
2025-09-18 21:05:57.265 - BF BF
2025-09-18 21:05:57.711 - 1A 0D 01 07 01 FF 45 01 FF 45 01 FF 00 00 0F (调光器地址-外卫射灯, 外卫感应灯开)
2025-09-18 21:05:59.797 - 1A BE B0 DC 01 00 01 00 (继电器地址-回水泵点动, 回水泵点动)
2025-09-18 21:06:00.844 - 1A BE B0 DC 01 00 01 00 (继电器地址-回水泵点动, 回水泵点动)
2025-09-18 21:06:01.892 - 1A BE B0 DC 01 00 01 00 (继电器地址-回水泵点动, 回水泵点动)
2025-09-18 21:06:02.933 - 50 F1 43 (外卫—CH4)
2025-09-18 21:06:07.227 - A1 11 11 11 11 05 (外卫使用浴霸判断)
2025-09-18 21:06:07.453 - 13 03 00 00 00 02 C7 79 (查询外卫温湿度)
2025-09-18 21:06:07.469 - 13 03 04 01 B8 01 11 88 77 (外卫温湿度返回)
2025-09-18 21:06:09.318 - 09 06 00 0F 02 02 38 20 (提示音咚)
2025-09-18 21:06:11.416 - EE 00 00 B1 00 00 02 FF FC FF FF (情景完成返回主页)
2025-09-18 21:06:18.858 - 19 08 24 03 CC 00 D4 00 01 (调用厨房感应灯关的按键)
2025-09-18 21:06:18.918 - 55 0A 31 00 00 00 01 91 55 0A 31 00 00 00 02 92 (厨房顶灯一关, 厨房顶灯二关)
2025-09-18 21:07:03.948 - 19 08 24 03 CC 00 D3 00 01 (调用厨房感应灯开的按键)
2025-09-18 21:07:03.982 - 55 0A 32 00 00 00 01 92 55 0A 32 00 00 00 02 93 (厨房顶灯一开, 厨房顶灯二开)
2025-09-18 21:07:58.055 - 19 08 24 03 CC 00 D4 00 01 (调用厨房感应灯关的按键)
2025-09-18 21:07:58.086 - 55 0A 31 00 00 00 01 91 55 0A 31 00 00 00 02 92 (厨房顶灯一关, 厨房顶灯二关)
2025-09-18 21:09:27.728 - 19 08 24 03 CC 00 D3 00 01 (调用厨房感应灯开的按键)
2025-09-18 21:09:27.766 - 55 0A 32 00 00 00 01 92 55 0A 32 00 00 00 02 93 (厨房顶灯一开, 厨房顶灯二开)
2025-09-18 21:10:29.852 - 19 08 24 03 CC 00 D4 00 01 (调用厨房感应灯关的按键)
2025-09-18 21:10:29.886 - 55 0A 31 00 00 00 01 91 55 0A 31 00 00 00 02 92 (厨房顶灯一关, 厨房顶灯二关)
2025-09-18 21:13:46.741 - 19 08 24 03 CC 00 D3 00 01 (调用厨房感应灯开的按键)
2025-09-18 21:13:46.774 - 55 0A 32 00 00 00 01 92 55 0A 32 00 00 00 02 93 (厨房顶灯一开, 厨房顶灯二开)
2025-09-18 21:17:11.191 - 19 08 24 03 DD 00 1C 00 01 (调用情景-外卫使用完毕)
2025-09-18 21:17:11.695 - EE 00 00 B1 00 00 00 FF FC FF FF (情景执行提示)
2025-09-18 21:17:12.290 - 09 06 00 0F 02 01 78 21 (提示音叮)
2025-09-18 21:17:12.897 - 1A 0D 01 07 01 FF 00 01 FF 00 01 FF 00 00 0F (调光器地址-外卫射灯, 外卫感应灯关)
2025-09-18 21:17:13.481 - 50 F5 03 (关外卫影视)
2025-09-18 21:17:14.035 - 1A 20 07 00 42 00 01 00 0F (自保持开关地址-外卫顶灯, 外卫顶灯关)
2025-09-18 21:17:14.583 - 1A FF FF FF 55 00 00 01 0F (人体感应地址-外卫, 打开外卫感应)
2025-09-18 21:17:14.686 - BC BC
2025-09-18 21:17:15.149 - 19 08 24 03 CC 00 D4 00 01 (调用厨房感应灯关的按键)
2025-09-18 21:17:17.127 - 09 06 00 0F 02 02 38 20 (提示音咚)
2025-09-18 21:17:17.678 - EE 00 00 B1 00 00 02 FF FC FF FF (情景完成返回主页)
2025-09-18 21:17:26.720 - 19 08 24 03 CC 01 53 00 01 (调用外卫感应灯关的按键)
2025-09-18 21:17:26.770 - 1A 0D 01 07 01 FF 00 01 FF 00 01 FF 00 00 0F (调光器地址-外卫射灯, 外卫感应灯关)
2025-09-18 21:18:16.047 - 1A BE B0 DC 0A (继电器地址-客厅纱帘)
2025-09-18 21:18:39.314 - 19 08 24 03 CC 00 D3 00 01 (调用厨房感应灯开的按键)
2025-09-18 21:18:39.367 - 55 0A 32 00 00 00 01 92 55 0A 32 00 00 00 02 93 (厨房顶灯一开, 厨房顶灯二开)
2025-09-18 21:19:31.537 - 02 AF 06 17 01 CD FF (门锁开门指令)
2025-09-18 21:19:33.800 - 02 AF 06 17 01 CD FF (门锁开门指令)
2025-09-18 21:19:35.386 - 02 AF 06 17 01 CD FF (门锁开门指令)
2025-09-18 21:19:37.554 - 02 AF 06 17 01 CD FF (门锁开门指令)
2025-09-18 21:19:38.923 - 02 AF 06 17 01 CD FF (门锁开门指令)
2025-09-18 21:19:40.071 - 02 AF 06 17 01 CD FF (门锁开门指令)
2025-09-18 21:19:45.255 - 02 AF 06 17 02 CE FF (门锁关锁指令)
2025-09-18 21:19:47.598 - 02 AF 06 17 01 CD FF (门锁开门指令)
2025-09-18 21:19:49.158 - 02 AF 06 17 02 CE FF (门锁关锁指令)
2025-09-18 21:19:50.029 - 02 AF 06 17 01 CD FF (门锁开门指令)
2025-09-18 21:19:51.929 - 02 AF 06 17 02 CE FF (门锁关锁指令)
2025-09-18 21:19:54.697 - 02 AF 06 17 02 CE FF (门锁关锁指令)
2025-09-18 21:19:56.168 - 02 AF 06 17 02 CE FF (门锁关锁指令)
2025-09-18 21:20:34.992 - 02 AF 06 17 01 CD FF (门锁开门指令)
2025-09-18 21:20:58.028 - 02 AF 06 17 02 CE FF (门锁关锁指令)
2025-09-18 21:21:28.660 - 19 08 24 03 CC 00 D4 00 01 (调用厨房感应灯关的按键)
2025-09-18 21:21:28.714 - 55 0A 31 00 00 00 01 91 55 0A 31 00 00 00 02 92 (厨房顶灯一关, 厨房顶灯二关)
2025-09-18 21:21:30.663 - 19 08 24 03 CC 00 D3 00 01 (调用厨房感应灯开的按键)
2025-09-18 21:21:30.698 - 55 0A 32 00 00 00 01 92 55 0A 32 00 00 00 02 93 (厨房顶灯一开, 厨房顶灯二开)
2025-09-18 21:22:16.753 - 19 08 24 03 CC 00 D4 00 01 (调用厨房感应灯关的按键)
2025-09-18 21:22:16.790 - 55 0A 31 00 00 00 01 91 55 0A 31 00 00 00 02 92 (厨房顶灯一关, 厨房顶灯二关)
2025-09-18 21:22:28.779 - 19 08 24 03 CC 00 D3 00 01 (调用厨房感应灯开的按键)
2025-09-18 21:22:28.812 - 55 0A 32 00 00 00 01 92 55 0A 32 00 00 00 02 93 (厨房顶灯一开, 厨房顶灯二开)
2025-09-18 21:22:44.317 - 02 AF 06 17 01 CD FF (门锁开门指令)
2025-09-18 21:23:10.940 - 02 AF 06 17 02 CE FF (门锁关锁指令)
2025-09-18 21:23:12.351 - 02 AF 06 17 01 CD FF (门锁开门指令)
2025-09-18 21:23:13.589 - 02 AF 06 17 01 CD FF (门锁开门指令)
2025-09-18 21:23:15.195 - 02 AF 06 17 01 CD FF (门锁开门指令)
2025-09-18 21:23:17.672 - 02 AF 06 17 01 CD FF (门锁开门指令)
2025-09-18 21:23:31.922 - 02 AF 06 17 01 CD FF (门锁开门指令)
2025-09-18 21:23:56.959 - 19 08 24 03 CC 00 D4 00 01 (调用厨房感应灯关的按键)
2025-09-18 21:23:56.993 - 55 0A 31 00 00 00 01 91 55 0A 31 00 00 00 02 92 (厨房顶灯一关, 厨房顶灯二关)
2025-09-18 21:23:59.188 - 02 AF 06 17 01 CD FF (门锁开门指令)
2025-09-18 21:23:59.464 - 19 08 24 03 CC 00 D3 00 01 (调用厨房感应灯开的按键)
2025-09-18 21:23:59.497 - 55 0A 32 00 00 00 01 92 55 0A 32 00 00 00 02 93 (厨房顶灯一开, 厨房顶灯二开)
2025-09-18 21:24:03.218 - 1B 03 00 00 00 02 C6 31 (查询室外光线)
2025-09-18 21:24:03.238 - 1B 03 04 00 00 00 00 41 F2 (室外光线返回)
2025-09-18 21:24:04.017 - 1A EC A0 DC 02 00 00 01 0F (自保持开关地址-天花12V供电, 天花12V 供电开)
2025-09-18 21:24:04.724 - 1A FF 01 FF FF FF 60 01 FF 60 01 FF 00 00 0F (调光器地址-公共区域统配地址)
2025-09-18 21:24:05.714 - 19 08 24 03 DD 00 0D 00 01 (调用情景-信科调用进门暗)
2025-09-18 21:24:07.409 - 02 AF 06 17 02 CE FF (门锁关锁指令)
2025-09-18 21:24:07.736 - 1A FF 01 FF FF FF 60 01 FF 60 01 FF 00 00 0F (调光器地址-公共区域统配地址)
2025-09-18 21:24:09.823 - 1A EC A0 DC 01 00 00 01 0F (自保持开关地址-电视、设备12V供电, 12V 电视供电开)
2025-09-18 21:24:10.370 - 1A EC A0 DC 01 00 00 01 0F (自保持开关地址-电视、设备12V供电, 12V 电视供电开)
2025-09-18 21:24:10.968 - 1A EC A0 DC 04 00 01 01 0F (自保持开关地址-次卧西阳内外卫供电, 内卫外卫开)
2025-09-18 21:24:11.518 - 1A EC A0 DC 04 00 01 01 0F (自保持开关地址-次卧西阳内外卫供电, 内卫外卫开)
2025-09-18 21:24:12.114 - 1A BB BB BB 01 01 00 (开水器电源开)
2025-09-18 21:24:13.689 - 1A 27 89 12 AA 00 00 01 0F (状态寄存器地址, 有人状态)
2025-09-18 21:24:14.268 - 1A 27 89 12 AA 00 00 01 0F (状态寄存器地址, 有人状态)
2025-09-18 21:24:14.854 - 1A BE B0 DC 01 00 01 00 (继电器地址-回水泵点动, 回水泵点动)
2025-09-18 21:24:15.404 - 1A FF FF FF 56 00 00 01 0F (人体感应地址-内卫, 打开内卫感应)
2025-09-18 21:24:15.822 - 19 08 24 03 CC 01 54 00 01 (调用内卫感应灯开的按键)
2025-09-18 21:24:15.879 - 1A 0C 02 08 01 FF 45 01 FF 45 01 FF 00 00 0F (调光器地址-内卫射灯, 内卫射灯微光)
2025-09-18 21:24:16.277 - 1A FF FF FF 55 00 00 01 0F (人体感应地址-外卫, 打开外卫感应)
2025-09-18 21:24:16.293 - BC BC
2025-09-18 21:24:16.851 - 1A FF FF FF 57 00 00 01 0F (人体感应地址-厨房, 打开厨房感应)
2025-09-18 21:24:16.863 - BC BC
2025-09-18 21:24:17.452 - 1A FF FF FF 57 00 00 01 0F (人体感应地址-厨房, 打开厨房感应)
2025-09-18 21:24:17.459 - BC BC
2025-09-18 21:24:18.047 - 1A FF FF FF 58 00 00 01 0F (人体感应地址-茶吧, 打开茶吧感应)
2025-09-18 21:24:18.060 - BC BC
2025-09-18 21:24:18.642 - 1A BE B0 DC 01 00 01 00 (继电器地址-回水泵点动, 回水泵点动)
2025-09-18 21:24:19.192 - A5 00 B7 FF 00 AA 22 0D (书房纱帘关)
2025-09-18 21:24:19.737 - A5 00 A2 FF 00 AA (餐厅纱帘关)
2025-09-18 21:24:20.285 - 09 06 00 0F 02 01 78 21 (提示音叮)
2025-09-18 21:24:20.836 - 09 06 00 0F 02 01 78 21 (提示音叮)
2025-09-18 21:24:21.387 - EE 00 00 B1 00 00 02 FF FC FF FF (情景完成返回主页)
2025-09-18 21:24:21.978 - A1 11 11 11 50 (天花供电打开确认)
2025-09-18 21:24:22.199 - 1A EC A0 DC 02 86 86 86 0F (查询天花供电状态, 自保持开关地址-天花12V供电)
2025-09-18 21:24:22.630 - 1A EC A0 DC 02 01 01 0F (自保持开关地址-天花12V供电)
2025-09-18 21:24:24.570 - A1 11 11 11 51 (卫生供电打开确认)
2025-09-18 21:24:24.800 - 1A EC A0 DC 04 86 86 86 0F (查询卫生间供电状态, 自保持开关地址-次卧西阳内外卫供电)
2025-09-18 21:24:25.228 - 1A EC A0 DC 04 01 01 0F (自保持开关地址-次卧西阳内外卫供电)
2025-09-18 21:24:27.112 - A1 11 11 11 52 (电视供电打开确认)
2025-09-18 21:24:27.341 - 1A EC A0 DC 01 86 86 86 0F (查询电视供电状态, 自保持开关地址-电视、设备12V供电)
2025-09-18 21:24:27.774 - 1A EC A0 DC 01 01 01 0F (自保持开关地址-电视、设备12V供电)
2025-09-18 21:24:32.144 - A1 11 11 11 47 (天热回家开帘)
2025-09-18 21:24:32.372 - 1A 27 89 12 AA 86 86 86 0F (查询寄存器状态, 状态寄存器地址)
2025-09-18 21:24:32.757 - 1A 27 89 12 AA 01 00 00 00 00 00 00 00 00 00 00 01 00 00 00 00 0F (状态寄存器地址)
2025-09-18 21:24:33.374 - 19 08 24 03 DD 00 06 00 01 (调用情景-天热遮阳开帘)
2025-09-18 21:24:33.944 - EE 00 00 B1 00 00 00 FF FC FF FF (情景执行提示)
2025-09-18 21:24:34.538 - 09 06 00 0F 02 01 78 21 (提示音叮)
2025-09-18 21:24:35.137 - A5 00 A6 FE 01 AA (餐厅窗帘开)
2025-09-18 21:24:35.193 - 55 00 A6 02 00 0F 01 74 AA 55 00 A6 02 00 0F FF (餐厅窗帘电机状态返回)
2025-09-18 21:24:36.235 - 55 12 12 03 01 4C 41 (主卧窗帘开)
2025-09-18 21:24:36.274 - 55 12 12 03 01 4C 41 (主卧窗帘开)
2025-09-18 21:24:37.081 - 55 00 A6 00 00 0E 01 74 AA 55 00 A6 00 00 0E 01 74 AA (餐厅窗帘电机状态返回)
2025-09-18 21:24:37.330 - 55 11 1D 03 02 3C 07 (主卧纱帘开)
2025-09-18 21:24:37.370 - 55 11 1D 03 02 3C 07 (主卧纱帘开)
2025-09-18 21:24:38.424 - A5 00 76 FE 01 AA (次卧窗帘开)
2025-09-18 21:24:38.476 - 55 00 76 02 01 0E 01 1B AA 55 00 76 02 01 0E 01 1B AA (次卧窗帘电机状态返回)
2025-09-18 21:24:39.522 - A5 00 21 FE 01 AA (次卧纱帘开)
2025-09-18 21:24:39.575 - 55 00 21 02 01 27 01 34 AA 55 00 21 02 01 27 01 34 AA (次卧纱帘电机状态返回)
2025-09-18 21:24:40.619 - 1A BE B0 DC 04 00 01 00 (继电器地址-西阳窗帘, 西阳窗帘开)
2025-09-18 21:24:41.666 - FF FF FF FF 0E 00 01 00 (继电器地址-西阳小窗帘, 西阳小窗帘开)
2025-09-18 21:24:42.712 - A5 00 D2 FE 01 AA 22 0D (书房窗帘开)
2025-09-18 21:24:43.760 - 09 06 00 0F 02 02 38 20 (提示音咚)
2025-09-18 21:24:44.311 - EE 00 00 B1 00 00 02 FF FC FF FF (情景完成返回主页)
2025-09-18 21:24:47.301 - 55 00 21 00 00 0D 01 34 AA 55 00 21 00 00 0D 01 34 AA (次卧纱帘电机状态返回)
2025-09-18 21:24:47.442 - 55 00 76 00 00 0E 01 1B AA 55 00 76 00 00 0E 01 1B AA (次卧窗帘电机状态返回)
2025-09-18 21:24:48.149 - 02 AF 06 17 02 CE FF (门锁关锁指令)
2025-09-18 21:24:50.128 - 02 AF 06 17 02 CE FF (门锁关锁指令)
2025-09-18 21:24:51.529 - 02 AF 06 17 01 CD FF (门锁开门指令)
2025-09-18 21:24:54.348 - 02 AF 06 17 01 CD FF (门锁开门指令)
2025-09-18 21:25:11.751 - 19 08 24 03
2025-09-18 21:25:11.772 - CA B1 BC E4 B8 FC D0 C2 32 30 32 35 30 39 31 38 32 31 32 35 31 31 34
2025-09-18 21:25:42.005 - 02 AF 06 17 02 CE FF (门锁关锁指令)
2025-09-18 21:25:43.710 - 02 AF 06 17 01 CD FF (门锁开门指令)
2025-09-18 21:25:46.082 - 02 AF 06 17 01 CD FF (门锁开门指令)
2025-09-18 21:25:47.501 - 02 AF 06 17 01 CD FF (门锁开门指令)
2025-09-18 21:25:55.830 - 02 AF 06 17 02 CE FF (门锁关锁指令)
2025-09-18 21:25:59.604 - 02 AF 06 17 02 CE FF (门锁关锁指令)
2025-09-18 21:26:00.853 - 02 AF 06 17 01 CD FF (门锁开门指令)
2025-09-18 21:26:08.329 - 02 AF 06 17 02 CE FF (门锁关锁指令)
2025-09-18 21:26:09.650 - 02 AF 06 17 02 CE FF (门锁关锁指令)
2025-09-18 21:26:10.292 - 02 AF 06 17 02 CE FF (门锁关锁指令)
2025-09-18 21:26:11.502 - 02 AF 06 17 01 CD FF (门锁开门指令)
2025-09-18 21:26:12.355 - 02 AF 06 17 01 CD FF (门锁开门指令)
2025-09-18 21:26:12.965 - 02 AF 06 17 01 CD FF (门锁开门指令)
2025-09-18 21:26:13.467 - 02 AF 06 17 01 CD FF (门锁开门指令)
2025-09-18 21:26:14.360 - 02 AF 06 17 01 CD FF (门锁开门指令)
2025-09-18 21:26:17.738 - 19 08 24 03 CC 00 D4 00 01 (调用厨房感应灯关的按键)
2025-09-18 21:26:17.893 - 55 0A 31 00 00 00 01 91 55 0A 31 00 00 00 02 92 (厨房顶灯一关, 厨房顶灯二关)
2025-09-18 21:26:49.801 - 19 08 24 03 CC 00 D3 00 01 (调用厨房感应灯开的按键)
2025-09-18 21:26:49.861 - 55 0A 32 00 00 00 01 92 55 0A 32 00 00 00 02 93 (厨房顶灯一开, 厨房顶灯二开)
2025-09-18 21:26:53.687 - 02 AF 06 17 01 CD FF (门锁开门指令)
2025-09-18 21:28:58.555 - 19 08 24 03 CC 00 D4 00 01 (调用厨房感应灯关的按键)
2025-09-18 21:28:58.647 - 55 0A 31 00 00 00 01 91 55 0A 31 00 00 00 02 92 (厨房顶灯一关, 厨房顶灯二关)
2025-09-18 21:29:54.191 - 19 08 24 03 CC 01 54 00 01 (调用内卫感应灯开的按键)
2025-09-18 21:29:54.235 - 1A 0C 02 08 01 FF 45 01 FF 45 01 FF 00 00 0F (调光器地址-内卫射灯, 内卫射灯微光)
2025-09-18 21:29:59.675 - 19 08 24 03 CC 00 D3 00 01 (调用厨房感应灯开的按键)
2025-09-18 21:29:59.729 - 55 0A 32 00 00 00 01 92 55 0A 32 00 00 00 02 93 (厨房顶灯一开, 厨房顶灯二开)
2025-09-18 21:31:02.410 - 19 08 24 03 CC 01 52 00 01 (调用外卫感应灯开的按键)
2025-09-18 21:31:02.472 - 1A 0D 01 07 01 FF 45 01 FF 45 01 FF 00 00 0F (调光器地址-外卫射灯, 外卫感应灯开)
2025-09-18 21:32:25.577 - 19 08 24 03 CC 01 53 00 01 (调用外卫感应灯关的按键)
2025-09-18 21:32:25.652 - 1A 0D 01 07 01 FF 00 01 FF 00 01 FF 00 00 0F (调光器地址-外卫射灯, 外卫感应灯关)
2025-09-18 21:32:45.687 - 19 08 24 03 DD 00 33 00 01 (调用情景-次卧睡觉)
2025-09-18 21:32:46.276 - EE 00 00 B1 00 00 00 FF FC FF FF (情景执行提示)
2025-09-18 21:32:46.966 - 09 06 00 0F 02 01 78 21 (提示音叮)
2025-09-18 21:32:47.629 - 1A 20 07 00 70 00 01 00 0F (自保持开关地址-次卧顶灯, 次卧顶灯只关)
2025-09-18 21:32:48.319 - A5 00 21 FF 00 AA (次卧纱帘关)
2025-09-18 21:32:48.368 - 55 00 21 01 00 0D 01 34 AA 55 00 21 01 00 0D 01 34 AA (次卧纱帘电机状态返回)
2025-09-18 21:32:49.511 - A5 00 76 FF 00 AA (次卧窗帘关)
2025-09-18 21:32:49.566 - 55 00 76 01 00 0E 01 1B AA 55 00 76 01 00 0E 01 1B AA (次卧窗帘电机状态返回)
2025-09-18 21:32:50.712 - 50 F5 06 (关次卧影视)
2025-09-18 21:32:51.410 - 1A 0E 03 05 03 FF 00 01 FF 00 01 FF 00 00 0F (调光器地址-次卧阅读灯, 次卧阅读关闭)
2025-09-18 21:32:52.109 - 1A 0E 03 05 02 FF 00 01 FF 00 01 FF 00 00 0F (调光器地址-次卧灯带, 次卧灯带关闭)
2025-09-18 21:32:52.777 - 1A 0E 03 05 04 FF 00 01 FF 00 01 FF 00 00 0F (调光器地址-次卧北筒灯, 次卧北筒灯关闭)
2025-09-18 21:32:53.479 - 1A 0E 03 05 05 FF 00 01 FF 00 01 FF 00 00 0F (调光器地址-次卧南筒灯, 次卧南筒灯关闭)
2025-09-18 21:32:54.179 - 1A 0E 03 05 01 FF 00 01 FF 00 01 FF 00 00 0F (调光器地址-次卧射灯, 次卧射灯关闭)
2025-09-18 21:32:54.837 - 09 06 00 0F 02 02 38 20 (提示音咚)
2025-09-18 21:32:55.534 - EE 00 00 B1 00 00 02 FF FC FF FF (情景完成返回主页)
2025-09-18 21:32:56.047 - 55 00 21 00 01 27 01 34 AA 55 00 21 00 01 27 01 34 AA (次卧纱帘电机状态返回)
2025-09-18 21:32:58.394 - 55 00 76 00 01 0E 01 1B AA 55 00 76 00 01 0E 01 1B AA (次卧窗帘电机状态返回)
2025-09-18 21:33:19.182 - 19 08 24 03 CC 01 52 00 01 (调用外卫感应灯开的按键)
2025-09-18 21:33:19.341 - 1A 0D 01 07 01 FF 45 01 FF 45 01 FF 00 00 0F (调光器地址-外卫射灯, 外卫感应灯开)
2025-09-18 21:33:23.607 - 19 08 24 03 CC 01 55 00 01 (调用内卫感应灯关的按键)
2025-09-18 21:33:23.678 - 1A 0C 02 08 01 FF 00 01 FF 00 01 FF 00 00 0F (调光器地址-内卫射灯, 内卫感应灯关)
2025-09-18 21:33:45.116 - 19 08 24 03 CC 00 D4 00 01 (调用厨房感应灯关的按键)
2025-09-18 21:33:45.162 - 55 0A 31 00 00 00 01 91 55 0A 31 00 00 00 02 92 (厨房顶灯一关, 厨房顶灯二关)
2025-09-18 21:34:43.736 - 19 08 24 03 CC 00 D3 00 01 (调用厨房感应灯开的按键)
2025-09-18 21:34:43.806 - 55 0A 32 00 00 00 01 92 55 0A 32 00 00 00 02 93 (厨房顶灯一开, 厨房顶灯二开)
2025-09-18 21:35:23.312 - 19 08 24 03 CC 00 D4 00 01 (调用厨房感应灯关的按键)
2025-09-18 21:35:23.403 - 55 0A 31 00 00 00 01 91 55 0A 31 00 00 00 02 92 (厨房顶灯一关, 厨房顶灯二关)
2025-09-18 21:35:52.869 - 19 08 24 03 CC 00 D3 00 01 (调用厨房感应灯开的按键)
2025-09-18 21:35:52.920 - 55 0A 32 00 00 00 01 92 55 0A 32 00 00 00 02 93 (厨房顶灯一开, 厨房顶灯二开)
2025-09-18 21:36:00.004 - 19 08 24 03 CC 01 53 00 01 (调用外卫感应灯关的按键)
2025-09-18 21:36:00.105 - 1A 0D 01 07 01 FF 00 01 FF 00 01 FF 00 00 0F (调光器地址-外卫射灯, 外卫感应灯关)
2025-09-18 21:36:40.258 - 19 08 24 03 CC 01 CC 00 01 (调用茶吧感应灯开的按键)
2025-09-18 21:36:40.325 - 1A AA AA AA 88 FF B0 01 FF B0 01 0F (调光器地址-茶吧灯带, 茶吧灯带明亮)
2025-09-18 21:37:29.860 - 19 08 24 03 CC 01 CD 00 01 (调用茶吧感应灯关的按键)
2025-09-18 21:37:29.955 - 1A AA AA AA 88 FF 00 01 FF 00 01 0F (调光器地址-茶吧灯带, 茶吧灯带关闭)
2025-09-18 21:37:46.213 - 19 08 24 03 CC 01 52 00 01 (调用外卫感应灯开的按键)
2025-09-18 21:37:46.264 - 1A 0D 01 07 01 FF 45 01 FF 45 01 FF 00 00 0F (调光器地址-外卫射灯, 外卫感应灯开)
2025-09-18 21:37:47.594 - 19 08 24 03 CC 00 D4 00 01 (调用厨房感应灯关的按键)
2025-09-18 21:37:47.677 - 55 0A 31 00 00 00 01 91 55 0A 31 00 00 00 02 92 (厨房顶灯一关, 厨房顶灯二关)
2025-09-18 21:38:00.741 - 19 08 24 03 CC 01 53 00 01 (调用外卫感应灯关的按键)
2025-09-18 21:38:00.814 - 1A 0D 01 07 01 FF 00 01 FF 00 01 FF 00 00 0F (调光器地址-外卫射灯, 外卫感应灯关)
2025-09-18 21:39:07.251 - 19 08 24 03 CC 00 D3 00 01 (调用厨房感应灯开的按键)
2025-09-18 21:39:07.308 - 55 0A 32 00 00 00 01 92 55 0A 32 00 00 00 02 93 (厨房顶灯一开, 厨房顶灯二开)
2025-09-18 21:41:34.693 - FF FF FF FF 0A FE (继电器地址-东阳窗帘)
2025-09-18 21:41:34.828 - FF
2025-09-18 21:41:38.549 - 19 08 24 03 CC 00 D4 00 01 (调用厨房感应灯关的按键)
2025-09-18 21:41:38.726 - 55 0A 31 00 00 00 01 91 55 0A 31 00 00 00 02 92 (厨房顶灯一关, 厨房顶灯二关)
2025-09-18 21:42:15.121 - 19 08 24 03 CC 00 D3 00 01 (调用厨房感应灯开的按键)
2025-09-18 21:42:15.298 - 55 0A 32 00 00 00 01 92 55 0A 32 00 00 00 02 93 (厨房顶灯一开, 厨房顶灯二开)
2025-09-18 21:42:26.676 - 19 08 24 03 CC 01 54 00 01 (调用内卫感应灯开的按键)
2025-09-18 21:42:26.747 - 1A 0C 02 08 01 FF 45 01 FF 45 01 FF 00 00 0F (调光器地址-内卫射灯, 内卫射灯微光)
2025-09-18 21:43:08.265 - 19 08 24 03 DD 00 42 00 01 (调用情景-主卧电视空调)
2025-09-18 21:43:08.759 - 19 08 24 03 CC 01 55 00 01 (调用内卫感应灯关的按键)
2025-09-18 21:43:08.852 - 1A 0C 02 08 01 FF 00 01 FF 00 01 FF 00 00 0F (调光器地址-内卫射灯, 内卫感应灯关)
2025-09-18 21:43:09.257 - EE 00 00 B1 00 00 00 FF FC FF FF (情景执行提示)
2025-09-18 21:43:09.945 - 09 06 00 0F 02 01 78 21 (提示音叮)
2025-09-18 21:43:10.564 - 50 F0 05 (开主卧影视)
2025-09-18 21:43:11.742 - 50 F0 04 (开内卫影视)
2025-09-18 21:43:12.405 - 1A FF FF FF 56 00 00 00 0F (人体感应地址-内卫, 关闭内卫感应)
2025-09-18 21:43:13.064 - 1A 22 33 62 0F 00 02 01 0F (正反转地址-内卫卷帘, 内卫卷帘降)
2025-09-18 21:43:13.794 - 55 11 1D 03 01 7C 06 (主卧纱帘关)
2025-09-18 21:43:13.835 - 55 11 1D 03 01 7C 06 (主卧纱帘关)
2025-09-18 21:43:15.015 - 55 12 12 03 02 0C 40 (主卧窗帘关)
2025-09-18 21:43:15.058 - 55 12 12 03 02 0C 40 (主卧窗帘关)
2025-09-18 21:43:16.228 - 1A 0C 02 04 FF FF 45 01 FF 45 01 FF 00 00 0F (主卧调光微光)
2025-09-18 21:43:20.405 - 1A 0C 02 08 01 FF 45 01 FF 45 01 FF 00 00 0F (调光器地址-内卫射灯, 内卫射灯微光)
2025-09-18 21:43:21.066 - 50 F1 25 (主卧—有线2)
2025-09-18 21:43:21.678 - A1 11 11 11 42 (主卧空调自动开)
2025-09-18 21:43:21.903 - 19 08 24 03 F0 BB 78 02 02 00
2025-09-18 21:43:22.070 - 23 AA 56 02 15 2B 15 19 09 12 04 73 65 6F 6B 65 6E 64
2025-09-18 21:43:22.397 - 50 F1 24 (内卫—有线2)
2025-09-18 21:43:22.912 - 01 10 07 D6 00 03 06 70 61 00 02 00 F0 0F 3E (主卧空调冷24度)
2025-09-18 21:43:22.973 - FF
2025-09-18 21:43:22.975 - FF
2025-09-18 21:43:22.986 - FF
2025-09-18 21:43:24.517 - AF BF CF DF C2 21 (有线2/快捷-凤凰卫视)
2025-09-18 21:43:26.723 - 1A FF FF FF 60 0B 01 01 0F (红外总线地址-主卧发射设备, 主卧电视电源)
2025-09-18 21:43:27.240 - F0 0B 01 08
2025-09-18 21:43:30.273 - 19 08 24 03 CC 00 D4 00 01 (调用厨房感应灯关的按键)
2025-09-18 21:43:30.489 - 55 0A 31 00 00 00 01 91 55 0A 31 00 00 00 02 92 (厨房顶灯一关, 厨房顶灯二关)
2025-09-18 21:43:34.842 - 09 06 00 0F 02 02 38 20 (提示音咚)
2025-09-18 21:43:35.395 - EE 00 00 B1 00 00 02 FF FC FF FF (情景完成返回主页)
2025-09-18 21:43:58.329 - 19 08 24 03 CC 00 D3 00 01 (调用厨房感应灯开的按键)
2025-09-18 21:43:58.366 - 55 0A 32 00 00 00 01 92 55 0A 32 00 00 00 02 93 (厨房顶灯一开, 厨房顶灯二开)
2025-09-18 21:45:57.062 - 19 08 24 03 CC 00 D4 00 01 (调用厨房感应灯关的按键)
2025-09-18 21:45:57.097 - 55 0A 31 00 00 00 01 91 55 0A 31 00 00 00 02 92 (厨房顶灯一关, 厨房顶灯二关)
2025-09-18 21:46:19.608 - 19 08 24 03 CC 00 D3 00 01 (调用厨房感应灯开的按键)
2025-09-18 21:46:19.645 - 55 0A 32 00 00 00 01 92 55 0A 32 00 00 00 02 93 (厨房顶灯一开, 厨房顶灯二开)
2025-09-18 21:49:39.003 - 19 08 24 03 CC 00 D4 00 01 (调用厨房感应灯关的按键)
2025-09-18 21:49:39.037 - 55 0A 31 00 00 00 01 91 55 0A 31 00 00 00 02 92 (厨房顶灯一关, 厨房顶灯二关)
2025-09-18 21:49:59.493 - 02 13 05 17 03 32 FF
2025-09-18 21:50:21.084 - 19 08 24 03 CC 00 D3 00 01 (调用厨房感应灯开的按键)
2025-09-18 21:50:21.136 - 55 0A 32 00 00 00 01 92 55 0A 32 00 00 00 02 93 (厨房顶灯一开, 厨房顶灯二开)
