2025-08-31 22:26:48.758 - 1A 13 00 00 00 86 86 86 0F (调用查询模块-外卫测温转换, 外卫温湿度虚拟地址)
2025-08-31 22:26:48.981 - 13 03 00 00 00 02 C7 79 (查询外卫温湿度)
2025-08-31 22:26:49.003 - 13 03 04 01 BD 01 0A D8 7D (外卫温湿度返回)
2025-08-31 22:26:49.966 - 1A 13 00 00 00 86 86 86 0F (调用查询模块-外卫测温转换, 外卫温湿度虚拟地址)
2025-08-31 22:26:50.012 - 1A 13 00 00 00 00 00 01 00 00 01 00 00 01 01 0A 01 01 BD 01 00 00 01 00 00 01 0F (外卫温湿度虚拟地址)
2025-08-31 22:26:50.207 - 13 03 00 00 00 02 C7 79 (查询外卫温湿度)
2025-08-31 22:26:50.224 - 13 03 04 01 BD 01 0A D8 7D (外卫温湿度返回)
2025-08-31 22:26:51.231 - 1A 13 00 00 00 00 00 01 00 00 01 00 00 01 01 0A 01 01 BD 01 00 00 01 00 00 01 0F (外卫温湿度虚拟地址)
2025-08-31 22:27:10.408 - 19 08 24 03 CC 01 CC 00 01 (调用茶吧感应灯开的按键)
2025-08-31 22:27:10.459 - 1A AA AA AA 88 FF B0 01 FF B0 01 0F (调光器地址-茶吧灯带, 茶吧灯带明亮)
2025-08-31 22:27:30.243 - 19 08 24 03 DD 00 13 00 01 (调用情景-公共区域关)
2025-08-31 22:27:30.764 - EE 00 00 B1 00 00 00 FF FC FF FF (情景执行提示)
2025-08-31 22:27:31.362 - 09 06 00 0F 02 01 78 21 (提示音叮)
2025-08-31 22:27:31.912 - 55 0B 31 00 00 00 01 92 (厨房风扇只关)
2025-08-31 22:27:32.955 - 01 06 07 D3 FF 60 38 9F (餐厅空调关)
2025-08-31 22:27:32.989 - 01 06 07 D3 FF 60 38 9F (餐厅空调关)
2025-08-31 22:27:34.051 - 01 06 07 D0 FF 60 C8 9F (客厅空调关)
2025-08-31 22:27:34.083 - 01 06 07 D0 FF 60 C8 9F (客厅空调关)
2025-08-31 22:27:38.136 - 50 F5 02 (关厨房影视)
2025-08-31 22:27:39.185 - 50 F5 01 (关餐厅影视)
2025-08-31 22:27:40.230 - 50 F5 08 (关客厅影视)
2025-08-31 22:27:41.280 - 50 F5 03 (关外卫影视)
2025-08-31 22:27:42.329 - 55 0A 31 00 00 00 01 91 (厨房顶灯一关)
2025-08-31 22:27:43.375 - 55 0A 31 00 00 00 02 92 (厨房顶灯二关)
2025-08-31 22:27:44.421 - 55 0C 31 00 00 00 01 93 (餐厅顶灯关)
2025-08-31 22:27:45.471 - 1A 18 05 10 31 00 01 00 0F (自保持开关地址-门厅顶灯, 门厅顶灯关)
2025-08-31 22:27:46.514 - 1A 20 07 00 42 00 01 00 0F (自保持开关地址-外卫顶灯, 外卫顶灯关)
2025-08-31 22:27:47.559 - 1A 18 05 21 89 00 01 00 0F (自保持开关地址-客厅顶灯, 客厅顶灯一关)
2025-08-31 22:27:48.607 - 1A 18 05 01 94 00 01 00 0F (自保持开关地址-客厅顶灯, 客厅顶灯二关)
2025-08-31 22:27:49.655 - 1A 20 07 01 30 00 01 00 0F (自保持开关地址-西阳顶灯, 西阳顶灯关)
2025-08-31 22:27:50.710 - 1A FF 01 FF FF FF 00 01 FF 00 01 FF 00 00 0F (调光器地址-公共区域统配地址, 公共区域灯光全关)
2025-08-31 22:27:51.795 - 09 06 00 0F 02 02 38 20 (提示音咚)
2025-08-31 22:27:53.841 - EE 00 00 B1 00 00 02 FF FC FF FF (情景完成返回主页)
2025-08-31 22:27:56.511 - 19 08 24 03 CC 01 CD 00 01 (调用茶吧感应灯关的按键)
2025-08-31 22:27:56.560 - 1A AA AA AA 88 FF 00 01 FF 00 01 0F (调光器地址-茶吧灯带, 茶吧灯带关闭)
2025-08-31 22:30:35.463 - FF FF FF FF 0A (继电器地址-东阳窗帘)
2025-08-31 22:30:36.160 - 1A FF FF FF 04 FC (继电器地址-东阳衣架)
2025-08-31 22:30:36.292 - FF
2025-08-31 22:32:24.232 - 19 08 24 03 DD 00 4F 00 01 (调用情景-内卫使用完毕)
2025-08-31 22:32:24.759 - EE 00 00 B1 00 00 00 FF FC FF FF (情景执行提示)
2025-08-31 22:32:25.353 - 09 06 00 0F 02 01 78 21 (提示音叮)
2025-08-31 22:32:25.908 - 1A 0C 02 08 01 FF 00 01 FF 00 01 FF 00 00 0F (调光器地址-内卫射灯, 内卫感应灯关)
2025-08-31 22:32:29.980 - 50 F5 04 (关内卫影视)
2025-08-31 22:32:30.539 - 1A 20 07 01 40 00 01 00 0F (自保持开关地址-内卫顶灯, 内卫顶灯关)
2025-08-31 22:32:31.084 - 1A FF FF FF 56 00 00 01 0F (人体感应地址-内卫, 打开内卫感应)
2025-08-31 22:32:31.171 - BC BC
2025-08-31 22:32:31.482 - 19 08 24 03 CC 01 54 00 01 (调用内卫感应灯开的按键)
2025-08-31 22:32:31.534 - 1A 0C 02 08 01 FF 45 01 FF 45 01 FF 00 00 0F (调光器地址-内卫射灯, 内卫射灯微光)
2025-08-31 22:32:33.929 - 09 06 00 0F 02 02 38 20 (提示音咚)
2025-08-31 22:32:34.478 - EE 00 00 B1 00 00 02 FF FC FF FF (情景完成返回主页)
2025-08-31 22:33:11.762 - 19 08 24 03 CC 01 55 00 01 (调用内卫感应灯关的按键)
2025-08-31 22:33:11.796 - 1A 0C 02 08 01 FF 00 01 FF 00 01 FF 00 00 0F (调光器地址-内卫射灯, 内卫感应灯关)
2025-08-31 22:34:53.466 - 19 08 24 03 CC 01 54 00 01 (调用内卫感应灯开的按键)
2025-08-31 22:34:53.498 - 1A 0C 02 08 01 FF 45 01 FF 45 01 FF 00 00 0F (调光器地址-内卫射灯, 内卫射灯微光)
2025-08-31 22:35:14.002 - 19 08 24 03 CC 01 55 00 01 (调用内卫感应灯关的按键)
2025-08-31 22:35:14.037 - 1A 0C 02 08 01 FF 00 01 FF 00 01 FF 00 00 0F (调光器地址-内卫射灯, 内卫感应灯关)
2025-08-31 23:07:25.550 - 1A BE B0 DC 09 (继电器地址-客厅窗帘)
2025-08-31 23:07:25.686 - FF
2025-08-31 23:08:27.496 - 1A BE B0 DC 02 (正反转地址-外卫卷帘)
2025-08-31 23:08:27.631 - FF
2025-08-31 23:22:14.962 - 1A BE B0 DC 04 (继电器地址-西阳窗帘)
2025-08-31 23:22:15.096 - FF
2025-08-31 23:41:24.563 - 1A BE B0 DC 0A (继电器地址-客厅纱帘)
2025-08-31 23:41:24.697 - FC
2025-08-31 23:51:56.990 - 19 08 24 03 DD 00 4B 00 01 (调用情景-主卧睡觉)
2025-08-31 23:51:57.553 - EE 00 00 B1 00 00 00 FF FC FF FF (情景执行提示)
2025-08-31 23:51:58.149 - 09 06 00 0F 02 01 78 21 (提示音叮)
2025-08-31 23:51:58.691 - 50 F5 04 (关内卫影视)
2025-08-31 23:51:59.244 - 55 11 1D 03 01 7C 06 (主卧纱帘关)
2025-08-31 23:51:59.286 - 55 11 1D 03 01 7C 06 (主卧纱帘关)
2025-08-31 23:52:00.341 - 55 12 12 03 02 0C 40 (主卧窗帘关)
2025-08-31 23:52:00.378 - 55 12 12 03 02 0C 40 (主卧窗帘关)
2025-08-31 23:52:01.438 - 1A 22 33 62 0F 00 02 01 0F (正反转地址-内卫卷帘, 内卫卷帘降)
2025-08-31 23:52:02.485 - 1A 20 07 01 40 00 01 00 0F (自保持开关地址-内卫顶灯, 内卫顶灯关)
2025-08-31 23:52:03.531 - 1A 20 07 01 55 00 01 00 0F (自保持开关地址-主卧顶灯, 主卧顶灯只关)
2025-08-31 23:52:04.078 - 1A FF FF FF 56 00 00 01 0F (人体感应地址-内卫, 打开内卫感应)
2025-08-31 23:52:04.094 - BC BC
2025-08-31 23:52:07.677 - 1A 0C 02 08 01 FF 00 01 FF 00 01 FF 00 00 0F (调光器地址-内卫射灯, 内卫感应灯关)
2025-08-31 23:52:08.277 - 1A 0C 02 04 01 FF 00 01 FF 00 01 FF 00 00 0F (调光器地址-主卧筒灯, 主卧筒灯关闭)
2025-08-31 23:52:08.873 - 1A 0C 02 04 03 FF 00 01 FF 00 01 FF 00 00 0F (调光器地址-主卧灯带, 主卧灯带关闭)
2025-08-31 23:52:09.471 - 1A 0C 02 04 04 FF 00 01 FF 00 01 FF 00 00 0F (调光器地址-主卧南阅, 主卧南阅关闭)
2025-08-31 23:52:10.069 - 1A 0C 02 04 05 FF 00 01 FF 00 01 FF 00 00 0F (调光器地址-主卧北阅, 主卧北阅关闭)
2025-08-31 23:52:10.666 - 1A 0C 02 04 02 FF 00 01 FF 00 01 FF 00 00 0F (调光器地址-主卧过道, 主卧过道关闭)
2025-08-31 23:52:11.257 - 09 06 00 0F 02 02 38 20 (提示音咚)
2025-08-31 23:52:11.810 - EE 00 00 B1 00 00 02 FF FC FF FF (情景完成返回主页)
2025-09-01 00:30:54.146 - FF FF FF FF 0E FC (继电器地址-西阳小窗帘)
2025-09-01 00:30:54.281 - FF
2025-09-01 01:17:03.131 - 1A BE B0 DC 03 (继电器地址-西阳天幕)
2025-09-01 01:17:03.270 - FF
2025-09-01 01:27:01.824 - 19 08 24 03 CC 01 54 00 01 (调用内卫感应灯开的按键)
2025-09-01 01:27:01.878 - 1A 0C 02 08 01 FF 45 01 FF 45 01 FF 00 00 0F (调光器地址-内卫射灯, 内卫射灯微光)
2025-09-01 01:27:04.336 - 1A BE B0 DC 01 FC (继电器地址-回水泵点动)
2025-09-01 01:29:14.087 - 19 08 24 03 CC 01 55 00 01 (调用内卫感应灯关的按键)
2025-09-01 01:29:14.137 - 1A 0C 02 08 01 FF 00 01 FF 00 01 FF 00 00 0F (调光器地址-内卫射灯, 内卫感应灯关)
2025-09-01 01:30:55.286 - 19 08 24 03 CC 01 54 00 01 (调用内卫感应灯开的按键)
2025-09-01 01:30:55.337 - 1A 0C 02 08 01 FF 45 01 FF 45 01 FF 00 00 0F (调光器地址-内卫射灯, 内卫射灯微光)
2025-09-01 01:31:16.327 - 19 08 24 03 CC 01 55 00 01 (调用内卫感应灯关的按键)
2025-09-01 01:31:16.359 - 1A 0C 02 08 01 FF 00 01 FF 00 01 FF 00 00 0F (调光器地址-内卫射灯, 内卫感应灯关)
2025-09-01 01:52:36.604 - FF FF FF FF 0A FC (继电器地址-东阳窗帘)
2025-09-01 01:53:04.143 - 1A FF FF FF 04 (继电器地址-东阳衣架)
2025-09-01 02:08:19.165 - 19 08 24 03 CC 01 CC 00 01 (调用茶吧感应灯开的按键)
2025-09-01 02:08:19.214 - 1A AA AA AA 88 FF B0 01 FF B0 01 0F (调光器地址-茶吧灯带, 茶吧灯带明亮)
2025-09-01 02:08:26.680 - 19 08 24 03 CC 01 CD 00 01 (调用茶吧感应灯关的按键)
2025-09-01 02:08:26.727 - 1A AA AA AA 88 FF 00 01 FF 00 01 0F (调光器地址-茶吧灯带, 茶吧灯带关闭)
2025-09-01 02:20:05.573 - 19 08 24 03 CC 00 D3 00 01 (调用厨房感应灯开的按键)
2025-09-01 02:20:05.607 - 55 0A 32 00 00 00 01 92 55 0A 32 00 00 00 02 93 (厨房顶灯一开, 厨房顶灯二开)
2025-09-01 02:20:40.642 - 19 08 24 03 CC 00 D4 00 01 (调用厨房感应灯关的按键)
2025-09-01 02:20:40.678 - 55 0A 31 00 00 00 01 91 55 0A 31 00 00 00 02 92 (厨房顶灯一关, 厨房顶灯二关)
2025-09-01 02:28:34.799 - 1A BE B0 DC 09 FC (继电器地址-客厅窗帘)
2025-09-01 02:28:34.930 - FF
2025-09-01 02:29:41.935 - 1A BE B0 DC 02 (正反转地址-外卫卷帘)
2025-09-01 02:42:03.753 - 1A BE B0 DC 04 (继电器地址-西阳窗帘)
2025-09-01 02:59:58.857 - 50 F7 01 (全屋影音全关)
2025-09-01 03:02:41.426 - 1A BE B0 DC 0A FE (继电器地址-客厅纱帘)
2025-09-01 03:50:55.293 - FF FF FF FF 0E (继电器地址-西阳小窗帘)
2025-09-01 04:29:58.627 - EE 00 00 B1 00 00 00 FF FC FF FF (情景执行提示)
2025-09-01 04:29:59.216 - A5 00 A2 FF 00 AA (餐厅纱帘关)
2025-09-01 04:30:00.341 - A5 00 A6 FF 00 AA (餐厅窗帘关)
2025-09-01 04:30:01.411 - A5 00 B7 FF 00 AA 22 0D (书房纱帘关)
2025-09-01 04:30:02.460 - A5 00 D2 FF 00 AA 22 0C (书房窗帘关)
2025-09-01 04:30:03.509 - EE 00 00 B1 00 00 02 FF FC FF FF (情景完成返回主页)
2025-09-01 04:37:56.806 - 1A BE B0 DC 03 FC (继电器地址-西阳天幕)
2025-09-01 04:37:56.940 - FF
2025-09-01 04:48:01.271 - 1A BE B0 DC 01 (继电器地址-回水泵点动)
2025-09-01 05:12:47.422 - FF FF FF FF 0A (继电器地址-东阳窗帘)
2025-09-01 05:12:47.559 - FF
2025-09-01 05:14:01.952 - 1A FF FF FF 04 (继电器地址-东阳衣架)
2025-09-01 05:14:02.090 - FF
2025-09-01 05:48:55.759 - 1A BE B0 DC 09 FC (继电器地址-客厅窗帘)
2025-09-01 05:48:55.894 - FC
2025-09-01 05:50:10.905 - 1A BE B0 DC 02 (正反转地址-外卫卷帘)
2025-09-01 05:50:11.042 - FF
2025-09-01 06:01:50.001 - 1A BE B0 DC 04 (继电器地址-西阳窗帘)
2025-09-01 06:01:50.136 - FF
2025-09-01 06:13:28.617 - 19 08 24 03 CC 00 D3 00 01 (调用厨房感应灯开的按键)
2025-09-01 06:13:28.671 - 55 0A 32 00 00 00 01 92 55 0A 32 00 00 00 02 93 (厨房顶灯一开, 厨房顶灯二开)
2025-09-01 06:14:03.689 - 19 08 24 03 CC 00 D4 00 01 (调用厨房感应灯关的按键)
2025-09-01 06:14:03.743 - 55 0A 31 00 00 00 01 91 55 0A 31 00 00 00 02 92 (厨房顶灯一关, 厨房顶灯二关)
2025-09-01 06:23:16.287 - 1A BE B0 DC 0A FF (继电器地址-客厅纱帘)
2025-09-01 06:23:16.418 - FF
2025-09-01 06:44:59.220 - EE 00 00 B1 00 00 00 FF FC FF FF (情景执行提示)
2025-09-01 06:44:59.818 - 09 06 00 0F 02 01 78 21 (提示音叮)
2025-09-01 06:45:00.409 - 50 F0 04 (开内卫影视)
2025-09-01 06:45:00.956 - 50 F0 05 (开主卧影视)
2025-09-01 06:45:01.510 - 55 11 1D 03 01 7C 06 (主卧纱帘关)
2025-09-01 06:45:01.553 - 55 11 1D 03 01 7C 06 (主卧纱帘关)
2025-09-01 06:45:02.108 - 55 11 1D 03 01 7C 06 (主卧纱帘关)
2025-09-01 06:45:02.152 - 55 11 1D 03 01 7C 06 (主卧纱帘关)
2025-09-01 06:45:02.708 - 55 12 12 03 01 4C 41 (主卧窗帘开)
2025-09-01 06:45:02.746 - 55 12 12 03 01 4C 41 (主卧窗帘开)
2025-09-01 06:45:03.800 - 55 12 12 03 01 4C 41 (主卧窗帘开)
2025-09-01 06:45:03.846 - 55 12 12 03 01 4C 41 (主卧窗帘开)
2025-09-01 06:45:04.899 - 1A 22 33 62 0F 00 02 01 0F (正反转地址-内卫卷帘, 内卫卷帘降)
2025-09-01 06:45:05.453 - 1A FF FF FF 56 00 00 00 0F (人体感应地址-内卫, 关闭内卫感应)
2025-09-01 06:45:05.556 - BC BC
2025-09-01 06:45:05.997 - 1A 20 07 01 55 00 01 00 0F (自保持开关地址-主卧顶灯, 主卧顶灯只关)
2025-09-01 06:45:07.049 - 1A 0C 02 08 01 FF F0 01 FF F0 01 FF 00 00 0F (调光器地址-内卫射灯, 内卫射灯明亮)
2025-09-01 06:45:07.649 - 1A 0C 02 04 01 FF 00 01 FF 00 01 FF 00 00 0F (调光器地址-主卧筒灯, 主卧筒灯关闭)
2025-09-01 06:45:08.277 - 1A 0C 02 04 03 FF 45 01 FF 45 01 FF 00 00 0F (调光器地址-主卧灯带, 主卧灯带微光)
2025-09-01 06:45:08.843 - 1A 0C 02 04 02 FF F0 01 FF 00 01 FF 00 00 0F (调光器地址-主卧过道, 主卧过道暖光)
2025-09-01 06:45:09.443 - 1A 0C 02 04 05 FF 00 01 FF 00 01 FF 00 00 0F (调光器地址-主卧北阅, 主卧北阅关闭)
2025-09-01 06:45:10.037 - 1A 0C 02 04 04 FF 00 01 FF 00 01 FF 00 00 0F (调光器地址-主卧南阅, 主卧南阅关闭)
2025-09-01 06:45:11.124 - 50 F1 24 (内卫—有线2)
2025-09-01 06:45:12.171 - 50 F1 25 (主卧—有线2)
2025-09-01 06:45:13.222 - AF BF CF DF C2 21 (有线2/快捷-凤凰卫视)
2025-09-01 06:45:13.769 - 1A FF FF FF 60 0B 01 01 0F (红外总线地址-主卧发射设备, 主卧电视电源)
2025-09-01 06:45:14.287 - F0 0B 01 08
2025-09-01 06:45:14.816 - 1A BE B0 DC 01 00 01 00 (继电器地址-回水泵点动, 回水泵点动)
2025-09-01 06:45:18.856 - 09 06 00 0F 02 02 38 20 (提示音咚)
2025-09-01 06:45:19.410 - EE 00 00 B1 00 00 02 FF FC FF FF (情景完成返回主页)
2025-09-01 06:45:20.498 - A1 11 11 11 11 01 (内卫浴霸取暖判断)
2025-09-01 06:45:20.718 - 14 03 00 00 00 02 C6 CE (查询内卫温湿度)
2025-09-01 06:45:20.741 - 14 03 04 01 AC 01 07 3F 7D (内卫温湿度返回)
2025-09-01 06:50:47.529 - 19 08 24 03 CC 00 D3 00 01 (调用厨房感应灯开的按键)
2025-09-01 06:50:47.584 - 55 0A 32 00 00 00 01 92 55 0A 32 00 00 00 02 93 (厨房顶灯一开, 厨房顶灯二开)
2025-09-01 06:51:22.597 - 19 08 24 03 CC 00 D4 00 01 (调用厨房感应灯关的按键)
2025-09-01 06:51:22.632 - 55 0A 31 00 00 00 01 91 55 0A 31 00 00 00 02 92 (厨房顶灯一关, 厨房顶灯二关)
2025-09-01 07:11:10.314 - FF FF FF FF 0E FC (继电器地址-西阳小窗帘)
2025-09-01 07:13:28.269 - 19 08 24 03 DD 00 40 00 01 (调用情景-离开主卧)
2025-09-01 07:13:28.797 - EE 00 00 B1 00 00 00 FF FC FF FF (情景执行提示)
2025-09-01 07:13:29.393 - 09 06 00 0F 02 01 78 21 (提示音叮)
2025-09-01 07:13:29.935 - 50 F5 05 (关主卧影视)
2025-09-01 07:13:30.485 - 50 F5 04 (关内卫影视)
2025-09-01 07:13:31.038 - 01 06 07 D6 FF 60 28 9E (主卧空调关)
2025-09-01 07:13:31.070 - 01 06 07 D6 FF 60 28 9E (主卧空调关)
2025-09-01 07:13:31.635 - 55 12 12 03 01 4C 41 (主卧窗帘开)
2025-09-01 07:13:31.674 - 55 12 12 03 01 4C 41 (主卧窗帘开)
2025-09-01 07:13:32.730 - 55 12 12 03 01 4C 41 (主卧窗帘开)
2025-09-01 07:13:32.772 - 55 12 12 03 01 4C 41 (主卧窗帘开)
2025-09-01 07:13:33.829 - 55 11 1D 03 02 3C 07 (主卧纱帘开)
2025-09-01 07:13:33.869 - 55 11 1D 03 02 3C 07 (主卧纱帘开)
2025-09-01 07:13:34.425 - 55 11 1D 03 02 3C 07 (主卧纱帘开)
2025-09-01 07:13:34.464 - 55 11 1D 03 02 3C 07 (主卧纱帘开)
2025-09-01 07:13:35.024 - 1A 22 33 62 0F 00 00 01 0F (正反转地址-内卫卷帘, 内卫卷帘升)
2025-09-01 07:13:36.073 - 1A 20 07 01 40 00 01 00 0F (自保持开关地址-内卫顶灯, 内卫顶灯关)
2025-09-01 07:13:37.119 - 1A 20 07 01 55 00 01 00 0F (自保持开关地址-主卧顶灯, 主卧顶灯只关)
2025-09-01 07:13:37.676 - 1A 0C 02 08 01 FF 00 01 FF 00 01 FF 00 00 0F (调光器地址-内卫射灯, 内卫感应灯关)
2025-09-01 07:13:38.264 - 1A FF FF FF 56 00 00 01 0F (人体感应地址-内卫, 打开内卫感应)
2025-09-01 07:13:38.379 - BF BF
2025-09-01 07:13:38.687 - 19 08 24 03 CC 01 54 00 01 (调用内卫感应灯开的按键)
2025-09-01 07:13:38.738 - 1A 0C 02 08 01 FF 45 01 FF 45 01 FF 00 00 0F (调光器地址-内卫射灯, 内卫射灯微光)
2025-09-01 07:13:42.113 - 1A 0C 02 04 FF FF 00 01 FF 00 01 FF 00 00 0F (主卧调光全关)
2025-09-01 07:13:43.202 - 09 06 00 0F 02 02 38 20 (提示音咚)
2025-09-01 07:13:43.752 - EE 00 00 B1 00 00 02 FF FC FF FF (情景完成返回主页)
2025-09-01 07:14:16.454 - 19 08 24 03 CC 01 CC 00 01 (调用茶吧感应灯开的按键)
2025-09-01 07:14:16.487 - 1A AA AA AA 88 FF B0 01 FF B0 01 0F (调光器地址-茶吧灯带, 茶吧灯带明亮)
2025-09-01 07:14:17.963 - 19 08 24 03 CC 01 55 00 01 (调用内卫感应灯关的按键)
2025-09-01 07:14:17.997 - 1A 0C 02 08 01 FF 00 01 FF 00 01 FF 00 00 0F (调光器地址-内卫射灯, 内卫感应灯关)
2025-09-01 07:15:10.061 - 19 08 24 03 CC 01 CD 00 01 (调用茶吧感应灯关的按键)
2025-09-01 07:15:10.091 - 1A AA AA AA 88 FF 00 01 FF 00 01 0F (调光器地址-茶吧灯带, 茶吧灯带关闭)
2025-09-01 07:15:41.128 - 19 08 24 03 CC 01 54 00 01 (调用内卫感应灯开的按键)
2025-09-01 07:15:41.162 - 1A 0C 02 08 01 FF 45 01 FF 45 01 FF 00 00 0F (调光器地址-内卫射灯, 内卫射灯微光)
2025-09-01 07:16:01.668 - 19 08 24 03 CC 01 55 00 01 (调用内卫感应灯关的按键)
2025-09-01 07:16:01.700 - 1A 0C 02 08 01 FF 00 01 FF 00 01 FF 00 00 0F (调光器地址-内卫射灯, 内卫感应灯关)
2025-09-01 07:16:05.143 - 19 08 24 03 CC 01 52 00 01 (调用外卫感应灯开的按键)
2025-09-01 07:16:05.180 - 1A 0D 01 07 01 FF 45 01 FF 45 01 FF 00 00 0F (调光器地址-外卫射灯, 外卫感应灯开)
2025-09-01 07:16:18.173 - 19 08 24 03 CC 01 53 00 01 (调用外卫感应灯关的按键)
2025-09-01 07:16:18.202 - 1A 0D 01 07 01 FF 00 01 FF 00 01 FF 00 00 0F (调光器地址-外卫射灯, 外卫感应灯关)
2025-09-01 07:42:32.134 - 19 08 24 03 CC 00 D3 00 01 (调用厨房感应灯开的按键)
2025-09-01 07:42:32.169 - 55 0A 32 00 00 00 01 92 55 0A 32 00 00 00 02 93 (厨房顶灯一开, 厨房顶灯二开)
2025-09-01 07:43:07.705 - 19 08 24 03 CC 00 D4 00 01 (调用厨房感应灯关的按键)
2025-09-01 07:43:07.743 - 55 0A 31 00 00 00 01 91 55 0A 31 00 00 00 02 92 (厨房顶灯一关, 厨房顶灯二关)
2025-09-01 07:58:35.354 - 1A 13 00 00 00 86 86 86 0F (调用查询模块-外卫测温转换, 外卫温湿度虚拟地址)
2025-09-01 07:58:35.581 - 13 03 00 00 00 02 C7 79 (查询外卫温湿度)
2025-09-01 07:58:35.602 - 13 03 04 02 2B 01 24 B8 09 (外卫温湿度返回)
2025-09-01 07:58:36.604 - 1A 13 00 00 00 00 00 01 00 00 01 00 00 01 01 24 01 02 2B 01 00 00 01 00 00 01 0F (外卫温湿度虚拟地址)
2025-09-01 07:59:38.702 - 1A BE B0 DC 03 (继电器地址-西阳天幕)
2025-09-01 07:59:38.838 - FC
2025-09-01 08:09:39.193 - 1A BE B0 DC 01 FE (继电器地址-回水泵点动)
2025-09-01 08:26:44.014 - 19 08 24 03 CC 01 52 00 01 (调用外卫感应灯开的按键)
2025-09-01 08:26:44.064 - 1A 0D 01 07 01 FF 45 01 FF 45 01 FF 00 00 0F (调光器地址-外卫射灯, 外卫感应灯开)
2025-09-01 08:34:17.407 - 19 08 24 03 CC 01 53 00 01 (调用外卫感应灯关的按键)
2025-09-01 08:34:17.463 - 1A 0D 01 07 01 FF 00 01 FF 00 01 FF 00 00 0F (调光器地址-外卫射灯, 外卫感应灯关)
2025-09-01 08:35:04.117 - 19 08 24 03 DD 00 29 00 01 (调用情景-次卧照明关帘)
2025-09-01 08:35:04.623 - EE 00 00 B1 00 00 00 FF FC FF FF (情景执行提示)
2025-09-01 08:35:05.219 - 09 06 00 0F 02 01 78 21 (提示音叮)
2025-09-01 08:35:05.777 - 1A 0E 03 05 01 FF F0 01 FF F0 01 FF 00 00 0F (调光器地址-次卧射灯, 次卧射灯明亮)
2025-09-01 08:35:06.374 - 1A 0E 03 05 02 FF F0 01 FF F0 01 FF 00 00 0F (调光器地址-次卧灯带, 次卧灯带明亮)
2025-09-01 08:35:06.961 - A5 00 21 FF 00 AA (次卧纱帘关)
2025-09-01 08:35:08.008 - A5 00 76 FF 00 AA (次卧窗帘关)
2025-09-01 08:35:09.064 - 1A 0E 03 05 04 FF F0 01 FF F0 01 FF 00 00 0F (调光器地址-次卧北筒灯, 次卧北筒灯明亮)
2025-09-01 08:35:09.660 - 1A 0E 03 05 05 FF F0 01 FF F0 01 FF 00 00 0F (调光器地址-次卧南筒灯, 次卧南筒灯明亮)
2025-09-01 08:35:10.287 - 09 06 00 0F 02 02 38 20 (提示音咚)
2025-09-01 08:35:10.854 - EE 00 00 B1 00 00 02 FF FC FF FF (情景完成返回主页)
2025-09-01 08:35:15.373 - FF FF FF FF 0A FC (继电器地址-东阳窗帘)
2025-09-01 08:35:15.507 - FF
2025-09-01 08:35:39.005 - 1A FF FF FF 04 (继电器地址-东阳衣架)
2025-09-01 08:35:39.147 - FE
2025-09-01 08:38:58.721 - 19 08 24 03 DD 00 28 00 01 (调用情景-离开次卧)
2025-09-01 08:38:59.267 - EE 00 00 B1 00 00 00 FF FC FF FF (情景执行提示)
2025-09-01 08:38:59.863 - 09 06 00 0F 02 01 78 21 (提示音叮)
2025-09-01 08:39:00.406 - 50 F5 06 (关次卧影视)
2025-09-01 08:39:00.958 - 01 06 07 D9 FF 60 18 9D (次卧空调关)
2025-09-01 08:39:00.986 - 01 06 07 D9 FF 60 18 9D (次卧空调关)
2025-09-01 08:39:01.554 - A5 00 76 FE 01 AA (次卧窗帘开)
2025-09-01 08:39:01.609 - 55 00 76 02 01 0E 01 1B AA 55 00 76 02 01 0E 01 9B (次卧窗帘电机状态返回)
2025-09-01 08:39:02.682 - A5 00 21 FE 01 AA (次卧纱帘开)
2025-09-01 08:39:02.733 - 55 00 21 02 01 27 01 34 AA 55 00 21 02 01 27 01 34 AA (次卧纱帘电机状态返回)
2025-09-01 08:39:03.749 - 1A 20 07 00 70 00 01 00 0F (自保持开关地址-次卧顶灯, 次卧顶灯只关)
2025-09-01 08:39:04.306 - 1A 0E 03 05 FF FF 00 01 FF 00 01 FF 00 00 0F (调光器地址-次卧调光统配符, 次卧调光全关)
2025-09-01 08:39:04.895 - 09 06 00 0F 02 02 38 20 (提示音咚)
2025-09-01 08:39:06.946 - EE 00 00 B1 00 00 02 FF FC FF FF (情景完成返回主页)
2025-09-01 08:39:09.919 - 55 00 76 00 00 0D 01 1B AA 55 00 76 00 00 0D 01 1B AA (次卧窗帘电机状态返回)
2025-09-01 08:39:10.613 - 55 00 21 00 00 0D 01 34 AA 55 00 21 00 00 0D 01 34 AA (次卧纱帘电机状态返回)
2025-09-01 08:39:14.504 - 19 08 24 03 CC 01 52 00 01 (调用外卫感应灯开的按键)
2025-09-01 08:39:14.559 - 1A 0D 01 07 01 FF 45 01 FF 45 01 FF 00 00 0F (调光器地址-外卫射灯, 外卫感应灯开)
2025-09-01 08:39:24.543 - 19 08 24 03 CC 01 CC 00 01 (调用茶吧感应灯开的按键)
2025-09-01 08:39:24.573 - 1A AA AA AA 88 FF B0 01 FF B0 01 0F (调光器地址-茶吧灯带, 茶吧灯带明亮)
2025-09-01 08:39:29.532 - 19 08 24 03 CC 01 53 00 01 (调用外卫感应灯关的按键)
2025-09-01 08:39:29.571 - 1A 0D 01 07 01 FF 00 01 FF 00 01 FF 00 00 0F (调光器地址-外卫射灯, 外卫感应灯关)
2025-09-01 08:40:15.964 - 19 08 24 03 CC 00 D3 00 01 (调用厨房感应灯开的按键)
2025-09-01 08:40:16.000 - 55 0A 32 00 00 00 01 92 55 0A 32 00 00 00 02 93 (厨房顶灯一开, 厨房顶灯二开)
2025-09-01 08:40:54.038 - 19 08 24 03 CC 00 D4 00 01 (调用厨房感应灯关的按键)
2025-09-01 08:40:54.074 - 55 0A 31 00 00 00 01 91 55 0A 31 00 00 00 02 92 (厨房顶灯一关, 厨房顶灯二关)
2025-09-01 08:40:54.720 - 19 08 24 03 CC 01 CD 00 01 (调用茶吧感应灯关的按键)
2025-09-01 08:40:54.753 - 1A AA AA AA 88 FF 00 01 FF 00 01 0F (调光器地址-茶吧灯带, 茶吧灯带关闭)
2025-09-01 08:41:24.429 - 19 08 24 03 DD 00 00 00 01 (调用情景-离家（末）)
2025-09-01 08:41:24.944 - EE 00 00 B1 00 00 00 FF FC FF FF (情景执行提示)
2025-09-01 08:41:25.541 - 09 06 00 0F 02 02 38 20 (提示音咚)
2025-09-01 08:41:26.134 - 50 F7 01 (全屋影音全关)
2025-09-01 08:41:26.689 - 01 06 07 D0 FF 60 C8 9F (客厅空调关)
2025-09-01 08:41:26.714 - 01 06 07 D0 FF 60 C8 9F (客厅空调关)
2025-09-01 08:41:27.284 - 01 06 07 D0 FF 60 C8 9F (客厅空调关)
2025-09-01 08:41:27.321 - 01 06 07 D0 FF 60 C8 9F (客厅空调关)
2025-09-01 08:41:27.884 - 01 06 07 D3 FF 60 38 9F (餐厅空调关)
2025-09-01 08:41:27.918 - 01 06 07 D3 FF 60 38 9F (餐厅空调关)
2025-09-01 08:41:28.481 - 01 06 07 D3 FF 60 38 9F (餐厅空调关)
2025-09-01 08:41:28.515 - 01 06 07 D3 FF 60 38 9F (餐厅空调关)
2025-09-01 08:41:29.078 - 01 06 07 D6 FF 60 28 9E (主卧空调关)
2025-09-01 08:41:29.109 - 01 06 07 D6 FF 60 28 9E (主卧空调关)
2025-09-01 08:41:29.679 - 01 06 07 D6 FF 60 28 9E (主卧空调关)
2025-09-01 08:41:29.705 - 01 06 07 D6 FF 60 28 9E (主卧空调关)
2025-09-01 08:41:30.275 - 01 06 07 D9 FF 60 18 9D (次卧空调关)
2025-09-01 08:41:30.309 - 01 06 07 D9 FF 60 18 9D (次卧空调关)
2025-09-01 08:41:30.872 - 01 06 07 D9 FF 60 18 9D (次卧空调关)
2025-09-01 08:41:30.906 - 01 06 07 D9 FF 60 18 9D (次卧空调关)
2025-09-01 08:41:31.472 - 01 06 07 DC FF 60 08 9C (书房空调关)
2025-09-01 08:41:31.502 - 01 06 07 DC FF 60 08 9C (书房空调关)
2025-09-01 08:41:32.069 - 01 06 07 DC FF 60 08 9C (书房空调关)
2025-09-01 08:41:32.097 - 01 06 07 DC FF 60 08 9C (书房空调关)
2025-09-01 08:41:32.669 - 09 06 00 0F 02 02 38 20 (提示音咚)
2025-09-01 08:41:33.216 - 1A FF FF FF 56 00 00 00 0F (人体感应地址-内卫, 关闭内卫感应)
2025-09-01 08:41:33.328 - BF BF
2025-09-01 08:41:33.765 - 1A FF FF FF 55 00 00 00 0F (人体感应地址-外卫, 关闭外卫感应)
2025-09-01 08:41:33.871 - BC BC
2025-09-01 08:41:34.315 - 1A FF FF FF 57 00 00 00 0F (人体感应地址-厨房, 关闭厨房感应)
2025-09-01 08:41:34.419 - BF BF
2025-09-01 08:41:34.861 - 1A FF FF FF 58 00 00 00 0F (人体感应地址-茶吧, 关闭茶吧感应)
2025-09-01 08:41:34.913 - BC BC
2025-09-01 08:41:35.461 - 1A 20 07 00 93 00 01 00 0F (自保持开关地址-设备区顶, 设备区顶灯关)
2025-09-01 08:41:36.507 - 1A 20 07 01 40 00 01 00 0F (自保持开关地址-内卫顶灯, 内卫顶灯关)
2025-09-01 08:41:37.553 - 1A 20 07 01 55 00 01 00 0F (自保持开关地址-主卧顶灯, 主卧顶灯只关)
2025-09-01 08:41:38.600 - 1A 20 07 00 42 00 01 00 0F (自保持开关地址-外卫顶灯, 外卫顶灯关)
2025-09-01 08:41:39.646 - 55 0D 31 00 00 00 01 94 (书房顶灯只关)
2025-09-01 08:41:40.691 - 55 0A 31 00 00 00 01 91 (厨房顶灯一关)
2025-09-01 08:41:41.738 - 55 0A 31 00 00 00 02 92 (厨房顶灯二关)
2025-09-01 08:41:42.787 - 55 0B 31 00 00 00 01 92 (厨房风扇只关)
2025-09-01 08:41:43.832 - 55 0C 31 00 00 00 01 93 (餐厅顶灯关)
2025-09-01 08:41:44.880 - 1A 20 07 01 30 00 01 00 0F (自保持开关地址-西阳顶灯, 西阳顶灯关)
2025-09-01 08:41:45.925 - 1A 18 05 21 89 00 01 00 0F (自保持开关地址-客厅顶灯, 客厅顶灯一关)
2025-09-01 08:41:46.975 - 1A 18 05 01 94 00 01 00 0F (自保持开关地址-客厅顶灯, 客厅顶灯二关)
2025-09-01 08:41:48.018 - 1A 20 07 00 70 00 01 00 0F (自保持开关地址-次卧顶灯, 次卧顶灯只关)
2025-09-01 08:41:49.065 - 1A 18 05 10 31 00 01 00 0F (自保持开关地址-门厅顶灯, 门厅顶灯关)
2025-09-01 08:41:50.112 - 1A FF FF FF 04 00 03 02 (继电器地址-东阳衣架, 东阳衣架照明关)
2025-09-01 08:41:50.657 - 09 06 00 0F 02 02 38 20 (提示音咚)
2025-09-01 08:41:51.253 - A5 00 A6 FE 01 AA (餐厅窗帘开)
2025-09-01 08:41:51.311 - 55 00 A6 02 01 66 01 74 AA 55 00 A6 02 01 66 F1 (餐厅窗帘电机状态返回)
2025-09-01 08:41:51.856 - FF FF FF FF 0A 00 01 00 (继电器地址-东阳窗帘, 东阳窗帘开)
2025-09-01 08:41:52.404 - 1A BE B0 DC 04 00 01 00 (继电器地址-西阳窗帘, 西阳窗帘开)
2025-09-01 08:41:52.952 - FF FF FF FF 0E 00 01 00 (继电器地址-西阳小窗帘, 西阳小窗帘开)
2025-09-01 08:41:53.503 - 1A 22 33 62 0F 00 00 01 0F (正反转地址-内卫卷帘, 内卫卷帘升)
2025-09-01 08:41:54.048 - 55 12 12 03 01 4C 41 (主卧窗帘开)
2025-09-01 08:41:54.082 - 55 12 12 03 01 4C 41 (主卧窗帘开)
2025-09-01 08:41:54.644 - 55 11 1D 03 02 3C 07 (主卧纱帘开)
2025-09-01 08:41:54.688 - 55 11 1D 03 02 3C 07 (主卧纱帘开)
2025-09-01 08:41:55.241 - A5 00 76 FE 01 AA (次卧窗帘开)
2025-09-01 08:41:55.791 - A5 00 21 FE 01 AA (次卧纱帘开)
2025-09-01 08:41:56.340 - A5 00 D2 FE 01 AA 22 0D (书房窗帘开)
2025-09-01 08:41:56.398 - 55 00 D2 02 00 FE 01 0B AA 55 00 D2 02 00 FE 01 0B FE (书房窗帘电机状态返回)
2025-09-01 08:41:56.939 - 1A BE B0 DC 09 00 01 00 (继电器地址-客厅窗帘, 客厅窗帘开)
2025-09-01 08:41:57.486 - 1A BE B0 DC 0A 00 02 00 (继电器地址-客厅纱帘, 客厅纱帘开)
2025-09-01 08:41:58.034 - 09 06 00 0F 02 02 38 20 (提示音咚)
2025-09-01 08:41:59.082 - 1A EC A0 DC 02 00 00 00 0F (自保持开关地址-天花12V供电, 天花12V 供电关)
2025-09-01 08:41:59.680 - 1A EC A0 DC 02 00 00 00 0F (自保持开关地址-天花12V供电, 天花12V 供电关)
2025-09-01 08:42:00.211 - 55 00 A6 00 00 0E 01 74 AA 55 00 A6 00 00 0E 01 74 AA (餐厅窗帘电机状态返回)
2025-09-01 08:42:00.231 - 1A EC A0 DC 01 00 00 00 0F (自保持开关地址-电视、设备12V供电, 12V 电视供电关)
2025-09-01 08:42:00.828 - 1A EC A0 DC 01 00 00 00 0F (自保持开关地址-电视、设备12V供电, 12V 电视供电关)
2025-09-01 08:42:01.373 - 1A EC A0 DC 04 00 01 00 0F (自保持开关地址-次卧西阳内外卫供电, 内卫外卫关)
2025-09-01 08:42:01.972 - 1A EC A0 DC 04 00 01 00 0F (自保持开关地址-次卧西阳内外卫供电, 内卫外卫关)
2025-09-01 08:42:03.514 - 1A BB BB BB 01 02 00 (开水器电源关)
2025-09-01 08:42:04.055 - 55 00 D2 00 00 0D 01 0B AA 55 00 D2 00 00 0D 01 0B AA (书房窗帘电机状态返回)
2025-09-01 08:42:16.567 - 09 06 00 0F 02 02 38 20 (提示音咚)
2025-09-01 08:42:17.167 - 1A 27 89 12 AA 00 00 00 0F (状态寄存器地址, 无人状态)
2025-09-01 08:42:17.713 - 1A 27 89 12 AA 00 00 00 0F (状态寄存器地址, 无人状态)
2025-09-01 08:42:18.260 - A1 11 11 11 4D (天花供电关闭确认)
2025-09-01 08:42:18.487 - 1A EC A0 DC 02 86 86 86 0F (查询天花供电状态, 自保持开关地址-天花12V供电)
2025-09-01 08:42:18.921 - 1A EC A0 DC 02 00 01 0F (自保持开关地址-天花12V供电)
2025-09-01 08:42:21.397 - A1 11 11 11 4E (卫生供电关闭确认)
2025-09-01 08:42:21.627 - 1A EC A0 DC 04 86 86 86 0F (查询卫生间供电状态, 自保持开关地址-次卧西阳内外卫供电)
2025-09-01 08:42:22.056 - 1A EC A0 DC 04 01 00 0F (自保持开关地址-次卧西阳内外卫供电)
2025-09-01 08:42:24.438 - A1 11 11 11 4F (电视供电关闭确认)
2025-09-01 08:42:24.662 - 1A EC A0 DC 01 86 86 86 0F (查询电视供电状态, 自保持开关地址-电视、设备12V供电)
2025-09-01 08:42:25.095 - 1A EC A0 DC 01 00 01 0F (自保持开关地址-电视、设备12V供电)
2025-09-01 08:42:27.483 - 09 06 00 0F 02 02 38 20 (提示音咚)
2025-09-01 08:42:28.031 - 09 06 00 0F 02 02 38 20 (提示音咚)
2025-09-01 08:42:28.586 - EE 00 00 B1 00 00 02 FF FC FF FF (情景完成返回主页)
2025-09-01 08:42:29.673 - BA BA EE EE BA BA (离家设置信科变量)
2025-09-01 08:42:30.718 - A1 11 11 11 46 (天热离家遮阳)
2025-09-01 08:42:30.938 - 1A 27 89 12 AA 86 86 86 0F (查询寄存器状态, 状态寄存器地址)
2025-09-01 08:42:31.323 - 1A 27 89 12 AA 00 00 00 00 00 00 00 00 00 00 00 01 00 00 00 00 0F (状态寄存器地址)
2025-09-01 08:42:31.944 - 19 08 24 03 DD 00 05 00 01 (调用情景-天热遮阳关帘)
2025-09-01 08:42:32.470 - EE 00 00 B1 00 00 00 FF FC FF FF (情景执行提示)
2025-09-01 08:42:33.064 - 09 06 00 0F 02 01 78 21 (提示音叮)
2025-09-01 08:42:33.609 - A5 00 A2 FF 00 AA (餐厅纱帘关)
2025-09-01 08:42:34.656 - A5 00 A6 FF 00 AA (餐厅窗帘关)
2025-09-01 08:42:34.715 - 55 00 A6 01 00 0E 01 74 AA 55 00 A6 01 00 0E 01 F4 (餐厅窗帘电机状态返回)
2025-09-01 08:42:35.754 - 55 11 1D 03 01 7C 06 (主卧纱帘关)
2025-09-01 08:42:35.799 - 55 11 1D 03 01 7C 06 (主卧纱帘关)
2025-09-01 08:42:36.849 - 55 12 12 03 02 0C 40 (主卧窗帘关)
2025-09-01 08:42:36.891 - 55 12 12 03 02 0C 40 (主卧窗帘关)
2025-09-01 08:42:37.947 - A5 00 21 FF 00 AA (次卧纱帘关)
2025-09-01 08:42:38.002 - 55 00 21 01 00 0D 01 34 AA 55 00 21 01 00 0D 01 34 AA (次卧纱帘电机状态返回)
2025-09-01 08:42:39.042 - A5 00 76 FF 00 AA (次卧窗帘关)
2025-09-01 08:42:39.099 - 55 00 76 01 00 0D 01 1B AA 55 00 76 01 00 0D 01 DB (次卧窗帘电机状态返回)
2025-09-01 08:42:40.139 - A5 00 B7 FF 00 AA 22 0D (书房纱帘关)
2025-09-01 08:42:41.188 - A5 00 D2 FF 00 AA 22 0C (书房窗帘关)
2025-09-01 08:42:41.237 - 55 00 D2 01 00 0D 01 0B AA 55 00 D2 01 00 0D 01 0B AA (书房窗帘电机状态返回)
2025-09-01 08:42:42.811 - 1A 22 33 62 5E 00 02 01 0F (正反转地址-厨房卷帘三, 厨房卷帘一降)
2025-09-01 08:42:43.593 - 55 00 A6 00 01 66 01 74 AA 55 00 A6 00 01 66 01 74 AA (餐厅窗帘电机状态返回)
2025-09-01 08:42:43.879 - 1A 22 33 62 56 00 02 01 0F (正反转地址-厨房卷帘二, 厨房卷帘二降)
2025-09-01 08:42:44.925 - 1A 22 33 62 4F 00 00 01 0F (正反转地址-厨房卷帘一, 厨房卷帘三降)
2025-09-01 08:42:45.447 - 55 00 21 00 01 27 01 34 AA 55 00 21 00 01 27 01 34 AA (次卧纱帘电机状态返回)
2025-09-01 08:42:45.973 - 1A BE B0 DC 04 00 02 00 (继电器地址-西阳窗帘, 西阳窗帘关)
2025-09-01 08:42:47.021 - FF FF FF FF 0E 00 02 00 (继电器地址-西阳小窗帘, 西阳小窗帘关)
2025-09-01 08:42:47.458 - 55 00 76 00 01 0E 01 1B AA 55 00 76 00 01 0E 01 1B AA (次卧窗帘电机状态返回)
2025-09-01 08:42:48.065 - 1A BE B0 DC 03 00 03 00 (继电器地址-西阳天幕, 西阳天幕关)
2025-09-01 08:42:49.110 - 1A BE B0 DC 03 00 03 00 (继电器地址-西阳天幕, 西阳天幕关)
2025-09-01 08:42:49.809 - 55 00 D2 00 00 FE 01 0B AA 55 00 D2 00 00 FE 01 0B AA (书房窗帘电机状态返回)
2025-09-01 08:42:50.158 - 09 06 00 0F 02 02 38 20 (提示音咚)
2025-09-01 08:42:50.708 - EE 00 00 B1 00 00 02 FF FC FF FF (情景完成返回主页)
2025-09-01 09:11:10.042 - 1A BE B0 DC 09 (继电器地址-客厅窗帘)
2025-09-01 09:11:10.176 - FF
2025-09-01 09:12:07.581 - 1A BE B0 DC 02 FC (正反转地址-外卫卷帘)
2025-09-01 09:12:07.717 - FE
2025-09-01 09:23:00.326 - 1A BE B0 DC 04 (继电器地址-西阳窗帘)
2025-09-01 09:23:00.462 - FF
2025-09-01 09:45:07.607 - 1A BE B0 DC 0A FF (继电器地址-客厅纱帘)
2025-09-01 09:45:07.742 - FE
2025-09-01 10:32:39.693 - FF FF FF FF 0E (继电器地址-西阳小窗帘)
2025-09-01 10:32:39.829 - FF
2025-09-01 11:21:07.465 - 1A BE B0 DC 03 FC (继电器地址-西阳天幕)
2025-09-01 11:21:07.597 - FF
2025-09-01 11:31:10.411 - 1A BE B0 DC 01 FC (继电器地址-回水泵点动)
2025-09-01 11:46:25.119 - 1B 03 00 00 00 02 C6 31 (查询室外光线)
2025-09-01 11:46:25.139 - 1B 03 04 00 00 05 00 42 A2 (室外光线返回)
2025-09-01 11:46:25.921 - 1A EC A0 DC 02 00 00 01 0F (自保持开关地址-天花12V供电, 天花12V 供电开)
2025-09-01 11:46:26.218 - 19 08 24 03 DD 00 0C 00 01 (调用情景-信科调用进门亮)
2025-09-01 11:46:26.491 - 1A AA AA AA 88 (调光器地址-茶吧灯带)
2025-09-01 11:46:26.755 - EE 00 00 B1 00 00 00 FF FC FF FF (情景执行提示)
2025-09-01 11:46:27.349 - 09 06 00 0F 02 01 78 21 (提示音叮)
2025-09-01 11:46:27.899 - 1A EC A0 DC 02 00 00 01 0F (自保持开关地址-天花12V供电, 天花12V 供电开)
2025-09-01 11:46:28.445 - 1A EC A0 DC 04 00 01 01 0F (自保持开关地址-次卧西阳内外卫供电, 内卫外卫开)
2025-09-01 11:46:28.994 - 1A EC A0 DC 04 00 01 01 0F (自保持开关地址-次卧西阳内外卫供电, 内卫外卫开)
2025-09-01 11:46:29.543 - 1A EC A0 DC 01 00 00 01 0F (自保持开关地址-电视、设备12V供电, 12V 电视供电开)
2025-09-01 11:46:30.090 - 1A BB BB BB 01 01 00 (开水器电源开)
2025-09-01 11:46:31.637 - 1A 27 89 12 AA 00 00 01 0F (状态寄存器地址, 有人状态)
2025-09-01 11:46:32.184 - 1A 27 89 12 AA 00 00 01 0F (状态寄存器地址, 有人状态)
2025-09-01 11:46:32.742 - 1A 0C 02 08 01 FF 45 01 FF 45 01 FF 00 00 0F (调光器地址-内卫射灯, 内卫射灯微光)
2025-09-01 11:46:33.337 - 1A 0D 01 07 01 FF 45 01 FF 45 01 FF 00 00 0F (调光器地址-外卫射灯, 外卫感应灯开)
2025-09-01 11:46:33.929 - 1A FF FF FF 57 00 00 01 0F (人体感应地址-厨房, 打开厨房感应)
2025-09-01 11:46:34.031 - BF BF
2025-09-01 11:46:34.526 - 1A FF FF FF 57 00 00 01 0F (人体感应地址-厨房, 打开厨房感应)
2025-09-01 11:46:34.538 - BC BC
2025-09-01 11:46:35.126 - 1A FF FF FF 58 00 00 01 0F (人体感应地址-茶吧, 打开茶吧感应)
2025-09-01 11:46:35.178 - BC BC
2025-09-01 11:46:35.721 - 1A BE B0 DC 01 00 01 00 (继电器地址-回水泵点动, 回水泵点动)
2025-09-01 11:46:36.271 - 1A BE B0 DC 01 00 01 00 (继电器地址-回水泵点动, 回水泵点动)
2025-09-01 11:46:36.819 - 09 06 00 0F 02 01 78 21 (提示音叮)
2025-09-01 11:46:37.365 - 09 06 00 0F 02 01 78 21 (提示音叮)
2025-09-01 11:46:37.918 - EE 00 00 B1 00 00 02 FF FC FF FF (情景完成返回主页)
2025-09-01 11:46:38.510 - A1 11 11 11 50 (天花供电打开确认)
2025-09-01 11:46:38.730 - 1A EC A0 DC 02 86 86 86 0F (查询天花供电状态, 自保持开关地址-天花12V供电)
2025-09-01 11:46:39.168 - 1A EC A0 DC 02 01 01 0F (自保持开关地址-天花12V供电)
2025-09-01 11:46:41.051 - A1 11 11 11 51 (卫生供电打开确认)
2025-09-01 11:46:41.278 - 1A EC A0 DC 04 86 86 86 0F (查询卫生间供电状态, 自保持开关地址-次卧西阳内外卫供电)
2025-09-01 11:46:41.711 - 1A EC A0 DC 04 01 01 0F (自保持开关地址-次卧西阳内外卫供电)
2025-09-01 11:46:43.593 - A1 11 11 11 52 (电视供电打开确认)
2025-09-01 11:46:43.813 - 1A EC A0 DC 01 86 86 86 0F (查询电视供电状态, 自保持开关地址-电视、设备12V供电)
2025-09-01 11:46:44.250 - 1A EC A0 DC 01 01 01 0F (自保持开关地址-电视、设备12V供电)
2025-09-01 11:46:48.625 - A1 11 11 11 47 (天热回家开帘)
2025-09-01 11:46:48.848 - 1A 27 89 12 AA 86 86 86 0F (查询寄存器状态, 状态寄存器地址)
2025-09-01 11:46:49.230 - 1A 27 89 12 AA 01 00 00 00 00 00 00 00 00 00 00 01 00 00 00 00 0F (状态寄存器地址)
2025-09-01 11:46:49.852 - 19 08 24 03 DD 00 06 00 01 (调用情景-天热遮阳开帘)
2025-09-01 11:46:50.375 - EE 00 00 B1 00 00 00 FF FC FF FF (情景执行提示)
2025-09-01 11:46:50.973 - 09 06 00 0F 02 01 78 21 (提示音叮)
2025-09-01 11:46:51.517 - A5 00 A6 FE 01 AA (餐厅窗帘开)
2025-09-01 11:46:51.566 - 55 00 A6 02 01 66 01 74 AA 55 00 A6 02 01 66 01 74 AA (餐厅窗帘电机状态返回)
2025-09-01 11:46:52.615 - 55 12 12 03 01 4C 41 (主卧窗帘开)
2025-09-01 11:46:52.654 - 55 12 12 03 01 4C 41 (主卧窗帘开)
2025-09-01 11:46:53.710 - 55 11 1D 03 02 3C 07 (主卧纱帘开)
2025-09-01 11:46:53.752 - 55 11 1D 03 02 3C 07 (主卧纱帘开)
2025-09-01 11:46:54.807 - A5 00 76 FE 01 AA (次卧窗帘开)
2025-09-01 11:46:54.863 - 55 00 76 02 01 0E 01 1B AA 55 00 76 02 01 0E 01 FB (次卧窗帘电机状态返回)
2025-09-01 11:46:55.905 - A5 00 21 FE 01 AA (次卧纱帘开)
2025-09-01 11:46:55.956 - 55 00 21 02 01 27 01 34 AA 55 00 21 02 01 27 01 34 AA (次卧纱帘电机状态返回)
2025-09-01 11:46:57.005 - 1A BE B0 DC 04 00 01 00 (继电器地址-西阳窗帘, 西阳窗帘开)
2025-09-01 11:46:58.127 - FF FF FF FF 0E 00 01 00 (继电器地址-西阳小窗帘, 西阳小窗帘开)
2025-09-01 11:46:59.195 - A5 00 D2 FE 01 AA 22 0D (书房窗帘开)
2025-09-01 11:46:59.244 - 55 00 D2 02 00 FE 01 0B AA 55 00 D2 02 00 FE 01 0B AA (书房窗帘电机状态返回)
2025-09-01 11:47:00.290 - 09 06 00 0F 02 02 38 20 (提示音咚)
2025-09-01 11:47:00.371 - 7D
2025-09-01 11:47:00.390 - F7 FF FF EF FD 77 AB 55 FF B7 FF FF EF FD 77 AB
2025-09-01 11:47:00.841 - EE 00 00 B1 00 00 02 FF FC FF FF (情景完成返回主页)
2025-09-01 11:47:02.916 - 55 00 76 00 00 0D 01 1B AA 55 00 76 00 00 0D 01 1B AA (次卧窗帘电机状态返回)
2025-09-01 11:47:03.564 - 55 00 21 00 00 0D 01 34 AA 55 00 21 00 00 0D 01 34 AA (次卧纱帘电机状态返回)
2025-09-01 11:47:04.348 - 55 00 A6 00 00 0F 01 74 AA 55 00 A6 00 00 0F 01 74 AA (餐厅窗帘电机状态返回)
2025-09-01 11:47:06.832 - 55 00 D2 00 00 0D 01 0B AA 55 00 D2 00 00 0D 01 0B AA (书房窗帘电机状态返回)
2025-09-01 11:47:43.832 - 19 08 24 03 CC 01 CC 00 01 (调用茶吧感应灯开的按键)
2025-09-01 11:47:43.879 - 1A AA AA AA 88 FF B0 01 FF B0 01 0F (调光器地址-茶吧灯带, 茶吧灯带明亮)
2025-09-01 11:48:05.873 - 19 08 24 03 CC 01 CD 00 01 (调用茶吧感应灯关的按键)
2025-09-01 11:48:05.904 - 1A AA AA AA 88 FF 00 01 FF 00 01 0F (调光器地址-茶吧灯带, 茶吧灯带关闭)
2025-09-01 11:49:40.998 - 19 08 24 03 DD 00 29 00 01 (调用情景-次卧照明关帘)
2025-09-01 11:49:41.511 - EE 00 00 B1 00 00 00 FF FC FF FF (情景执行提示)
2025-09-01 11:49:42.106 - 09 06 00 0F 02 01 78 21 (提示音叮)
2025-09-01 11:49:42.691 - 1A 0E 03 05 01 FF F0 01 FF F0 01 FF 00 00 0F (调光器地址-次卧射灯, 次卧射灯明亮)
2025-09-01 11:49:43.259 - 1A 0E 03 05 02 FF F0 01 FF F0 01 FF 00 00 0F (调光器地址-次卧灯带, 次卧灯带明亮)
2025-09-01 11:49:43.846 - A5 00 21 FF 00 AA (次卧纱帘关)
2025-09-01 11:49:43.904 - 55 00 21 01 00 0D 01 34 AA 55 00 21 01 00 0D 01 F4 (次卧纱帘电机状态返回)
2025-09-01 11:49:44.945 - A5 00 76 FF 00 AA (次卧窗帘关)
2025-09-01 11:49:45.002 - 55 00 76 01 00 0D 01 1B AA 55 00 76 01 00 0D FF (次卧窗帘电机状态返回)
2025-09-01 11:49:46.051 - 1A 0E 03 05 04 FF F0 01 FF F0 01 FF 00 00 0F (调光器地址-次卧北筒灯, 次卧北筒灯明亮)
2025-09-01 11:49:46.649 - 1A 0E 03 05 05 FF F0 01 FF F0 01 FF 00 00 0F (调光器地址-次卧南筒灯, 次卧南筒灯明亮)
2025-09-01 11:49:47.238 - 09 06 00 0F 02 02 38 20 (提示音咚)
2025-09-01 11:49:47.792 - EE 00 00 B1 00 00 02 FF FC FF FF (情景完成返回主页)
2025-09-01 11:49:50.965 - 55 00 21 00 01 28 01 34 AA 55 00 21 00 01 28 01 34 AA (次卧纱帘电机状态返回)
2025-09-01 11:49:52.447 - 55 00 21 00 01 27 01 34 AA 55 00 21 00 01 27 01 34 AA (次卧纱帘电机状态返回)
2025-09-01 11:49:54.427 - 55 00 76 00 01 0E 01 1B AA 55 00 76 00 01 0E 01 1B AA (次卧窗帘电机状态返回)
2025-09-01 11:56:49.616 - 19 08 24 03 DD 00 3E 00 01 (调用情景-外卫照明关帘)
2025-09-01 11:56:50.155 - EE 00 00 B1 00 00 00 FF FC FF FF (情景执行提示)
2025-09-01 11:56:50.752 - 09 06 00 0F 02 01 78 21 (提示音叮)
2025-09-01 11:56:51.312 - 1A FF FF FF 55 00 00 00 0F (人体感应地址-外卫, 关闭外卫感应)
2025-09-01 11:56:51.324 - BC BC
2025-09-01 11:56:52.403 - 1A 0D 01 07 01 FF F0 01 FF F0 01 FF 00 00 0F (调光器地址-外卫射灯, 外卫射灯明亮)
2025-09-01 11:56:52.994 - 09 06 00 0F 02 02 38 20 (提示音咚)
2025-09-01 11:56:53.546 - EE 00 00 B1 00 00 02 FF FC FF FF (情景完成返回主页)
2025-09-01 11:57:13.920 - 1A FF FF FF 04 (继电器地址-东阳衣架)
2025-09-01 11:57:14.057 - 00
2025-09-01 11:58:37.631 - 19 08 24 03 CC 01 CC 00 01 (调用茶吧感应灯开的按键)
2025-09-01 11:58:37.682 - 1A AA AA AA 88 FF B0 01 FF B0 01 0F (调光器地址-茶吧灯带, 茶吧灯带明亮)
2025-09-01 11:59:04.183 - 19 08 24 03 CC 01 CD 00 01 (调用茶吧感应灯关的按键)
2025-09-01 11:59:04.233 - 1A AA AA AA 88 FF 00 01 FF 00 01 0F (调光器地址-茶吧灯带, 茶吧灯带关闭)
2025-09-01 11:59:51.777 - 19 08 24 03 CC 01 CC 00 01 (调用茶吧感应灯开的按键)
2025-09-01 11:59:51.809 - 1A AA AA AA 88 FF B0 01 FF B0 01 0F (调光器地址-茶吧灯带, 茶吧灯带明亮)
2025-09-01 12:01:08.931 - 19 08 24 03 CC 01 CD 00 01 (调用茶吧感应灯关的按键)
2025-09-01 12:01:08.962 - 1A AA AA AA 88 FF 00 01 FF 00 01 0F (调光器地址-茶吧灯带, 茶吧灯带关闭)
2025-09-01 12:01:44.501 - 19 08 24 03 CC 01 CC 00 01 (调用茶吧感应灯开的按键)
2025-09-01 12:01:44.533 - 1A AA AA AA 88 FF B0 01 FF B0 01 0F (调光器地址-茶吧灯带, 茶吧灯带明亮)
2025-09-01 12:04:17.806 - 19 08 24 03 CC 01 CD 00 01 (调用茶吧感应灯关的按键)
2025-09-01 12:04:17.835 - 1A AA AA AA 88 FF 00 01 FF 00 01 0F (调光器地址-茶吧灯带, 茶吧灯带关闭)
2025-09-01 12:15:13.599 - 19 08 24 03 CC 01 CC 00 01 (调用茶吧感应灯开的按键)
2025-09-01 12:15:13.629 - 1A AA AA AA 88 FF B0 01 FF B0 01 0F (调光器地址-茶吧灯带, 茶吧灯带明亮)
2025-09-01 12:16:26.242 - 19 08 24 03 CC 01 CD 00 01 (调用茶吧感应灯关的按键)
2025-09-01 12:16:26.273 - 1A AA AA AA 88 FF 00 01 FF 00 01 0F (调光器地址-茶吧灯带, 茶吧灯带关闭)
2025-09-01 12:27:12.635 - FF FF FF FF 0A (继电器地址-东阳窗帘)
2025-09-01 12:27:12.768 - FF
2025-09-01 12:29:44.312 - 19 08 24 03 DD 00 32 00 01 (调用情景-次卧起床)
2025-09-01 12:29:44.842 - EE 00 00 B1 00 00 00 FF FC FF FF (情景执行提示)
2025-09-01 12:29:45.436 - 09 06 00 0F 02 01 78 21 (提示音叮)
2025-09-01 12:29:45.987 - 1A 20 07 00 70 00 01 00 0F (自保持开关地址-次卧顶灯, 次卧顶灯只关)
2025-09-01 12:29:46.233 - 19 08 24 03 DD 00 33 00 01 (调用情景-次卧睡觉)
2025-09-01 12:29:46.543 - 1A 0E 03 05 02 FF 45 01 FF 45 01 FF 00 00 0F (调光器地址-次卧灯带, 次卧灯带微光)
2025-09-01 12:29:47.137 - 1A 0E 03 05 01 FF 45 01 FF 45 01 FF 00 00 0F (调光器地址-次卧射灯, 次卧射灯微光)
2025-09-01 12:29:47.736 - 1A 0E 03 05 04 FF 45 01 FF 45 01 FF 00 00 0F (调光器地址-次卧北筒灯, 次卧北筒灯微光)
2025-09-01 12:29:48.337 - 1A 0E 03 05 05 FF 45 01 FF 45 01 FF 00 00 0F (调光器地址-次卧南筒灯, 次卧南筒灯微光)
2025-09-01 12:29:48.923 - A5 00 76 FE 01 AA (次卧窗帘开)
2025-09-01 12:29:48.975 - 55 00 76 02 01 0E 01 1B AA 55 00 76 02 01 0E 01 1B AA (次卧窗帘电机状态返回)
2025-09-01 12:29:50.049 - A5 00 21 FF 00 AA (次卧纱帘关)
2025-09-01 12:29:51.120 - 1A BE B0 DC 01 00 01 00 (继电器地址-回水泵点动, 回水泵点动)
2025-09-01 12:29:52.166 - 09 06 00 0F 02 02 38 20 (提示音咚)
2025-09-01 12:29:52.718 - EE 00 00 B1 00 00 02 FF FC FF FF (情景完成返回主页)
2025-09-01 12:29:53.314 - EE 00 00 B1 00 00 00 FF FC FF FF (情景执行提示)
2025-09-01 12:29:53.910 - 09 06 00 0F 02 01 78 21 (提示音叮)
2025-09-01 12:29:54.457 - 1A 20 07 00 70 00 01 00 0F (自保持开关地址-次卧顶灯, 次卧顶灯只关)
2025-09-01 12:29:55.003 - A5 00 21 FF 00 AA (次卧纱帘关)
2025-09-01 12:29:56.051 - A5 00 76 FF 00 AA (次卧窗帘关)
2025-09-01 12:29:56.511 - 55 00 76 01 00 0E 01 1B AA 55 00 76 01 00 0E 01 1B AA (次卧窗帘电机状态返回)
2025-09-01 12:29:57.094 - 50 F5 06 (关次卧影视)
2025-09-01 12:29:57.659 - 1A 0E 03 05 03 FF 00 01 FF 00 01 FF 00 00 0F (调光器地址-次卧阅读灯, 次卧阅读关闭)
2025-09-01 12:29:58.250 - 1A 0E 03 05 02 FF 00 01 FF 00 01 FF 00 00 0F (调光器地址-次卧灯带, 次卧灯带关闭)
2025-09-01 12:29:58.854 - 1A 0E 03 05 04 FF 00 01 FF 00 01 FF 00 00 0F (调光器地址-次卧北筒灯, 次卧北筒灯关闭)
2025-09-01 12:29:59.477 - 1A 0E 03 05 05 FF 00 01 FF 00 01 FF 00 00 0F (调光器地址-次卧南筒灯, 次卧南筒灯关闭)
2025-09-01 12:30:00.044 - 1A 0E 03 05 01 FF 00 01 FF 00 01 FF 00 00 0F (调光器地址-次卧射灯, 次卧射灯关闭)
2025-09-01 12:30:00.636 - 09 06 00 0F 02 02 38 20 (提示音咚)
2025-09-01 12:30:01.187 - EE 00 00 B1 00 00 02 FF FC FF FF (情景完成返回主页)
2025-09-01 12:30:05.550 - 55 00 76 00 01 0F 01 1B AA 55 00 76 00 01 0F 01 1B AA (次卧窗帘电机状态返回)
2025-09-01 12:32:19.121 - 1A BE B0 DC 09 FE (继电器地址-客厅窗帘)
2025-09-01 12:32:19.257 - FF
2025-09-01 12:32:37.211 - 1A BE B0 DC 02 (正反转地址-外卫卷帘)
2025-09-01 12:32:37.348 - FF
2025-09-01 12:42:51.156 - 1A BE B0 DC 04 (继电器地址-西阳窗帘)
2025-09-01 12:46:01.598 - 19 08 24 03 CC 00 D3 00 01 (调用厨房感应灯开的按键)
2025-09-01 12:46:01.648 - 55 0A 32 00 00 00 01 92 55 0A 32 00 00 00 02 93 (厨房顶灯一开, 厨房顶灯二开)
2025-09-01 12:46:37.166 - 19 08 24 03 CC 00 D4 00 01 (调用厨房感应灯关的按键)
2025-09-01 12:46:37.218 - 55 0A 31 00 00 00 01 91 55 0A 31 00 00 00 02 92 (厨房顶灯一关, 厨房顶灯二关)
2025-09-01 12:59:48.903 - 19 08 24 03 CC 01 CC 00 01 (调用茶吧感应灯开的按键)
2025-09-01 12:59:48.932 - 1A AA AA AA 88 FF B0 01 FF B0 01 0F (调光器地址-茶吧灯带, 茶吧灯带明亮)
2025-09-01 13:00:57.039 - 19 08 24 03 CC 01 CD 00 01 (调用茶吧感应灯关的按键)
2025-09-01 13:00:57.069 - 1A AA AA AA 88 FF 00 01 FF 00 01 0F (调光器地址-茶吧灯带, 茶吧灯带关闭)
2025-09-01 13:05:41.629 - 1A BE B0 DC 0A (继电器地址-客厅纱帘)
2025-09-01 13:36:45.280 - 19 08 24 03 CC 01 CC 00 01 (调用茶吧感应灯开的按键)
2025-09-01 13:36:45.331 - 1A AA AA AA 88 FF B0 01 FF B0 01 0F (调光器地址-茶吧灯带, 茶吧灯带明亮)
2025-09-01 13:36:56.604 - 19 08 24 03 CC 00 D3 00 01 (调用厨房感应灯开的按键)
2025-09-01 13:36:56.656 - 55 0A 32 00 00 00 01 92 55 0A 32 00 00 00 02 93 (厨房顶灯一开, 厨房顶灯二开)
2025-09-01 13:36:59.811 - 19 08 24 03 CC 01 CD 00 01 (调用茶吧感应灯关的按键)
2025-09-01 13:36:59.841 - 1A AA AA AA 88 FF 00 01 FF 00 01 0F (调光器地址-茶吧灯带, 茶吧灯带关闭)
2025-09-01 13:38:33.293 - 19 08 24 03 CC 00 D4 00 01 (调用厨房感应灯关的按键)
2025-09-01 13:38:33.328 - 55 0A 31 00 00 00 01 91 55 0A 31 00 00 00 02 92 (厨房顶灯一关, 厨房顶灯二关)
2025-09-01 13:38:47.325 - 19 08 24 03 CC 00 D3 00 01 (调用厨房感应灯开的按键)
2025-09-01 13:38:47.360 - 55 0A 32 00 00 00 01 92 55 0A 32 00 00 00 02 93 (厨房顶灯一开, 厨房顶灯二开)
2025-09-01 13:40:03.172 - 19 08 24 03 CC 01 CC 00 01 (调用茶吧感应灯开的按键)
2025-09-01 13:40:03.204 - 1A AA AA AA 88 FF B0 01 FF B0 01 0F (调光器地址-茶吧灯带, 茶吧灯带明亮)
2025-09-01 13:40:17.199 - 19 08 24 03 CC 01 CD 00 01 (调用茶吧感应灯关的按键)
2025-09-01 13:40:17.231 - 1A AA AA AA 88 FF 00 01 FF 00 01 0F (调光器地址-茶吧灯带, 茶吧灯带关闭)
2025-09-01 13:40:52.567 - 19 08 24 03 CC 00 D4 00 01 (调用厨房感应灯关的按键)
2025-09-01 13:40:52.602 - 55 0A 31 00 00 00 01 91 55 0A 31 00 00 00 02 92 (厨房顶灯一关, 厨房顶灯二关)
2025-09-01 13:41:46.878 - 19 08 24 03 CC 01 CC 00 01 (调用茶吧感应灯开的按键)
2025-09-01 13:41:46.909 - 1A AA AA AA 88 FF B0 01 FF B0 01 0F (调光器地址-茶吧灯带, 茶吧灯带明亮)
2025-09-01 13:41:58.403 - 19 08 24 03 CC 01 CD 00 01 (调用茶吧感应灯关的按键)
2025-09-01 13:41:58.430 - 1A AA AA AA 88 FF 00 01 FF 00 01 0F (调光器地址-茶吧灯带, 茶吧灯带关闭)
2025-09-01 13:52:41.891 - FF FF FF FF 0E FC (继电器地址-西阳小窗帘)
2025-09-01 13:52:42.025 - FF
2025-09-01 13:53:55.190 - 19 08 24 03 DD 00 28 00 01 (调用情景-离开次卧)
2025-09-01 13:53:55.749 - EE 00 00 B1 00 00 00 FF FC FF FF (情景执行提示)
2025-09-01 13:53:56.344 - 09 06 00 0F 02 01 78 21 (提示音叮)
2025-09-01 13:53:56.888 - 50 F5 06 (关次卧影视)
2025-09-01 13:53:57.440 - 01 06 07 D9 FF 60 18 9D (次卧空调关)
2025-09-01 13:53:57.474 - 01 06 07 D9 FF 60 18 9D (次卧空调关)
2025-09-01 13:53:58.038 - A5 00 76 FE 01 AA (次卧窗帘开)
2025-09-01 13:53:58.093 - 55 00 76 02 01 0F 01 1B AA 55 00 76 02 01 0F 01 1B AA (次卧窗帘电机状态返回)
2025-09-01 13:53:59.134 - A5 00 21 FE 01 AA (次卧纱帘开)
2025-09-01 13:53:59.182 - 55 00 21 02 01 27 01 34 AA 55 00 21 02 01 27 01 34 AA (次卧纱帘电机状态返回)
2025-09-01 13:54:00.234 - 1A 20 07 00 70 00 01 00 0F (自保持开关地址-次卧顶灯, 次卧顶灯只关)
2025-09-01 13:54:00.836 - 1A 0E 03 05 FF FF 00 01 FF 00 01 FF 00 00 0F (调光器地址-次卧调光统配符, 次卧调光全关)
2025-09-01 13:54:01.427 - 09 06 00 0F 02 02 38 20 (提示音咚)
2025-09-01 13:54:03.502 - EE 00 00 B1 00 00 02 FF FC FF FF (情景完成返回主页)
2025-09-01 13:54:04.837 - 19 08 24 03 CC 01 CC 00 01 (调用茶吧感应灯开的按键)
2025-09-01 13:54:04.887 - 1A AA AA AA 88 FF B0 01 FF B0 01 0F (调光器地址-茶吧灯带, 茶吧灯带明亮)
2025-09-01 13:54:06.073 - 55 00 76 00 00 0D 01 1B AA 55 00 76 00 00 0D 01 1B AA (次卧窗帘电机状态返回)
2025-09-01 13:54:06.686 - 55 00 21 00 00 0D 01 34 AA 55 00 21 00 00 0D 01 34 AA (次卧纱帘电机状态返回)
2025-09-01 13:54:33.544 - 19 08 24 03 DD 00 00 00 01 (调用情景-离家（末）)
2025-09-01 13:54:34.072 - EE 00 00 B1 00 00 00 FF FC FF FF (情景执行提示)
2025-09-01 13:54:34.666 - 09 06 00 0F 02 02 38 20 (提示音咚)
2025-09-01 13:54:35.211 - 50 F7 01 (全屋影音全关)
2025-09-01 13:54:35.765 - 01 06 07 D0 FF 60 C8 9F (客厅空调关)
2025-09-01 13:54:35.798 - 01 06 07 D0 FF 60 C8 9F (客厅空调关)
2025-09-01 13:54:36.360 - 01 06 07 D0 FF 60 C8 9F (客厅空调关)
2025-09-01 13:54:36.394 - 01 06 07 D0 FF 60 C8 9F (客厅空调关)
2025-09-01 13:54:36.992 - 01 06 07 D3 FF 60 38 9F (餐厅空调关)
2025-09-01 13:54:37.019 - 01 06 07 D3 FF 60 38 9F (餐厅空调关)
2025-09-01 13:54:37.558 - 01 06 07 D3 FF 60 38 9F (餐厅空调关)
2025-09-01 13:54:37.586 - 01 06 07 D3 FF 60 38 9F (餐厅空调关)
2025-09-01 13:54:38.154 - 01 06 07 D6 FF 60 28 9E (主卧空调关)
2025-09-01 13:54:38.194 - 01 06 07 D6 FF 60 28 9E (主卧空调关)
2025-09-01 13:54:38.754 - 01 06 07 D6 FF 60 28 9E (主卧空调关)
2025-09-01 13:54:38.788 - 01 06 07 D6 FF 60 28 9E (主卧空调关)
2025-09-01 13:54:39.352 - 01 06 07 D9 FF 60 18 9D (次卧空调关)
2025-09-01 13:54:39.382 - 01 06 07 D9 FF 60 18 9D (次卧空调关)
2025-09-01 13:54:39.907 - 19 08 24 03 CC 01 CD 00 01 (调用茶吧感应灯关的按键)
2025-09-01 13:54:39.956 - 1A AA AA AA 88 FF 00 01 FF 00 01 0F (调光器地址-茶吧灯带, 茶吧灯带关闭)
2025-09-01 13:54:40.357 - 01 06 07 D9 FF 60 18 9D (次卧空调关)
2025-09-01 13:54:40.383 - 01 06 07 D9 FF 60 18 9D (次卧空调关)
2025-09-01 13:54:40.997 - 01 06 07 DC FF 60 08 9C (书房空调关)
2025-09-01 13:54:41.030 - 01 06 07 DC FF 60 08 9C (书房空调关)
2025-09-01 13:54:41.596 - 01 06 07 DC FF 60 08 9C (书房空调关)
2025-09-01 13:54:41.626 - 01 06 07 DC FF 60 08 9C (书房空调关)
2025-09-01 13:54:42.194 - 09 06 00 0F 02 02 38 20 (提示音咚)
2025-09-01 13:54:42.743 - 1A FF FF FF 56 00 00 00 0F (人体感应地址-内卫, 关闭内卫感应)
2025-09-01 13:54:42.753 - BC BC
2025-09-01 13:54:43.340 - 1A FF FF FF 55 00 00 00 0F (人体感应地址-外卫, 关闭外卫感应)
2025-09-01 13:54:43.352 - BC BC
2025-09-01 13:54:43.937 - 1A FF FF FF 57 00 00 00 0F (人体感应地址-厨房, 关闭厨房感应)
2025-09-01 13:54:44.042 - BF BF
2025-09-01 13:54:44.489 - 1A FF FF FF 58 00 00 00 0F (人体感应地址-茶吧, 关闭茶吧感应)
2025-09-01 13:54:44.538 - BC BC
2025-09-01 13:54:45.084 - 1A 20 07 00 93 00 01 00 0F (自保持开关地址-设备区顶, 设备区顶灯关)
2025-09-01 13:54:46.130 - 1A 20 07 01 40 00 01 00 0F (自保持开关地址-内卫顶灯, 内卫顶灯关)
2025-09-01 13:54:47.178 - 1A 20 07 01 55 00 01 00 0F (自保持开关地址-主卧顶灯, 主卧顶灯只关)
2025-09-01 13:54:48.226 - 1A 20 07 00 42 00 01 00 0F (自保持开关地址-外卫顶灯, 外卫顶灯关)
2025-09-01 13:54:49.271 - 55 0D 31 00 00 00 01 94 (书房顶灯只关)
2025-09-01 13:54:50.316 - 55 0A 31 00 00 00 01 91 (厨房顶灯一关)
2025-09-01 13:54:51.364 - 55 0A 31 00 00 00 02 92 (厨房顶灯二关)
2025-09-01 13:54:52.409 - 55 0B 31 00 00 00 01 92 (厨房风扇只关)
2025-09-01 13:54:53.456 - 55 0C 31 00 00 00 01 93 (餐厅顶灯关)
2025-09-01 13:54:54.504 - 1A 20 07 01 30 00 01 00 0F (自保持开关地址-西阳顶灯, 西阳顶灯关)
2025-09-01 13:54:55.549 - 1A 18 05 21 89 00 01 00 0F (自保持开关地址-客厅顶灯, 客厅顶灯一关)
2025-09-01 13:54:56.597 - 1A 18 05 01 94 00 01 00 0F (自保持开关地址-客厅顶灯, 客厅顶灯二关)
2025-09-01 13:54:57.645 - 1A 20 07 00 70 00 01 00 0F (自保持开关地址-次卧顶灯, 次卧顶灯只关)
2025-09-01 13:54:58.691 - 1A 18 05 10 31 00 01 00 0F (自保持开关地址-门厅顶灯, 门厅顶灯关)
2025-09-01 13:54:59.737 - 1A FF FF FF 04 00 03 02 (继电器地址-东阳衣架, 东阳衣架照明关)
2025-09-01 13:55:00.284 - 09 06 00 0F 02 02 38 20 (提示音咚)
2025-09-01 13:55:00.879 - A5 00 A6 FE 01 AA (餐厅窗帘开)
2025-09-01 13:55:00.934 - 55 00 A6 02 00 0F 01 74 AA 55 00 A6 02 00 0F 01 74 AA (餐厅窗帘电机状态返回)
2025-09-01 13:55:01.480 - FF FF FF FF 0A 00 01 00 (继电器地址-东阳窗帘, 东阳窗帘开)
2025-09-01 13:55:02.027 - 1A BE B0 DC 04 00 01 00 (继电器地址-西阳窗帘, 西阳窗帘开)
2025-09-01 13:55:02.576 - FF FF FF FF 0E 00 01 00 (继电器地址-西阳小窗帘, 西阳小窗帘开)
2025-09-01 13:55:03.011 - 55 00 A6 00 00 0E 01 74 AA 55 00 A6 00 00 0E 01 74 AA (餐厅窗帘电机状态返回)
2025-09-01 13:55:03.126 - 1A 22 33 62 0F 00 00 01 0F (正反转地址-内卫卷帘, 内卫卷帘升)
2025-09-01 13:55:03.671 - 55 12 12 03 01 4C 41 (主卧窗帘开)
2025-09-01 13:55:03.713 - 55 12 12 03 01 4C 41 (主卧窗帘开)
2025-09-01 13:55:04.269 - 55 11 1D 03 02 3C 07 (主卧纱帘开)
2025-09-01 13:55:04.317 - 55 11 1D 03 02 3C 07 (主卧纱帘开)
2025-09-01 13:55:04.867 - A5 00 76 FE 01 AA (次卧窗帘开)
2025-09-01 13:55:05.416 - A5 00 21 FE 01 AA (次卧纱帘开)
2025-09-01 13:55:05.966 - A5 00 D2 FE 01 AA 22 0D (书房窗帘开)
2025-09-01 13:55:06.513 - 1A BE B0 DC 09 00 01 00 (继电器地址-客厅窗帘, 客厅窗帘开)
2025-09-01 13:55:07.061 - 1A BE B0 DC 0A 00 02 00 (继电器地址-客厅纱帘, 客厅纱帘开)
2025-09-01 13:55:07.610 - 09 06 00 0F 02 02 38 20 (提示音咚)
2025-09-01 13:55:08.709 - 1A EC A0 DC 02 00 00 00 0F (自保持开关地址-天花12V供电, 天花12V 供电关)
2025-09-01 13:55:09.307 - 1A EC A0 DC 02 00 00 00 0F (自保持开关地址-天花12V供电, 天花12V 供电关)
2025-09-01 13:55:09.881 - 1A EC A0 DC 01 00 00 00 0F (自保持开关地址-电视、设备12V供电, 12V 电视供电关)
2025-09-01 13:55:10.452 - 1A EC A0 DC 01 00 00 00 0F (自保持开关地址-电视、设备12V供电, 12V 电视供电关)
2025-09-01 13:55:11.000 - 1A EC A0 DC 04 00 01 00 0F (自保持开关地址-次卧西阳内外卫供电, 内卫外卫关)
2025-09-01 13:55:11.549 - 1A EC A0 DC 04 00 01 00 0F (自保持开关地址-次卧西阳内外卫供电, 内卫外卫关)
2025-09-01 13:55:13.093 - 1A BB BB BB 01 02 00 (开水器电源关)
2025-09-01 13:55:26.147 - 09 06 00 0F 02 02 38 20 (提示音咚)
2025-09-01 13:55:26.743 - 1A 27 89 12 AA 00 00 00 0F (状态寄存器地址, 无人状态)
2025-09-01 13:55:27.291 - 1A 27 89 12 AA 00 00 00 0F (状态寄存器地址, 无人状态)
2025-09-01 13:55:27.835 - A1 11 11 11 4D (天花供电关闭确认)
2025-09-01 13:55:28.056 - 1A EC A0 DC 02 86 86 86 0F (查询天花供电状态, 自保持开关地址-天花12V供电)
2025-09-01 13:55:28.492 - 1A EC A0 DC 02 00 01 0F (自保持开关地址-天花12V供电)
2025-09-01 13:55:30.875 - A1 11 11 11 4E (卫生供电关闭确认)
2025-09-01 13:55:31.104 - 1A EC A0 DC 04 86 86 86 0F (查询卫生间供电状态, 自保持开关地址-次卧西阳内外卫供电)
2025-09-01 13:55:31.537 - 1A EC A0 DC 04 01 00 0F (自保持开关地址-次卧西阳内外卫供电)
2025-09-01 13:55:33.915 - A1 11 11 11 4F (电视供电关闭确认)
2025-09-01 13:55:34.144 - 1A EC A0 DC 01 86 86 86 0F (查询电视供电状态, 自保持开关地址-电视、设备12V供电)
2025-09-01 13:55:34.579 - 1A EC A0 DC 01 00 01 0F (自保持开关地址-电视、设备12V供电)
2025-09-01 13:55:36.961 - 09 06 00 0F 02 02 38 20 (提示音咚)
2025-09-01 13:55:37.507 - 09 06 00 0F 02 02 38 20 (提示音咚)
2025-09-01 13:55:38.058 - EE 00 00 B1 00 00 02 FF FC FF FF (情景完成返回主页)
2025-09-01 13:55:39.151 - BA BA EE EE BA BA (离家设置信科变量)
2025-09-01 13:55:40.195 - A1 11 11 11 46 (天热离家遮阳)
2025-09-01 13:55:40.420 - 1A 27 89 12 AA 86 86 86 0F (查询寄存器状态, 状态寄存器地址)
2025-09-01 13:55:40.803 - 1A 27 89 12 AA 00 00 00 00 00 00 00 00 00 00 00 01 00 00 00 00 0F (状态寄存器地址)
2025-09-01 13:55:41.424 - 19 08 24 03 DD 00 05 00 01 (调用情景-天热遮阳关帘)
2025-09-01 13:55:41.998 - EE 00 00 B1 00 00 00 FF FC FF FF (情景执行提示)
2025-09-01 13:55:42.593 - 09 06 00 0F 02 01 78 21 (提示音叮)
2025-09-01 13:55:43.139 - A5 00 A2 FF 00 AA (餐厅纱帘关)
2025-09-01 13:55:44.183 - A5 00 A6 FF 00 AA (餐厅窗帘关)
2025-09-01 13:55:44.239 - 55 00 A6 01 00 0E 01 74 AA 55 00 A6 01 00 0E 01 FC (餐厅窗帘电机状态返回)
2025-09-01 13:55:45.281 - 55 11 1D 03 01 7C 06 (主卧纱帘关)
2025-09-01 13:55:45.324 - 55 11 1D 03 01 7C 06 (主卧纱帘关)
2025-09-01 13:55:46.378 - 55 12 12 03 02 0C 40 (主卧窗帘关)
2025-09-01 13:55:46.420 - 55 12 12 03 02 0C 40 (主卧窗帘关)
2025-09-01 13:55:47.471 - A5 00 21 FF 00 AA (次卧纱帘关)
2025-09-01 13:55:47.531 - 55 00 21 01 00 0D 01 34 AA 55 00 21 01 00 0D 01 FC (次卧纱帘电机状态返回)
2025-09-01 13:55:48.571 - A5 00 76 FF 00 AA (次卧窗帘关)
2025-09-01 13:55:48.620 - 55 00 76 01 00 0D 01 1B AA 55 00 76 01 00 0D 01 1B AA (次卧窗帘电机状态返回)
2025-09-01 13:55:49.666 - A5 00 B7 FF 00 AA 22 0D (书房纱帘关)
2025-09-01 13:55:50.716 - A5 00 D2 FF 00 AA 22 0C (书房窗帘关)
2025-09-01 13:55:50.764 - 55 00 D2 01 00 0D 01 0B AA 55 00 D2 01 00 0D 01 0B AA (书房窗帘电机状态返回)
2025-09-01 13:55:52.309 - 1A 22 33 62 5E 00 02 01 0F (正反转地址-厨房卷帘三, 厨房卷帘一降)
2025-09-01 13:55:52.937 - 55 00 A6 00 01 66 01 74 AA 55 00 A6 00 01 66 01 74 AA (餐厅窗帘电机状态返回)
2025-09-01 13:55:53.404 - 1A 22 33 62 56 00 02 01 0F (正反转地址-厨房卷帘二, 厨房卷帘二降)
2025-09-01 13:55:54.502 - 1A 22 33 62 4F 00 00 01 0F (正反转地址-厨房卷帘一, 厨房卷帘三降)
2025-09-01 13:55:54.916 - 55 00 21 00 01 27 01 34 AA 55 00 21 00 01 27 01 34 AA (次卧纱帘电机状态返回)
2025-09-01 13:55:55.598 - 1A BE B0 DC 04 00 02 00 (继电器地址-西阳窗帘, 西阳窗帘关)
2025-09-01 13:55:56.695 - FF FF FF FF 0E 00 02 00 (继电器地址-西阳小窗帘, 西阳小窗帘关)
2025-09-01 13:55:56.767 - 55 00 76 00 01 0E 01 1B AA 55 00 76 00 01 0E 01 1B AA (次卧窗帘电机状态返回)
2025-09-01 13:55:57.820 - 1A BE B0 DC 03 00 03 00 (继电器地址-西阳天幕, 西阳天幕关)
2025-09-01 13:55:58.888 - 1A BE B0 DC 03 00 03 00 (继电器地址-西阳天幕, 西阳天幕关)
2025-09-01 13:55:59.437 - 55 00 D2 00 00 FE 01 0B AA 55 00 D2 00 00 FE 01 0B AA (书房窗帘电机状态返回)
2025-09-01 13:55:59.934 - 09 06 00 0F 02 02 38 20 (提示音咚)
2025-09-01 13:56:00.485 - EE 00 00 B1 00 00 02 FF FC FF FF (情景完成返回主页)
2025-09-01 14:42:20.990 - 1A BE B0 DC 03 (继电器地址-西阳天幕)
2025-09-01 14:42:21.126 - FF
2025-09-01 14:52:21.357 - 1A BE B0 DC 01 FC (继电器地址-回水泵点动)
2025-09-01 14:52:21.492 - FF
2025-09-01 15:18:26.712 - 1A FF FF FF 04 (继电器地址-东阳衣架)
2025-09-01 15:18:26.849 - 03
2025-09-01 15:48:55.076 - FF FF FF FF 0A FC (继电器地址-东阳窗帘)
2025-09-01 15:53:04.218 - 1A BE B0 DC 09 FE (继电器地址-客厅窗帘)
2025-09-01 15:54:04.041 - 1A BE B0 DC 02 FC (正反转地址-外卫卷帘)
2025-09-01 15:54:04.175 - FF
2025-09-01 16:03:44.307 - 1A BE B0 DC 04 (继电器地址-西阳窗帘)
2025-09-01 16:03:44.443 - FF
2025-09-01 16:27:04.173 - 1A BE B0 DC 0A FC (继电器地址-客厅纱帘)
2025-09-01 16:27:04.306 - FF
2025-09-01 17:13:26.181 - FF FF FF FF 0E FF (继电器地址-西阳小窗帘)
2025-09-01 17:13:26.318 - FF
2025-09-01 17:18:48.331 - 1B 03 00 00 00 02 C6 31 (查询室外光线)
2025-09-01 17:18:48.351 - 1B 03 04 00 00 00 F7 00 74 (室外光线返回)
2025-09-01 17:18:49.132 - 1A EC A0 DC 02 00 00 01 0F (自保持开关地址-天花12V供电, 天花12V 供电开)
2025-09-01 17:18:49.430 - 19 08 24 03 DD 00 0C 00 01 (调用情景-信科调用进门亮)
2025-09-01 17:18:49.736 - 1A AA AA AA 88 (调光器地址-茶吧灯带)
2025-09-01 17:18:49.942 - EE 00 00 B1 00 00 00 FF FC FF FF (情景执行提示)
2025-09-01 17:18:50.535 - 09 06 00 0F 02 01 78 21 (提示音叮)
2025-09-01 17:18:51.113 - 1A EC A0 DC 02 00 00 01 0F (自保持开关地址-天花12V供电, 天花12V 供电开)
2025-09-01 17:18:51.683 - 1A EC A0 DC 04 00 01 01 0F (自保持开关地址-次卧西阳内外卫供电, 内卫外卫开)
2025-09-01 17:18:52.233 - 1A EC A0 DC 04 00 01 01 0F (自保持开关地址-次卧西阳内外卫供电, 内卫外卫开)
2025-09-01 17:18:52.782 - 1A EC A0 DC 01 00 00 01 0F (自保持开关地址-电视、设备12V供电, 12V 电视供电开)
2025-09-01 17:18:53.325 - 1A BB BB BB 01 01 00 (开水器电源开)
2025-09-01 17:18:54.873 - 1A 27 89 12 AA 00 00 01 0F (状态寄存器地址, 有人状态)
2025-09-01 17:18:55.422 - 1A 27 89 12 AA 00 00 01 0F (状态寄存器地址, 有人状态)
2025-09-01 17:18:55.975 - 1A 0C 02 08 01 FF 45 01 FF 45 01 FF 00 00 0F (调光器地址-内卫射灯, 内卫射灯微光)
2025-09-01 17:18:56.574 - 1A 0D 01 07 01 FF 45 01 FF 45 01 FF 00 00 0F (调光器地址-外卫射灯, 外卫感应灯开)
2025-09-01 17:18:57.166 - 1A FF FF FF 57 00 00 01 0F (人体感应地址-厨房, 打开厨房感应)
2025-09-01 17:18:57.231 - FB FF
2025-09-01 17:18:57.538 - 19 08 24 03 CC 00 D3 00 01 (调用厨房感应灯开的按键)
2025-09-01 17:18:57.591 - 55 0A 32 00 00 00 01 92 55 0A 32 00 00 00 02 93 (厨房顶灯一开, 厨房顶灯二开)
2025-09-01 17:18:57.993 - 1A FF FF FF 57 00 00 01 0F (人体感应地址-厨房, 打开厨房感应)
2025-09-01 17:18:58.005 - BC BC
2025-09-01 17:18:58.560 - 1A FF FF FF 58 00 00 01 0F (人体感应地址-茶吧, 打开茶吧感应)
2025-09-01 17:18:58.614 - BC BC
2025-09-01 17:18:59.158 - 1A BE B0 DC 01 00 01 00 (继电器地址-回水泵点动, 回水泵点动)
2025-09-01 17:18:59.706 - 1A BE B0 DC 01 00 01 00 (继电器地址-回水泵点动, 回水泵点动)
2025-09-01 17:19:00.254 - 09 06 00 0F 02 01 78 21 (提示音叮)
2025-09-01 17:19:00.801 - 09 06 00 0F 02 01 78 21 (提示音叮)
2025-09-01 17:19:01.404 - EE 00 00 B1 00 00 02 FF FC FF FF (情景完成返回主页)
2025-09-01 17:19:01.998 - A1 11 11 11 50 (天花供电打开确认)
2025-09-01 17:19:02.218 - 1A EC A0 DC 02 86 86 86 0F (查询天花供电状态, 自保持开关地址-天花12V供电)
2025-09-01 17:19:02.650 - 1A EC A0 DC 02 01 01 0F (自保持开关地址-天花12V供电)
2025-09-01 17:19:04.536 - A1 11 11 11 51 (卫生供电打开确认)
2025-09-01 17:19:04.765 - 1A EC A0 DC 04 86 86 86 0F (查询卫生间供电状态, 自保持开关地址-次卧西阳内外卫供电)
2025-09-01 17:19:05.195 - 1A EC A0 DC 04 01 01 0F (自保持开关地址-次卧西阳内外卫供电)
2025-09-01 17:19:07.077 - A1 11 11 11 52 (电视供电打开确认)
2025-09-01 17:19:07.302 - 1A EC A0 DC 01 86 86 86 0F (查询电视供电状态, 自保持开关地址-电视、设备12V供电)
2025-09-01 17:19:07.735 - 1A EC A0 DC 01 01 01 0F (自保持开关地址-电视、设备12V供电)
2025-09-01 17:19:12.110 - A1 11 11 11 47 (天热回家开帘)
2025-09-01 17:19:12.336 - 1A 27 89 12 AA 86 86 86 0F (查询寄存器状态, 状态寄存器地址)
2025-09-01 17:19:12.718 - 1A 27 89 12 AA 01 00 00 00 00 00 00 00 00 00 00 01 00 00 00 00 0F (状态寄存器地址)
2025-09-01 17:19:13.339 - 19 08 24 03 DD 00 06 00 01 (调用情景-天热遮阳开帘)
2025-09-01 17:19:13.862 - EE 00 00 B1 00 00 00 FF FC FF FF (情景执行提示)
2025-09-01 17:19:14.458 - 09 06 00 0F 02 01 78 21 (提示音叮)
2025-09-01 17:19:15.004 - A5 00 A6 FE 01 AA (餐厅窗帘开)
2025-09-01 17:19:15.056 - 55 00 A6 02 01 66 01 74 AA 55 00 A6 02 01 66 01 74 AA (餐厅窗帘电机状态返回)
2025-09-01 17:19:16.101 - 55 12 12 03 01 4C 41 (主卧窗帘开)
2025-09-01 17:19:16.141 - 55 12 12 03 01 4C 41 (主卧窗帘开)
2025-09-01 17:19:17.198 - 55 11 1D 03 02 3C 07 (主卧纱帘开)
2025-09-01 17:19:17.238 - 55 11 1D 03 02 3C 07 (主卧纱帘开)
2025-09-01 17:19:18.321 - A5 00 76 FE 01 AA (次卧窗帘开)
2025-09-01 17:19:18.370 - 55 00 76 02 01 0E 01 1B AA 55 00 76 02 01 0E 01 1B AA (次卧窗帘电机状态返回)
2025-09-01 17:19:19.389 - A5 00 21 FE 01 AA (次卧纱帘开)
2025-09-01 17:19:19.446 - 55 00 21 02 01 27 01 34 AA 55 00 21 02 01 27 01 34 FE (次卧纱帘电机状态返回)
2025-09-01 17:19:20.486 - 1A BE B0 DC 04 00 01 00 (继电器地址-西阳窗帘, 西阳窗帘开)
2025-09-01 17:19:21.534 - FF FF FF FF 0E 00 01 00 (继电器地址-西阳小窗帘, 西阳小窗帘开)
2025-09-01 17:19:22.580 - A5 00 D2 FE 01 AA 22 0D (书房窗帘开)
2025-09-01 17:19:22.631 - 55 00 D2 02 00 FE 01 0B AA 55 00 D2 02 00 FE 01 0B AA (书房窗帘电机状态返回)
2025-09-01 17:19:23.676 - 09 06 00 0F 02 02 38 20 (提示音咚)
2025-09-01 17:19:23.959 - 55 00 A6 00 00 0E 01 74 AA 55 00 A6 00 00 0E 01 74 AA (餐厅窗帘电机状态返回)
2025-09-01 17:19:24.227 - EE 00 00 B1 00 00 02 FF FC FF FF (情景完成返回主页)
2025-09-01 17:19:26.116 - 19 08 24 03 DD 00 29 00 01 (调用情景-次卧照明关帘)
2025-09-01 17:19:26.386 - 55 00 76 00 00 0D 01 1B AA 55 00 76 00 00 0D 01 1B AA (次卧窗帘电机状态返回)
2025-09-01 17:19:26.671 - EE 00 00 B1 00 00 00 FF FC FF FF (情景执行提示)
2025-09-01 17:19:26.971 - 55 00 21 00 00 0D 01 34 AA 55 00 21 00 00 0D 01 34 AA (次卧纱帘电机状态返回)
2025-09-01 17:19:27.264 - 09 06 00 0F 02 01 78 21 (提示音叮)
2025-09-01 17:19:27.852 - 1A 0E 03 05 01 FF F0 01 FF F0 01 FF 00 00 0F (调光器地址-次卧射灯, 次卧射灯明亮)
2025-09-01 17:19:28.419 - 1A 0E 03 05 02 FF F0 01 FF F0 01 FF 00 00 0F (调光器地址-次卧灯带, 次卧灯带明亮)
2025-09-01 17:19:29.006 - A5 00 21 FF 00 AA (次卧纱帘关)
2025-09-01 17:19:29.059 - 55 00 21 01 00 0D 01 34 AA 55 00 21 01 00 0D 01 34 AA (次卧纱帘电机状态返回)
2025-09-01 17:19:30.102 - A5 00 76 FF 00 AA (次卧窗帘关)
2025-09-01 17:19:30.155 - 55 00 76 01 00 0D 01 1B AA 55 00 76 01 00 0D 01 1B AA (次卧窗帘电机状态返回)
2025-09-01 17:19:30.235 - 55 00 D2 00 00 0D 01 0B AA 55 00 D2 00 00 0D 01 0B AA (书房窗帘电机状态返回)
2025-09-01 17:19:31.211 - 1A 0E 03 05 04 FF F0 01 FF F0 01 FF 00 00 0F (调光器地址-次卧北筒灯, 次卧北筒灯明亮)
2025-09-01 17:19:31.806 - 1A 0E 03 05 05 FF F0 01 FF F0 01 FF 00 00 0F (调光器地址-次卧南筒灯, 次卧南筒灯明亮)
2025-09-01 17:19:32.398 - 09 06 00 0F 02 02 38 20 (提示音咚)
2025-09-01 17:19:32.947 - EE 00 00 B1 00 00 02 FF FC FF FF (情景完成返回主页)
2025-09-01 17:19:36.027 - 55 00 21 00 01 28 01 34 AA 55 00 21 00 01 28 01 34 AA (次卧纱帘电机状态返回)
2025-09-01 17:19:37.397 - 55 00 21 00 01 27 01 34 AA 55 00 21 00 01 27 01 34 AA (次卧纱帘电机状态返回)
2025-09-01 17:19:37.442 - 55 00 A6 00 00 0F 01 74 AA 55 00 A6 00 00 EF (餐厅窗帘电机状态返回)
2025-09-01 17:19:39.265 - 55 00 76 00 01 0E 01 1B AA 55 00 76 00 01 0E 01 1B AA (次卧窗帘电机状态返回)
2025-09-01 17:24:29.912 - 19 08 24 03 CC 00 D4 00 01 (调用厨房感应灯关的按键)
2025-09-01 17:24:29.965 - 55 0A 31 00 00 00 01 91 55 0A 31 00 00 00 02 92 (厨房顶灯一关, 厨房顶灯二关)
2025-09-01 17:25:35.541 - 19 08 24 03 CC 00 D3 00 01 (调用厨房感应灯开的按键)
2025-09-01 17:25:35.576 - 55 0A 32 00 00 00 01 92 55 0A 32 00 00 00 02 93 (厨房顶灯一开, 厨房顶灯二开)
2025-09-01 17:41:58.082 - 19 08 24 03 DD 00 10 00 01 (调用情景-客餐厅空调开)
2025-09-01 17:41:58.617 - EE 00 00 B1 00 00 00 FF FC FF FF (情景执行提示)
2025-09-01 17:41:59.212 - 09 06 00 0F 02 01 78 21 (提示音叮)
2025-09-01 17:41:59.756 - A1 11 11 11 40 (客厅空调自动开)
2025-09-01 17:41:59.983 - 19 08 24 03 F0 BB 78 02 02 00
2025-09-01 17:42:00.037 - 23 AA 56 02 11 2A 04 19 09 01 01 73 65 6F 6B 65 6E 64
2025-09-01 17:42:00.994 - 01 10 07 D0 00 03 06 70 61 00 02 00 FA 6F 26 (客厅空调冷25度)
2025-09-01 17:42:01.024 - 01 10 07 D0 00 03 06 70 61 00 02 00 FA 6F 26 (客厅空调冷25度)
2025-09-01 17:42:03.799 - A1 11 11 11 41 (餐厅空调自动开)
2025-09-01 17:42:04.025 - 19 08 24 03 F0 BB 78 02 02 00
2025-09-01 17:42:04.072 - 23 AA 56 02 11 2A 08 19 09 01 01 73 65 6F 6B 65 6E 64
2025-09-01 17:42:05.034 - 01 10 07 D3 00 03 06 70 61 00 02 00 FA 9F 29 (餐厅空调冷25度)
2025-09-01 17:42:05.075 - 01 10 07 D3 00 03 06 70 61 00 02 00 FA 9F 29 (餐厅空调冷25度)
2025-09-01 17:42:07.834 - 09 06 00 0F 02 02 38 20 (提示音咚)
2025-09-01 17:42:08.387 - EE 00 00 B1 00 00 02 FF FC FF FF (情景完成返回主页)
2025-09-01 17:42:10.424 - 19 08 24 03 DD 00 12 00 01 (调用情景-公共灯光开)
2025-09-01 17:42:10.976 - EE 00 00 B1 00 00 00 FF FC FF FF (情景执行提示)
2025-09-01 17:42:11.573 - 09 06 00 0F 02 01 78 21 (提示音叮)
2025-09-01 17:42:12.179 - 1A 0D 01 01 01 FF 55 01 FF 55 01 FF 00 00 0F (调光器地址-客厅筒灯, 客厅筒灯微光)
2025-09-01 17:42:12.777 - 1A 0D 01 01 03 FF 55 01 FF 55 01 FF 00 00 0F (调光器地址-客厅过道, 客厅过道微光)
2025-09-01 17:42:13.373 - 1A 0D 01 01 02 FF 55 01 FF 55 01 FF 00 00 0F (调光器地址-客厅灯带, 客厅灯带微光)
2025-09-01 17:42:13.971 - 1A 0B 01 02 02 FF 45 01 FF 45 01 FF 00 00 0F (调光器地址-门厅射灯, 门厅背景微光)
2025-09-01 17:42:14.571 - 1A 0B 01 02 01 FF 45 01 FF 45 01 FF 00 00 0F (调光器地址-门厅灯带, 门厅灯带微光)
2025-09-01 17:42:15.167 - 1A 0B 01 03 01 FF 45 01 FF 45 01 FF 00 00 0F (调光器地址-餐厅筒灯, 餐厅筒灯微光)
2025-09-01 17:42:15.764 - 1A 0B 01 03 02 FF 45 01 FF 45 01 FF 00 00 0F (调光器地址-餐桌筒灯, 餐桌筒灯微光)
2025-09-01 17:42:16.364 - 1A 0B 01 03 03 FF 45 01 FF 45 01 FF 00 00 0F (调光器地址-餐厅灯带, 餐厅灯带微光)
2025-09-01 17:42:16.954 - 55 0A 32 00 00 00 01 92 (厨房顶灯一开)
2025-09-01 17:42:17.513 - 55 0A 32 00 00 00 02 93 (厨房顶灯二开)
2025-09-01 17:42:18.100 - 09 06 00 0F 02 02 38 20 (提示音咚)
2025-09-01 17:42:18.652 - EE 00 00 B1 00 00 02 FF FC FF FF (情景完成返回主页)
2025-09-01 17:42:56.307 - 19 08 24 03 DD 00 3E 00 01 (调用情景-外卫照明关帘)
2025-09-01 17:42:56.827 - EE 00 00 B1 00 00 00 FF FC FF FF (情景执行提示)
2025-09-01 17:42:57.420 - 09 06 00 0F 02 01 78 21 (提示音叮)
2025-09-01 17:42:57.971 - 1A FF FF FF 55 00 00 00 0F (人体感应地址-外卫, 关闭外卫感应)
2025-09-01 17:42:57.981 - BC BC
2025-09-01 17:42:59.073 - 1A 0D 01 07 01 FF F0 01 FF F0 01 FF 00 00 0F (调光器地址-外卫射灯, 外卫射灯明亮)
2025-09-01 17:42:59.662 - 09 06 00 0F 02 02 38 20 (提示音咚)
2025-09-01 17:43:00.219 - EE 00 00 B1 00 00 02 FF FC FF FF (情景完成返回主页)
2025-09-01 17:45:07.846 - 19 08 24 03 CC 00 D4 00 01 (调用厨房感应灯关的按键)
2025-09-01 17:45:07.901 - 55 0A 31 00 00 00 01 91 55 0A 31 00 00 00 02 92 (厨房顶灯一关, 厨房顶灯二关)
2025-09-01 18:03:17.297 - 1A BE B0 DC 03 (继电器地址-西阳天幕)
2025-09-01 18:03:17.431 - FE
2025-09-01 18:06:54.646 - 19 08 24 03 DD 00 1C 00 01 (调用情景-外卫使用完毕)
2025-09-01 18:06:55.188 - EE 00 00 B1 00 00 00 FF FC FF FF (情景执行提示)
2025-09-01 18:06:55.783 - 09 06 00 0F 02 01 78 21 (提示音叮)
2025-09-01 18:06:56.339 - 1A 0D 01 07 01 FF 00 01 FF 00 01 FF 00 00 0F (调光器地址-外卫射灯, 外卫感应灯关)
2025-09-01 18:06:56.925 - 50 F5 03 (关外卫影视)
2025-09-01 18:06:57.478 - 1A 20 07 00 42 00 01 00 0F (自保持开关地址-外卫顶灯, 外卫顶灯关)
2025-09-01 18:06:58.029 - 1A FF FF FF 55 00 00 01 0F (人体感应地址-外卫, 打开外卫感应)
2025-09-01 18:06:58.130 - BC BC
2025-09-01 18:06:58.440 - 19 08 24 03 CC 01 52 00 01 (调用外卫感应灯开的按键)
2025-09-01 18:06:58.491 - 1A 0D 01 07 01 FF 45 01 FF 45 01 FF 00 00 0F (调光器地址-外卫射灯, 外卫感应灯开)
2025-09-01 18:07:00.869 - 09 06 00 0F 02 02 38 20 (提示音咚)
2025-09-01 18:07:01.421 - EE 00 00 B1 00 00 02 FF FC FF FF (情景完成返回主页)
2025-09-01 18:07:12.669 - 19 08 24 03 CC 01 53 00 01 (调用外卫感应灯关的按键)
2025-09-01 18:07:12.701 - 1A 0D 01 07 01 FF 00 01 FF 00 01 FF 00 00 0F (调光器地址-外卫射灯, 外卫感应灯关)
2025-09-01 18:07:48.949 - EE 00 6E B1 01 00 03 FF FC FF FF
2025-09-01 18:07:49.710 - 1A 18 05 21 89 00 01 02 0F (自保持开关地址-客厅顶灯, 客厅顶灯一开关)
2025-09-01 18:07:50.889 - 1A 18 05 01 94 00 01 02 0F (自保持开关地址-客厅顶灯, 客厅顶灯二开关)
2025-09-01 18:13:59.899 - 1A BE B0 DC 01 FD (继电器地址-回水泵点动)
2025-09-01 18:40:00.512 - 1A FF FF FF 04 (继电器地址-东阳衣架)
2025-09-01 18:40:00.649 - FF
2025-09-01 18:46:16.105 - 1A 18 05 21 89 00 01 02 0F (自保持开关地址-客厅顶灯, 客厅顶灯一开关)
2025-09-01 18:46:16.454 - 1A 18 05 01 94 00 01 02 0F (自保持开关地址-客厅顶灯, 客厅顶灯二开关)
2025-09-01 18:46:17.553 - EE 00 6E B1 01 00 02 FF FC FF FF
2025-09-01 19:10:45.429 - FF FF FF FF 0A (继电器地址-东阳窗帘)
2025-09-01 19:10:45.566 - FF
2025-09-01 19:13:46.577 - 1A BE B0 DC 09 FE (继电器地址-客厅窗帘)
2025-09-01 19:14:50.001 - 1A BE B0 DC 02 FC (正反转地址-外卫卷帘)
2025-09-01 19:14:50.137 - FF
2025-09-01 19:24:34.162 - 1A BE B0 DC 04 (继电器地址-西阳窗帘)
2025-09-01 19:24:34.296 - FE
2025-09-01 19:47:47.588 - 1A BE B0 DC 0A FC (继电器地址-客厅纱帘)
2025-09-01 19:47:47.727 - FF
2025-09-01 20:30:47.875 - 19 08 24 03 CC 01 CC 00 01 (调用茶吧感应灯开的按键)
2025-09-01 20:30:47.925 - 1A AA AA AA 88 FF B0 01 FF B0 01 0F (调光器地址-茶吧灯带, 茶吧灯带明亮)
2025-09-01 20:31:38.976 - 19 08 24 03 CC 01 CD 00 01 (调用茶吧感应灯关的按键)
2025-09-01 20:31:39.027 - 1A AA AA AA 88 FF 00 01 FF 00 01 0F (调光器地址-茶吧灯带, 茶吧灯带关闭)
2025-09-01 20:34:17.820 - FF FF FF FF 0E (继电器地址-西阳小窗帘)
2025-09-01 20:44:00.443 - 19 08 24 03 CC 01 CC 00 01 (调用茶吧感应灯开的按键)
2025-09-01 20:44:00.491 - 1A AA AA AA 88 FF B0 01 FF B0 01 0F (调光器地址-茶吧灯带, 茶吧灯带明亮)
2025-09-01 20:44:34.177 - 19 08 24 03 DD 00 42 00 01 (调用情景-主卧电视空调)
2025-09-01 20:44:34.710 - EE 00 00 B1 00 00 00 FF FC FF FF (情景执行提示)
2025-09-01 20:44:35.306 - 09 06 00 0F 02 01 78 21 (提示音叮)
2025-09-01 20:44:35.851 - 50 F0 05 (开主卧影视)
2025-09-01 20:44:36.897 - 50 F0 04 (开内卫影视)
2025-09-01 20:44:37.451 - 1A FF FF FF 56 00 00 00 0F (人体感应地址-内卫, 关闭内卫感应)
2025-09-01 20:44:37.462 - BC BC
2025-09-01 20:44:38.050 - 1A 22 33 62 0F 00 02 01 0F (正反转地址-内卫卷帘, 内卫卷帘降)
2025-09-01 20:44:38.594 - 55 11 1D 03 01 7C 06 (主卧纱帘关)
2025-09-01 20:44:38.639 - 55 11 1D 03 01 7C 06 (主卧纱帘关)
2025-09-01 20:44:39.019 - 19 08 24 03 CC 01 CD 00 01 (调用茶吧感应灯关的按键)
2025-09-01 20:44:39.069 - 1A AA AA AA 88 FF 00 01 FF 00 01 0F (调光器地址-茶吧灯带, 茶吧灯带关闭)
2025-09-01 20:44:39.720 - 55 12 12 03 02 0C 40 (主卧窗帘关)
2025-09-01 20:44:39.764 - 55 12 12 03 02 0C 40 (主卧窗帘关)
2025-09-01 20:44:40.796 - 1A 0C 02 04 FF FF 45 01 FF 45 01 FF 00 00 0F (主卧调光微光)
2025-09-01 20:44:44.885 - 1A 0C 02 08 01 FF 45 01 FF 45 01 FF 00 00 0F (调光器地址-内卫射灯, 内卫射灯微光)
2025-09-01 20:44:45.469 - 50 F1 25 (主卧—有线2)
2025-09-01 20:44:46.049 - A1 11 11 11 42 (主卧空调自动开)
2025-09-01 20:44:46.278 - 19 08 24 03 F0 BB 78 02 02 00
2025-09-01 20:44:46.327 - 23 AA 56 02 14 2C 32 19 09 01 01 73 65 6F 6B 65 6E 64
2025-09-01 20:44:46.614 - 50 F1 24 (内卫—有线2)
2025-09-01 20:44:47.285 - 01 10 07 D6 00 03 06 70 61 00 02 00 F0 0F 3E (主卧空调冷24度)
2025-09-01 20:44:47.323 - 01 10 07 D6 00 03 06 70 61 00 02 00 F0 0F 3E (主卧空调冷24度)
2025-09-01 20:44:48.662 - AF BF CF DF C2 21 (有线2/快捷-凤凰卫视)
2025-09-01 20:44:50.709 - 1A FF FF FF 60 0B 01 01 0F (红外总线地址-主卧发射设备, 主卧电视电源)
2025-09-01 20:44:51.225 - F0 0B 01 08
2025-09-01 20:44:58.734 - 09 06 00 0F 02 02 38 20 (提示音咚)
2025-09-01 20:44:59.285 - EE 00 00 B1 00 00 02 FF FC FF FF (情景完成返回主页)
2025-09-01 21:01:38.199 - 19 08 24 03 DD 00 1B 00 01 (调用情景-外卫使用)
2025-09-01 21:01:38.758 - EE 00 00 B1 00 00 00 FF FC FF FF (情景执行提示)
2025-09-01 21:01:39.356 - 09 06 00 0F 02 01 78 21 (提示音叮)
2025-09-01 21:01:39.896 - 50 F0 03 (开外卫影视)
2025-09-01 21:01:40.501 - 1A FF FF FF 55 00 00 00 0F (人体感应地址-外卫, 关闭外卫感应)
2025-09-01 21:01:40.605 - BF BF
2025-09-01 21:01:41.056 - 1A 0D 01 07 01 FF 45 01 FF 45 01 FF 00 00 0F (调光器地址-外卫射灯, 外卫感应灯开)
2025-09-01 21:01:43.142 - 1A BE B0 DC 01 00 01 00 (继电器地址-回水泵点动, 回水泵点动)
2025-09-01 21:01:44.188 - 1A BE B0 DC 01 00 01 00 (继电器地址-回水泵点动, 回水泵点动)
2025-09-01 21:01:45.234 - 1A BE B0 DC 01 00 01 00 (继电器地址-回水泵点动, 回水泵点动)
2025-09-01 21:01:46.277 - 50 F1 43 (外卫—CH4)
2025-09-01 21:02:03.276 - A1 11 11 11 11 05 (外卫使用浴霸判断)
2025-09-01 21:02:03.498 - 13 03 00 00 00 02 C7 79 (查询外卫温湿度)
2025-09-01 21:02:03.521 - 13 03 04 01 8F 01 10 F8 79 (外卫温湿度返回)
2025-09-01 21:02:05.321 - 09 06 00 0F 02 02 38 20 (提示音咚)
2025-09-01 21:02:07.368 - EE 00 00 B1 00 00 02 FF FC FF FF (情景完成返回主页)
2025-09-01 21:12:54.267 - 19 08 24 03 DD 00 1C 00 01 (调用情景-外卫使用完毕)
2025-09-01 21:12:54.816 - EE 00 00 B1 00 00 00 FF FC FF FF (情景执行提示)
2025-09-01 21:12:55.410 - 09 06 00 0F 02 01 78 21 (提示音叮)
2025-09-01 21:12:55.966 - 1A 0D 01 07 01 FF 00 01 FF 00 01 FF 00 00 0F (调光器地址-外卫射灯, 外卫感应灯关)
2025-09-01 21:12:56.552 - 50 F5 03 (关外卫影视)
2025-09-01 21:12:57.107 - 1A 20 07 00 42 00 01 00 0F (自保持开关地址-外卫顶灯, 外卫顶灯关)
2025-09-01 21:12:57.654 - 1A FF FF FF 55 00 00 01 0F (人体感应地址-外卫, 打开外卫感应)
2025-09-01 21:12:57.763 - BC BC
2025-09-01 21:12:58.070 - 19 08 24 03 CC 01 52 00 01 (调用外卫感应灯开的按键)
2025-09-01 21:12:58.126 - 1A 0D 01 07 01 FF 45 01 FF 45 01 FF 00 00 0F (调光器地址-外卫射灯, 外卫感应灯开)
2025-09-01 21:13:00.548 - 09 06 00 0F 02 02 38 20 (提示音咚)
2025-09-01 21:13:01.097 - EE 00 00 B1 00 00 02 FF FC FF FF (情景完成返回主页)
2025-09-01 21:13:10.293 - 19 08 24 03 CC 01 53 00 01 (调用外卫感应灯关的按键)
2025-09-01 21:13:10.329 - 1A 0D 01 07 01 FF 00 01 FF 00 01 FF 00 00 0F (调光器地址-外卫射灯, 外卫感应灯关)
2025-09-01 21:14:09.516 - 19 08 24 03 CC 01 CC 00 01 (调用茶吧感应灯开的按键)
2025-09-01 21:14:09.546 - 1A AA AA AA 88 FF B0 01 FF B0 01 0F (调光器地址-茶吧灯带, 茶吧灯带明亮)
2025-09-01 21:15:06.630 - 19 08 24 03 CC 01 CD 00 01 (调用茶吧感应灯关的按键)
2025-09-01 21:15:06.660 - 1A AA AA AA 88 FF 00 01 FF 00 01 0F (调光器地址-茶吧灯带, 茶吧灯带关闭)
2025-09-01 21:15:16.150 - 19 08 24 03 CC 01 CC 00 01 (调用茶吧感应灯开的按键)
2025-09-01 21:15:16.181 - 1A AA AA AA 88 FF B0 01 FF B0 01 0F (调光器地址-茶吧灯带, 茶吧灯带明亮)
2025-09-01 21:16:50.836 - 19 08 24 03 CC 01 CD 00 01 (调用茶吧感应灯关的按键)
2025-09-01 21:16:50.865 - 1A AA AA AA 88 FF 00 01 FF 00 01 0F (调光器地址-茶吧灯带, 茶吧灯带关闭)
2025-09-01 21:22:54.447 - 19 08 24 03 CC 01 52 00 01 (调用外卫感应灯开的按键)
2025-09-01 21:22:54.480 - 1A 0D 01 07 01 FF 45 01 FF 45 01 FF 00 00 0F (调光器地址-外卫射灯, 外卫感应灯开)
2025-09-01 21:25:59.195 - 1A BE B0 DC 03 FC (继电器地址-西阳天幕)
2025-09-01 21:25:59.331 - FF
2025-09-01 21:28:02.057 - 19 08 24 03 CC 01 53 00 01 (调用外卫感应灯关的按键)
2025-09-01 21:28:02.120 - 1A 0D 01 07 01 FF 00 01 FF 00 01 FF 00 00 0F (调光器地址-外卫射灯, 外卫感应灯关)
2025-09-01 21:32:59.643 - 19 08 24 03 CC 01 52 00 01 (调用外卫感应灯开的按键)
2025-09-01 21:32:59.696 - 1A 0D 01 07 01 FF 45 01 FF 45 01 FF 00 00 0F (调光器地址-外卫射灯, 外卫感应灯开)
2025-09-01 21:36:59.398 - 1A BE B0 DC 01 FE (继电器地址-回水泵点动)
2025-09-01 21:36:59.530 - FF
2025-09-01 21:37:28.173 - 19 08 24 03 CC 01 53 00 01 (调用外卫感应灯关的按键)
2025-09-01 21:37:28.224 - 1A 0D 01 07 01 FF 00 01 FF 00 01 FF 00 00 0F (调光器地址-外卫射灯, 外卫感应灯关)
2025-09-01 21:41:28.254 - 19 08 24 03 CC 01 CC 00 01 (调用茶吧感应灯开的按键)
2025-09-01 21:41:28.313 - 1A AA AA AA 88 FF B0 01 FF B0 01 0F (调光器地址-茶吧灯带, 茶吧灯带明亮)
2025-09-01 21:42:30.377 - 19 08 24 03 CC 01 CD 00 01 (调用茶吧感应灯关的按键)
2025-09-01 21:42:30.409 - 1A AA AA AA 88 FF 00 01 FF 00 01 0F (调光器地址-茶吧灯带, 茶吧灯带关闭)
2025-09-01 21:42:36.711 - 19 08 24 03 DD 00 33 00 01 (调用情景-次卧睡觉)
2025-09-01 21:42:37.217 - EE 00 00 B1 00 00 00 FF FC FF FF (情景执行提示)
2025-09-01 21:42:37.810 - 09 06 00 0F 02 01 78 21 (提示音叮)
2025-09-01 21:42:38.361 - 1A 20 07 00 70 00 01 00 0F (自保持开关地址-次卧顶灯, 次卧顶灯只关)
2025-09-01 21:42:38.956 - A5 00 21 FF 00 AA (次卧纱帘关)
2025-09-01 21:42:40.003 - A5 00 76 FF 00 AA (次卧窗帘关)
2025-09-01 21:42:41.049 - 50 F5 06 (关次卧影视)
2025-09-01 21:42:41.611 - 1A 0E 03 05 03 FF 00 01 FF 00 01 FF 00 00 0F (调光器地址-次卧阅读灯, 次卧阅读关闭)
2025-09-01 21:42:42.204 - 1A 0E 03 05 02 FF 00 01 FF 00 01 FF 00 00 0F (调光器地址-次卧灯带, 次卧灯带关闭)
2025-09-01 21:42:42.802 - 1A 0E 03 05 04 FF 00 01 FF 00 01 FF 00 00 0F (调光器地址-次卧北筒灯, 次卧北筒灯关闭)
2025-09-01 21:42:43.403 - 1A 0E 03 05 05 FF 00 01 FF 00 01 FF 00 00 0F (调光器地址-次卧南筒灯, 次卧南筒灯关闭)
2025-09-01 21:42:44.000 - 1A 0E 03 05 01 FF 00 01 FF 00 01 FF 00 00 0F (调光器地址-次卧射灯, 次卧射灯关闭)
2025-09-01 21:42:44.588 - 09 06 00 0F 02 02 38 20 (提示音咚)
2025-09-01 21:42:45.141 - EE 00 00 B1 00 00 02 FF FC FF FF (情景完成返回主页)
2025-09-01 22:02:59.029 - 1A FF FF FF 04 (继电器地址-东阳衣架)
2025-09-01 22:02:59.165 - FE
2025-09-01 22:27:56.781 - 19 08 24 03 CC 01 CC 00 01 (调用茶吧感应灯开的按键)
2025-09-01 22:27:56.829 - 1A AA AA AA 88 FF B0 01 FF B0 01 0F (调光器地址-茶吧灯带, 茶吧灯带明亮)
2025-09-01 22:29:33.878 - 19 08 24 03 DD 00 13 00 01 (调用情景-公共区域关)
2025-09-01 22:29:34.447 - EE 00 00 B1 00 00 00 FF FC FF FF (情景执行提示)
2025-09-01 22:29:35.042 - 09 06 00 0F 02 01 78 21 (提示音叮)
2025-09-01 22:29:35.590 - 55 0B 31 00 00 00 01 92 (厨房风扇只关)
2025-09-01 22:29:36.638 - 01 06 07 D3 FF 60 38 9F (餐厅空调关)
2025-09-01 22:29:36.664 - 01 06 07 D3 FF 60 38 9F (餐厅空调关)
2025-09-01 22:29:37.735 - 01 06 07 D0 FF 60 C8 9F (客厅空调关)
2025-09-01 22:29:37.766 - 01 06 07 D0 FF 60 C8 9F (客厅空调关)
2025-09-01 22:29:41.820 - 50 F5 02 (关厨房影视)
2025-09-01 22:29:42.865 - 50 F5 01 (关餐厅影视)
2025-09-01 22:29:43.912 - 50 F5 08 (关客厅影视)
2025-09-01 22:29:43.992 - 19 08 24 03 CC 01 CD 00 01 (调用茶吧感应灯关的按键)
2025-09-01 22:29:44.049 - 1A AA AA AA 88 FF 00 01 FF 00 01 0F (调光器地址-茶吧灯带, 茶吧灯带关闭)
2025-09-01 22:29:45.008 - 50 F5 03 (关外卫影视)
2025-09-01 22:29:46.061 - 55 0A 31 00 00 00 01 91 (厨房顶灯一关)
2025-09-01 22:29:47.107 - 55 0A 31 00 00 00 02 92 (厨房顶灯二关)
2025-09-01 22:29:48.153 - 55 0C 31 00 00 00 01 93 (餐厅顶灯关)
2025-09-01 22:29:49.201 - 1A 18 05 10 31 00 01 00 0F (自保持开关地址-门厅顶灯, 门厅顶灯关)
2025-09-01 22:29:50.246 - 1A 20 07 00 42 00 01 00 0F (自保持开关地址-外卫顶灯, 外卫顶灯关)
2025-09-01 22:29:51.294 - 1A 18 05 21 89 00 01 00 0F (自保持开关地址-客厅顶灯, 客厅顶灯一关)
2025-09-01 22:29:52.342 - 1A 18 05 01 94 00 01 00 0F (自保持开关地址-客厅顶灯, 客厅顶灯二关)
2025-09-01 22:29:53.386 - 1A 20 07 01 30 00 01 00 0F (自保持开关地址-西阳顶灯, 西阳顶灯关)
2025-09-01 22:29:54.440 - 1A FF 01 FF FF FF 00 01 FF 00 01 FF 00 00 0F (调光器地址-公共区域统配地址, 公共区域灯光全关)
2025-09-01 22:29:55.530 - 09 06 00 0F 02 02 38 20 (提示音咚)
2025-09-01 22:29:57.575 - EE 00 00 B1 00 00 02 FF FC FF FF (情景完成返回主页)
2025-09-01 22:33:38.873 - FF FF FF FF 0A (继电器地址-东阳窗帘)
2025-09-01 22:33:39.007 - FE
2025-09-01 22:36:26.454 - 19 08 24 03 DD 00 4F 00 01 (调用情景-内卫使用完毕)
2025-09-01 22:36:26.994 - EE 00 00 B1 00 00 00 FF FC FF FF (情景执行提示)
2025-09-01 22:36:27.588 - 09 06 00 0F 02 01 78 21 (提示音叮)
2025-09-01 22:36:28.143 - 1A 0C 02 08 01 FF 00 01 FF 00 01 FF 00 00 0F (调光器地址-内卫射灯, 内卫感应灯关)
2025-09-01 22:36:32.218 - 50 F5 04 (关内卫影视)
2025-09-01 22:36:32.773 - 1A 20 07 01 40 00 01 00 0F (自保持开关地址-内卫顶灯, 内卫顶灯关)
2025-09-01 22:36:33.321 - 1A FF FF FF 56 00 00 01 0F (人体感应地址-内卫, 打开内卫感应)
2025-09-01 22:36:33.433 - BC BC
2025-09-01 22:36:33.741 - 19 08 24 03 CC 01 54 00 01 (调用内卫感应灯开的按键)
2025-09-01 22:36:33.794 - 1A 0C 02 08 01 FF 45 01 FF 45 01 FF 00 00 0F (调光器地址-内卫射灯, 内卫射灯微光)
2025-09-01 22:36:36.164 - 09 06 00 0F 02 02 38 20 (提示音咚)
2025-09-01 22:36:36.716 - EE 00 00 B1 00 00 02 FF FC FF FF (情景完成返回主页)
2025-09-01 22:36:48.472 - 19 08 24 03 CC 01 55 00 01 (调用内卫感应灯关的按键)
2025-09-01 22:36:48.508 - 1A 0C 02 08 01 FF 00 01 FF 00 01 FF 00 00 0F (调光器地址-内卫射灯, 内卫感应灯关)
2025-09-01 22:37:35.017 - 1A BE B0 DC 09 (继电器地址-客厅窗帘)
2025-09-01 22:37:35.149 - FE
2025-09-01 22:38:34.908 - 1A BE B0 DC 02 (正反转地址-外卫卷帘)
2025-09-01 22:38:35.039 - FF
2025-09-01 22:46:31.732 - 1A BE B0 DC 04 FC (继电器地址-西阳窗帘)
2025-09-01 22:46:31.869 - FF
2025-09-01 23:11:30.894 - 1A BE B0 DC 0A FF (继电器地址-客厅纱帘)
2025-09-01 23:11:31.029 - FE
2025-09-01 23:57:11.944 - FF FF FF FF 0E FE (继电器地址-西阳小窗帘)
2025-09-01 23:57:12.076 - FF
2025-09-02 00:48:31.189 - 1A BE B0 DC 03 (继电器地址-西阳天幕)
2025-09-02 00:59:34.321 - 1A BE B0 DC 01 FF (继电器地址-回水泵点动)
2025-09-02 00:59:34.457 - FF
2025-09-02 01:08:35.418 - 19 08 24 03 CC 01 54 00 01 (调用内卫感应灯开的按键)
2025-09-02 01:08:35.471 - 1A 0C 02 08 01 FF 45 01 FF 45 01 FF 00 00 0F (调光器地址-内卫射灯, 内卫射灯微光)
2025-09-02 01:10:05.995 - 19 08 24 03 DD 00 4B 00 01 (调用情景-主卧睡觉)
2025-09-02 01:10:06.556 - EE 00 00 B1 00 00 00 FF FC FF FF (情景执行提示)
2025-09-02 01:10:07.150 - 09 06 00 0F 02 01 78 21 (提示音叮)
2025-09-02 01:10:07.694 - 50 F5 04 (关内卫影视)
2025-09-02 01:10:08.247 - 55 11 1D 03 01 7C 06 (主卧纱帘关)
2025-09-02 01:10:08.286 - 55 11 1D 03 01 7C 06 (主卧纱帘关)
2025-09-02 01:10:09.345 - 55 12 12 03 02 0C 40 (主卧窗帘关)
2025-09-02 01:10:09.386 - 55 12 12 03 02 0C 40 (主卧窗帘关)
2025-09-02 01:10:10.441 - 1A 22 33 62 0F 00 02 01 0F (正反转地址-内卫卷帘, 内卫卷帘降)
2025-09-02 01:10:11.487 - 1A 20 07 01 40 00 01 00 0F (自保持开关地址-内卫顶灯, 内卫顶灯关)
2025-09-02 01:10:12.535 - 1A 20 07 01 55 00 01 00 0F (自保持开关地址-主卧顶灯, 主卧顶灯只关)
2025-09-02 01:10:13.081 - 1A FF FF FF 56 00 00 01 0F (人体感应地址-内卫, 打开内卫感应)
2025-09-02 01:10:13.095 - BC BC
2025-09-02 01:10:16.679 - 1A 0C 02 08 01 FF 00 01 FF 00 01 FF 00 00 0F (调光器地址-内卫射灯, 内卫感应灯关)
2025-09-02 01:10:17.279 - 1A 0C 02 04 01 FF 00 01 FF 00 01 FF 00 00 0F (调光器地址-主卧筒灯, 主卧筒灯关闭)
2025-09-02 01:10:17.876 - 1A 0C 02 04 03 FF 00 01 FF 00 01 FF 00 00 0F (调光器地址-主卧灯带, 主卧灯带关闭)
2025-09-02 01:10:18.474 - 1A 0C 02 04 04 FF 00 01 FF 00 01 FF 00 00 0F (调光器地址-主卧南阅, 主卧南阅关闭)
2025-09-02 01:10:19.072 - 1A 0C 02 04 05 FF 00 01 FF 00 01 FF 00 00 0F (调光器地址-主卧北阅, 主卧北阅关闭)
2025-09-02 01:10:19.671 - 1A 0C 02 04 02 FF 00 01 FF 00 01 FF 00 00 0F (调光器地址-主卧过道, 主卧过道关闭)
2025-09-02 01:10:20.261 - 09 06 00 0F 02 02 38 20 (提示音咚)
2025-09-02 01:10:20.811 - EE 00 00 B1 00 00 02 FF FC FF FF (情景完成返回主页)
2025-09-02 01:10:23.132 - 19 08 24 03 CC 01 55 00 01 (调用内卫感应灯关的按键)
2025-09-02 01:10:23.183 - 1A 0C 02 08 01 FF 00 01 FF 00 01 FF 00 00 0F (调光器地址-内卫射灯, 内卫感应灯关)
2025-09-02 01:26:14.534 - 1A FF FF FF 04 (继电器地址-东阳衣架)
2025-09-02 01:26:14.671 - FF
2025-09-02 01:55:03.937 - FF FF FF FF 0A (继电器地址-东阳窗帘)
2025-09-02 01:55:04.072 - FF
2025-09-02 01:58:05.345 - 1A BE B0 DC 09 (继电器地址-客厅窗帘)
2025-09-02 01:59:07.188 - 1A BE B0 DC 02 FC (正反转地址-外卫卷帘)
2025-09-02 02:06:54.600 - 1A BE B0 DC 04 FC (继电器地址-西阳窗帘)
2025-09-02 02:06:54.733 - FF
2025-09-02 02:33:04.015 - 1A BE B0 DC 0A (继电器地址-客厅纱帘)
2025-09-02 02:59:55.955 - 50 F7 01 (全屋影音全关)
2025-09-02 03:17:37.466 - FF FF FF FF 0E (继电器地址-西阳小窗帘)
2025-09-02 03:20:32.980 - 19 08 24 03 CC 01 CC 00 01 (调用茶吧感应灯开的按键)
2025-09-02 03:20:33.029 - 1A AA AA AA 88 FF B0 01 FF B0 01 0F (调光器地址-茶吧灯带, 茶吧灯带明亮)
2025-09-02 03:20:39.995 - 19 08 24 03 CC 01 CD 00 01 (调用茶吧感应灯关的按键)
2025-09-02 03:20:40.044 - 1A AA AA AA 88 FF 00 01 FF 00 01 0F (调光器地址-茶吧灯带, 茶吧灯带关闭)
2025-09-02 03:38:17.597 - 1A 20 00 00 00 86 86 86 0F (调用查询模块-阳台测温湿气压转换, 阳台温湿气压虚拟地址)
2025-09-02 03:38:17.821 - 20 03 00 00 00 03 03 7A (查询阳台温湿度气压)
2025-09-02 03:38:17.844 - 20 03 06 01 2B 02 4D 26 FF 5B 7C (阳台温湿度返回)
2025-09-02 03:38:18.349 - 1A 20 00 00 00 00 00 01 00 00 01 00 00 01 01 2B 01 02 4D 01 26 FF 01 00 00 01 0F (阳台温湿气压虚拟地址)
2025-09-02 03:38:18.450 - 1A 21 00 00 00 86 86 86 0F (调用查询模块-储藏室测温湿气压转换, 储藏室温湿气压虚拟地址)
2025-09-02 03:38:18.676 - 21 03 00 00 00 03 02 AB (查询储藏室温湿度气压)
2025-09-02 03:38:18.696 - 21 03 06 01 3E 01 C9 26 FB 1A 81 (储藏室温湿度返回)
2025-09-02 03:38:19.195 - 1A 21 00 00 00 00 00 01 00 00 01 00 00 01 01 3E 01 01 C9 01 26 FB 01 00 00 01 0F (储藏室温湿气压虚拟地址)
2025-09-02 04:01:25.699 - 19 08 24 03 CC 00 D3 00 01 (调用厨房感应灯开的按键)
2025-09-02 04:01:25.753 - 55 0A 32 00 00 00 01 92 55 0A 32 00 00 00 02 93 (厨房顶灯一开, 厨房顶灯二开)
2025-09-02 04:02:01.269 - 19 08 24 03 CC 00 D4 00 01 (调用厨房感应灯关的按键)
2025-09-02 04:02:01.305 - 55 0A 31 00 00 00 01 91 55 0A 31 00 00 00 02 92 (厨房顶灯一关, 厨房顶灯二关)
2025-09-02 04:10:08.641 - 1A BE B0 DC 03 (继电器地址-西阳天幕)
2025-09-02 04:10:08.774 - FF
2025-09-02 04:21:13.174 - 1A BE B0 DC 01 (继电器地址-回水泵点动)
2025-09-02 04:29:56.946 - EE 00 00 B1 00 00 00 FF FC FF FF (情景执行提示)
2025-09-02 04:29:57.538 - A5 00 A2 FF 00 AA (餐厅纱帘关)
2025-09-02 04:29:58.634 - A5 00 A6 FF 00 AA (餐厅窗帘关)
2025-09-02 04:29:58.689 - 55 00 A6 01 00 0F 01 74 AA 55 00 A6 01 00 0F 01 74 AA (餐厅窗帘电机状态返回)
2025-09-02 04:29:59.731 - A5 00 B7 FF 00 AA 22 0D (书房纱帘关)
2025-09-02 04:30:00.859 - A5 00 D2 FF 00 AA 22 0C (书房窗帘关)
2025-09-02 04:30:00.918 - 55 00 D2 01 00 0D 01 0B AA 55 00 D2 01 00 0D FF (书房窗帘电机状态返回)
2025-09-02 04:30:01.930 - EE 00 00 B1 00 00 02 FF FC FF FF (情景完成返回主页)
2025-09-02 04:30:07.220 - 55 00 A6 00 01 66 01 74 AA 55 00 A6 00 01 66 01 74 AA (餐厅窗帘电机状态返回)
2025-09-02 04:30:09.642 - 55 00 D2 00 00 FE 01 0B AA 55 00 D2 00 00 FE 01 0B AA (书房窗帘电机状态返回)
2025-09-02 04:43:35.176 - 19 08 24 03 CC 00 D3 00 01 (调用厨房感应灯开的按键)
2025-09-02 04:43:35.227 - 55 0A 32 00 00 00 01 92 55 0A 32 00 00 00 02 93 (厨房顶灯一开, 厨房顶灯二开)
2025-09-02 04:44:10.244 - 19 08 24 03 CC 00 D4 00 01 (调用厨房感应灯关的按键)
2025-09-02 04:44:10.284 - 55 0A 31 00 00 00 01 91 55 0A 31 00 00 00 02 92 (厨房顶灯一关, 厨房顶灯二关)
2025-09-02 04:47:12.612 - 1A FF FF FF 04 FC (继电器地址-东阳衣架)
2025-09-02 04:47:12.747 - FF
2025-09-02 05:15:15.523 - FF FF FF FF 0A FC (继电器地址-东阳窗帘)
2025-09-02 05:15:15.655 - FF
2025-09-02 05:18:26.727 - 1A BE B0 DC 09 FD (继电器地址-客厅窗帘)
2025-09-02 05:18:26.861 - FE
2025-09-02 05:19:36.619 - 1A BE B0 DC 02 (正反转地址-外卫卷帘)
2025-09-02 05:26:42.659 - 1A BE B0 DC 04 (继电器地址-西阳窗帘)
2025-09-02 05:26:42.794 - FF
2025-09-02 05:44:23.525 - 19 08 24 03 CC 01 54 00 01 (调用内卫感应灯开的按键)
2025-09-02 05:44:23.576 - 1A 0C 02 08 01 FF 45 01 FF 45 01 FF 00 00 0F (调光器地址-内卫射灯, 内卫射灯微光)
2025-09-02 05:47:09.853 - 19 08 24 03 CC 01 55 00 01 (调用内卫感应灯关的按键)
2025-09-02 05:47:09.903 - 1A 0C 02 08 01 FF 00 01 FF 00 01 FF 00 00 0F (调光器地址-内卫射灯, 内卫感应灯关)
2025-09-02 05:48:51.051 - 19 08 24 03 CC 01 54 00 01 (调用内卫感应灯开的按键)
2025-09-02 05:48:51.088 - 1A 0C 02 08 01 FF 45 01 FF 45 01 FF 00 00 0F (调光器地址-内卫射灯, 内卫射灯微光)
2025-09-02 05:49:11.091 - 19 08 24 03 CC 01 55 00 01 (调用内卫感应灯关的按键)
2025-09-02 05:49:11.126 - 1A 0C 02 08 01 FF 00 01 FF 00 01 FF 00 00 0F (调光器地址-内卫射灯, 内卫感应灯关)
2025-09-02 05:53:38.369 - 1A BE B0 DC 0A (继电器地址-客厅纱帘)
2025-09-02 05:53:38.503 - FF
2025-09-02 05:53:48.637 - 19 08 24 03 CC 01 54 00 01 (调用内卫感应灯开的按键)
2025-09-02 05:53:48.688 - 1A 0C 02 08 01 FF 45 01 FF 45 01 FF 00 00 0F (调光器地址-内卫射灯, 内卫射灯微光)
2025-09-02 05:54:27.717 - 19 08 24 03 CC 01 55 00 01 (调用内卫感应灯关的按键)
2025-09-02 05:54:27.767 - 1A 0C 02 08 01 FF 00 01 FF 00 01 FF 00 00 0F (调光器地址-内卫射灯, 内卫感应灯关)
2025-09-02 05:56:11.920 - 19 08 24 03 CC 01 54 00 01 (调用内卫感应灯开的按键)
2025-09-02 05:56:11.952 - 1A 0C 02 08 01 FF 45 01 FF 45 01 FF 00 00 0F (调光器地址-内卫射灯, 内卫射灯微光)
2025-09-02 05:56:32.962 - 19 08 24 03 CC 01 55 00 01 (调用内卫感应灯关的按键)
2025-09-02 05:56:32.994 - 1A 0C 02 08 01 FF 00 01 FF 00 01 FF 00 00 0F (调光器地址-内卫射灯, 内卫感应灯关)
2025-09-02 06:37:38.288 - FF FF FF FF 0E FC (继电器地址-西阳小窗帘)
2025-09-02 06:37:38.422 - FF
2025-09-02 06:44:56.108 - EE 00 00 B1 00 00 00 FF FC FF FF (情景执行提示)
2025-09-02 06:44:56.703 - 09 06 00 0F 02 01 78 21 (提示音叮)
2025-09-02 06:44:57.296 - 50 F0 04 (开内卫影视)
2025-09-02 06:44:57.844 - 50 F0 05 (开主卧影视)
2025-09-02 06:44:58.396 - 55 11 1D 03 01 7C 06 (主卧纱帘关)
2025-09-02 06:44:58.443 - 55 11 1D 03 01 7C 06 (主卧纱帘关)
2025-09-02 06:44:58.993 - 55 11 1D 03 01 7C 06 (主卧纱帘关)
2025-09-02 06:44:59.039 - 55 11 1D 03 01 7C 06 (主卧纱帘关)
2025-09-02 06:44:59.593 - 55 12 12 03 01 4C 41 (主卧窗帘开)
2025-09-02 06:44:59.636 - 55 12 12 03 01 4C 41 (主卧窗帘开)
2025-09-02 06:45:00.690 - 55 12 12 03 01 4C 41 (主卧窗帘开)
2025-09-02 06:45:00.729 - 55 12 12 03 01 4C 41 (主卧窗帘开)
2025-09-02 06:45:01.789 - 1A 22 33 62 0F 00 02 01 0F (正反转地址-内卫卷帘, 内卫卷帘降)
2025-09-02 06:45:02.336 - 1A FF FF FF 56 00 00 00 0F (人体感应地址-内卫, 关闭内卫感应)
2025-09-02 06:45:02.445 - BC BC
2025-09-02 06:45:02.883 - 1A 20 07 01 55 00 01 00 0F (自保持开关地址-主卧顶灯, 主卧顶灯只关)
2025-09-02 06:45:03.936 - 1A 0C 02 08 01 FF F0 01 FF F0 01 FF 00 00 0F (调光器地址-内卫射灯, 内卫射灯明亮)
2025-09-02 06:45:04.534 - 1A 0C 02 04 01 FF 00 01 FF 00 01 FF 00 00 0F (调光器地址-主卧筒灯, 主卧筒灯关闭)
2025-09-02 06:45:05.163 - 1A 0C 02 04 03 FF 45 01 FF 45 01 FF 00 00 0F (调光器地址-主卧灯带, 主卧灯带微光)
2025-09-02 06:45:05.730 - 1A 0C 02 04 02 FF F0 01 FF 00 01 FF 00 00 0F (调光器地址-主卧过道, 主卧过道暖光)
2025-09-02 06:45:06.327 - 1A 0C 02 04 05 FF 00 01 FF 00 01 FF 00 00 0F (调光器地址-主卧北阅, 主卧北阅关闭)
2025-09-02 06:45:06.926 - 1A 0C 02 04 04 FF 00 01 FF 00 01 FF 00 00 0F (调光器地址-主卧南阅, 主卧南阅关闭)
2025-09-02 06:45:08.010 - 50 F1 24 (内卫—有线2)
2025-09-02 06:45:09.055 - 50 F1 25 (主卧—有线2)
2025-09-02 06:45:10.107 - AF BF CF DF C2 21 (有线2/快捷-凤凰卫视)
2025-09-02 06:45:10.657 - 1A FF FF FF 60 0B 01 01 0F (红外总线地址-主卧发射设备, 主卧电视电源)
2025-09-02 06:45:11.177 - F0 0B 01 08
2025-09-02 06:45:11.703 - 1A BE B0 DC 01 00 01 00 (继电器地址-回水泵点动, 回水泵点动)
2025-09-02 06:45:15.744 - 09 06 00 0F 02 02 38 20 (提示音咚)
2025-09-02 06:45:16.291 - EE 00 00 B1 00 00 02 FF FC FF FF (情景完成返回主页)
2025-09-02 06:45:17.384 - A1 11 11 11 11 01 (内卫浴霸取暖判断)
2025-09-02 06:45:17.610 - 14 03 00 00 00 02 C6 CE (查询内卫温湿度)
2025-09-02 06:45:17.629 - 14 03 04 01 C0 01 06 3E A0 (内卫温湿度返回)
2025-09-02 07:15:04.756 - 19 08 24 03 DD 00 40 00 01 (调用情景-离开主卧)
2025-09-02 07:15:05.301 - EE 00 00 B1 00 00 00 FF FC FF FF (情景执行提示)
2025-09-02 07:15:05.894 - 09 06 00 0F 02 01 78 21 (提示音叮)
2025-09-02 07:15:06.438 - 50 F5 05 (关主卧影视)
2025-09-02 07:15:06.988 - 50 F5 04 (关内卫影视)
2025-09-02 07:15:07.590 - 01 06 07 D6 FF 60 28 9E (主卧空调关)
2025-09-02 07:15:07.620 - 01 06 07 D6 FF 60 28 9E (主卧空调关)
2025-09-02 07:15:08.188 - 55 12 12 03 01 4C 41 (主卧窗帘开)
2025-09-02 07:15:08.231 - 55 12 12 03 01 4C 41 (主卧窗帘开)
2025-09-02 07:15:09.284 - 55 12 12 03 01 4C 41 (主卧窗帘开)
2025-09-02 07:15:09.323 - 55 12 12 03 01 4C 41 (主卧窗帘开)
2025-09-02 07:15:10.381 - 55 11 1D 03 02 3C 07 (主卧纱帘开)
2025-09-02 07:15:10.424 - 55 11 1D 03 02 3C 07 (主卧纱帘开)
2025-09-02 07:15:10.977 - 55 11 1D 03 02 3C 07 (主卧纱帘开)
2025-09-02 07:15:11.024 - 55 11 1D 03 02 3C 07 (主卧纱帘开)
2025-09-02 07:15:11.578 - 1A 22 33 62 0F 00 00 01 0F (正反转地址-内卫卷帘, 内卫卷帘升)
2025-09-02 07:15:12.628 - 1A 20 07 01 40 00 01 00 0F (自保持开关地址-内卫顶灯, 内卫顶灯关)
2025-09-02 07:15:13.669 - 1A 20 07 01 55 00 01 00 0F (自保持开关地址-主卧顶灯, 主卧顶灯只关)
2025-09-02 07:15:14.224 - 1A 0C 02 08 01 FF 00 01 FF 00 01 FF 00 00 0F (调光器地址-内卫射灯, 内卫感应灯关)
2025-09-02 07:15:14.819 - 1A FF FF FF 56 00 00 01 0F (人体感应地址-内卫, 打开内卫感应)
2025-09-02 07:15:14.925 - BF BF
2025-09-02 07:15:15.235 - 19 08 24 03 CC 01 54 00 01 (调用内卫感应灯开的按键)
2025-09-02 07:15:15.286 - 1A 0C 02 08 01 FF 45 01 FF 45 01 FF 00 00 0F (调光器地址-内卫射灯, 内卫射灯微光)
2025-09-02 07:15:18.714 - 1A 0C 02 04 FF FF 00 01 FF 00 01 FF 00 00 0F (主卧调光全关)
2025-09-02 07:15:19.802 - 09 06 00 0F 02 02 38 20 (提示音咚)
2025-09-02 07:15:20.404 - EE 00 00 B1 00 00 02 FF FC FF FF (情景完成返回主页)
2025-09-02 07:15:26.390 - 19 08 24 03 CC 01 CC 00 01 (调用茶吧感应灯开的按键)
2025-09-02 07:15:26.422 - 1A AA AA AA 88 FF B0 01 FF B0 01 0F (调光器地址-茶吧灯带, 茶吧灯带明亮)
2025-09-02 07:15:54.015 - 19 08 24 03 CC 01 55 00 01 (调用内卫感应灯关的按键)
2025-09-02 07:15:54.046 - 1A 0C 02 08 01 FF 00 01 FF 00 01 FF 00 00 0F (调光器地址-内卫射灯, 内卫感应灯关)
2025-09-02 07:16:14.486 - 19 08 24 03 CC 01 CD 00 01 (调用茶吧感应灯关的按键)
2025-09-02 07:16:14.517 - 1A AA AA AA 88 FF 00 01 FF 00 01 0F (调光器地址-茶吧灯带, 茶吧灯带关闭)
2025-09-02 07:16:59.142 - 19 08 24 03 CC 01 54 00 01 (调用内卫感应灯开的按键)
2025-09-02 07:16:59.175 - 1A 0C 02 08 01 FF 45 01 FF 45 01 FF 00 00 0F (调光器地址-内卫射灯, 内卫射灯微光)
2025-09-02 07:17:21.185 - 19 08 24 03 CC 01 55 00 01 (调用内卫感应灯关的按键)
2025-09-02 07:17:21.221 - 1A 0C 02 08 01 FF 00 01 FF 00 01 FF 00 00 0F (调光器地址-内卫射灯, 内卫感应灯关)
2025-09-02 07:31:16.129 - 1A BE B0 DC 03 (继电器地址-西阳天幕)
2025-09-02 07:42:16.423 - 1A BE B0 DC 01 FF (继电器地址-回水泵点动)
2025-09-02 07:42:16.557 - FF
2025-09-02 08:08:16.206 - 1A FF FF FF 04 (继电器地址-东阳衣架)
2025-09-02 08:24:16.325 - 19 08 24 03 CC 01 52 00 01 (调用外卫感应灯开的按键)
2025-09-02 08:24:16.376 - 1A 0D 01 07 01 FF 45 01 FF 45 01 FF 00 00 0F (调光器地址-外卫射灯, 外卫感应灯开)
2025-09-02 08:30:36.578 - 19 08 24 03 CC 01 53 00 01 (调用外卫感应灯关的按键)
2025-09-02 08:30:36.629 - 1A 0D 01 07 01 FF 00 01 FF 00 01 FF 00 00 0F (调光器地址-外卫射灯, 外卫感应灯关)
2025-09-02 08:31:19.673 - 19 08 24 03 DD 00 29 00 01 (调用情景-次卧照明关帘)
2025-09-02 08:31:20.204 - EE 00 00 B1 00 00 00 FF FC FF FF (情景执行提示)
2025-09-02 08:31:20.799 - 09 06 00 0F 02 01 78 21 (提示音叮)
2025-09-02 08:31:21.353 - 1A 0E 03 05 01 FF F0 01 FF F0 01 FF 00 00 0F (调光器地址-次卧射灯, 次卧射灯明亮)
2025-09-02 08:31:21.950 - 1A 0E 03 05 02 FF F0 01 FF F0 01 FF 00 00 0F (调光器地址-次卧灯带, 次卧灯带明亮)
2025-09-02 08:31:22.539 - A5 00 21 FF 00 AA (次卧纱帘关)
2025-09-02 08:31:23.585 - A5 00 76 FF 00 AA (次卧窗帘关)
2025-09-02 08:31:24.645 - 1A 0E 03 05 04 FF F0 01 FF F0 01 FF 00 00 0F (调光器地址-次卧北筒灯, 次卧北筒灯明亮)
2025-09-02 08:31:25.242 - 1A 0E 03 05 05 FF F0 01 FF F0 01 FF 00 00 0F (调光器地址-次卧南筒灯, 次卧南筒灯明亮)
2025-09-02 08:31:25.830 - 09 06 00 0F 02 02 38 20 (提示音咚)
2025-09-02 08:31:26.383 - EE 00 00 B1 00 00 02 FF FC FF FF (情景完成返回主页)
2025-09-02 08:39:00.583 - 1A BE B0 DC 09 (继电器地址-客厅窗帘)
2025-09-02 08:39:00.715 - FF
2025-09-02 08:41:04.229 - 1A BE B0 DC 02 (正反转地址-外卫卷帘)
2025-09-02 08:41:04.364 - FE
2025-09-02 08:41:05.773 - FF FF FF FF 0A FC (继电器地址-东阳窗帘)
2025-09-02 08:41:05.907 - FF
2025-09-02 08:42:26.705 - 19 08 24 03 CC 01 CC 00 01 (调用茶吧感应灯开的按键)
2025-09-02 08:42:26.756 - 1A AA AA AA 88 FF B0 01 FF B0 01 0F (调光器地址-茶吧灯带, 茶吧灯带明亮)
2025-09-02 08:43:04.283 - 19 08 24 03 CC 01 CD 00 01 (调用茶吧感应灯关的按键)
2025-09-02 08:43:04.330 - 1A AA AA AA 88 FF 00 01 FF 00 01 0F (调光器地址-茶吧灯带, 茶吧灯带关闭)
2025-09-02 08:43:10.815 - 19 08 24 03 DD 00 00 00 01 (调用情景-离家（末）)
2025-09-02 08:43:11.350 - EE 00 00 B1 00 00 00 FF FC FF FF (情景执行提示)
2025-09-02 08:43:11.946 - 09 06 00 0F 02 02 38 20 (提示音咚)
2025-09-02 08:43:12.488 - 50 F7 01 (全屋影音全关)
2025-09-02 08:43:13.043 - 01 06 07 D0 FF 60 C8 9F (客厅空调关)
2025-09-02 08:43:13.070 - 01 06 07 D0 FF 60 C8 9F (客厅空调关)
2025-09-02 08:43:13.640 - 01 06 07 D0 FF 60 C8 9F (客厅空调关)
2025-09-02 08:43:13.666 - 01 06 07 D0 FF 60 C8 9F (客厅空调关)
2025-09-02 08:43:14.239 - 01 06 07 D3 FF 60 38 9F (餐厅空调关)
2025-09-02 08:43:14.280 - 01 06 07 D3 FF 60 38 9F (餐厅空调关)
2025-09-02 08:43:14.836 - 01 06 07 D3 FF 60 38 9F (餐厅空调关)
2025-09-02 08:43:14.868 - 01 06 07 D3 FF 60 38 9F (餐厅空调关)
2025-09-02 08:43:15.433 - 01 06 07 D6 FF 60 28 9E (主卧空调关)
2025-09-02 08:43:15.469 - 01 06 07 D6 FF 60 28 9E (主卧空调关)
2025-09-02 08:43:16.030 - 01 06 07 D6 FF 60 28 9E (主卧空调关)
2025-09-02 08:43:16.060 - 01 06 07 D6 FF 60 28 9E (主卧空调关)
2025-09-02 08:43:16.631 - 01 06 07 D9 FF 60 18 9D (次卧空调关)
2025-09-02 08:43:16.670 - 01 06 07 D9 FF 60 18 9D (次卧空调关)
2025-09-02 08:43:17.229 - 01 06 07 D9 FF 60 18 9D (次卧空调关)
2025-09-02 08:43:17.262 - 01 06 07 D9 FF 60 18 9D (次卧空调关)
2025-09-02 08:43:17.828 - 01 06 07 DC FF 60 08 9C (书房空调关)
2025-09-02 08:43:17.858 - 01 06 07 DC FF 60 08 9C (书房空调关)
2025-09-02 08:43:18.425 - 01 06 07 DC FF 60 08 9C (书房空调关)
2025-09-02 08:43:18.453 - 01 06 07 DC FF 60 08 9C (书房空调关)
2025-09-02 08:43:19.022 - 09 06 00 0F 02 02 38 20 (提示音咚)
2025-09-02 08:43:19.572 - 1A FF FF FF 56 00 00 00 0F (人体感应地址-内卫, 关闭内卫感应)
2025-09-02 08:43:19.685 - BF BF
2025-09-02 08:43:20.120 - 1A FF FF FF 55 00 00 00 0F (人体感应地址-外卫, 关闭外卫感应)
2025-09-02 08:43:20.236 - BC BC
2025-09-02 08:43:20.669 - 1A FF FF FF 57 00 00 00 0F (人体感应地址-厨房, 关闭厨房感应)
2025-09-02 08:43:20.730 - BF BF
2025-09-02 08:43:21.266 - 1A FF FF FF 58 00 00 00 0F (人体感应地址-茶吧, 关闭茶吧感应)
2025-09-02 08:43:21.319 - BC BC
2025-09-02 08:43:21.864 - 1A 20 07 00 93 00 01 00 0F (自保持开关地址-设备区顶, 设备区顶灯关)
2025-09-02 08:43:22.910 - 1A 20 07 01 40 00 01 00 0F (自保持开关地址-内卫顶灯, 内卫顶灯关)
2025-09-02 08:43:23.958 - 1A 20 07 01 55 00 01 00 0F (自保持开关地址-主卧顶灯, 主卧顶灯只关)
2025-09-02 08:43:25.006 - 1A 20 07 00 42 00 01 00 0F (自保持开关地址-外卫顶灯, 外卫顶灯关)
2025-09-02 08:43:26.049 - 55 0D 31 00 00 00 01 94 (书房顶灯只关)
2025-09-02 08:43:27.095 - 55 0A 31 00 00 00 01 91 (厨房顶灯一关)
2025-09-02 08:43:28.143 - 55 0A 31 00 00 00 02 92 (厨房顶灯二关)
2025-09-02 08:43:29.189 - 55 0B 31 00 00 00 01 92 (厨房风扇只关)
2025-09-02 08:43:30.236 - 55 0C 31 00 00 00 01 93 (餐厅顶灯关)
2025-09-02 08:43:31.284 - 1A 20 07 01 30 00 01 00 0F (自保持开关地址-西阳顶灯, 西阳顶灯关)
2025-09-02 08:43:32.329 - 1A 18 05 21 89 00 01 00 0F (自保持开关地址-客厅顶灯, 客厅顶灯一关)
2025-09-02 08:43:33.375 - 1A 18 05 01 94 00 01 00 0F (自保持开关地址-客厅顶灯, 客厅顶灯二关)
2025-09-02 08:43:34.423 - 1A 20 07 00 70 00 01 00 0F (自保持开关地址-次卧顶灯, 次卧顶灯只关)
2025-09-02 08:43:35.470 - 1A 18 05 10 31 00 01 00 0F (自保持开关地址-门厅顶灯, 门厅顶灯关)
2025-09-02 08:43:36.514 - 1A FF FF FF 04 00 03 02 (继电器地址-东阳衣架, 东阳衣架照明关)
2025-09-02 08:43:37.065 - 09 06 00 0F 02 02 38 20 (提示音咚)
2025-09-02 08:43:37.611 - A5 00 A6 FE 01 AA (餐厅窗帘开)
2025-09-02 08:43:37.668 - 55 00 A6 02 01 66 01 74 AA 55 00 A6 02 01 66 01 74 AA (餐厅窗帘电机状态返回)
2025-09-02 08:43:38.212 - FF FF FF FF 0A 00 01 00 (继电器地址-东阳窗帘, 东阳窗帘开)
2025-09-02 08:43:38.758 - 1A BE B0 DC 04 00 01 00 (继电器地址-西阳窗帘, 西阳窗帘开)
2025-09-02 08:43:39.306 - FF FF FF FF 0E 00 01 00 (继电器地址-西阳小窗帘, 西阳小窗帘开)
2025-09-02 08:43:39.855 - 1A 22 33 62 0F 00 00 01 0F (正反转地址-内卫卷帘, 内卫卷帘升)
2025-09-02 08:43:40.402 - 55 12 12 03 01 4C 41 (主卧窗帘开)
2025-09-02 08:43:40.445 - 55 12 12 03 01 4C 41 (主卧窗帘开)
2025-09-02 08:43:40.999 - 55 11 1D 03 02 3C 07 (主卧纱帘开)
2025-09-02 08:43:41.046 - 55 11 1D 03 02 3C 07 (主卧纱帘开)
2025-09-02 08:43:41.597 - A5 00 76 FE 01 AA (次卧窗帘开)
2025-09-02 08:43:41.647 - 55 00 76 02 01 0E 01 1B AA 55 00 76 02 01 0E 01 1B AA (次卧窗帘电机状态返回)
2025-09-02 08:43:42.194 - A5 00 21 FE 01 AA (次卧纱帘开)
2025-09-02 08:43:42.251 - 55 00 21 02 01 27 01 34 AA 55 00 21 02 01 27 01 34 AA (次卧纱帘电机状态返回)
2025-09-02 08:43:42.796 - A5 00 D2 FE 01 AA 22 0D (书房窗帘开)
2025-09-02 08:43:42.848 - 55 00 D2 02 00 FE 01 0B AA 55 00 D2 02 00 FE 01 0B AA (书房窗帘电机状态返回)
2025-09-02 08:43:43.392 - 1A BE B0 DC 09 00 01 00 (继电器地址-客厅窗帘, 客厅窗帘开)
2025-09-02 08:43:43.942 - 1A BE B0 DC 0A 00 02 00 (继电器地址-客厅纱帘, 客厅纱帘开)
2025-09-02 08:43:44.488 - 09 06 00 0F 02 02 38 20 (提示音咚)
2025-09-02 08:43:45.538 - 1A EC A0 DC 02 00 00 00 0F (自保持开关地址-天花12V供电, 天花12V 供电关)
2025-09-02 08:43:46.086 - 1A EC A0 DC 02 00 00 00 0F (自保持开关地址-天花12V供电, 天花12V 供电关)
2025-09-02 08:43:46.632 - 1A EC A0 DC 01 00 00 00 0F (自保持开关地址-电视、设备12V供电, 12V 电视供电关)
2025-09-02 08:43:46.674 - 55 00 A6 00 00 0E 01 74 AA 55 00 A6 00 00 0E 01 74 AA (餐厅窗帘电机状态返回)
2025-09-02 08:43:47.230 - 1A EC A0 DC 01 00 00 00 0F (自保持开关地址-电视、设备12V供电, 12V 电视供电关)
2025-09-02 08:43:47.833 - 1A EC A0 DC 04 00 01 00 0F (自保持开关地址-次卧西阳内外卫供电, 内卫外卫关)
2025-09-02 08:43:48.376 - 1A EC A0 DC 04 00 01 00 0F (自保持开关地址-次卧西阳内外卫供电, 内卫外卫关)
2025-09-02 08:43:49.328 - 55 00 21 00 00 0D 01 34 AA 55 00 21 00 00 0D 01 34 AA (次卧纱帘电机状态返回)
2025-09-02 08:43:49.638 - 55 00 76 00 00 0D 01 1B AA 55 00 76 00 00 0D 01 1B AA (次卧窗帘电机状态返回)
2025-09-02 08:43:49.919 - 1A BB BB BB 01 02 00 (开水器电源关)
2025-09-02 08:43:50.537 - 55 00 D2 00 00 0D 01 0B AA 55 00 D2 00 00 0D 01 0B AA (书房窗帘电机状态返回)
2025-09-02 08:44:02.974 - 09 06 00 0F 02 02 38 20 (提示音咚)
2025-09-02 08:44:03.570 - 1A 27 89 12 AA 00 00 00 0F (状态寄存器地址, 无人状态)
2025-09-02 08:44:04.135 - 1A 27 89 12 AA 00 00 00 0F (状态寄存器地址, 无人状态)
2025-09-02 08:44:04.764 - A1 11 11 11 4D (天花供电关闭确认)
2025-09-02 08:44:04.984 - 1A EC A0 DC 02 86 86 86 0F (查询天花供电状态, 自保持开关地址-天花12V供电)
2025-09-02 08:44:05.417 - 1A EC A0 DC 02 00 01 0F (自保持开关地址-天花12V供电)
2025-09-02 08:44:07.802 - A1 11 11 11 4E (卫生供电关闭确认)
2025-09-02 08:44:08.034 - 1A EC A0 DC 04 86 86 86 0F (查询卫生间供电状态, 自保持开关地址-次卧西阳内外卫供电)
2025-09-02 08:44:08.468 - 1A EC A0 DC 04 01 00 0F (自保持开关地址-次卧西阳内外卫供电)
2025-09-02 08:44:10.846 - A1 11 11 11 4F (电视供电关闭确认)
2025-09-02 08:44:11.074 - 1A EC A0 DC 01 86 86 86 0F (查询电视供电状态, 自保持开关地址-电视、设备12V供电)
2025-09-02 08:44:11.508 - 1A EC A0 DC 01 00 01 0F (自保持开关地址-电视、设备12V供电)
2025-09-02 08:44:13.888 - 09 06 00 0F 02 02 38 20 (提示音咚)
2025-09-02 08:44:14.435 - 09 06 00 0F 02 02 38 20 (提示音咚)
2025-09-02 08:44:14.988 - EE 00 00 B1 00 00 02 FF FC FF FF (情景完成返回主页)
2025-09-02 08:44:16.079 - BA BA EE EE BA BA (离家设置信科变量)
2025-09-02 08:44:17.122 - A1 11 11 11 46 (天热离家遮阳)
2025-09-02 08:44:17.351 - 1A 27 89 12 AA 86 86 86 0F (查询寄存器状态, 状态寄存器地址)
2025-09-02 08:44:17.731 - 1A 27 89 12 AA 00 00 00 00 00 00 00 00 00 00 00 01 00 00 00 00 0F (状态寄存器地址)
2025-09-02 08:44:18.354 - 19 08 24 03 DD 00 05 00 01 (调用情景-天热遮阳关帘)
2025-09-02 08:44:18.924 - EE 00 00 B1 00 00 00 FF FC FF FF (情景执行提示)
2025-09-02 08:44:19.518 - 09 06 00 0F 02 01 78 21 (提示音叮)
2025-09-02 08:44:20.063 - A5 00 A2 FF 00 AA (餐厅纱帘关)
2025-09-02 08:44:21.109 - A5 00 A6 FF 00 AA (餐厅窗帘关)
2025-09-02 08:44:21.166 - 55 00 A6 01 00 0E 01 74 AA 55 00 A6 01 00 0E 01 74 FA (餐厅窗帘电机状态返回)
2025-09-02 08:44:22.208 - 55 11 1D 03 01 7C 06 (主卧纱帘关)
2025-09-02 08:44:22.248 - 55 11 1D 03 01 7C 06 (主卧纱帘关)
2025-09-02 08:44:23.304 - 55 12 12 03 02 0C 40 (主卧窗帘关)
2025-09-02 08:44:23.344 - 55 12 12 03 02 0C 40 (主卧窗帘关)
2025-09-02 08:44:24.400 - A5 00 21 FF 00 AA (次卧纱帘关)
2025-09-02 08:44:24.454 - 55 00 21 01 00 0D 01 34 AA 55 00 21 01 00 0D 01 34 AA (次卧纱帘电机状态返回)
2025-09-02 08:44:25.498 - A5 00 76 FF 00 AA (次卧窗帘关)
2025-09-02 08:44:25.553 - 55 00 76 01 00 0D 01 1B AA 55 00 76 01 00 0D 01 1B EA (次卧窗帘电机状态返回)
2025-09-02 08:44:26.595 - A5 00 B7 FF 00 AA 22 0D (书房纱帘关)
2025-09-02 08:44:27.641 - A5 00 D2 FF 00 AA 22 0C (书房窗帘关)
2025-09-02 08:44:27.689 - 55 00 D2 01 00 0D 01 0B AA 55 00 D2 01 00 0D 01 0B AA (书房窗帘电机状态返回)
2025-09-02 08:44:29.238 - 1A 22 33 62 5E 00 02 01 0F (正反转地址-厨房卷帘三, 厨房卷帘一降)
2025-09-02 08:44:30.063 - 55 00 A6 00 01 66 01 74 AA 55 00 A6 00 01 66 01 74 AA (餐厅窗帘电机状态返回)
2025-09-02 08:44:30.284 - 1A 22 33 62 56 00 02 01 0F (正反转地址-厨房卷帘二, 厨房卷帘二降)
2025-09-02 08:44:31.332 - 1A 22 33 62 4F 00 00 01 0F (正反转地址-厨房卷帘一, 厨房卷帘三降)
2025-09-02 08:44:31.980 - 55 00 21 00 01 27 01 34 AA 55 00 21 00 01 27 01 34 AA (次卧纱帘电机状态返回)
2025-09-02 08:44:32.375 - 1A BE B0 DC 04 00 02 00 (继电器地址-西阳窗帘, 西阳窗帘关)
2025-09-02 08:44:33.422 - FF FF FF FF 0E 00 02 00 (继电器地址-西阳小窗帘, 西阳小窗帘关)
2025-09-02 08:44:33.822 - 55 00 76 00 01 0E 01 1B AA 55 00 76 00 01 0E 01 1B AA (次卧窗帘电机状态返回)
2025-09-02 08:44:34.468 - 1A BE B0 DC 03 00 03 00 (继电器地址-西阳天幕, 西阳天幕关)
2025-09-02 08:44:35.515 - 1A BE B0 DC 03 00 03 00 (继电器地址-西阳天幕, 西阳天幕关)
2025-09-02 08:44:36.294 - 55 00 D2 00 00 FE 01 0B AA 55 00 D2 00 00 FE 01 0B AA (书房窗帘电机状态返回)
2025-09-02 08:44:36.562 - 09 06 00 0F 02 02 38 20 (提示音咚)
2025-09-02 08:44:37.116 - EE 00 00 B1 00 00 02 FF FC FF FF (情景完成返回主页)
2025-09-02 08:47:57.211 - 1A BE B0 DC 04 (继电器地址-西阳窗帘)
2025-09-02 08:47:57.344 - FF
2025-09-02 09:15:57.917 - 1A BE B0 DC 0A FF (继电器地址-客厅纱帘)
2025-09-02 09:15:58.053 - FF
2025-09-02 09:58:36.560 - FF FF FF FF 0E FE (继电器地址-西阳小窗帘)
2025-09-02 10:52:54.468 - 1A BE B0 DC 03 FE (继电器地址-西阳天幕)
2025-09-02 10:52:54.602 - FF
2025-09-02 11:03:57.071 - 1A BE B0 DC 01 (继电器地址-回水泵点动)
2025-09-02 11:03:57.210 - FF
2025-09-02 11:29:59.802 - 1A FF FF FF 04 (继电器地址-东阳衣架)
2025-09-02 11:37:22.543 - 1B 03 00 00 00 02 C6 31 (查询室外光线)
2025-09-02 11:37:22.562 - 1B 03 04 00 00 05 15 83 6D (室外光线返回)
2025-09-02 11:37:23.341 - 1A EC A0 DC 02 00 00 01 0F (自保持开关地址-天花12V供电, 天花12V 供电开)
2025-09-02 11:37:23.643 - 19 08 24 03 DD 00 0C 00 01 (调用情景-信科调用进门亮)
2025-09-02 11:37:23.922 - 1A AA AA AA 88 (调光器地址-茶吧灯带)
2025-09-02 11:37:24.183 - EE 00 00 B1 00 00 00 FF FC FF FF (情景执行提示)
2025-09-02 11:37:24.779 - 09 06 00 0F 02 01 78 21 (提示音叮)
2025-09-02 11:37:25.327 - 1A EC A0 DC 02 00 00 01 0F (自保持开关地址-天花12V供电, 天花12V 供电开)
2025-09-02 11:37:25.881 - 1A EC A0 DC 04 00 01 01 0F (自保持开关地址-次卧西阳内外卫供电, 内卫外卫开)
2025-09-02 11:37:26.473 - 1A EC A0 DC 04 00 01 01 0F (自保持开关地址-次卧西阳内外卫供电, 内卫外卫开)
2025-09-02 11:37:27.021 - 1A EC A0 DC 01 00 00 01 0F (自保持开关地址-电视、设备12V供电, 12V 电视供电开)
2025-09-02 11:37:27.566 - 1A BB BB BB 01 01 00 (开水器电源开)
2025-09-02 11:37:29.115 - 1A 27 89 12 AA 00 00 01 0F (状态寄存器地址, 有人状态)
2025-09-02 11:37:29.662 - 1A 27 89 12 AA 00 00 01 0F (状态寄存器地址, 有人状态)
2025-09-02 11:37:30.219 - 1A 0C 02 08 01 FF 45 01 FF 45 01 FF 00 00 0F (调光器地址-内卫射灯, 内卫射灯微光)
2025-09-02 11:37:30.815 - 1A 0D 01 07 01 FF 45 01 FF 45 01 FF 00 00 0F (调光器地址-外卫射灯, 外卫感应灯开)
2025-09-02 11:37:31.410 - 1A FF FF FF 57 00 00 01 0F (人体感应地址-厨房, 打开厨房感应)
2025-09-02 11:37:31.509 - BF BF
2025-09-02 11:37:31.956 - 1A FF FF FF 57 00 00 01 0F (人体感应地址-厨房, 打开厨房感应)
2025-09-02 11:37:31.972 - BC BC
2025-09-02 11:37:32.552 - 1A FF FF FF 58 00 00 01 0F (人体感应地址-茶吧, 打开茶吧感应)
2025-09-02 11:37:32.604 - BC BC
2025-09-02 11:37:33.152 - 1A BE B0 DC 01 00 01 00 (继电器地址-回水泵点动, 回水泵点动)
2025-09-02 11:37:33.700 - 1A BE B0 DC 01 00 01 00 (继电器地址-回水泵点动, 回水泵点动)
2025-09-02 11:37:34.247 - 09 06 00 0F 02 01 78 21 (提示音叮)
2025-09-02 11:37:34.845 - 09 06 00 0F 02 01 78 21 (提示音叮)
2025-09-02 11:37:35.396 - EE 00 00 B1 00 00 02 FF FC FF FF (情景完成返回主页)
2025-09-02 11:37:35.988 - A1 11 11 11 50 (天花供电打开确认)
2025-09-02 11:37:36.211 - 1A EC A0 DC 02 86 86 86 0F (查询天花供电状态, 自保持开关地址-天花12V供电)
2025-09-02 11:37:36.643 - 1A EC A0 DC 02 01 01 0F (自保持开关地址-天花12V供电)
2025-09-02 11:37:38.529 - A1 11 11 11 51 (卫生供电打开确认)
2025-09-02 11:37:38.762 - 1A EC A0 DC 04 86 86 86 0F (查询卫生间供电状态, 自保持开关地址-次卧西阳内外卫供电)
2025-09-02 11:37:39.191 - 1A EC A0 DC 04 01 01 0F (自保持开关地址-次卧西阳内外卫供电)
2025-09-02 11:37:41.070 - A1 11 11 11 52 (电视供电打开确认)
2025-09-02 11:37:41.295 - 1A EC A0 DC 01 86 86 86 0F (查询电视供电状态, 自保持开关地址-电视、设备12V供电)
2025-09-02 11:37:41.730 - 1A EC A0 DC 01 01 01 0F (自保持开关地址-电视、设备12V供电)
2025-09-02 11:37:46.104 - A1 11 11 11 47 (天热回家开帘)
2025-09-02 11:37:46.329 - 1A 27 89 12 AA 86 86 86 0F (查询寄存器状态, 状态寄存器地址)
2025-09-02 11:37:46.712 - 1A 27 89 12 AA 01 00 00 00 00 00 00 00 00 00 00 01 00 00 00 00 0F (状态寄存器地址)
2025-09-02 11:37:47.332 - 19 08 24 03 DD 00 06 00 01 (调用情景-天热遮阳开帘)
2025-09-02 11:37:47.853 - EE 00 00 B1 00 00 00 FF FC FF FF (情景执行提示)
2025-09-02 11:37:48.453 - 09 06 00 0F 02 01 78 21 (提示音叮)
2025-09-02 11:37:49.024 - A5 00 A6 FE 01 AA (餐厅窗帘开)
2025-09-02 11:37:49.080 - 55 00 A6 02 01 66 01 74 AA 55 00 A6 02 01 66 01 74 AA (餐厅窗帘电机状态返回)
2025-09-02 11:37:50.096 - 55 12 12 03 01 4C 41 (主卧窗帘开)
2025-09-02 11:37:50.135 - 55 12 12 03 01 4C 41 (主卧窗帘开)
2025-09-02 11:37:51.191 - 55 11 1D 03 02 3C 07 (主卧纱帘开)
2025-09-02 11:37:51.235 - 55 11 1D 03 02 3C 07 (主卧纱帘开)
2025-09-02 11:37:52.286 - A5 00 76 FE 01 AA (次卧窗帘开)
2025-09-02 11:37:52.343 - 55 00 76 02 01 0E 01 1B AA 55 00 76 02 01 0E FF (次卧窗帘电机状态返回)
2025-09-02 11:37:53.381 - A5 00 21 FE 01 AA (次卧纱帘开)
2025-09-02 11:37:53.437 - 55 00 21 02 01 27 01 34 AA 55 00 21 02 01 27 01 34 AA (次卧纱帘电机状态返回)
2025-09-02 11:37:54.482 - 1A BE B0 DC 04 00 01 00 (继电器地址-西阳窗帘, 西阳窗帘开)
2025-09-02 11:37:55.528 - FF FF FF FF 0E 00 01 00 (继电器地址-西阳小窗帘, 西阳小窗帘开)
2025-09-02 11:37:56.626 - A5 00 D2 FE 01 AA 22 0D (书房窗帘开)
2025-09-02 11:37:56.677 - 55 00 D2 02 00 FE 01 0B AA 55 00 D2 02 00 FE 01 0B AA (书房窗帘电机状态返回)
2025-09-02 11:37:57.722 - 09 06 00 0F 02 02 38 20 (提示音咚)
2025-09-02 11:37:58.167 - 55 00 A6 00 00 0E 01 74 AA 55 00 A6 00 00 0E 01 74 AA (餐厅窗帘电机状态返回)
2025-09-02 11:37:58.274 - EE 00 00 B1 00 00 02 FF FC FF FF (情景完成返回主页)
2025-09-02 11:38:00.406 - 55 00 76 00 00 0D 01 1B AA 55 00 76 00 00 0D 01 1B AA (次卧窗帘电机状态返回)
2025-09-02 11:38:01.024 - 55 00 21 00 00 0D 01 34 AA 55 00 21 00 00 0D 01 34 AA (次卧纱帘电机状态返回)
2025-09-02 11:38:02.041 - 19 08 24 03 DD 00 2B 00 01 (调用情景-次卧照明空调)
2025-09-02 11:38:02.608 - EE 00 00 B1 00 00 00 FF FC FF FF (情景执行提示)
2025-09-02 11:38:03.202 - 09 06 00 0F 02 01 78 21 (提示音叮)
2025-09-02 11:38:03.776 - A1 11 11 11 43 (次卧空调自动开)
2025-09-02 11:38:04.008 - 19 08 24 03 F0 BB 78 02 02 00
2025-09-02 11:38:04.061 - 23 AA 56 02 0B 26 0A 19 09 02 02 73 65 6F 6B 65 6E 64
2025-09-02 11:38:04.260 - 55 00 D2 00 00 0D 01 0B AA 55 00 D2 00 00 0D 01 0B AA (书房窗帘电机状态返回)
2025-09-02 11:38:04.854 - 1A 0E 03 05 01 FF F0 01 FF F0 01 FF 00 00 0F (调光器地址-次卧射灯, 次卧射灯明亮)
2025-09-02 11:38:05.455 - 1A 0E 03 05 02 FF F0 01 FF F0 01 FF 00 00 0F (调光器地址-次卧灯带, 次卧灯带明亮)
2025-09-02 11:38:06.041 - A5 00 21 FF 00 AA (次卧纱帘关)
2025-09-02 11:38:06.095 - 55 00 21 01 00 0D 01 34 AA 55 00 21 01 00 0D 01 34 AA (次卧纱帘电机状态返回)
2025-09-02 11:38:07.137 - A5 00 76 FF 00 AA (次卧窗帘关)
2025-09-02 11:38:07.195 - 55 00 76 01 00 0D 01 1B AA 55 00 76 01 00 0D 01 1B AA (次卧窗帘电机状态返回)
2025-09-02 11:38:08.243 - 1A 0E 03 05 04 FF F0 01 FF F0 01 FF 00 00 0F (调光器地址-次卧北筒灯, 次卧北筒灯明亮)
2025-09-02 11:38:08.842 - 1A 0E 03 05 05 FF F0 01 FF F0 01 FF 00 00 0F (调光器地址-次卧南筒灯, 次卧南筒灯明亮)
2025-09-02 11:38:09.434 - 09 06 00 0F 02 02 38 20 (提示音咚)
2025-09-02 11:38:09.983 - EE 00 00 B1 00 00 02 FF FC FF FF (情景完成返回主页)
2025-09-02 11:38:13.133 - 55 00 21 00 01 28 01 34 AA 55 00 21 00 01 28 01 34 AA (次卧纱帘电机状态返回)
2025-09-02 11:38:14.562 - 55 00 21 00 01 27 01 34 AA 55 00 21 00 01 27 01 34 AA (次卧纱帘电机状态返回)
2025-09-02 11:38:16.446 - 55 00 76 00 01 0E 01 1B AA 55 00 76 00 01 0E 01 1B AA (次卧窗帘电机状态返回)
2025-09-02 11:43:31.346 - 19 08 24 03 CC 01 CC 00 01 (调用茶吧感应灯开的按键)
2025-09-02 11:43:31.393 - 1A AA AA AA 88 FF B0 01 FF B0 01 0F (调光器地址-茶吧灯带, 茶吧灯带明亮)
2025-09-02 11:43:38.858 - 19 08 24 03 CC 01 CD 00 01 (调用茶吧感应灯关的按键)
2025-09-02 11:43:38.889 - 1A AA AA AA 88 FF 00 01 FF 00 01 0F (调光器地址-茶吧灯带, 茶吧灯带关闭)
2025-09-02 11:48:07.269 - 19 08 24 03 CC 00 D3 00 01 (调用厨房感应灯开的按键)
2025-09-02 11:48:07.305 - 55 0A 32 00 00 00 01 92 55 0A 32 00 00 00 02 93 (厨房顶灯一开, 厨房顶灯二开)
2025-09-02 11:48:42.845 - 19 08 24 03 CC 00 D4 00 01 (调用厨房感应灯关的按键)
2025-09-02 11:48:42.876 - 55 0A 31 00 00 00 01 91 55 0A 31 00 00 00 02 92 (厨房顶灯一关, 厨房顶灯二关)
2025-09-02 11:52:03.651 - 19 08 24 03 DD 00 3E 00 01 (调用情景-外卫照明关帘)
2025-09-02 11:52:04.178 - EE 00 00 B1 00 00 00 FF FC FF FF (情景执行提示)
2025-09-02 11:52:04.799 - 09 06 00 0F 02 01 78 21 (提示音叮)
2025-09-02 11:52:05.369 - 1A FF FF FF 55 00 00 00 0F (人体感应地址-外卫, 关闭外卫感应)
2025-09-02 11:52:05.384 - BC BC
2025-09-02 11:52:06.472 - 1A 0D 01 07 01 FF F0 01 FF F0 01 FF 00 00 0F (调光器地址-外卫射灯, 外卫射灯明亮)
2025-09-02 11:52:07.066 - 09 06 00 0F 02 02 38 20 (提示音咚)
2025-09-02 11:52:07.615 - EE 00 00 B1 00 00 02 FF FC FF FF (情景完成返回主页)
2025-09-02 11:57:12.500 - 19 08 24 03 DD 00 33 00 01 (调用情景-次卧睡觉)
2025-09-02 11:57:13.026 - EE 00 00 B1 00 00 00 FF FC FF FF (情景执行提示)
2025-09-02 11:57:13.650 - 09 06 00 0F 02 01 78 21 (提示音叮)
2025-09-02 11:57:14.221 - 1A 20 07 00 70 00 01 00 0F (自保持开关地址-次卧顶灯, 次卧顶灯只关)
2025-09-02 11:57:14.763 - A5 00 21 FF 00 AA (次卧纱帘关)
