2024-09-07 13:58:28.819 - 1A 13 00 00 00 86 86 86 0F (调用查询模块-外卫测温转换, 外卫温湿度虚拟地址)
2024-09-07 13:58:29.047 - 13 03 00 00 00 02 C7 79 (查询外卫温湿度)
2024-09-07 13:58:29.072 - 13 03 04 02 01 01 20 98 02 (外卫温湿度返回)
2024-09-07 13:58:30.071 - 1A 13 00 00 00 00 00 01 00 00 01 00 00 01 01 20 01 02 01 01 00 00 01 00 00 01 0F (外卫温湿度虚拟地址)
2024-09-07 13:58:44.830 - 1B 03 00 00 00 02 C6 31 (查询室外光线)
2024-09-07 13:58:44.851 - 1B 03 04 00 00 05 5A C2 99 (室外光线返回)
2024-09-07 14:04:15.587 - 19 08 24 03 CC 01 55 00 01 (调用内卫感应灯关的按键)
2024-09-07 14:04:15.675 - 1A 0C 02 08 01 FF 00 01 FF 00 01 FF 00 00 0F (调光器地址-内卫射灯, 内卫感应灯关)
2024-09-07 14:05:55.783 - 19 08 24 03 CC 01 54 00 01 (调用内卫感应灯开的按键)
2024-09-07 14:05:55.818 - 1A 0C 02 08 01 FF 45 01 FF 45 01 FF 00 00 0F (调光器地址-内卫射灯, 内卫射灯微光)
2024-09-07 14:06:21.835 - 19 08 24 03 CC 01 55 00 01 (调用内卫感应灯关的按键)
2024-09-07 14:06:21.869 - 1A 0C 02 08 01 FF 00 01 FF 00 01 FF 00 00 0F (调光器地址-内卫射灯, 内卫感应灯关)
2024-09-07 14:23:35.715 - FF FF FF FF 0E FE (继电器地址-西阳小窗帘)
2024-09-07 14:23:35.850 - FC
2024-09-07 14:23:36.006 - 1A BE B0 DC 04 FC (继电器地址-西阳窗帘)
2024-09-07 14:23:36.139 - FF
2024-09-07 14:24:37.753 - 1A BE B0 DC 09 (继电器地址-客厅窗帘)
2024-09-07 14:24:37.888 - FF
2024-09-07 14:24:39.157 - 1A BE B0 DC 02 FD (正反转地址-外卫卷帘)
2024-09-07 14:24:39.291 - FF
2024-09-07 14:25:42.020 - 1A BE B0 DC 01 FC (继电器地址-回水泵点动)
2024-09-07 14:26:43.056 - 1A BE B0 DC 03 (继电器地址-西阳天幕)
2024-09-07 14:26:43.191 - FF
2024-09-07 14:41:35.634 - FF FF FF FF 0A (继电器地址-东阳窗帘)
2024-09-07 14:41:35.770 - FF
2024-09-07 15:07:57.042 - 19 08 24 03 CC 01 CC 00 01 (调用茶吧感应灯开的按键)
2024-09-07 15:07:57.089 - 1A AA AA AA 88 FF B0 01 FF B0 01 0F (调光器地址-茶吧灯带, 茶吧灯带明亮)
2024-09-07 15:08:04.555 - 19 08 24 03 CC 01 CD 00 01 (调用茶吧感应灯关的按键)
2024-09-07 15:08:04.606 - 1A AA AA AA 88 FF 00 01 FF 00 01 0F (调光器地址-茶吧灯带, 茶吧灯带关闭)
2024-09-07 15:28:00.482 - 19 08 24 03 CC 01 54 00 01 (调用内卫感应灯开的按键)
2024-09-07 15:28:00.517 - 1A 0C 02 08 01 FF 45 01 FF 45 01 FF 00 00 0F (调光器地址-内卫射灯, 内卫射灯微光)
2024-09-07 15:28:12.599 - 1A 20 00 00 00 86 86 86 0F (调用查询模块-阳台测温湿气压转换, 阳台温湿气压虚拟地址)
2024-09-07 15:28:12.819 - 20 03 00 00 00 03 03 7A (查询阳台温湿度气压)
2024-09-07 15:28:12.839 - 20 03 06 01 AF 01 14 27 20 3B 3D (阳台温湿度返回)
2024-09-07 15:28:13.342 - 1A 20 00 00 00 00 00 01 00 00 01 00 00 01 01 AF 01 01 14 01 27 20 01 00 00 01 0F (阳台温湿气压虚拟地址)
2024-09-07 15:28:13.518 - 1A 21 00 00 00 86 86 86 0F (调用查询模块-储藏室测温湿气压转换, 储藏室温湿气压虚拟地址)
2024-09-07 15:28:13.741 - 21 03 00 00 00 03 02 AB (查询储藏室温湿度气压)
2024-09-07 15:28:13.762 - 21 03 06 01 3D 02 49 27 22 9F 27 (储藏室温湿度返回)
2024-09-07 15:28:14.264 - 1A 21 00 00 00 00 00 01 00 00 01 00 00 01 01 3D 01 02 49 01 27 22 01 00 00 01 0F (储藏室温湿气压虚拟地址)
2024-09-07 15:28:14.428 - 1A 22 00 00 00 86 86 86 0F (调用查询模块-室外测温湿气压转换, 室外温湿气压虚拟地址)
2024-09-07 15:28:14.654 - 22 03 00 00 00 03 02 98 (查询室外温湿度气压)
2024-09-07 15:28:14.675 - 22 03 06 01 48 02 15 27 22 C6 0E (室外温湿度返回)
2024-09-07 15:28:15.178 - 1A 22 00 00 00 00 00 01 00 00 01 00 00 01 01 48 01 02 15 01 27 22 01 00 00 01 0F (室外温湿气压虚拟地址)
2024-09-07 15:28:15.351 - 1A 23 00 00 00 86 86 86 0F (调用查询模块-客厅测温湿气压转换, 客厅温湿气压虚拟地址)
2024-09-07 15:28:15.576 - 23 03 00 00 00 03 03 49 (查询客厅温湿度气压)
2024-09-07 15:28:15.597 - 23 03 06 01 30 02 20 27 23 BA 5A (客厅温湿度返回)
2024-09-07 15:28:16.099 - 1A 23 00 00 00 00 00 01 00 00 01 00 00 01 01 30 01 02 20 01 27 23 01 00 00 01 0F (客厅温湿气压虚拟地址)
2024-09-07 15:28:16.275 - 1A 24 00 00 00 86 86 86 0F (调用查询模块-餐厅测温湿气压转换, 餐厅温湿气压虚拟地址)
2024-09-07 15:28:16.500 - 24 03 00 00 00 03 02 FE (查询餐厅温湿度气压)
2024-09-07 15:28:16.520 - 24 03 06 01 40 01 FC 27 21 9D DE (餐厅温湿度返回)
2024-09-07 15:28:17.022 - 1A 24 00 00 00 00 00 01 00 00 01 00 00 01 01 40 01 01 FC 01 27 21 01 00 00 01 0F (餐厅温湿气压虚拟地址)
2024-09-07 15:28:17.194 - 1A 25 00 00 00 86 86 86 0F (调用查询模块-主卧测温湿气压转换, 主卧温湿气压虚拟地址)
2024-09-07 15:28:17.423 - 25 03 00 00 00 03 03 2F (查询主卧温湿度气压)
2024-09-07 15:28:17.444 - 25 03 06 01 23 01 9F 27 1F 25 88 (主卧温湿度返回)
2024-09-07 15:28:17.945 - 1A 25 00 00 00 00 00 01 00 00 01 00 00 01 01 23 01 01 9F 01 27 1F 01 00 00 01 0F (主卧温湿气压虚拟地址)
2024-09-07 15:28:24.353 - 1A 20 00 00 00 86 86 86 0F (调用查询模块-阳台测温湿气压转换, 阳台温湿气压虚拟地址)
2024-09-07 15:28:24.574 - 20 03 00 00 00 03 03 7A (查询阳台温湿度气压)
2024-09-07 15:28:24.595 - 20 03 06 01 AF 01 14 27 20 3B 3D (阳台温湿度返回)
2024-09-07 15:28:25.096 - 1A 20 00 00 00 00 00 01 00 00 01 00 00 01 01 AF 01 01 14 01 27 20 01 00 00 01 0F (阳台温湿气压虚拟地址)
2024-09-07 15:28:25.200 - 1A 21 00 00 00 86 86 86 0F (调用查询模块-储藏室测温湿气压转换, 储藏室温湿气压虚拟地址)
2024-09-07 15:28:25.426 - 21 03 00 00 00 03 02 AB (查询储藏室温湿度气压)
2024-09-07 15:28:25.449 - 21 03 06 01 3D 02 49 27 22 9F 27 (储藏室温湿度返回)
2024-09-07 15:28:25.948 - 1A 21 00 00 00 00 00 01 00 00 01 00 00 01 01 3D 01 02 49 01 27 22 01 00 00 01 0F (储藏室温湿气压虚拟地址)
2024-09-07 15:28:26.102 - 1A 22 00 00 00 86 86 86 0F (调用查询模块-室外测温湿气压转换, 室外温湿气压虚拟地址)
2024-09-07 15:28:26.329 - 22 03 00 00 00 03 02 98 (查询室外温湿度气压)
2024-09-07 15:28:26.349 - 22 03 06 01 48 02 14 27 22 97 CE (室外温湿度返回)
2024-09-07 15:28:26.852 - 1A 22 00 00 00 00 00 01 00 00 01 00 00 01 01 48 01 02 14 01 27 22 01 00 00 01 0F (室外温湿气压虚拟地址)
2024-09-07 15:28:27.025 - 1A 23 00 00 00 86 86 86 0F (调用查询模块-客厅测温湿气压转换, 客厅温湿气压虚拟地址)
2024-09-07 15:28:27.253 - 23 03 00 00 00 03 03 49 (查询客厅温湿度气压)
2024-09-07 15:28:27.273 - 23 03 06 01 31 02 20 27 23 87 9A (客厅温湿度返回)
2024-09-07 15:28:27.774 - 1A 23 00 00 00 00 00 01 00 00 01 00 00 01 01 31 01 02 20 01 27 23 01 00 00 01 0F (客厅温湿气压虚拟地址)
2024-09-07 15:28:27.945 - 1A 24 00 00 00 86 86 86 0F (调用查询模块-餐厅测温湿气压转换, 餐厅温湿气压虚拟地址)
2024-09-07 15:28:28.165 - 24 03 00 00 00 03 02 FE (查询餐厅温湿度气压)
2024-09-07 15:28:28.187 - 24 03 06 01 40 01 FC 27 21 9D DE (餐厅温湿度返回)
2024-09-07 15:28:28.687 - 1A 24 00 00 00 00 00 01 00 00 01 00 00 01 01 40 01 01 FC 01 27 21 01 00 00 01 0F (餐厅温湿气压虚拟地址)
2024-09-07 15:28:28.969 - 1A 25 00 00 00 86 86 86 0F (调用查询模块-主卧测温湿气压转换, 主卧温湿气压虚拟地址)
2024-09-07 15:28:29.197 - 25 03 00 00 00 03 03 2F (查询主卧温湿度气压)
2024-09-07 15:28:29.220 - 25 03 06 01 23 01 9F 27 1F 25 88 (主卧温湿度返回)
2024-09-07 15:28:29.720 - 1A 25 00 00 00 00 00 01 00 00 01 00 00 01 01 23 01 01 9F 01 27 1F 01 00 00 01 0F (主卧温湿气压虚拟地址)
2024-09-07 15:28:48.277 - 1A 22 00 00 00 86 86 86 0F (调用查询模块-室外测温湿气压转换, 室外温湿气压虚拟地址)
2024-09-07 15:28:48.504 - 22 03 00 00 00 03 02 98 (查询室外温湿度气压)
2024-09-07 15:28:48.526 - 22 03 06 01 48 02 15 27 21 86 0F (室外温湿度返回)
2024-09-07 15:28:49.027 - 1A 22 00 00 00 00 00 01 00 00 01 00 00 01 01 48 01 02 15 01 27 21 01 00 00 01 0F (室外温湿气压虚拟地址)
2024-09-07 15:28:51.308 - 1A 23 00 00 00 86 86 86 0F (调用查询模块-客厅测温湿气压转换, 客厅温湿气压虚拟地址)
2024-09-07 15:28:51.533 - 23 03 00 00 00 03 03 49 (查询客厅温湿度气压)
2024-09-07 15:28:51.555 - 23 03 06 01 31 02 20 27 23 87 9A (客厅温湿度返回)
2024-09-07 15:28:52.057 - 1A 23 00 00 00 00 00 01 00 00 01 00 00 01 01 31 01 02 20 01 27 23 01 00 00 01 0F (客厅温湿气压虚拟地址)
2024-09-07 15:28:54.309 - 1A 23 00 00 00 86 86 86 0F (调用查询模块-客厅测温湿气压转换, 客厅温湿气压虚拟地址)
2024-09-07 15:28:54.533 - 23 03 00 00 00 03 03 49 (查询客厅温湿度气压)
2024-09-07 15:28:54.555 - 23 03 06 01 31 02 21 27 23 D6 5A (客厅温湿度返回)
2024-09-07 15:28:55.054 - 1A 23 00 00 00 00 00 01 00 00 01 00 00 01 01 31 01 02 21 01 27 23 01 00 00 01 0F (客厅温湿气压虚拟地址)
2024-09-07 15:28:56.096 - 1A 24 00 00 00 86 86 86 0F (调用查询模块-餐厅测温湿气压转换, 餐厅温湿气压虚拟地址)
2024-09-07 15:28:56.317 - 24 03 00 00 00 03 02 FE (查询餐厅温湿度气压)
2024-09-07 15:28:56.338 - 24 03 06 01 40 01 FC 27 21 9D DE (餐厅温湿度返回)
2024-09-07 15:28:56.840 - 1A 24 00 00 00 00 00 01 00 00 01 00 00 01 01 40 01 01 FC 01 27 21 01 00 00 01 0F (餐厅温湿气压虚拟地址)
2024-09-07 15:28:57.395 - 1A 25 00 00 00 86 86 86 0F (调用查询模块-主卧测温湿气压转换, 主卧温湿气压虚拟地址)
2024-09-07 15:28:57.621 - 25 03 00 00 00 03 03 2F (查询主卧温湿度气压)
2024-09-07 15:28:57.643 - 25 03 06 01 23 01 9B 27 1F 64 49 (主卧温湿度返回)
2024-09-07 15:28:58.143 - 1A 25 00 00 00 00 00 01 00 00 01 00 00 01 01 23 01 01 9B 01 27 1F 01 00 00 01 0F (主卧温湿气压虚拟地址)
2024-09-07 15:28:58.678 - 1A 20 00 00 00 86 86 86 0F (调用查询模块-阳台测温湿气压转换, 阳台温湿气压虚拟地址)
2024-09-07 15:28:58.905 - 20 03 00 00 00 03 03 7A (查询阳台温湿度气压)
2024-09-07 15:28:58.926 - 20 03 06 01 AF 01 15 27 20 6A FD (阳台温湿度返回)
2024-09-07 15:28:59.427 - 1A 20 00 00 00 00 00 01 00 00 01 00 00 01 01 AF 01 01 15 01 27 20 01 00 00 01 0F (阳台温湿气压虚拟地址)
2024-09-07 15:29:00.180 - 1A 21 00 00 00 86 86 86 0F (调用查询模块-储藏室测温湿气压转换, 储藏室温湿气压虚拟地址)
2024-09-07 15:29:00.409 - 21 03 00 00 00 03 02 AB (查询储藏室温湿度气压)
2024-09-07 15:29:00.430 - 21 03 06 01 3D 02 49 27 22 9F 27 (储藏室温湿度返回)
2024-09-07 15:29:00.933 - 1A 21 00 00 00 00 00 01 00 00 01 00 00 01 01 3D 01 02 49 01 27 22 01 00 00 01 0F (储藏室温湿气压虚拟地址)
2024-09-07 15:30:01.882 - 1A 20 00 00 00 86 86 86 0F (调用查询模块-阳台测温湿气压转换, 阳台温湿气压虚拟地址)
2024-09-07 15:30:02.104 - 20 03 00 00 00 03 03 7A (查询阳台温湿度气压)
2024-09-07 15:30:02.124 - 20 03 06 01 AE 01 15 27 20 57 3D (阳台温湿度返回)
2024-09-07 15:30:02.625 - 1A 20 00 00 00 00 00 01 00 00 01 00 00 01 01 AE 01 01 15 01 27 20 01 00 00 01 0F (阳台温湿气压虚拟地址)
2024-09-07 15:30:03.350 - 1A 21 00 00 00 86 86 86 0F (调用查询模块-储藏室测温湿气压转换, 储藏室温湿气压虚拟地址)
2024-09-07 15:30:03.577 - 21 03 00 00 00 03 02 AB (查询储藏室温湿度气压)
2024-09-07 15:30:03.598 - 21 03 06 01 3D 02 49 27 23 5E E7 (储藏室温湿度返回)
2024-09-07 15:30:04.101 - 1A 21 00 00 00 00 00 01 00 00 01 00 00 01 01 3D 01 02 49 01 27 23 01 00 00 01 0F (储藏室温湿气压虚拟地址)
2024-09-07 15:30:04.520 - 1A 23 00 00 00 86 86 86 0F (调用查询模块-客厅测温湿气压转换, 客厅温湿气压虚拟地址)
2024-09-07 15:30:04.741 - 23 03 00 00 00 03 03 49 (查询客厅温湿度气压)
2024-09-07 15:30:04.762 - 23 03 06 01 31 02 21 27 23 D6 5A (客厅温湿度返回)
2024-09-07 15:30:05.263 - 1A 23 00 00 00 00 00 01 00 00 01 00 00 01 01 31 01 02 21 01 27 23 01 00 00 01 0F (客厅温湿气压虚拟地址)
2024-09-07 15:30:08.321 - 1A 23 00 00 00 86 86 86 0F (调用查询模块-客厅测温湿气压转换, 客厅温湿气压虚拟地址)
2024-09-07 15:30:08.542 - 23 03 00 00 00 03 03 49 (查询客厅温湿度气压)
2024-09-07 15:30:08.563 - 23 03 06 01 31 02 20 27 24 C6 58 (客厅温湿度返回)
2024-09-07 15:30:09.065 - 1A 23 00 00 00 00 00 01 00 00 01 00 00 01 01 31 01 02 20 01 27 24 01 00 00 01 0F (客厅温湿气压虚拟地址)
2024-09-07 15:30:13.496 - 1A 24 00 00 00 86 86 86 0F (调用查询模块-餐厅测温湿气压转换, 餐厅温湿气压虚拟地址)
2024-09-07 15:30:13.717 - 24 03 00 00 00 03 02 FE (查询餐厅温湿度气压)
2024-09-07 15:30:13.738 - 24 03 06 01 40 01 FD 27 1F 4D CE (餐厅温湿度返回)
2024-09-07 15:30:14.240 - 1A 24 00 00 00 00 00 01 00 00 01 00 00 01 01 40 01 01 FD 01 27 1F 01 00 00 01 0F (餐厅温湿气压虚拟地址)
2024-09-07 15:30:16.609 - 1A 25 00 00 00 86 86 86 0F (调用查询模块-主卧测温湿气压转换, 主卧温湿气压虚拟地址)
2024-09-07 15:30:16.836 - 25 03 00 00 00 03 03 2F (查询主卧温湿度气压)
2024-09-07 15:30:16.859 - 25 03 06 01 22 01 95 27 1F 38 4A (主卧温湿度返回)
2024-09-07 15:30:17.361 - 1A 25 00 00 00 00 00 01 00 00 01 00 00 01 01 22 01 01 95 01 27 1F 01 00 00 01 0F (主卧温湿气压虚拟地址)
2024-09-07 15:30:21.480 - 1A 25 00 00 00 86 86 86 0F (调用查询模块-主卧测温湿气压转换, 主卧温湿气压虚拟地址)
2024-09-07 15:30:21.703 - 25 03 00 00 00 03 03 2F (查询主卧温湿度气压)
2024-09-07 15:30:21.724 - 25 03 06 01 22 01 95 27 1F 38 4A (主卧温湿度返回)
2024-09-07 15:30:22.224 - 1A 25 00 00 00 00 00 01 00 00 01 00 00 01 01 22 01 01 95 01 27 1F 01 00 00 01 0F (主卧温湿气压虚拟地址)
2024-09-07 15:31:40.972 - 19 08 24 03 CC 01 55 00 01 (调用内卫感应灯关的按键)
2024-09-07 15:31:41.024 - 1A 0C 02 08 01 FF 00 01 FF 00 01 FF 00 00 0F (调光器地址-内卫射灯, 内卫感应灯关)
2024-09-07 15:31:54.958 - 19 08 24 03 CC 01 CC 00 01 (调用茶吧感应灯开的按键)
2024-09-07 15:31:54.989 - 1A AA AA AA 88 FF B0 01 FF B0 01 0F (调光器地址-茶吧灯带, 茶吧灯带明亮)
2024-09-07 15:33:03.143 - 19 08 24 03 CC 01 54 00 01 (调用内卫感应灯开的按键)
2024-09-07 15:33:03.176 - 1A 0C 02 08 01 FF 45 01 FF 45 01 FF 00 00 0F (调光器地址-内卫射灯, 内卫射灯微光)
2024-09-07 15:33:28.693 - 19 08 24 03 CC 01 55 00 01 (调用内卫感应灯关的按键)
2024-09-07 15:33:28.728 - 1A 0C 02 08 01 FF 00 01 FF 00 01 FF 00 00 0F (调光器地址-内卫射灯, 内卫感应灯关)
2024-09-07 15:33:42.671 - 19 08 24 03 CC 01 CD 00 01 (调用茶吧感应灯关的按键)
2024-09-07 15:33:42.701 - 1A AA AA AA 88 FF 00 01 FF 00 01 0F (调光器地址-茶吧灯带, 茶吧灯带关闭)
2024-09-07 15:33:51.689 - 19 08 24 03 CC 01 CC 00 01 (调用茶吧感应灯开的按键)
2024-09-07 15:33:51.722 - 1A AA AA AA 88 FF B0 01 FF B0 01 0F (调光器地址-茶吧灯带, 茶吧灯带明亮)
2024-09-07 15:34:06.719 - 19 08 24 03 CC 01 CD 00 01 (调用茶吧感应灯关的按键)
2024-09-07 15:34:06.750 - 1A AA AA AA 88 FF 00 01 FF 00 01 0F (调光器地址-茶吧灯带, 茶吧灯带关闭)
2024-09-07 15:35:20.864 - 19 08 24 03 CC 01 CC 00 01 (调用茶吧感应灯开的按键)
2024-09-07 15:35:20.895 - 1A AA AA AA 88 FF B0 01 FF B0 01 0F (调光器地址-茶吧灯带, 茶吧灯带明亮)
2024-09-07 15:35:35.800 - 19 08 24 03 CC 00 D3 00 01 (调用厨房感应灯开的按键)
2024-09-07 15:35:35.834 - 55 0A 32 00 00 00 01 92 55 0A 32 00 00 00 02 93 (厨房顶灯一开, 厨房顶灯二开)
2024-09-07 15:36:14.472 - 19 08 24 03 CC 01 CD 00 01 (调用茶吧感应灯关的按键)
2024-09-07 15:36:14.504 - 1A AA AA AA 88 FF 00 01 FF 00 01 0F (调光器地址-茶吧灯带, 茶吧灯带关闭)
2024-09-07 15:36:21.890 - 19 08 24 03 CC 00 D4 00 01 (调用厨房感应灯关的按键)
2024-09-07 15:36:21.925 - 55 0A 31 00 00 00 01 91 55 0A 31 00 00 00 02 92 (厨房顶灯一关, 厨房顶灯二关)
2024-09-07 15:38:00.680 - 19 08 24 03 CC 01 CC 00 01 (调用茶吧感应灯开的按键)
2024-09-07 15:38:00.712 - 1A AA AA AA 88 FF B0 01 FF B0 01 0F (调光器地址-茶吧灯带, 茶吧灯带明亮)
2024-09-07 15:38:18.716 - 19 08 24 03 CC 01 CD 00 01 (调用茶吧感应灯关的按键)
2024-09-07 15:38:18.747 - 1A AA AA AA 88 FF 00 01 FF 00 01 0F (调光器地址-茶吧灯带, 茶吧灯带关闭)
2024-09-07 15:52:01.341 - 19 08 24 03 CC 01 CC 00 01 (调用茶吧感应灯开的按键)
2024-09-07 15:52:01.371 - 1A AA AA AA 88 FF B0 01 FF B0 01 0F (调光器地址-茶吧灯带, 茶吧灯带明亮)
2024-09-07 15:52:05.245 - 19 08 24 03 CC 00 D3 00 01 (调用厨房感应灯开的按键)
2024-09-07 15:52:05.279 - 55 0A 32 00 00 00 01 92 55 0A 32 00 00 00 02 93 (厨房顶灯一开, 厨房顶灯二开)
2024-09-07 15:52:14.866 - 19 08 24 03 CC 01 CD 00 01 (调用茶吧感应灯关的按键)
2024-09-07 15:52:14.896 - 1A AA AA AA 88 FF 00 01 FF 00 01 0F (调光器地址-茶吧灯带, 茶吧灯带关闭)
2024-09-07 15:52:50.437 - 19 08 24 03 CC 01 CC 00 01 (调用茶吧感应灯开的按键)
2024-09-07 15:52:50.468 - 1A AA AA AA 88 FF B0 01 FF B0 01 0F (调光器地址-茶吧灯带, 茶吧灯带明亮)
2024-09-07 15:53:05.967 - 19 08 24 03 CC 01 CD 00 01 (调用茶吧感应灯关的按键)
2024-09-07 15:53:05.997 - 1A AA AA AA 88 FF 00 01 FF 00 01 0F (调光器地址-茶吧灯带, 茶吧灯带关闭)
2024-09-07 15:53:30.911 - 19 08 24 03 CC 00 D4 00 01 (调用厨房感应灯关的按键)
2024-09-07 15:53:30.947 - 55 0A 31 00 00 00 01 91 55 0A 31 00 00 00 02 92 (厨房顶灯一关, 厨房顶灯二关)
2024-09-07 16:56:34.515 - 19 08 24 03 CC 01 54 00 01 (调用内卫感应灯开的按键)
2024-09-07 16:56:34.549 - 1A 0C 02 08 01 FF 45 01 FF 45 01 FF 00 00 0F (调光器地址-内卫射灯, 内卫射灯微光)
2024-09-07 17:03:03.282 - 19 08 24 03 CC 01 55 00 01 (调用内卫感应灯关的按键)
2024-09-07 17:03:03.314 - 1A 0C 02 08 01 FF 00 01 FF 00 01 FF 00 00 0F (调光器地址-内卫射灯, 内卫感应灯关)
2024-09-07 17:03:12.387 - 1A FF FF FF 04 FD (继电器地址-东阳衣架)
2024-09-07 17:03:12.523 - 00
2024-09-07 17:04:17.426 - 19 08 24 03 CC 01 54 00 01 (调用内卫感应灯开的按键)
2024-09-07 17:04:17.510 - 1A 0C 02 08 01 FF 45 01 FF 45 01 FF 00 00 0F (调光器地址-内卫射灯, 内卫射灯微光)
2024-09-07 17:04:42.977 - 19 08 24 03 CC 01 55 00 01 (调用内卫感应灯关的按键)
2024-09-07 17:04:43.029 - 1A 0C 02 08 01 FF 00 01 FF 00 01 FF 00 00 0F (调光器地址-内卫射灯, 内卫感应灯关)
2024-09-07 17:08:59.958 - 19 08 24 03 CC 01 CC 00 01 (调用茶吧感应灯开的按键)
2024-09-07 17:08:59.990 - 1A AA AA AA 88 FF B0 01 FF B0 01 0F (调光器地址-茶吧灯带, 茶吧灯带明亮)
2024-09-07 17:09:07.473 - 19 08 24 03 CC 01 CD 00 01 (调用茶吧感应灯关的按键)
2024-09-07 17:09:07.504 - 1A AA AA AA 88 FF 00 01 FF 00 01 0F (调光器地址-茶吧灯带, 茶吧灯带关闭)
2024-09-07 17:13:56.011 - FF
2024-09-07 17:14:42.484 - 19 08 24 03 CC 00 D3 00 01 (调用厨房感应灯开的按键)
2024-09-07 17:14:42.537 - 55 0A 32 00 00 00 01 92 55 0A 32 00 00 00 02 93 (厨房顶灯一开, 厨房顶灯二开)
2024-09-07 17:15:18.054 - 19 08 24 03 CC 00 D4 00 01 (调用厨房感应灯关的按键)
2024-09-07 17:15:18.107 - 55 0A 31 00 00 00 01 91 55 0A 31 00 00 00 02 92 (厨房顶灯一关, 厨房顶灯二关)
2024-09-07 17:16:02.676 - 19 08 24 03 DD 00 00 00 01 (调用情景-离家（末）)
2024-09-07 17:16:03.199 - EE 00 00 B1 00 00 00 FF FC FF FF (情景执行提示)
2024-09-07 17:16:03.794 - 09 06 00 0F 02 02 38 20 (提示音咚)
2024-09-07 17:16:04.338 - 50 F7 01 (全屋影音全关)
2024-09-07 17:16:04.891 - 01 06 07 D0 FF 60 C8 9F (客厅空调关)
2024-09-07 17:16:04.924 - 01 06 07 D0 FF 60 C8 9F (客厅空调关)
2024-09-07 17:16:05.488 - 01 06 07 D0 FF 60 C8 9F (客厅空调关)
2024-09-07 17:16:05.519 - 01 06 07 D0 FF 60 C8 9F (客厅空调关)
2024-09-07 17:16:06.087 - 01 06 07 D3 FF 60 38 9F (餐厅空调关)
2024-09-07 17:16:06.114 - 01 06 07 D3 FF 60 38 9F (餐厅空调关)
2024-09-07 17:16:06.684 - 01 06 07 D3 FF 60 38 9F (餐厅空调关)
2024-09-07 17:16:06.711 - 01 06 07 D3 FF 60 38 9F (餐厅空调关)
2024-09-07 17:16:07.281 - 01 06 07 D6 FF 60 28 9E (主卧空调关)
2024-09-07 17:16:07.317 - 01 06 07 D6 FF 60 28 9E (主卧空调关)
2024-09-07 17:16:07.880 - 01 06 07 D6 FF 60 28 9E (主卧空调关)
2024-09-07 17:16:07.914 - 01 06 07 D6 FF 60 28 9E (主卧空调关)
2024-09-07 17:16:08.478 - 01 06 07 D9 FF 60 18 9D (次卧空调关)
2024-09-07 17:16:08.509 - 01 06 07 D9 FF 60 18 9D (次卧空调关)
2024-09-07 17:16:09.076 - 01 06 07 D9 FF 60 18 9D (次卧空调关)
2024-09-07 17:16:09.105 - 01 06 07 D9 FF 60 18 9D (次卧空调关)
2024-09-07 17:16:09.674 - 01 06 07 DC FF 60 08 9C (书房空调关)
2024-09-07 17:16:09.710 - 01 06 07 DC FF 60 08 9C (书房空调关)
2024-09-07 17:16:10.271 - 01 06 07 DC FF 60 08 9C (书房空调关)
2024-09-07 17:16:10.307 - 01 06 07 DC FF 60 08 9C (书房空调关)
2024-09-07 17:16:10.869 - 09 06 00 0F 02 02 38 20 (提示音咚)
2024-09-07 17:16:11.419 - 1A FF FF FF 56 00 00 00 0F (人体感应地址-内卫, 关闭内卫感应)
2024-09-07 17:16:11.967 - 1A FF FF FF 55 00 00 00 0F (人体感应地址-外卫, 关闭外卫感应)
2024-09-07 17:16:12.061 - BC BC
2024-09-07 17:16:12.515 - 1A FF FF FF 57 00 00 00 0F (人体感应地址-厨房, 关闭厨房感应)
2024-09-07 17:16:13.063 - 1A FF FF FF 58 00 00 00 0F (人体感应地址-茶吧, 关闭茶吧感应)
2024-09-07 17:16:13.113 - BC BC
2024-09-07 17:16:13.662 - 1A 20 07 00 93 00 01 00 0F (自保持开关地址-设备区顶, 设备区顶灯关)
2024-09-07 17:16:14.708 - 1A 20 07 01 40 00 01 00 0F (自保持开关地址-内卫顶灯, 内卫顶灯关)
2024-09-07 17:16:15.754 - 1A 20 07 01 55 00 01 00 0F (自保持开关地址-主卧顶灯, 主卧顶灯只关)
2024-09-07 17:16:16.800 - 1A 20 07 00 42 00 01 00 0F (自保持开关地址-外卫顶灯, 外卫顶灯关)
2024-09-07 17:16:17.846 - 55 0D 31 00 00 00 01 94 (书房顶灯只关)
2024-09-07 17:16:18.892 - 55 0A 31 00 00 00 01 91 (厨房顶灯一关)
2024-09-07 17:16:19.938 - 55 0A 31 00 00 00 02 92 (厨房顶灯二关)
2024-09-07 17:16:20.986 - 55 0B 31 00 00 00 01 92 (厨房风扇只关)
2024-09-07 17:16:22.032 - 55 0C 31 00 00 00 01 93 (餐厅顶灯关)
2024-09-07 17:16:23.078 - 1A 20 07 01 30 00 01 00 0F (自保持开关地址-西阳顶灯, 西阳顶灯关)
2024-09-07 17:16:24.126 - 1A 18 05 21 89 00 01 00 0F (自保持开关地址-客厅顶灯, 客厅顶灯一关)
2024-09-07 17:16:25.172 - 1A 18 05 01 94 00 01 00 0F (自保持开关地址-客厅顶灯, 客厅顶灯二关)
2024-09-07 17:16:26.218 - 1A 20 07 00 70 00 01 00 0F (自保持开关地址-次卧顶灯, 次卧顶灯只关)
2024-09-07 17:16:27.265 - 1A 18 05 10 31 00 01 00 0F (自保持开关地址-门厅顶灯, 门厅顶灯关)
2024-09-07 17:16:28.310 - 1A FF FF FF 04 00 03 02 (继电器地址-东阳衣架, 东阳衣架照明关)
2024-09-07 17:16:28.860 - 09 06 00 0F 02 02 38 20 (提示音咚)
2024-09-07 17:16:29.404 - A5 00 A6 FE 01 AA (餐厅窗帘开)
2024-09-07 17:16:29.955 - FF FF FF FF 0A 00 01 00 (继电器地址-东阳窗帘, 东阳窗帘开)
2024-09-07 17:16:30.502 - 1A BE B0 DC 04 00 01 00 (继电器地址-西阳窗帘, 西阳窗帘开)
2024-09-07 17:16:31.051 - FF FF FF FF 0E 00 01 00 (继电器地址-西阳小窗帘, 西阳小窗帘开)
2024-09-07 17:16:31.600 - 1A 22 33 62 0F 00 00 01 0F (正反转地址-内卫卷帘, 内卫卷帘升)
2024-09-07 17:16:32.144 - A5 00 52 FE 01 AA (主卧窗帘开)
2024-09-07 17:16:32.692 - A5 00 53 FF 00 AA (主卧纱帘开)
2024-09-07 17:16:33.240 - A5 00 76 FE 01 AA (次卧窗帘开)
2024-09-07 17:16:33.789 - A5 00 21 FE 01 AA (次卧纱帘开)
2024-09-07 17:16:34.389 - A5 00 D2 FE 01 AA 22 0D (书房窗帘开)
2024-09-07 17:16:34.937 - 1A BE B0 DC 09 00 01 00 (继电器地址-客厅窗帘, 客厅窗帘开)
2024-09-07 17:16:35.485 - 1A BE B0 DC 0A 00 02 00 (继电器地址-客厅纱帘, 客厅纱帘开)
2024-09-07 17:16:36.032 - 09 06 00 0F 02 02 38 20 (提示音咚)
2024-09-07 17:16:37.081 - 1A EC A0 DC 02 00 00 00 0F (自保持开关地址-天花12V供电, 天花12V 供电关)
2024-09-07 17:16:37.628 - 1A EC A0 DC 02 00 00 00 0F (自保持开关地址-天花12V供电, 天花12V 供电关)
2024-09-07 17:16:38.177 - 1A EC A0 DC 01 00 00 00 0F (自保持开关地址-电视、设备12V供电, 12V 电视供电关)
2024-09-07 17:16:38.726 - 1A EC A0 DC 01 00 00 00 0F (自保持开关地址-电视、设备12V供电, 12V 电视供电关)
2024-09-07 17:16:39.273 - 1A EC A0 DC 04 00 01 00 0F (自保持开关地址-次卧西阳内外卫供电, 内卫外卫关)
2024-09-07 17:16:39.821 - 1A EC A0 DC 04 00 01 00 0F (自保持开关地址-次卧西阳内外卫供电, 内卫外卫关)
2024-09-07 17:16:57.808 - 09 06 00 0F 02 02 38 20 (提示音咚)
2024-09-07 17:16:58.359 - 1A 27 89 12 AA 00 00 00 0F (状态寄存器地址, 无人状态)
2024-09-07 17:16:58.907 - 1A 27 89 12 AA 00 00 00 0F (状态寄存器地址, 无人状态)
2024-09-07 17:16:59.450 - A1 11 11 11 4D (天花供电关闭确认)
2024-09-07 17:16:59.677 - 1A EC A0 DC 02 86 86 86 0F (查询天花供电状态, 自保持开关地址-天花12V供电)
2024-09-07 17:17:00.109 - 1A EC A0 DC 02 00 01 0F (自保持开关地址-天花12V供电)
2024-09-07 17:17:02.489 - A1 11 11 11 4E (卫生供电关闭确认)
2024-09-07 17:17:02.715 - 1A EC A0 DC 04 86 86 86 0F (查询卫生间供电状态, 自保持开关地址-次卧西阳内外卫供电)
2024-09-07 17:17:03.145 - 1A EC A0 DC 04 01 00 0F (自保持开关地址-次卧西阳内外卫供电)
2024-09-07 17:17:05.528 - A1 11 11 11 4F (电视供电关闭确认)
2024-09-07 17:17:05.753 - 1A EC A0 DC 01 86 86 86 0F (查询电视供电状态, 自保持开关地址-电视、设备12V供电)
2024-09-07 17:17:06.188 - 1A EC A0 DC 01 00 01 0F (自保持开关地址-电视、设备12V供电)
2024-09-07 17:17:08.572 - 09 06 00 0F 02 02 38 20 (提示音咚)
2024-09-07 17:17:09.119 - 09 06 00 0F 02 02 38 20 (提示音咚)
2024-09-07 17:17:09.671 - EE 00 00 B1 00 00 02 FF FC FF FF (情景完成返回主页)
2024-09-07 17:17:10.761 - BA BA EE EE BA BA (离家设置信科变量)
2024-09-07 17:17:11.808 - A1 11 11 11 46 (天热离家遮阳)
2024-09-07 17:17:12.029 - 1A 27 89 12 AA 86 86 86 0F (查询寄存器状态, 状态寄存器地址)
2024-09-07 17:17:12.412 - 1A 27 89 12 AA 00 00 00 00 00 00 00 00 00 00 00 01 00 00 00 00 0F (状态寄存器地址)
2024-09-07 17:17:13.033 - 19 08 24 03 DD 00 05 00 01 (调用情景-天热遮阳关帘)
2024-09-07 17:17:13.556 - EE 00 00 B1 00 00 00 FF FC FF FF (情景执行提示)
2024-09-07 17:17:14.151 - 09 06 00 0F 02 01 78 21 (提示音叮)
2024-09-07 17:17:14.698 - A5 00 A2 FF 00 AA (餐厅纱帘关)
2024-09-07 17:17:15.794 - A5 00 A6 FF 00 AA (餐厅窗帘关)
2024-09-07 17:17:15.845 - 55 00 A6 01 00 0E 01 75 AA 55 00 A6 01 00 0E 01 75 AA (餐厅窗帘电机状态返回)
2024-09-07 17:17:16.889 - A5 00 53 FE 01 AA (主卧纱帘关)
2024-09-07 17:17:16.946 - 55 00 53 02 02 22 02 30 AA 55 00 53 02 02 22 02 (主卧纱帘电机状态返回)
2024-09-07 17:17:17.985 - A5 00 52 FF 00 AA (主卧窗帘关)
2024-09-07 17:17:19.082 - A5 00 21 FF 00 AA (次卧纱帘关)
2024-09-07 17:17:19.140 - 55 00 21 01 00 0D 01 34 AA 55 00 21 01 00 0D 01 FE (次卧纱帘电机状态返回)
2024-09-07 17:17:20.208 - A5 00 76 FF 00 AA (次卧窗帘关)
2024-09-07 17:17:20.260 - 55 00 76 01 00 0E 01 1B AA 55 00 76 01 00 0E 01 1B AA (次卧窗帘电机状态返回)
2024-09-07 17:17:21.276 - A5 00 B7 FF 00 AA 22 0D (书房纱帘关)
2024-09-07 17:17:22.323 - A5 00 D2 FF 00 AA 22 0C (书房窗帘关)
2024-09-07 17:17:22.377 - 55 00 D2 01 00 0E 00 F2 AA 55 00 D2 01 00 0E 00 F2 (书房窗帘电机状态返回)
2024-09-07 17:17:23.918 - 1A 22 33 62 5E 00 02 01 0F (正反转地址-厨房卷帘三, 厨房卷帘一降)
2024-09-07 17:17:24.366 - 55 00 A6 00 01 67 01 75 AA 55 00 A6 00 01 67 01 75 AA (餐厅窗帘电机状态返回)
2024-09-07 17:17:24.964 - 1A 22 33 62 56 00 02 01 0F (正反转地址-厨房卷帘二, 厨房卷帘二降)
2024-09-07 17:17:26.011 - 1A 22 33 62 4F 00 00 01 0F (正反转地址-厨房卷帘一, 厨房卷帘三降)
2024-09-07 17:17:26.200 - 55 00 21 00 01 27 01 34 AA 55 00 21 00 01 27 01 34 AA (次卧纱帘电机状态返回)
2024-09-07 17:17:27.045 - 55 00 76 00 01 0E 01 1B AA 55 00 76 00 01 0E 01 1B AA (次卧窗帘电机状态返回)
2024-09-07 17:17:27.067 - 1A BE B0 DC 04 00 02 00 (继电器地址-西阳窗帘, 西阳窗帘关)
2024-09-07 17:17:28.104 - 55 00 53 00 00 0C 02 30 AA 55 00 53 00 00 0C 02 30 AA (主卧纱帘电机状态返回)
2024-09-07 17:17:28.152 - FF FF FF FF 0E 00 02 00 (继电器地址-西阳小窗帘, 西阳小窗帘关)
2024-09-07 17:17:29.198 - 1A BE B0 DC 03 00 03 00 (继电器地址-西阳天幕, 西阳天幕关)
2024-09-07 17:17:29.584 - 55 20 20 00 02 09 02 16 AA 55 20 20 00 02 09 02 16 AA (主卧窗帘电机状态返回)
2024-09-07 17:17:30.211 - 55 00 D2 00 00 E5 00 F2 AA 55 00 D2 00 00 E5 00 F2 AA (书房窗帘电机状态返回)
2024-09-07 17:17:30.245 - 1A BE B0 DC 03 00 03 00 (继电器地址-西阳天幕, 西阳天幕关)
2024-09-07 17:17:31.290 - 09 06 00 0F 02 02 38 20 (提示音咚)
2024-09-07 17:17:31.843 - EE 00 00 B1 00 00 02 FF FC FF FF (情景完成返回主页)
2024-09-07 17:44:46.115 - FF FF FF FF 0E FC (继电器地址-西阳小窗帘)
2024-09-07 17:45:45.916 - 1A BE B0 DC 04 (继电器地址-西阳窗帘)
2024-09-07 17:45:46.052 - FE
2024-09-07 17:45:49.363 - 1A BE B0 DC 02 FE (正反转地址-外卫卷帘)
2024-09-07 17:45:49.499 - FE
2024-09-07 17:45:51.081 - 1A BE B0 DC 09 (继电器地址-客厅窗帘)
2024-09-07 17:45:51.216 - FE
2024-09-07 17:45:53.095 - 1A BE B0 DC 0A (继电器地址-客厅纱帘)
2024-09-07 17:45:53.230 - FE
2024-09-07 17:46:52.377 - 1A BE B0 DC 01 (继电器地址-回水泵点动)
2024-09-07 17:46:52.512 - FF
2024-09-07 17:48:53.510 - 1A BE B0 DC 03 (继电器地址-西阳天幕)
2024-09-07 17:58:16.867 - FF
2024-09-07 17:59:31.194 - FF
2024-09-07 18:08:09.975 - FF FF FF FF 0A FF (继电器地址-东阳窗帘)
2024-09-07 18:08:10.109 - FF
2024-09-07 20:13:07.425 - 1B 03 00 00 00 02 C6 31 (查询室外光线)
2024-09-07 20:13:07.445 - 1B 03 04 00 00 00 00 41 F2 (室外光线返回)
2024-09-07 20:13:08.223 - 1A EC A0 DC 02 00 00 01 0F (自保持开关地址-天花12V供电, 天花12V 供电开)
2024-09-07 20:13:08.788 - 1A AA AA AA 88 (调光器地址-茶吧灯带)
2024-09-07 20:13:08.927 - 1A FF 01 FF FF FF 60 01 FF 60 01 FF 00 00 0F (调光器地址-公共区域统配地址)
2024-09-07 20:13:09.918 - 19 08 24 03 DD 00 0D 00 01 (调用情景-信科调用进门暗)
2024-09-07 20:13:11.960 - 1A FF 01 FF FF FF 60 01 FF 60 01 FF 00 00 0F (调光器地址-公共区域统配地址)
2024-09-07 20:13:14.048 - 1A EC A0 DC 01 00 00 01 0F (自保持开关地址-电视、设备12V供电, 12V 电视供电开)
2024-09-07 20:13:14.595 - 1A EC A0 DC 01 00 00 01 0F (自保持开关地址-电视、设备12V供电, 12V 电视供电开)
2024-09-07 20:13:15.142 - 1A EC A0 DC 04 00 01 01 0F (自保持开关地址-次卧西阳内外卫供电, 内卫外卫开)
2024-09-07 20:13:15.292 - FF
2024-09-07 20:13:15.690 - 1A EC A0 DC 04 00 01 01 0F (自保持开关地址-次卧西阳内外卫供电, 内卫外卫开)
2024-09-07 20:13:20.731 - 1A 27 89 12 AA 00 00 01 0F (状态寄存器地址, 有人状态)
2024-09-07 20:13:21.279 - 1A 27 89 12 AA 00 00 01 0F (状态寄存器地址, 有人状态)
2024-09-07 20:13:21.877 - 1A BE B0 DC 01 00 01 00 (继电器地址-回水泵点动, 回水泵点动)
2024-09-07 20:13:22.426 - 1A FF FF FF 56 00 00 01 0F (人体感应地址-内卫, 打开内卫感应)
2024-09-07 20:13:22.973 - 1A FF FF FF 55 00 00 01 0F (人体感应地址-外卫, 打开外卫感应)
2024-09-07 20:13:23.066 - BC BC
2024-09-07 20:13:23.533 - 1A FF FF FF 57 00 00 01 0F (人体感应地址-厨房, 打开厨房感应)
2024-09-07 20:13:24.119 - 1A FF FF FF 58 00 00 01 0F (人体感应地址-茶吧, 打开茶吧感应)
2024-09-07 20:13:24.172 - BC BC
2024-09-07 20:13:24.715 - 1A BE B0 DC 01 00 01 00 (继电器地址-回水泵点动, 回水泵点动)
2024-09-07 20:13:25.263 - A5 00 B7 FF 00 AA 22 0D (书房纱帘关)
2024-09-07 20:13:25.809 - A5 00 A2 FF 00 AA (餐厅纱帘关)
2024-09-07 20:13:26.362 - 09 06 00 0F 02 01 78 21 (提示音叮)
2024-09-07 20:13:26.909 - 09 06 00 0F 02 01 78 21 (提示音叮)
2024-09-07 20:13:27.185 - 19 08 24 03 CC 01 CC 00 01 (调用茶吧感应灯开的按键)
2024-09-07 20:13:27.235 - 1A AA AA AA 88 FF B0 01 FF B0 01 0F (调光器地址-茶吧灯带, 茶吧灯带明亮)
2024-09-07 20:13:27.637 - EE 00 00 B1 00 00 02 FF FC FF FF (情景完成返回主页)
2024-09-07 20:13:28.250 - A1 11 11 11 50 (天花供电打开确认)
2024-09-07 20:13:28.476 - 1A EC A0 DC 02 86 86 86 0F (查询天花供电状态, 自保持开关地址-天花12V供电)
2024-09-07 20:13:28.908 - 1A EC A0 DC 02 01 01 0F (自保持开关地址-天花12V供电)
2024-09-07 20:13:29.565 - 19 08 24 03 CC 01 54 00 01 (调用内卫感应灯开的按键)
2024-09-07 20:13:29.617 - 1A 0C 02 08 01 FF 45 01 FF 45 01 FF 00 00 0F (调光器地址-内卫射灯, 内卫射灯微光)
2024-09-07 20:13:30.792 - A1 11 11 11 51 (卫生供电打开确认)
2024-09-07 20:13:31.014 - 1A EC A0 DC 04 86 86 86 0F (查询卫生间供电状态, 自保持开关地址-次卧西阳内外卫供电)
2024-09-07 20:13:31.445 - 1A EC A0 DC 04 01 01 0F (自保持开关地址-次卧西阳内外卫供电)
2024-09-07 20:13:33.333 - A1 11 11 11 52 (电视供电打开确认)
2024-09-07 20:13:33.562 - 1A EC A0 DC 01 86 86 86 0F (查询电视供电状态, 自保持开关地址-电视、设备12V供电)
2024-09-07 20:13:33.996 - 1A EC A0 DC 01 01 01 0F (自保持开关地址-电视、设备12V供电)
2024-09-07 20:13:38.367 - A1 11 11 11 47 (天热回家开帘)
2024-09-07 20:13:38.595 - 1A 27 89 12 AA 86 86 86 0F (查询寄存器状态, 状态寄存器地址)
2024-09-07 20:13:38.979 - 1A 27 89 12 AA 01 00 00 00 00 00 00 00 00 00 00 01 00 00 00 00 0F (状态寄存器地址)
2024-09-07 20:13:39.600 - 19 08 24 03 DD 00 06 00 01 (调用情景-天热遮阳开帘)
2024-09-07 20:13:40.167 - EE 00 00 B1 00 00 00 FF FC FF FF (情景执行提示)
2024-09-07 20:13:40.762 - 09 06 00 0F 02 01 78 21 (提示音叮)
2024-09-07 20:13:41.307 - A5 00 A6 FE 01 AA (餐厅窗帘开)
2024-09-07 20:13:41.362 - 55 00 A6 02 01 67 01 75 AA 55 00 A6 02 01 67 01 75 AA (餐厅窗帘电机状态返回)
2024-09-07 20:13:42.405 - A5 00 52 FE 01 AA (主卧窗帘开)
2024-09-07 20:13:43.450 - A5 00 53 FF 00 AA (主卧纱帘开)
2024-09-07 20:13:43.500 - 55 00 53 01 00 0C 02 30 AA 55 00 53 01 00 0C 02 30 AA (主卧纱帘电机状态返回)
2024-09-07 20:13:44.546 - A5 00 76 FE 01 AA (次卧窗帘开)
2024-09-07 20:13:44.598 - 55 00 76 02 01 0E 01 1B AA 55 00 76 02 01 0E 01 1B AA (次卧窗帘电机状态返回)
2024-09-07 20:13:45.644 - A5 00 21 FE 01 AA (次卧纱帘开)
2024-09-07 20:13:45.694 - 55 00 21 02 01 27 01 34 AA 55 00 21 02 01 27 01 34 AA (次卧纱帘电机状态返回)
2024-09-07 20:13:46.742 - 1A BE B0 DC 04 00 01 00 (继电器地址-西阳窗帘, 西阳窗帘开)
2024-09-07 20:13:47.837 - FF FF FF FF 0E 00 01 00 (继电器地址-西阳小窗帘, 西阳小窗帘开)
2024-09-07 20:13:48.963 - A5 00 D2 FE 01 AA 22 0D (书房窗帘开)
2024-09-07 20:13:49.018 - 55 00 D2 02 00 E5 00 F2 AA 55 00 D2 02 00 E5 00 F2 FA (书房窗帘电机状态返回)
2024-09-07 20:13:50.030 - 09 06 00 0F 02 02 38 20 (提示音咚)
2024-09-07 20:13:50.085 - 55 00 A6 00 00 0E 01 75 FA (餐厅窗帘电机状态返回)
2024-09-07 20:13:50.631 - EE 00 00 B1 00 00 02 FF FC FF FF (情景完成返回主页)
2024-09-07 20:13:51.635 - 55 00 76 00 00 0E 01 1B AA 55 00 76 00 00 0E 01 1B AA (次卧窗帘电机状态返回)
2024-09-07 20:13:53.139 - 55 00 21 00 00 0D 01 34 AA 55 00 21 00 00 0D 01 34 AA (次卧纱帘电机状态返回)
2024-09-07 20:13:54.530 - 55 20 20 00 00 0E 02 16 AA 55 20 20 00 00 0E 02 16 AA (主卧窗帘电机状态返回)
2024-09-07 20:13:54.629 - 55 00 53 00 02 22 02 30 AA 55 00 53 00 02 22 02 30 AA (主卧纱帘电机状态返回)
2024-09-07 20:13:56.503 - 55 00 D2 00 00 0E 00 F2 AA 55 00 D2 00 00 0E 00 F2 AA (书房窗帘电机状态返回)
2024-09-07 20:14:10.652 - 19 08 24 03 CC 01 55 00 01 (调用内卫感应灯关的按键)
2024-09-07 20:14:10.706 - 1A 0C 02 08 01 FF 00 01 FF 00 01 FF 00 00 0F (调光器地址-内卫射灯, 内卫感应灯关)
2024-09-07 20:15:23.414 - 19 08 24 03 CC 01 CD 00 01 (调用茶吧感应灯关的按键)
2024-09-07 20:15:23.445 - 1A AA AA AA 88 FF 00 01 FF 00 01 0F (调光器地址-茶吧灯带, 茶吧灯带关闭)
2024-09-07 20:25:19.595 - 1A FF FF FF 04 (继电器地址-东阳衣架)
2024-09-07 20:25:19.732 - FE
2024-09-07 20:59:47.171 - 19 08 24 03 CC 01 CC 00 01 (调用茶吧感应灯开的按键)
2024-09-07 20:59:47.219 - 1A AA AA AA 88 FF B0 01 FF B0 01 0F (调光器地址-茶吧灯带, 茶吧灯带明亮)
2024-09-07 20:59:54.795 - 19 08 24 03 DD 00 42 00 01 (调用情景-主卧电视空调)
2024-09-07 20:59:55.333 - EE 00 00 B1 00 00 00 FF FC FF FF (情景执行提示)
2024-09-07 20:59:55.928 - 09 06 00 0F 02 01 78 21 (提示音叮)
2024-09-07 20:59:56.522 - 50 F0 05 (开主卧影视)
2024-09-07 20:59:57.069 - 50 F0 04 (开内卫影视)
2024-09-07 20:59:57.623 - 1A FF FF FF 56 00 00 00 0F (人体感应地址-内卫, 关闭内卫感应)
2024-09-07 20:59:58.172 - 1A 22 33 62 0F 00 02 01 0F (正反转地址-内卫卷帘, 内卫卷帘降)
2024-09-07 20:59:58.717 - A5 00 53 FE 01 AA (主卧纱帘关)
2024-09-07 20:59:58.773 - 55 00 53 02 02 22 02 30 AA 55 00 53 02 02 22 02 30 AA (主卧纱帘电机状态返回)
2024-09-07 20:59:59.863 - A5 00 52 FF 00 AA (主卧窗帘关)
2024-09-07 21:00:00.918 - 1A 0C 02 04 FF FF 45 01 FF 45 01 FF 00 00 0F (主卧调光微光)
2024-09-07 21:00:05.005 - 1A 0C 02 08 01 FF 45 01 FF 45 01 FF 00 00 0F (调光器地址-内卫射灯, 内卫射灯微光)
2024-09-07 21:00:05.589 - 50 F1 25 (主卧—有线2)
2024-09-07 21:00:06.141 - A1 11 11 11 42 (主卧空调自动开)
2024-09-07 21:00:06.366 - 19 08 24 03 F0 BB 78 02 02 00
2024-09-07 21:00:06.417 - 23 AA 56 02 15 00 07 18 09 07 06 73 65 6F 6B 65 6E 64
2024-09-07 21:00:06.687 - 50 F1 24 (内卫—有线2)
2024-09-07 21:00:07.374 - 01 10 07 D6 00 03 06 70 61 00 02 00 F0 0F 3E (主卧空调冷24度)
2024-09-07 21:00:07.418 - 01 10 07 D6 00 03 06 70 61 00 02 00 F0 0F 3E (主卧空调冷24度)
2024-09-07 21:00:08.733 - AF BF CF DF C2 21 (有线2/快捷-凤凰卫视)
2024-09-07 21:00:09.215 - 19 08 24 03 CC 01 CD 00 01 (调用茶吧感应灯关的按键)
2024-09-07 21:00:09.265 - 1A AA AA AA 88 FF 00 01 FF 00 01 0F (调光器地址-茶吧灯带, 茶吧灯带关闭)
2024-09-07 21:00:09.888 - 55 00 53 00 00 0C 02 30 AA 55 00 53 00 00 0C 02 30 AA (主卧纱帘电机状态返回)
2024-09-07 21:00:10.778 - 1A FF FF FF 60 0B 01 01 0F (红外总线地址-主卧发射设备, 主卧电视电源)
2024-09-07 21:00:11.298 - F0 0B 01 08
2024-09-07 21:00:12.040 - 55 20 20 00 02 09 02 16 AA 55 20 20 00 02 09 02 16 AA (主卧窗帘电机状态返回)
2024-09-07 21:00:18.803 - 09 06 00 0F 02 02 38 20 (提示音咚)
2024-09-07 21:00:19.405 - EE 00 00 B1 00 00 02 FF FC FF FF (情景完成返回主页)
2024-09-07 21:00:35.266 - 19 08 24 03 CC 01 CC 00 01 (调用茶吧感应灯开的按键)
2024-09-07 21:00:35.316 - 1A AA AA AA 88 FF B0 01 FF B0 01 0F (调光器地址-茶吧灯带, 茶吧灯带明亮)
2024-09-07 21:00:47.743 - 19 08 24 03 CC 00 D3 00 01 (调用厨房感应灯开的按键)
2024-09-07 21:00:47.777 - 55 0A 32 00 00 00 01 92 55 0A 32 00 00 00 02 93 (厨房顶灯一开, 厨房顶灯二开)
2024-09-07 21:00:59.821 - 19 08 24 03 CC 01 CD 00 01 (调用茶吧感应灯关的按键)
2024-09-07 21:00:59.851 - 1A AA AA AA 88 FF 00 01 FF 00 01 0F (调光器地址-茶吧灯带, 茶吧灯带关闭)
2024-09-07 21:01:07.334 - 19 08 24 03 CC 01 CC 00 01 (调用茶吧感应灯开的按键)
2024-09-07 21:01:07.365 - 1A AA AA AA 88 FF B0 01 FF B0 01 0F (调光器地址-茶吧灯带, 茶吧灯带明亮)
2024-09-07 21:01:20.862 - 19 08 24 03 CC 01 CD 00 01 (调用茶吧感应灯关的按键)
2024-09-07 21:01:20.891 - 1A AA AA AA 88 FF 00 01 FF 00 01 0F (调光器地址-茶吧灯带, 茶吧灯带关闭)
2024-09-07 21:03:44.644 - 19 08 24 03 CC 01 CC 00 01 (调用茶吧感应灯开的按键)
2024-09-07 21:03:44.675 - 1A AA AA AA 88 FF B0 01 FF B0 01 0F (调光器地址-茶吧灯带, 茶吧灯带明亮)
2024-09-07 21:03:56.669 - 19 08 24 03 CC 01 CD 00 01 (调用茶吧感应灯关的按键)
2024-09-07 21:03:56.700 - 1A AA AA AA 88 FF 00 01 FF 00 01 0F (调光器地址-茶吧灯带, 茶吧灯带关闭)
2024-09-07 21:04:22.665 - 19 08 24 03 CC 00 D4 00 01 (调用厨房感应灯关的按键)
2024-09-07 21:04:22.699 - 55 0A 31 00 00 00 01 91 55 0A 31 00 00 00 02 92 (厨房顶灯一关, 厨房顶灯二关)
2024-09-07 21:05:16.404 - FF FF FF FF 0E FC (继电器地址-西阳小窗帘)
2024-09-07 21:05:16.539 - FF
2024-09-07 21:07:15.581 - 1A BE B0 DC 04 FC (继电器地址-西阳窗帘)
2024-09-07 21:07:15.716 - FF
2024-09-07 21:07:16.497 - 1A BE B0 DC 09 FC (继电器地址-客厅窗帘)
2024-09-07 21:07:16.631 - FF
2024-09-07 21:07:16.892 - 1A BE B0 DC 02 FC (正反转地址-外卫卷帘)
2024-09-07 21:07:17.027 - FF
2024-09-07 21:07:17.088 - 1A BE B0 DC 0A (继电器地址-客厅纱帘)
2024-09-07 21:09:17.470 - 1A BE B0 DC 01 FC (继电器地址-回水泵点动)
2024-09-07 21:09:17.603 - FE
2024-09-07 21:11:17.840 - 1A BE B0 DC 03 FC (继电器地址-西阳天幕)
2024-09-07 21:20:58.598 - 19 08 24 03 CC 01 52 00 01 (调用外卫感应灯开的按键)
2024-09-07 21:20:58.651 - 1A 0D 01 07 01 FF 45 01 FF 45 01 FF 00 00 0F (调光器地址-外卫射灯, 外卫感应灯开)
2024-09-07 21:21:07.628 - 19 08 24 03 DD 00 1B 00 01 (调用情景-外卫使用)
2024-09-07 21:21:08.188 - EE 00 00 B1 00 00 00 FF FC FF FF (情景执行提示)
2024-09-07 21:21:08.784 - 09 06 00 0F 02 01 78 21 (提示音叮)
2024-09-07 21:21:09.332 - 1A BE B0 DC 02 00 01 00 (正反转地址-外卫卷帘, 外卫卷帘降)
2024-09-07 21:21:09.874 - 50 F0 03 (开外卫影视)
2024-09-07 21:21:10.429 - 1A FF FF FF 55 00 00 00 0F (人体感应地址-外卫, 关闭外卫感应)
2024-09-07 21:21:10.983 - 1A 0D 01 07 01 FF 45 01 FF 45 01 FF 00 00 0F (调光器地址-外卫射灯, 外卫感应灯开)
2024-09-07 21:21:13.070 - 1A BE B0 DC 01 00 01 00 (继电器地址-回水泵点动, 回水泵点动)
2024-09-07 21:21:14.116 - 1A BE B0 DC 01 00 01 00 (继电器地址-回水泵点动, 回水泵点动)
2024-09-07 21:21:15.162 - 1A BE B0 DC 01 00 01 00 (继电器地址-回水泵点动, 回水泵点动)
2024-09-07 21:21:16.203 - 50 F1 43 (外卫—CH4)
2024-09-07 21:21:33.203 - A1 11 11 11 11 05 (外卫使用浴霸判断)
2024-09-07 21:21:33.430 - 13 03 00 00 00 02 C7 79 (查询外卫温湿度)
2024-09-07 21:21:33.450 - 13 03 04 01 C1 01 13 D8 6F (外卫温湿度返回)
2024-09-07 21:21:35.247 - 09 06 00 0F 02 02 38 20 (提示音咚)
2024-09-07 21:21:37.294 - EE 00 00 B1 00 00 02 FF FC FF FF (情景完成返回主页)
2024-09-07 21:22:44.903 - 19 08 24 03 CC 01 CC 00 01 (调用茶吧感应灯开的按键)
2024-09-07 21:22:44.953 - 1A AA AA AA 88 FF B0 01 FF B0 01 0F (调光器地址-茶吧灯带, 茶吧灯带明亮)
2024-09-07 21:22:49.339 - 19 08 24 03 CC 00 D3 00 01 (调用厨房感应灯开的按键)
2024-09-07 21:22:49.375 - 55 0A 32 00 00 00 01 92 55 0A 32 00 00 00 02 93 (厨房顶灯一开, 厨房顶灯二开)
2024-09-07 21:23:00.434 - 19 08 24 03 CC 01 CD 00 01 (调用茶吧感应灯关的按键)
2024-09-07 21:23:00.465 - 1A AA AA AA 88 FF 00 01 FF 00 01 0F (调光器地址-茶吧灯带, 茶吧灯带关闭)
2024-09-07 21:23:29.992 - 19 08 24 03 CC 01 CC 00 01 (调用茶吧感应灯开的按键)
2024-09-07 21:23:30.022 - 1A AA AA AA 88 FF B0 01 FF B0 01 0F (调光器地址-茶吧灯带, 茶吧灯带明亮)
2024-09-07 21:23:45.023 - 19 08 24 03 CC 01 CD 00 01 (调用茶吧感应灯关的按键)
2024-09-07 21:23:45.052 - 1A AA AA AA 88 FF 00 01 FF 00 01 0F (调光器地址-茶吧灯带, 茶吧灯带关闭)
2024-09-07 21:24:15.007 - 19 08 24 03 CC 00 D4 00 01 (调用厨房感应灯关的按键)
2024-09-07 21:24:15.043 - 55 0A 31 00 00 00 01 91 55 0A 31 00 00 00 02 92 (厨房顶灯一关, 厨房顶灯二关)
2024-09-07 21:27:32.538 - EE 00 6E B1 01 00 03 FF FC FF FF
2024-09-07 21:27:33.129 - EE 00 6E B1 01 00 08 FF FC FF FF
2024-09-07 21:27:33.612 - 1A BE B0 DC 0A 00 01 00 (继电器地址-客厅纱帘, 客厅纱帘关)
2024-09-07 21:30:17.897 - 19 08 24 03 DD 00 4F 00 01 (调用情景-内卫使用完毕)
2024-09-07 21:30:18.443 - EE 00 00 B1 00 00 00 FF FC FF FF (情景执行提示)
2024-09-07 21:30:19.038 - 09 06 00 0F 02 01 78 21 (提示音叮)
2024-09-07 21:30:19.594 - 1A 0C 02 08 01 FF 00 01 FF 00 01 FF 00 00 0F (调光器地址-内卫射灯, 内卫感应灯关)
2024-09-07 21:30:23.668 - 50 F5 04 (关内卫影视)
2024-09-07 21:30:24.222 - 1A 20 07 01 40 00 01 00 0F (自保持开关地址-内卫顶灯, 内卫顶灯关)
2024-09-07 21:30:24.771 - 1A FF FF FF 56 00 00 01 0F (人体感应地址-内卫, 打开内卫感应)
2024-09-07 21:30:24.852 - BC BC
2024-09-07 21:30:25.161 - 19 08 24 03 CC 01 54 00 01 (调用内卫感应灯开的按键)
2024-09-07 21:30:27.315 - 09 06 00 0F 02 02 38 20 (提示音咚)
2024-09-07 21:30:27.891 - EE 00 00 B1 00 00 02 FF FC FF FF (情景完成返回主页)
2024-09-07 21:30:35.370 - 19 08 24 03 CC 00 C0 00 01
2024-09-07 21:30:35.423 - 1A 0C 02 08 01 FF 45 01 FF 45 01 FF 00 00 0F (调光器地址-内卫射灯, 内卫射灯微光)
2024-09-07 21:32:25.952 - FF FF FF FF 0A (继电器地址-东阳窗帘)
2024-09-07 21:32:26.086 - FF
2024-09-07 21:45:37.161 - 19 08 24 03 DD 00 13 00 01 (调用情景-公共区域关)
2024-09-07 21:45:37.721 - EE 00 00 B1 00 00 00 FF FC FF FF (情景执行提示)
2024-09-07 21:45:38.317 - 09 06 00 0F 02 01 78 21 (提示音叮)
2024-09-07 21:45:38.864 - 55 0B 31 00 00 00 01 92 (厨房风扇只关)
2024-09-07 21:45:39.912 - 01 06 07 D3 FF 60 38 9F (餐厅空调关)
2024-09-07 21:45:39.941 - 01 06 07 D3 FF 60 38 9F (餐厅空调关)
2024-09-07 21:45:41.007 - 01 06 07 D0 FF 60 C8 9F (客厅空调关)
2024-09-07 21:45:41.042 - 01 06 07 D0 FF 60 C8 9F (客厅空调关)
2024-09-07 21:45:45.091 - 50 F5 02 (关厨房影视)
2024-09-07 21:45:45.125 - 19 08 24 03 CC 01 CC 00 01 (调用茶吧感应灯开的按键)
2024-09-07 21:45:45.230 - 1A AA AA AA 88 FF B0 01 FF B0 01 0F (调光器地址-茶吧灯带, 茶吧灯带明亮)
2024-09-07 21:45:46.187 - 50 F5 01 (关餐厅影视)
2024-09-07 21:45:47.284 - 50 F5 08 (关客厅影视)
2024-09-07 21:45:48.331 - 50 F5 03 (关外卫影视)
2024-09-07 21:45:49.383 - 55 0A 31 00 00 00 01 91 (厨房顶灯一关)
2024-09-07 21:45:50.429 - 55 0A 31 00 00 00 02 92 (厨房顶灯二关)
2024-09-07 21:45:51.477 - 55 0C 31 00 00 00 01 93 (餐厅顶灯关)
2024-09-07 21:45:52.523 - 1A 18 05 10 31 00 01 00 0F (自保持开关地址-门厅顶灯, 门厅顶灯关)
2024-09-07 21:45:53.569 - 1A 20 07 00 42 00 01 00 0F (自保持开关地址-外卫顶灯, 外卫顶灯关)
2024-09-07 21:45:54.615 - 1A 18 05 21 89 00 01 00 0F (自保持开关地址-客厅顶灯, 客厅顶灯一关)
2024-09-07 21:45:55.713 - 1A 18 05 01 94 00 01 00 0F (自保持开关地址-客厅顶灯, 客厅顶灯二关)
2024-09-07 21:45:56.759 - 1A 20 07 01 30 00 01 00 0F (自保持开关地址-西阳顶灯, 西阳顶灯关)
2024-09-07 21:45:57.811 - 1A FF 01 FF FF FF 00 01 FF 00 01 FF 00 00 0F (调光器地址-公共区域统配地址, 公共区域灯光全关)
2024-09-07 21:45:58.900 - 09 06 00 0F 02 02 38 20 (提示音咚)
2024-09-07 21:46:00.656 - 19 08 24 03 CC 01 CD 00 01 (调用茶吧感应灯关的按键)
2024-09-07 21:46:00.687 - 1A AA AA AA 88 FF 00 01 FF 00 01 0F (调光器地址-茶吧灯带, 茶吧灯带关闭)
2024-09-07 21:46:01.091 - EE 00 00 B1 00 00 02 FF FC FF FF (情景完成返回主页)
2024-09-07 21:47:34.125 - 19 08 24 03 DD 00 3B 00 01 (调用情景-书房照明关帘)
2024-09-07 21:47:34.629 - EE 00 00 B1 00 00 00 FF FC FF FF (情景执行提示)
2024-09-07 21:47:35.224 - 09 06 00 0F 02 01 78 21 (提示音叮)
2024-09-07 21:47:35.780 - 1A 0A 04 06 01 FF F0 01 FF F0 01 FF 00 00 0F (调光器地址-书房射灯, 书房射灯明亮)
2024-09-07 21:47:39.860 - A5 00 B7 FF 00 AA 22 0D (书房纱帘关)
2024-09-07 21:47:40.905 - A5 00 D2 FF 00 AA 22 0C (书房窗帘关)
2024-09-07 21:47:40.955 - 55 00 D2 01 00 0E 00 F2 AA 55 00 D2 01 00 0E 00 F2 AA (书房窗帘电机状态返回)
2024-09-07 21:47:42.002 - 09 06 00 0F 02 02 38 20 (提示音咚)
2024-09-07 21:47:42.553 - EE 00 00 B1 00 00 02 FF FC FF FF (情景完成返回主页)
2024-09-07 21:47:48.930 - 55 00 D2 00 00 E5 00 F2 AA 55 00 D2 00 00 E5 00 F2 AA (书房窗帘电机状态返回)
2024-09-07 21:59:54.058 - 19 08 24 03 DD 00 12 00 01 (调用情景-公共灯光开)
2024-09-07 21:59:54.613 - EE 00 00 B1 00 00 00 FF FC FF FF (情景执行提示)
2024-09-07 21:59:55.209 - 09 06 00 0F 02 01 78 21 (提示音叮)
2024-09-07 21:59:55.763 - 1A 0D 01 01 01 FF 55 01 FF 55 01 FF 00 00 0F (调光器地址-客厅筒灯, 客厅筒灯微光)
2024-09-07 21:59:56.362 - 1A 0D 01 01 03 FF 55 01 FF 55 01 FF 00 00 0F (调光器地址-客厅过道, 客厅过道微光)
2024-09-07 21:59:56.959 - 1A 0D 01 01 02 FF 55 01 FF 55 01 FF 00 00 0F (调光器地址-客厅灯带, 客厅灯带微光)
2024-09-07 21:59:57.558 - 1A 0B 01 02 02 FF 45 01 FF 45 01 FF 00 00 0F (调光器地址-门厅射灯, 门厅背景微光)
2024-09-07 21:59:58.156 - 1A 0B 01 02 01 FF 45 01 FF 45 01 FF 00 00 0F (调光器地址-门厅灯带, 门厅灯带微光)
2024-09-07 21:59:58.804 - 1A 0B 01 03 01 FF 45 01 FF 45 01 FF 00 00 0F (调光器地址-餐厅筒灯, 餐厅筒灯微光)
2024-09-07 21:59:59.401 - 1A 0B 01 03 02 FF 45 01 FF 45 01 FF 00 00 0F (调光器地址-餐桌筒灯, 餐桌筒灯微光)
2024-09-07 21:59:59.998 - 1A 0B 01 03 03 FF 45 01 FF 45 01 FF 00 00 0F (调光器地址-餐厅灯带, 餐厅灯带微光)
2024-09-07 22:00:00.589 - 55 0A 32 00 00 00 01 92 (厨房顶灯一开)
2024-09-07 22:00:01.137 - 55 0A 32 00 00 00 02 93 (厨房顶灯二开)
2024-09-07 22:00:01.687 - 09 06 00 0F 02 02 38 20 (提示音咚)
2024-09-07 22:00:02.238 - EE 00 00 B1 00 00 02 FF FC FF FF (情景完成返回主页)
2024-09-07 22:10:33.258 - 47 45 54 20 2F 20 48 54 54 50 2F 31 2E 31 0D 0A 55 73 65 72 2D 41 67 65 6E 74 3A 20 63 75 72 6C
2024-09-07 22:10:33.292 - 2F 37 2E 32 39 2E 30 0D 0A 48 6F 73 74 3A 20 31 31 35 2E 32 33 39 2E 32 33 33 2E 31 34 32 0D 0A
2024-09-07 22:10:33.308 - 41 63 63 65 70 74 3A 20 2A 2F 2A 0D 0A 0D 0A
2024-09-07 22:10:42.281 - 0D 0A 0D 0A
2024-09-07 22:10:51.410 - 16 03 03 00 AC 01 00 00 A8 03 03 65 82 9E AD 47 11 CD E1 5D CF C7 DE C2 FA AA 01 BD 9E 90 05 08 (区域高光指令（AD+区域+暖光+冷光+AE）)
2024-09-07 22:10:51.444 - 57 40 FF F3 D5 C6 1D 1D FF 10 0D 00 00 2A C0 2C C0 2B C0 30 C0 2F 00 9F 00 9E C0 24 C0 23 C0 28
2024-09-07 22:10:51.478 - C0 27 C0 0A C0 09 C0 14 C0 13 00 9D 00 9C 00 3D 00 3C 00 35 00 2F 00 0A 01 00 00 55 00 05 00 05
2024-09-07 22:10:51.511 - 01 00 00 00 00 00 0A 00 08 00 06 00 1D 00 17 00 18 00 0B 00 02 01 00 00 0D 00 1A 00 18 08 04 08
2024-09-07 22:10:51.545 - 05 08 06 04 01 05 01 02 01 04 03 05 03 02 03 02 02 06 01 06 03 00 23 00 00 00 10 00 0B 00 09 08
2024-09-07 22:10:51.563 - 68 74 74 70 2F 31 2E 31 00 17 00 00 FF 01 00 01 00
2024-09-07 22:11:00.465 - 16 03 01 00 EE 01 00 00 EA 03 03 10 B8 00 3B AE 60 99 89 A8 58 6C 46 EA 39 3E 23 27 1F FC 83 D3
2024-09-07 22:11:00.497 - 0F 1F E2 D1 DE FC 37 CA E4 8B F9 20 45 A9 52 C9 B4 58 F9 8C 18 5F 42 6B 3F 54 7C 08 7F C2 D3 A6
2024-09-07 22:11:00.532 - B0 D0 3A 15 2B 38 0D 0D 1E D1 3E 86 00 26 C0 2F C0 30 C0 2B C0 2C CC A8 CC A9 C0 13 C0 09 C0 14
2024-09-07 22:11:00.564 - C0 0A 00 9C 00 9D 00 2F 00 35 C0 12 00 0A 13 01 13 03 13 02 01 00 00 7B 00 05 00 05 01 00 00 00
2024-09-07 22:11:00.596 - 00 00 0A 00 0A 00 08 00 1D 00 17 00 18 00 19 00 0B 00 02 01 00 00 0D 00 1A 00 18 08 04 04 03 08
2024-09-07 22:11:00.630 - 07 08 05 08 06 04 01 05 01 06 01 05 03 06 03 02 01 02 03 FF 01 00 01 00 00 12 00 00 00 2B 00 09
2024-09-07 22:11:00.663 - 08 03 04 03 03 03 02 03 01 00 33 00 26 00 24 00 1D 00 20 3E 73 A2 CE 4F 1B 50 F8 78 23 F6 11 6C
2024-09-07 22:11:00.685 - 26 ED C1 F4 71 A0 F2 3D 91 4F 39 86 2C EA 03 44 43 9F 34
2024-09-07 22:11:09.507 - 4F 50 54 49 4F 4E 53 20 2F 20 48 54 54 50 2F 31 2E 30 0D 0A 0D 0A
2024-09-07 22:11:18.582 - 4F 50 54 49 4F 4E 53 20 2F 20 52 54 53 50 2F 31 2E 30 0D 0A 0D 0A
2024-09-07 22:11:27.661 - 80 00 00 28 72 FE 1D 13 00 00 00 00 00 00 00 02 00 01 86 A0 00 01 97 7C 00 00 00 00 00 00 00 00
2024-09-07 22:11:27.675 - 00 00 00 00 00 00 00 00 00 00 00 00
2024-09-07 22:11:36.713 - 50 52 49 20 2A 20 48 54 54 50 2F 32 2E 30 0D 0A 0D 0A 53 4D 0D 0A 0D 0A 00 00 00 04 00 00 00 00
2024-09-07 22:11:36.716 - 00
2024-09-07 22:11:45.775 - 00 1E 00 06 01 00 00 01 00 00 00 00 00 00 07 76 65 72 73 69 6F 6E 04 62 69 6E 64 00 00 10 00 03
2024-09-07 22:11:54.881 - 00 2A 28 FF 01 20 00 01 00 00 00 00 00 01 03 77 77 77 05 62 61 69 64 75 03 63 6F 6D 00 00 01 00
2024-09-07 22:11:54.895 - 01 00 00 29 10 00 00 00 00 00 00 00
2024-09-07 22:12:03.917 - 00 0C 00 00 10 00 00 00 00 00 00 00 00 00
2024-09-07 22:12:12.964 - 41 4D 51 50 00 00 09 01
2024-09-07 22:12:22.032 - 01 01 00 00 00 00
2024-09-07 22:12:31.119 - 74 33 20 31 32 2E 31 2E 32 0A 41 53 3A 32 30 34 38 0A 48 4C 3A 31 39 0A 0A
2024-09-07 22:12:40.180 - 48 45 4C 50 0D 0A
2024-09-07 22:12:52.270 - 16 03 00 00 53 01 00 00 4F 03 00 3F 47 D7 F7 BA 2C EE EA B2 60 7E F3 00 FD 82 7B B9 D5 96 C8 77
2024-09-07 22:12:52.303 - 9B E6 C4 DB 3C 3D DB 6F EF 10 6E 00 00 28 00 16 00 13 00 0A 00 66 00 05 00 04 00 65 00 64 00 63
2024-09-07 22:12:52.330 - 00 62 00 61 00 60 00 15 00 12 00 09 00 14 00 11 00 08 00 06 00 03 01 00
2024-09-07 22:13:01.349 - 03 00 00 2A 25 E0 00 00 00 00 00 43 6F 6F 6B 69 65 3A 20 6D 73 74 73 68 61 73 68 3D 6E 6D 61 70
2024-09-07 22:13:01.361 - 0D 0A 01 00 08 00 03 00 00 00
2024-09-07 22:13:10.399 - 03 00 00 13 0E E0 00 00 00 00 00 01 00 08 00 00 00 00 00
2024-09-07 22:13:19.502 - 16 03 00 00 69 01 00 00 65 03 03 55 1C A7 E4 72 61 6E 64 6F 6D 31 72 61 6E 64 6F 6D 32 72 61 6E
2024-09-07 22:13:19.535 - 64 6F 6D 33 72 61 6E 64 6F 6D 34 00 00 0C 00 2F 00 0A 00 13 00 39 00 04 00 FF 01 00 00 30 00 0D
2024-09-07 22:13:19.569 - 00 2C 00 2A 00 01 00 03 00 02 06 01 06 03 06 02 02 01 02 03 02 02 03 01 03 03 03 02 04 01 04 03
2024-09-07 22:13:19.585 - 04 02 01 01 01 03 01 02 05 01 05 03 05 02
2024-09-07 22:13:28.577 - 00 00 00 71 6A 81 6E 30 81 6B A1 03 02 01 05 A2 03 02 01 0A A4 81 5E 30 5C A0 07 03 05 00 50 80
2024-09-07 22:13:28.610 - 00 10 A2 04 1B 02 4E 4D A3 17 30 15 A0 03 02 01 00 A1 0E 30 0C 1B 06 6B 72 62 74 67 74 1B 02 4E
2024-09-07 22:13:28.644 - 4D A5 11 18 0F 31 39 37 30 30 31 30 31 30 30 30 30 30 30 5A A7 06 02 04 1F 1E B9 D9 A8 17 30 15
2024-09-07 22:13:28.667 - 02 01 12 02 01 11 02 01 10 02 01 17 02 01 01 02 01 03 02 01 02
2024-09-07 22:13:37.637 - 00 00 00 B4 FE 53 4D 42 40 00 00 00 00 00 00 00 00 00 00 00 00 00 00 00 00 00 00 00 00 00 00 00
2024-09-07 22:13:37.671 - 00 00 00 00 00 00 00 00 00 00 00 00 00 00 00 00 00 00 00 00 31 32 33 34 35 36 37 38 39 30 31 32
2024-09-07 22:13:37.704 - 33 34 35 36 24 00 05 00 01 00 00 00 00 00 00 00 31 32 33 34 35 36 37 38 39 30 31 32 33 34 35 36
2024-09-07 22:13:37.738 - 70 00 00 00 02 00 00 00 02 02 10 02 00 03 02 03 11 03 00 00 02 00 06 00 00 00 00 00 02 00 02 00
2024-09-07 22:13:37.771 - 01 00 00 00 01 00 2C 00 00 00 00 00 02 00 02 00 01 00 01 00 20 00 01 00 00 00 00 00 00 00 00 00
2024-09-07 22:13:37.797 - 00 00 00 00 00 00 00 00 01 00 00 00 00 00 00 00 00 00 00 00 00 00 00 00
2024-09-07 22:13:46.700 - 00 00 00 A4 FF 53 4D 42 72 00 00 00 00 08 01 40 00 00 00 00 00 00 00 00 00 00 00 00 00 00 40 06
2024-09-07 22:13:46.734 - 00 00 01 00 00 81 00 02 50 43 20 4E 45 54 57 4F 52 4B 20 50 52 4F 47 52 41 4D 20 31 2E 30 00 02
2024-09-07 22:13:46.769 - 4D 49 43 52 4F 53 4F 46 54 20 4E 45 54 57 4F 52 4B 53 20 31 2E 30 33 00 02 4D 49 43 52 4F 53 4F
2024-09-07 22:13:46.799 - 46 54 20 4E 45 54 57 4F 52 4B 53 20 33 2E 30 00 02 4C 41 4E 4D 41 4E 31 2E 30 00 02 4C 4D 31 2E
2024-09-07 22:13:46.834 - 32 58 30 30 32 00 02 53 61 6D 62 61 00 02 4E 54 20 4C 41 4E 4D 41 4E 20 31 2E 30 00 02 4E 54 20
2024-09-07 22:13:46.844 - 4C 4D 20 30 2E 31 32 00
2024-09-07 22:13:55.742 - 6C 00 0B 00 00 00 00 00 00 00 00 00
2024-09-07 22:14:04.813 - 47 45 54 20 2F 6E 69 63 65 25 32 30 70 6F 72 74 73 25 32 43 2F 54 72 69 25 36 45 69 74 79 2E 74
2024-09-07 22:14:04.837 - 78 74 25 32 65 62 61 6B 20 48 54 54 50 2F 31 2E 30 0D 0A 0D 0A
2024-09-07 22:14:13.879 - 01 64 65 66 61 75 6C 74 0A
2024-09-07 22:14:23.005 - F9 BE B4 D9 76 65 72 73 69 6F 6E 00 00 00 00 00 66 00 00 00 47 48 C3 13 7F 11 01 00 0D 00 00 00
2024-09-07 22:14:23.038 - 00 00 00 00 06 09 3D 5A 00 00 00 00 09 00 00 00 00 00 00 00 00 00 00 00 00 00 00 00 00 00 FF FF
2024-09-07 22:14:23.072 - 59 4B 49 0B 20 8D 0D 00 00 00 00 00 00 00 00 00 00 00 00 00 00 00 00 00 00 00 00 00 00 00 00 00
2024-09-07 22:14:23.105 - 7F C4 A3 41 FC 04 E7 E4 10 2F 53 61 74 6F 73 68 69 3A 30 2E 31 35 2E 31 2F 00 00 00 00 01
2024-09-07 22:14:32.080 - 30 84 00 00 00 2D 02 01 07 63 84 00 00 00 24 04 00 0A 01 00 0A 01 00 02 01 00 02 01 64 01 01 00
2024-09-07 22:14:32.101 - 87 0B 6F 62 6A 65 63 74 43 6C 61 73 73 30 84 00 00 00 00
2024-09-07 22:14:41.148 - 30 0C 02 01 01 60 07 02 01 02 04 00 80 00
2024-09-07 22:14:50.257 - 4F 50 54 49 4F 4E 53 20 73 69 70 3A 6E 6D 20 53 49 50 2F 32 2E 30 0D 0A 56 69 61 3A 20 53 49 50
2024-09-07 22:14:50.290 - 2F 32 2E 30 2F 54 43 50 20 6E 6D 3B 62 72 61 6E 63 68 3D 66 6F 6F 0D 0A 46 72 6F 6D 3A 20 3C 73
2024-09-07 22:14:50.324 - 69 70 3A 6E 6D 40 6E 6D 3E 3B 74 61 67 3D 72 6F 6F 74 0D 0A 54 6F 3A 20 3C 73 69 70 3A 6E 6D 32
2024-09-07 22:14:50.357 - 40 6E 6D 32 3E 0D 0A 43 61 6C 6C 2D 49 44 3A 20 35 30 30 30 30 0D 0A 43 53 65 71 3A 20 34 32 20
2024-09-07 22:14:50.391 - 4F 50 54 49 4F 4E 53 0D 0A 4D 61 78 2D 46 6F 72 77 61 72 64 73 3A 20 37 30 0D 0A 43 6F 6E 74 65
2024-09-07 22:14:50.424 - 6E 74 2D 4C 65 6E 67 74 68 3A 20 30 0D 0A 43 6F 6E 74 61 63 74 3A 20 3C 73 69 70 3A 6E 6D 40 6E
2024-09-07 22:14:50.458 - 6D 3E 0D 0A 41 63 63 65 70 74 3A 20 61 70 70 6C 69 63 61 74 69 6F 6E 2F 73 64 70 0D 0A 0D 0A
2024-09-07 22:15:02.333 - 49 4E 56 49 54 45 53 20 73 69 70 3A 6E 6D 20 53 49 50 2F 32 2E 30 0D 0A 56 69 61 3A 20 53 49 50
2024-09-07 22:15:02.366 - 2F 32 2E 30 2F 54 43 50 20 6E 6D 3B 62 72 61 6E 63 68 3D 66 6F 6F 0D 0A 46 72 6F 6D 3A 20 3C 73
2024-09-07 22:15:02.399 - 69 70 3A 6E 6D 40 6E 6D 3E 3B 74 61 67 3D 72 6F 6F 74 0D 0A 54 6F 3A 20 3C 73 69 70 3A 6E 6D 32
2024-09-07 22:15:02.432 - 40 6E 6D 32 3E 0D 0A 43 61 6C 6C 2D 49 44 3A 20 35 30 30 30 30 0D 0A 43 53 65 71 3A 20 34 32 20
2024-09-07 22:15:02.466 - 4F 50 54 49 4F 4E 53 0D 0A 4D 61 78 2D 46 6F 72 77 61 72 64 73 3A 20 37 30 0D 0A 43 6F 6E 74 65
2024-09-07 22:15:02.501 - 6E 74 2D 4C 65 6E 67 74 68 3A 20 30 0D 0A 43 6F 6E 74 61 63 74 3A 20 3C 73 69 70 3A 6E 6D 40 6E
2024-09-07 22:15:02.533 - 6D 3E 0D 0A 41 63 63 65 70 74 3A 20 61 70 70 6C 69 63 61 74 69 6F 6E 2F 73 64 70 0D 0A 0D 0A
2024-09-07 22:15:14.413 - 54 4E 4D 50 04 00 00 00 54 4E 4D 45 00 00 04 00
2024-09-07 22:15:23.477 - 03 00 00 0B 06 E0 00 00 00 00 00
2024-09-07 22:15:32.560 - 06 83 A4 4A 6F 69 6E C3 A5 4E 6F 64 65 73 01 AC 55 73 65 72 53 74 61 74 65 4C 65 6E 00 87 A4 41
2024-09-07 22:15:32.594 - 64 64 72 B0 00 00 00 00 00 00 00 00 00 00 FF FF C0 A8 38 01 AB 49 6E 63 61 72 6E 61 74 69 6F 6E
2024-09-07 22:15:32.627 - 01 A4 4D 65 74 61 C0 A4 4E 61 6D 65 AF 44 45 53 4B 54 4F 50 2D 4E 52 38 54 54 56 52 A4 50 6F 72
2024-09-07 22:15:32.651 - 74 CD 1F 0A A5 53 74 61 74 65 00 A3 56 73 6E A6 01 05 02 00 00 00
2024-09-07 22:15:41.629 - 12 02 69 6E 64 65 78 00 00 00 00 00 00 00 00 80 00 00 00 00
2024-09-07 22:15:50.724 - 3C 3F 78 6D 6C 20 76 65 72 73 69 6F 6E 3D 27 31 2E 30 27 3F 3E 3C 73 74 72 65 61 6D 3A 73 74 72
2024-09-07 22:15:50.758 - 65 61 6D 20 78 6D 6C 6E 73 3A 73 74 72 65 61 6D 3D 27 68 74 74 70 3A 2F 2F 65 74 68 65 72 78 2E
2024-09-07 22:15:50.791 - 6A 61 62 62 65 72 2E 6F 72 67 2F 73 74 72 65 61 6D 73 27 20 78 6D 6C 6E 73 3D 27 6A 61 62 62 65
2024-09-07 22:15:50.825 - 72 3A 63 6C 69 65 6E 74 27 20 78 6D 6C 3A 6C 61 6E 67 3D 27 72 75 2D 52 55 27 20 74 6F 3D 27 2E
2024-09-07 22:15:50.843 - 27 20 76 65 72 73 69 6F 6E 3D 27 31 2E 30 27 3E
2024-09-07 22:15:59.780 - 00 9C 00 01 1A 2B 3C 4D 00 01 00 00 01 00 00 00 00 00 00 01 00 00 00 01 FF FF 00 01 6E 6F 6E 65
2024-09-07 22:15:59.814 - 00 00 00 00 00 00 00 00 00 00 00 00 00 00 00 00 00 00 00 00 00 00 00 00 00 00 00 00 00 00 00 00
2024-09-07 22:15:59.846 - 00 00 00 00 00 00 00 00 00 00 00 00 00 00 00 00 00 00 00 00 00 00 00 00 00 00 00 00 70 70 61 70
2024-09-07 22:15:59.880 - 00 00 00 00 00 00 00 00 00 00 00 00 00 00 00 00 00 00 00 00 00 00 00 00 00 00 00 00 00 00 00 00
2024-09-07 22:15:59.912 - 00 00 00 00 00 00 00 00 00 00 00 00 00 00 00 00 00 00 00 00 00 00 00 00 00 00 00 00
2024-09-07 22:16:08.855 - 81 78 17 01 23 00 00 00 2E CA 3D 08 BA BA BD 24 00 D6 27 FF F5 DD F9 F1 89 B7 F3 B8 17 A8 F7 57
2024-09-07 22:16:08.868 - 1D 45 05 24 65 A5 56 C7 3E 5C DC
2024-09-07 22:16:17.918 - 23 00 00 00 12 21 10 03 1A 06 3A 36 32 37 31 30 2A 0D 66 64 31 33 35 67 65 40 26 79 74 5F 30 32
2024-09-07 22:16:17.927 - 06 31 32 33 34 35 36
2024-09-07 22:16:26.993 - 00 00 00 0A 00 12 00 00 7F FF FF F8 00 00
2024-09-07 22:16:36.092 - 7B 22 69 64 22 3A 31 2C 22 6A 73 6F 6E 72 70 63 22 3A 22 32 2E 30 22 2C 22 6D 65 74 68 6F 64 22
2024-09-07 22:16:36.126 - 3A 22 6C 6F 67 69 6E 22 2C 22 70 61 72 61 6D 73 22 3A 7B 22 6C 6F 67 69 6E 22 3A 22 59 4F 55 52
2024-09-07 22:16:36.158 - 5F 57 41 4C 4C 45 54 5F 41 44 44 52 45 53 53 22 2C 22 70 61 73 73 22 3A 22 78 22 2C 22 61 67 65
2024-09-07 22:16:36.192 - 6E 74 22 3A 22 58 4D 52 69 67 2F 36 2E 32 30 2E 30 2D 43 33 50 6F 6F 6C 22 2C 22 61 6C 67 6F 22
2024-09-07 22:16:36.226 - 3A 5B 22 63 6E 2F 31 22 5D 2C 22 61 6C 67 6F 2D 70 65 72 66 22 3A 7B 22 63 6E 2F 31 22 3A 36 33
2024-09-07 22:16:36.247 - 2E 33 32 30 33 38 32 32 33 32 34 38 39 37 36 7D 7D 7D 0A
2024-09-07 22:16:53.145 - 45 58 41 4D 50 4C 45 2E 43 4F 4D 0D 0A
2024-09-07 22:17:02.248 - A0 05 00 60 00 00 00 00 00 00 00 00 00 00 00 00 00 00 00 00 00 00 00 00 05 02 00 01 00 00 A1 AA
2024-09-07 22:17:11.344 - F1 F5 EA F5 00 00 5D 00 00 00 00 00 00 00 00 00 49 00 00 00 32 32 33 2E 37 35 2E 31 32 33 2E 37
2024-09-07 22:17:11.378 - 31 09 49 50 09 55 53 45 52 09 4C 4F 47 4F 4E 09 51 57 52 74 61 57 34 3D 09 51 57 52 74 61 57 34
2024-09-07 22:17:11.409 - 3D 09 09 36 35 35 33 36 09 55 54 46 2D 38 09 38 30 35 33 30 36 33 36 37 09 31 0A 0A 0A
2024-09-07 22:17:18.959 - 19 08 24 03 DD 00 3A 00 01 (调用情景-离开书房)
2024-09-07 22:17:19.518 - EE 00 00 B1 00 00 00 FF FC FF FF (情景执行提示)
2024-09-07 22:17:20.113 - 09 06 00 0F 02 01 78 21 (提示音叮)
2024-09-07 22:17:20.405 - 00 00 00 19 61 0A 07 34 2E 36 2E 32 2E 33 10 06 22 09 38 37 39 38 33 30 36 36 38 30 01
2024-09-07 22:17:20.661 - 01 06 07 DC FF 60 08 9C (书房空调关)
2024-09-07 22:17:20.694 - 01 06 07 DC FF 60 08 9C (书房空调关)
2024-09-07 22:17:21.254 - 50 F5 07 (关书房影视)
2024-09-07 22:17:21.858 - A5 00 D2 FE 01 AA 22 0D (书房窗帘开)
2024-09-07 22:17:21.911 - 55 00 D2 02 00 E5 00 F2 AA 55 00 D2 02 00 E5 00 F2 AA (书房窗帘电机状态返回)
2024-09-07 22:17:22.093 - 19 08 24 03 CC 01 CC 00 01 (调用茶吧感应灯开的按键)
2024-09-07 22:17:22.142 - 1A AA AA AA 88 FF B0 01 FF B0 01 0F (调光器地址-茶吧灯带, 茶吧灯带明亮)
2024-09-07 22:17:22.955 - A5 00 B7 FF 00 AA 22 0D (书房纱帘关)
2024-09-07 22:17:23.310 - 32 57 00 00 00 01 32 43 00 00 00 77 78 5E 00 6A 00 95 FF 32 4A 00 00 00 01 00 00 00 60 7B 22 40
2024-09-07 22:17:23.342 - 74 69 6D 65 73 74 61 6D 70 22 3A 22 32 30 32 33 2D 31 31 2D 31 30 54 31 36 3A 33 31 3A 31 39 2E
2024-09-07 22:17:23.376 - 33 35 34 39 36 33 34 2B 30 38 3A 30 30 22 2C 22 6D 65 73 73 61 67 65 22 3A 22 74 22 2C 22 6F 66
2024-09-07 22:17:23.411 - 66 73 65 74 22 3A 31 30 30 30 2C 22 74 79 70 65 22 3A 22 66 69 6C 65 62 65 61 74 22 7D 03 00 36
2024-09-07 22:17:23.414 - 8A 1B 7F
2024-09-07 22:17:23.999 - 55 0D 31 00 00 00 01 94 (书房顶灯只关)
2024-09-07 22:17:25.054 - 1A 0A 04 06 01 FF 00 01 FF 00 01 FF 00 00 0F (调光器地址-书房射灯, 书房射灯关闭)
2024-09-07 22:17:26.767 - 00 00 00 6D 00 00 00 69 7B 22 63 6F 64 65 22 3A 31 30 35 2C 22 6C 61 6E 67 75 61 67 65 22 3A 22
2024-09-07 22:17:26.799 - 47 4F 22 2C 22 76 65 72 73 69 6F 6E 22 3A 33 31 37 2C 22 6F 70 61 71 75 65 22 3A 32 2C 22 66 6C
2024-09-07 22:17:26.833 - 61 67 22 3A 30 2C 22 72 65 6D 61 72 6B 22 3A 22 22 2C 22 65 78 74 46 69 65 6C 64 73 22 3A 7B 22
2024-09-07 22:17:26.852 - 74 6F 70 69 63 22 3A 22 54 42 57 31 30 32 22 7D 7D
2024-09-07 22:17:28.837 - 55 00 D2 00 00 0E 00 F2 AA 55 00 D2 00 00 0E 00 F2 AA (书房窗帘电机状态返回)
2024-09-07 22:17:29.132 - 09 06 00 0F 02 02 38 20 (提示音咚)
2024-09-07 22:17:29.733 - EE 00 00 B1 00 00 02 FF FC FF FF (情景完成返回主页)
2024-09-07 22:17:31.494 - 48 45 4C 46 3B 00 00 00 00 00 00 00 FF FF FF 7F FF FF FF 7F 00 00 00 00 00 00 00 00 1B 00 00 00
2024-09-07 22:17:31.525 - 6F 70 63 2E 74 63 70 3A 2F 2F 38 35 2E 32 31 34 2E 31 32 36 2E 33 3A 34 38 34 30
2024-09-07 22:17:40.550 - 00 01 00 01 00 00 00 01 00 00 00 00
2024-09-07 22:17:49.642 - 29 00 00 00 00 00 00 00 7B 22 54 79 70 65 22 3A 22 41 75 74 68 22 2C 22 50 61 79 6C 6F 61 64 22
2024-09-07 22:17:49.661 - 3A 7B 22 56 65 72 73 69 6F 6E 22 3A 22 32 22 7D 7D
2024-09-07 22:17:52.686 - 19 08 24 03 CC 00 D3 00 01 (调用厨房感应灯开的按键)
2024-09-07 22:17:52.741 - 55 0A 32 00 00 00 01 92 55 0A 32 00 00 00 02 93 (厨房顶灯一开, 厨房顶灯二开)
2024-09-07 22:17:55.330 - 00 00 00 06 00 00 00 30 2E 32 36 2E 30 07 00 00 00 30 2E 32 36 2E 31 30 32 30 32 63 62 39 36 32
2024-09-07 22:17:55.357 - 61 63 35 39 30 37 35 62 39 36 34 62 30 37 31 35 32 64 32 33 34 62 37 30
2024-09-07 22:18:04.358 - 86 74 00 00 00 05 00 2B 0E 01 00
2024-09-07 22:18:13.449 - 03 00 00 16 11 E0 00 00 00 14 00 C1 02 01 00 C2 02 01 02 C0 01 0A
2024-09-07 22:18:22.540 - 44 6D 64 54 00 00 00 17 00 00 00 01 00 00 00 00 11 11 00 FF 01 FF 13
2024-09-07 22:18:31.601 - 3A 00 00 00 2F 00 00 00 02 00 00 40 02 0F 00 01 00 3D 05 00 00 00 00 00 00 00 00 00 00 00 00 2F
2024-09-07 22:18:31.632 - 00 00 00 00 00 00 00 00 00 40 1F 00 00 00 00 00 00 00 00 00 00 00 00 00 00 00 00 00
2024-09-07 22:18:40.646 - 4A 52 4D 49 00 02 4B
2024-09-07 22:18:42.283 - 19 08 24 03 CC 00 D4 00 01 (调用厨房感应灯关的按键)
2024-09-07 22:18:42.356 - 55 0A 31 00 00 00 01 91 55 0A 31 00 00 00 02 92 (厨房顶灯一关, 厨房顶灯二关)
2024-09-07 22:18:44.936 - 01 00 00 FD CE FA 0B B0 A0 00 00 00 4D 4D 53 14 00 00 00 00 00 00 00 00 00 00 00 00 00 00 00 12
2024-09-07 22:18:44.967 - 00 00 00 01 00 03 00 F0 F0 F0 F0 0B 00 04 00 1C 00 03 00 4E 00 53 00 50 00 6C 00 61 00 79 00 65
2024-09-07 22:18:45.002 - 00 72 00 2F 00 39 00 2E 00 30 00 2E 00 30 00 2E 00 32 00 39 00 38 00 30 00 3B 00 20 00 7B 00 30
2024-09-07 22:18:45.034 - 00 30 00 30 00 30 00 41 00 41 00 30 00 30 00 2D 00 30 00 41 00 30 00 30 00 2D 00 30 00 30 00 61
2024-09-07 22:18:45.069 - 00 30 00 2D 00 41 00 41 00 30 00 41 00 2D 00 30 00 30 00 30 00 30 00 41 00 30 00 41 00 41 00 30
2024-09-07 22:18:45.086 - 00 41 00 41 00 30 00 7D 00 00 00 E0 6D DF 5F
2024-09-07 22:18:51.801 - 19 08 24 03 CC 00 D3 00 01 (调用厨房感应灯开的按键)
2024-09-07 22:18:51.856 - 55 0A 32 00 00 00 01 92 55 0A 32 00 00 00 02 93 (厨房顶灯一开, 厨房顶灯二开)
2024-09-07 22:18:54.456 - 00 5A 00 00 01 00 00 00 01 36 01 2C 00 00 08 00 7F FF 7F 08 00 00 00 01 00 20 00 3A 00 00 00 00
2024-09-07 22:18:54.488 - 00 00 00 00 00 00 00 00 00 00 00 00 34 E6 00 00 00 01 00 00 00 00 00 00 00 00 28 43 4F 4E 4E 45
2024-09-07 22:18:54.517 - 43 54 5F 44 41 54 41 3D 28 43 4F 4D 4D 41 4E 44 3D 76 65 72 73 69 6F 6E 29 29
2024-09-07 22:19:03.525 - 05 04 00 01 02 80 05 01 00 03 0A 67 6F 6F 67 6C 65 2E 63 6F 6D 00 50 47 45 54 20 2F 20 48 54 54
2024-09-07 22:19:03.536 - 50 2F 31 2E 30 0D 0A 0D 0A
2024-09-07 22:19:06.833 - 19 08 24 03 CC 01 CD 00 01 (调用茶吧感应灯关的按键)
2024-09-07 22:19:06.883 - 1A AA AA AA 88 FF 00 01 FF 00 01 0F (调光器地址-茶吧灯带, 茶吧灯带关闭)
2024-09-07 22:19:07.835 - 19 08 24 03 CC 01 CC 00 01 (调用茶吧感应灯开的按键)
2024-09-07 22:19:07.867 - 1A AA AA AA 88 FF B0 01 FF B0 01 0F (调光器地址-茶吧灯带, 茶吧灯带明亮)
2024-09-07 22:19:09.471 - 04 01 00 16 7F 00 00 01 72 6F 6F 74 00
2024-09-07 22:19:18.562 - 12 01 00 34 00 00 00 00 00 00 15 00 06 01 00 1B 00 01 02 00 1C 00 0C 03 00 28 00 04 FF 08 00 01
2024-09-07 22:19:18.584 - 55 00 00 00 4D 53 53 51 4C 53 65 72 76 65 72 00 48 0F 00 00
2024-09-07 22:19:19.858 - 19 08 24 03 CC 01 55 00 01 (调用内卫感应灯关的按键)
2024-09-07 22:19:19.911 - 1A 0C 02 08 01 FF 00 01 FF 00 01 FF 00 00 0F (调光器地址-内卫射灯, 内卫感应灯关)
2024-09-07 22:19:22.487 - 73 74 61 74 73 0D 0A
2024-09-07 22:19:31.571 - 01 C2 00 00 00 04 00 00 B6 01 00 00 53 51 4C 44 42 32 52 41 00 01 00 00 04 01 01 00 05 00 1D 00
2024-09-07 22:19:31.604 - 88 00 00 00 01 00 00 80 00 00 00 01 09 00 00 00 01 00 00 40 00 00 00 01 09 00 00 00 01 00 00 40
2024-09-07 22:19:31.638 - 00 00 00 01 08 00 00 00 04 00 00 40 00 00 00 01 04 00 00 00 01 00 00 40 00 00 00 40 04 00 00 00
2024-09-07 22:19:31.671 - 04 00 00 40 00 00 00 01 04 00 00 00 04 00 00 40 00 00 00 01 04 00 00 00 04 00 00 40 00 00 00 01
2024-09-07 22:19:31.705 - 04 00 00 00 02 00 00 40 00 00 00 01 04 00 00 00 04 00 00 40 00 00 00 01 00 00 00 00 01 00 00 40
2024-09-07 22:19:31.738 - 00 00 00 00 04 00 00 00 04 00 00 80 00 00 00 01 04 00 00 00 04 00 00 80 00 00 00 01 04 00 00 00
2024-09-07 22:19:31.772 - 03 00 00 80 00 00 00 01 04 00 00 00 04 00 00 80 00 00 00 01 08 00 00 00 01 00 00 40 00 00 00 01
2024-09-07 22:19:31.805 - 04 00 00 00 04 00 00 40 00 00 00 01 10 00 00 00 01 00 00 80 00 00 00 01 10 00 00 00 01 00 00 80
2024-09-07 22:19:31.837 - 00 00 00 01 04 00 00 00 04 00 00 40 00 00 00 01 09 00 00 00 01 00 00 40 00 00 00 01 09 00 00 00
2024-09-07 22:19:31.871 - 01 00 00 80 00 00 00 01 04 00 00 00 03 00 00 80 00 00 00 01 00 00 00 00 00 00 00 00 00 00 00 00
2024-09-07 22:19:31.907 - 01 04 00 00 01 00 00 80 00 00 00 01 00 00 00 00 00 00 00 00 00 00 00 00 00 00 00 00 00 00 00 00
2024-09-07 22:19:31.938 - 00 00 00 00 00 00 00 00 01 00 00 40 00 00 00 01 00 00 00 00 01 00 00 40 00 00 00 00 20 20 20 20
2024-09-07 22:19:31.970 - 20 20 20 20 00 00 00 00 00 00 00 00 00 00 00 00 00 00 00 00 01 00 FF 00 00 00 00 00 00 00 00 00
2024-09-07 22:19:32.005 - 00 00 00 00 00 00 00 00 00 00 00 00 E4 04 00 00 00 00 00 00 00 00 00 00 00 00 00 00 00 00 00 00
2024-09-07 22:19:32.007 - 00 7F
2024-09-07 22:19:40.616 - 00 03 00 01 00 00 00 00 00 00 00 02 00 00 00 00 0F 00
2024-09-07 22:19:44.774 - 19 08 24 03 DD 00 13 00 01 (调用情景-公共区域关)
2024-09-07 22:19:45.316 - EE 00 00 B1 00 00 00 FF FC FF FF (情景执行提示)
2024-09-07 22:19:45.912 - 09 06 00 0F 02 01 78 21 (提示音叮)
2024-09-07 22:19:46.458 - 55 0B 31 00 00 00 01 92 (厨房风扇只关)
2024-09-07 22:19:47.500 - 41 00 00 00 3A 30 00 00 FF FF FF FF D4 07 00 00 00 00 00 00 74 65 73 74 2E 24 63 6D 64 00 00 00
2024-09-07 22:19:47.533 - 00 00 FF FF FF FF 1B 00 00 00 01 73 65 72 76 65 72 53 74 61 74 75 73 00 00 00 00 00 00 00 F0 3F
2024-09-07 22:19:47.536 - 00
2024-09-07 22:19:47.563 - 01 06 07 D3 FF 60 38 9F (餐厅空调关)
2024-09-07 22:19:48.731 - 01 06 07 D0 FF 60 C8 9F (客厅空调关)
2024-09-07 22:19:49.061 - 19 08 24 03 CC 00 D4 00 01 (调用厨房感应灯关的按键)
2024-09-07 22:19:49.114 - 55 0A 31 00 00 00 01 91 55 0A 31 00 00 00 02 92 (厨房顶灯一关, 厨房顶灯二关)
2024-09-07 22:19:50.288 - 2A 31 0D 0A 24 34 0D 0A 69 6E 66 6F 0D 0A
2024-09-07 22:19:52.786 - 50 F5 02 (关厨房影视)
2024-09-07 22:19:53.834 - 50 F5 01 (关餐厅影视)
2024-09-07 22:19:54.880 - 50 F5 08 (关客厅影视)
2024-09-07 22:19:55.073 - 19 08 24 03 CC 01 CD 00 01 (调用茶吧感应灯关的按键)
2024-09-07 22:19:55.121 - 1A AA AA AA 88 FF 00 01 FF 00 01 0F (调光器地址-茶吧灯带, 茶吧灯带关闭)
2024-09-07 22:19:55.523 - FE 01
2024-09-07 22:19:55.926 - 50 F5 03 (关外卫影视)
2024-09-07 22:19:56.978 - 55 0A 31 00 00 00 01 91 (厨房顶灯一关)
2024-09-07 22:19:58.024 - 55 0A 31 00 00 00 02 92 (厨房顶灯二关)
2024-09-07 22:19:58.710 - 47 49 4F 50 01 00 01 00 24 00 00 00 00 00 00 00 01 00 00 00 01 00 00 00 06 00 00 00 61 62 63 64
2024-09-07 22:19:58.728 - 65 66 00 00 04 00 00 00 67 65 74 00 00 00 00 00
2024-09-07 22:19:59.070 - 55 0C 31 00 00 00 01 93 (餐厅顶灯关)
2024-09-07 22:20:00.119 - 1A 18 05 10 31 00 01 00 0F (自保持开关地址-门厅顶灯, 门厅顶灯关)
2024-09-07 22:20:01.165 - 1A 20 07 00 42 00 01 00 0F (自保持开关地址-外卫顶灯, 外卫顶灯关)
2024-09-07 22:20:01.811 - 10 10 00 04 4D 51 54 54 04 02 00 1E 00 04 6E 6D 61 70
2024-09-07 22:20:02.261 - 1A 18 05 21 89 00 01 00 0F (自保持开关地址-客厅顶灯, 客厅顶灯一关)
2024-09-07 22:20:03.308 - 1A 18 05 01 94 00 01 00 0F (自保持开关地址-客厅顶灯, 客厅顶灯二关)
2024-09-07 22:20:04.354 - 1A 20 07 01 30 00 01 00 0F (自保持开关地址-西阳顶灯, 西阳顶灯关)
2024-09-07 22:20:05.013 - 43 4E 58 4E 00 00 00 01 00 10 00 00 07 00 00 00 32 02 00 00 BC B1 A7 B1 68 6F 73 74 3A 3A 00
2024-09-07 22:20:05.407 - 1A FF 01 FF FF FF 00 01 FF 00 01 FF 00 00 0F (调光器地址-公共区域统配地址, 公共区域灯光全关)
2024-09-07 22:20:06.495 - 09 06 00 0F 02 02 38 20 (提示音咚)
2024-09-07 22:20:08.541 - EE 00 00 B1 00 00 02 FF FC FF FF (情景完成返回主页)
2024-09-07 22:20:11.615 - 19 08 24 03 CC 01 54 00 01 (调用内卫感应灯开的按键)
2024-09-07 22:20:11.668 - 1A 0C 02 08 01 FF 45 01 FF 45 01 FF 00 00 0F (调光器地址-内卫射灯, 内卫射灯微光)
2024-09-07 22:32:44.608 - FF
2024-09-07 22:34:09.765 - 19 08 24 03 CC 01 55 00 01 (调用内卫感应灯关的按键)
2024-09-07 22:34:09.817 - 1A 0C 02 08 01 FF 00 01 FF 00 01 FF 00 00 0F (调光器地址-内卫射灯, 内卫感应灯关)
2024-09-07 22:41:08.589 - 19 08 24 03 CC 01 54 00 01 (调用内卫感应灯开的按键)
2024-09-07 22:41:08.641 - 1A 0C 02 08 01 FF 45 01 FF 45 01 FF 00 00 0F (调光器地址-内卫射灯, 内卫射灯微光)
2024-09-07 22:55:10.747 - 19 08 24 03 CC 01 55 00 01 (调用内卫感应灯关的按键)
2024-09-07 22:55:10.780 - 1A 0C 02 08 01 FF 00 01 FF 00 01 FF 00 00 0F (调光器地址-内卫射灯, 内卫感应灯关)
2024-09-07 23:02:30.613 - 19 08 24 03 CC 01 54 00 01 (调用内卫感应灯开的按键)
2024-09-07 23:02:30.647 - 1A 0C 02 08 01 FF 45 01 FF 45 01 FF 00 00 0F (调光器地址-内卫射灯, 内卫射灯微光)
2024-09-07 23:05:12.001 - FF
2024-09-07 23:06:50.969 - 19 08 24 03 DD 00 4B 00 01 (调用情景-主卧睡觉)
2024-09-07 23:06:51.535 - EE 00 00 B1 00 00 00 FF FC FF FF (情景执行提示)
2024-09-07 23:06:52.130 - 09 06 00 0F 02 01 78 21 (提示音叮)
2024-09-07 23:06:52.673 - 50 F5 04 (关内卫影视)
2024-09-07 23:06:53.224 - A5 00 53 FE 01 AA (主卧纱帘关)
2024-09-07 23:06:54.271 - A5 00 52 FF 00 AA (主卧窗帘关)
2024-09-07 23:06:55.320 - 1A 22 33 62 0F 00 02 01 0F (正反转地址-内卫卷帘, 内卫卷帘降)
2024-09-07 23:06:56.367 - 1A 20 07 01 40 00 01 00 0F (自保持开关地址-内卫顶灯, 内卫顶灯关)
2024-09-07 23:06:57.413 - 1A 20 07 01 55 00 01 00 0F (自保持开关地址-主卧顶灯, 主卧顶灯只关)
2024-09-07 23:06:57.960 - 1A FF FF FF 56 00 00 01 0F (人体感应地址-内卫, 打开内卫感应)
2024-09-07 23:06:57.974 - BC BC
2024-09-07 23:07:01.558 - 1A 0C 02 08 01 FF 00 01 FF 00 01 FF 00 00 0F (调光器地址-内卫射灯, 内卫感应灯关)
2024-09-07 23:07:02.155 - 1A 0C 02 04 01 FF 00 01 FF 00 01 FF 00 00 0F (调光器地址-主卧筒灯, 主卧筒灯关闭)
2024-09-07 23:07:02.754 - 1A 0C 02 04 03 FF 00 01 FF 00 01 FF 00 00 0F (调光器地址-主卧灯带, 主卧灯带关闭)
2024-09-07 23:07:03.352 - 1A 0C 02 04 04 FF 00 01 FF 00 01 FF 00 00 0F (调光器地址-主卧南阅, 主卧南阅关闭)
2024-09-07 23:07:03.949 - 1A 0C 02 04 05 FF 00 01 FF 00 01 FF 00 00 0F (调光器地址-主卧北阅, 主卧北阅关闭)
2024-09-07 23:07:04.546 - 1A 0C 02 04 02 FF 00 01 FF 00 01 FF 00 00 0F (调光器地址-主卧过道, 主卧过道关闭)
2024-09-07 23:07:05.137 - 09 06 00 0F 02 02 38 20 (提示音咚)
2024-09-07 23:07:05.739 - EE 00 00 B1 00 00 02 FF FC FF FF (情景完成返回主页)
2024-09-07 23:08:15.293 - 19 08 24 03 CC 01 55 00 01 (调用内卫感应灯关的按键)
2024-09-07 23:08:15.365 - 1A 0C 02 08 01 FF 00 01 FF 00 01 FF 00 00 0F (调光器地址-内卫射灯, 内卫感应灯关)
2024-09-07 23:34:26.419 - 19 08 24 03 CC 01 CC 00 01 (调用茶吧感应灯开的按键)
2024-09-07 23:34:26.448 - 1A AA AA AA 88 FF B0 01 FF B0 01 0F (调光器地址-茶吧灯带, 茶吧灯带明亮)
2024-09-07 23:34:33.934 - 19 08 24 03 CC 01 CD 00 01 (调用茶吧感应灯关的按键)
2024-09-07 23:34:33.964 - 1A AA AA AA 88 FF 00 01 FF 00 01 0F (调光器地址-茶吧灯带, 茶吧灯带关闭)
2024-09-07 23:44:56.628 - 19 08 24 03 CC 01 54 00 01 (调用内卫感应灯开的按键)
2024-09-07 23:44:56.662 - 1A 0C 02 08 01 FF 45 01 FF 45 01 FF 00 00 0F (调光器地址-内卫射灯, 内卫射灯微光)
2024-09-07 23:46:03.258 - 19 08 24 03 CC 01 55 00 01 (调用内卫感应灯关的按键)
2024-09-07 23:46:03.292 - 1A 0C 02 08 01 FF 00 01 FF 00 01 FF 00 00 0F (调光器地址-内卫射灯, 内卫感应灯关)
2024-09-07 23:47:17.305 - FF
2024-09-07 23:47:30.077 - 1A FF FF FF 04 (继电器地址-东阳衣架)
2024-09-07 23:47:30.212 - 03
2024-09-07 23:47:30.931 - 19 08 24 03 CC 01 54 00 01 (调用内卫感应灯开的按键)
2024-09-07 23:47:30.983 - 1A 0C 02 08 01 FF 45 01 FF 45 01 FF 00 00 0F (调光器地址-内卫射灯, 内卫射灯微光)
2024-09-07 23:48:48.082 - 19 08 24 03 CC 01 55 00 01 (调用内卫感应灯关的按键)
2024-09-07 23:48:48.136 - 1A 0C 02 08 01 FF 00 01 FF 00 01 FF 00 00 0F (调光器地址-内卫射灯, 内卫感应灯关)
2024-09-07 23:53:14.609 - 19 08 24 03 CC 01 54 00 01 (调用内卫感应灯开的按键)
2024-09-07 23:53:14.641 - 1A 0C 02 08 01 FF 45 01 FF 45 01 FF 00 00 0F (调光器地址-内卫射灯, 内卫射灯微光)
2024-09-07 23:57:52.654 - 19 08 24 03 CC 01 55 00 01 (调用内卫感应灯关的按键)
2024-09-07 23:57:52.689 - 1A 0C 02 08 01 FF 00 01 FF 00 01 FF 00 00 0F (调光器地址-内卫射灯, 内卫感应灯关)
2024-09-08 00:27:37.680 - FF FF FF FF 0E (继电器地址-西阳小窗帘)
2024-09-08 00:27:37.815 - FF
2024-09-08 00:29:32.807 - 1A BE B0 DC 04 (继电器地址-西阳窗帘)
2024-09-08 00:29:32.943 - FE
2024-09-08 00:29:44.181 - 1A BE B0 DC 09 (继电器地址-客厅窗帘)
2024-09-08 00:29:47.877 - 1A BE B0 DC 02 (正反转地址-外卫卷帘)
2024-09-08 00:29:48.013 - FF
2024-09-08 00:29:48.845 - 1A BE B0 DC 0A (继电器地址-客厅纱帘)
2024-09-08 00:31:56.109 - 1A BE B0 DC 01 FC (继电器地址-回水泵点动)
2024-09-08 00:31:56.245 - FF
2024-09-08 00:33:58.977 - 1A BE B0 DC 03 (继电器地址-西阳天幕)
2024-09-08 00:33:59.114 - FF
2024-09-08 00:54:04.191 - FF
2024-09-08 00:54:36.646 - FF FF FF FF 0A FC (继电器地址-东阳窗帘)
2024-09-08 00:54:36.781 - FE
2024-09-08 00:54:51.387 - 19 08 24 03 CC 01 54 00 01 (调用内卫感应灯开的按键)
2024-09-08 00:54:51.439 - 1A 0C 02 08 01 FF 45 01 FF 45 01 FF 00 00 0F (调光器地址-内卫射灯, 内卫射灯微光)
2024-09-08 00:57:46.231 - 19 08 24 03 CC 01 55 00 01 (调用内卫感应灯关的按键)
2024-09-08 00:57:46.283 - 1A 0C 02 08 01 FF 00 01 FF 00 01 FF 00 00 0F (调光器地址-内卫射灯, 内卫感应灯关)
2024-09-08 00:58:33.323 - 19 08 24 03 CC 01 54 00 01 (调用内卫感应灯开的按键)
2024-09-08 00:58:33.356 - 1A 0C 02 08 01 FF 45 01 FF 45 01 FF 00 00 0F (调光器地址-内卫射灯, 内卫射灯微光)
2024-09-08 00:58:58.873 - 19 08 24 03 CC 01 55 00 01 (调用内卫感应灯关的按键)
2024-09-08 00:58:58.918 - 1A 0C 02 08 01 FF 00 01 FF 00 01 FF 00 00 0F (调光器地址-内卫射灯, 内卫感应灯关)
2024-09-08 01:21:52.866 - FF
2024-09-08 01:44:13.401 - FF
2024-09-08 01:48:13.716 - FF
2024-09-08 02:14:34.011 - FF
2024-09-08 02:59:59.788 - 50 F7 01 (全屋影音全关)
2024-09-08 03:03:10.201 - FF
2024-09-08 03:08:35.169 - 1A FF FF FF 04 FC (继电器地址-东阳衣架)
2024-09-08 03:47:42.054 - FF FF FF FF 0E FC (继电器地址-西阳小窗帘)
2024-09-08 03:47:42.188 - FF
2024-09-08 03:49:27.504 - 1A BE B0 DC 04 FC (继电器地址-西阳窗帘)
2024-09-08 03:50:07.361 - 1A BE B0 DC 09 (继电器地址-客厅窗帘)
2024-09-08 03:50:19.891 - 1A BE B0 DC 02 (正反转地址-外卫卷帘)
2024-09-08 03:50:22.135 - 1A BE B0 DC 0A (继电器地址-客厅纱帘)
2024-09-08 03:50:22.270 - FF
2024-09-08 03:50:41.010 - FF
2024-09-08 03:52:47.518 - 1A BE B0 DC 01 FC (继电器地址-回水泵点动)
2024-09-08 03:52:47.653 - FF
2024-09-08 03:54:57.497 - 1A BE B0 DC 03 FE (继电器地址-西阳天幕)
2024-09-08 03:54:57.632 - FF
2024-09-08 04:13:37.860 - FF
2024-09-08 04:14:54.005 - FF FF FF FF 0A FC (继电器地址-东阳窗帘)
2024-09-08 04:19:59.323 - 1A EC A0 DC 01 00 01 00 0F (自保持开关地址-电视、设备12V供电, 12V 设备供电关)
2024-09-08 04:19:59.872 - 1A EC A0 DC 01 00 01 00 0F (自保持开关地址-电视、设备12V供电, 12V 设备供电关)
2024-09-08 04:20:09.936 - 1A EC A0 DC 01 00 01 01 0F (自保持开关地址-电视、设备12V供电, 12V 设备供电开)
2024-09-08 04:20:10.167 - 0A 00
2024-09-08 04:20:10.172 - FE
2024-09-08 04:20:10.302 - FF
2024-09-08 04:20:10.328 - 1A 27 89 12
2024-09-08 04:20:10.338 - FF
2024-09-08 04:20:10.364 - EE 00 7E 07 FF FC
2024-09-08 04:20:10.527 - EF 12 1B 02 08
2024-09-08 04:20:10.560 - EE 00 71 B1 01 00 02 FF FC FF FF
2024-09-08 04:20:10.878 - FE
2024-09-08 04:20:10.983 - 1A EC A0 DC 01 00 01 01 0F (自保持开关地址-电视、设备12V供电, 12V 设备供电开)
2024-09-08 04:20:11.494 - F7
2024-09-08 04:20:11.576 - FF
2024-09-08 04:20:11.762 - 7B FF
2024-09-08 04:20:11.817 - 68 86 FF
2024-09-08 04:20:11.895 - E8
2024-09-08 04:20:11.896 - CB
2024-09-08 04:20:11.900 - 68 86 FE
2024-09-08 04:20:12.032 - 1A BE B0 DC 03 (继电器地址-西阳天幕)
2024-09-08 04:20:12.169 - FD
2024-09-08 04:20:12.462 - FE
2024-09-08 04:20:12.785 - FF
2024-09-08 04:20:13.080 - F7
2024-09-08 04:20:13.406 - 68 86 FF
2024-09-08 04:20:19.400 - 19 08 24 03 CC 01 CC 00 01 (调用茶吧感应灯开的按键)
2024-09-08 04:20:19.450 - 1A AA AA AA 88 FF B0 01 FF B0 01 0F (调光器地址-茶吧灯带, 茶吧灯带明亮)
2024-09-08 04:20:27.405 - 19 08 24 03 CC 01 CD 00 01 (调用茶吧感应灯关的按键)
2024-09-08 04:20:27.465 - 1A AA AA AA 88 FF 00 01 FF 00 01 0F (调光器地址-茶吧灯带, 茶吧灯带关闭)
2024-09-08 04:26:11.587 - 19 08 24 03 CC 01 CC 00 01 (调用茶吧感应灯开的按键)
2024-09-08 04:26:11.617 - 1A AA AA AA 88 FF B0 01 FF B0 01 0F (调光器地址-茶吧灯带, 茶吧灯带明亮)
2024-09-08 04:26:19.101 - 19 08 24 03 CC 01 CD 00 01 (调用茶吧感应灯关的按键)
2024-09-08 04:26:19.132 - 1A AA AA AA 88 FF 00 01 FF 00 01 0F (调光器地址-茶吧灯带, 茶吧灯带关闭)
2024-09-08 04:35:14.722 - FF
2024-09-08 04:37:28.843 - FF
2024-09-08 04:47:38.774 - FF
2024-09-08 04:49:59.747 - EE 00 00 B1 00 00 00 FF FC FF FF (情景执行提示)
2024-09-08 04:50:00.338 - A5 00 A2 FF 00 AA (餐厅纱帘关)
2024-09-08 04:50:01.435 - A5 00 A6 FF 00 AA (餐厅窗帘关)
2024-09-08 04:50:01.490 - 55 00 A6 01 00 0E 01 75 AA 55 00 A6 01 00 0E 01 (餐厅窗帘电机状态返回)
2024-09-08 04:50:02.534 - A5 00 B7 FF 00 AA 22 0D (书房纱帘关)
2024-09-08 04:50:03.659 - A5 00 D2 FF 00 AA 22 0C (书房窗帘关)
2024-09-08 04:50:03.708 - 55 00 D2 01 00 0E 00 F2 AA 55 00 D2 01 00 0E 00 F2 AA (书房窗帘电机状态返回)
2024-09-08 04:50:04.729 - EE 00 00 B1 00 00 02 FF FC FF FF (情景完成返回主页)
2024-09-08 04:50:09.993 - 55 00 A6 00 01 67 01 75 AA 55 00 A6 00 01 67 01 75 AA (餐厅窗帘电机状态返回)
2024-09-08 04:50:11.641 - 55 00 D2 00 00 E5 00 F2 AA 55 00 D2 00 00 E5 00 F2 AA (书房窗帘电机状态返回)
2024-09-08 04:57:17.250 - FF
2024-09-08 05:10:18.243 - FF
2024-09-08 05:13:29.870 - FF
2024-09-08 05:23:48.413 - 19 08 24 03 CC 01 CC 00 01 (调用茶吧感应灯开的按键)
2024-09-08 05:23:48.462 - 1A AA AA AA 88 FF B0 01 FF B0 01 0F (调光器地址-茶吧灯带, 茶吧灯带明亮)
2024-09-08 05:23:55.929 - 19 08 24 03 CC 01 CD 00 01 (调用茶吧感应灯关的按键)
2024-09-08 05:23:55.977 - 1A AA AA AA 88 FF 00 01 FF 00 01 0F (调光器地址-茶吧灯带, 茶吧灯带关闭)
2024-09-08 05:27:57.867 - 19 08 24 03 CC 01 54 00 01 (调用内卫感应灯开的按键)
2024-09-08 05:27:57.901 - 1A 0C 02 08 01 FF 45 01 FF 45 01 FF 00 00 0F (调光器地址-内卫射灯, 内卫射灯微光)
2024-09-08 05:28:32.937 - 19 08 24 03 CC 01 55 00 01 (调用内卫感应灯关的按键)
2024-09-08 05:28:32.969 - 1A 0C 02 08 01 FF 00 01 FF 00 01 FF 00 00 0F (调光器地址-内卫射灯, 内卫感应灯关)
2024-09-08 05:32:11.868 - 19 08 24 03 CC 01 54 00 01 (调用内卫感应灯开的按键)
2024-09-08 05:32:11.902 - 1A 0C 02 08 01 FF 45 01 FF 45 01 FF 00 00 0F (调光器地址-内卫射灯, 内卫射灯微光)
2024-09-08 05:35:50.299 - 19 08 24 03 CC 01 55 00 01 (调用内卫感应灯关的按键)
2024-09-08 05:35:50.333 - 1A 0C 02 08 01 FF 00 01 FF 00 01 FF 00 00 0F (调光器地址-内卫射灯, 内卫感应灯关)
2024-09-08 05:36:05.328 - 19 08 24 03 CC 01 54 00 01 (调用内卫感应灯开的按键)
2024-09-08 05:36:05.364 - 1A 0C 02 08 01 FF 45 01 FF 45 01 FF 00 00 0F (调光器地址-内卫射灯, 内卫射灯微光)
2024-09-08 05:38:10.575 - 19 08 24 03 CC 01 55 00 01 (调用内卫感应灯关的按键)
2024-09-08 05:38:10.609 - 1A 0C 02 08 01 FF 00 01 FF 00 01 FF 00 00 0F (调光器地址-内卫射灯, 内卫感应灯关)
2024-09-08 06:14:00.651 - FF
2024-09-08 06:15:05.039 - FF
2024-09-08 06:15:06.501 - 19 08 24 03 CC 01 CC 00 01 (调用茶吧感应灯开的按键)
2024-09-08 06:15:06.551 - 1A AA AA AA 88 FF B0 01 FF B0 01 0F (调光器地址-茶吧灯带, 茶吧灯带明亮)
2024-09-08 06:15:13.516 - 19 08 24 03 CC 01 CD 00 01 (调用茶吧感应灯关的按键)
2024-09-08 06:15:13.547 - 1A AA AA AA 88 FF 00 01 FF 00 01 0F (调光器地址-茶吧灯带, 茶吧灯带关闭)
2024-09-08 06:29:40.343 - 1A FF FF FF 04 FC (继电器地址-东阳衣架)
2024-09-08 06:29:40.480 - 00
2024-09-08 06:32:27.487 - 19 08 24 03 CC 01 54 00 01 (调用内卫感应灯开的按键)
2024-09-08 06:32:27.540 - 1A 0C 02 08 01 FF 45 01 FF 45 01 FF 00 00 0F (调光器地址-内卫射灯, 内卫射灯微光)
2024-09-08 06:36:11.929 - 19 08 24 03 CC 01 55 00 01 (调用内卫感应灯关的按键)
2024-09-08 06:36:11.981 - 1A 0C 02 08 01 FF 00 01 FF 00 01 FF 00 00 0F (调光器地址-内卫射灯, 内卫感应灯关)
2024-09-08 07:09:14.333 - 19 08 24 03 CC 01 54 00 01 (调用内卫感应灯开的按键)
2024-09-08 07:09:14.365 - 1A 0C 02 08 01 FF 45 01 FF 45 01 FF 00 00 0F (调光器地址-内卫射灯, 内卫射灯微光)
2024-09-08 07:10:06.433 - 19 08 24 03 CC 01 55 00 01 (调用内卫感应灯关的按键)
2024-09-08 07:10:06.467 - 1A 0C 02 08 01 FF 00 01 FF 00 01 FF 00 00 0F (调光器地址-内卫射灯, 内卫感应灯关)
2024-09-08 07:37:45.199 - 19 08 24 03 CC 01 54 00 01 (调用内卫感应灯开的按键)
2024-09-08 07:37:45.233 - 1A 0C 02 08 01 FF 45 01 FF 45 01 FF 00 00 0F (调光器地址-内卫射灯, 内卫射灯微光)
2024-09-08 07:40:03.329 - 1A BE B0 DC 04 (继电器地址-西阳窗帘)
2024-09-08 07:40:03.465 - FF
2024-09-08 07:40:14.558 - FF FF FF FF 0E (继电器地址-西阳小窗帘)
2024-09-08 07:40:14.693 - FF
2024-09-08 07:40:32.809 - FF FF FF FF 0A FE (继电器地址-东阳窗帘)
2024-09-08 07:40:33.410 - 1A BE B0 DC 09 (继电器地址-客厅窗帘)
2024-09-08 07:40:33.546 - FF
2024-09-08 07:40:42.216 - 1A BE B0 DC 02 FC (正反转地址-外卫卷帘)
2024-09-08 07:40:42.351 - FF
2024-09-08 07:40:43.770 - 1A BE B0 DC 0A FF (继电器地址-客厅纱帘)
2024-09-08 07:40:43.906 - FE
2024-09-08 07:41:01.800 - 1A BE B0 DC 01 (继电器地址-回水泵点动)
2024-09-08 07:41:01.936 - FF
2024-09-08 07:41:09.517 - 1A BE B0 DC 03 (继电器地址-西阳天幕)
2024-09-08 07:41:09.653 - FF
2024-09-08 07:41:51.684 - 19 08 24 03 CC 01 55 00 01 (调用内卫感应灯关的按键)
2024-09-08 07:41:51.735 - 1A 0C 02 08 01 FF 00 01 FF 00 01 FF 00 00 0F (调光器地址-内卫射灯, 内卫感应灯关)
2024-09-08 07:43:00.819 - 19 08 24 03 CC 01 54 00 01 (调用内卫感应灯开的按键)
2024-09-08 07:43:00.872 - 1A 0C 02 08 01 FF 45 01 FF 45 01 FF 00 00 0F (调光器地址-内卫射灯, 内卫射灯微光)
2024-09-08 07:44:37.510 - 19 08 24 03 CC 01 55 00 01 (调用内卫感应灯关的按键)
2024-09-08 07:44:37.544 - 1A 0C 02 08 01 FF 00 01 FF 00 01 FF 00 00 0F (调光器地址-内卫射灯, 内卫感应灯关)
2024-09-08 07:47:22.865 - FF
2024-09-08 08:07:31.652 - 19 08 24 03 CC 00 D3 00 01 (调用厨房感应灯开的按键)
2024-09-08 08:07:31.705 - 55 0A 32 00 00 00 01 92 55 0A 32 00 00 00 02 93 (厨房顶灯一开, 厨房顶灯二开)
2024-09-08 08:08:06.722 - 19 08 24 03 CC 00 D4 00 01 (调用厨房感应灯关的按键)
2024-09-08 08:08:06.773 - 55 0A 31 00 00 00 01 91 55 0A 31 00 00 00 02 92 (厨房顶灯一关, 厨房顶灯二关)
2024-09-08 08:10:16.040 - FF
2024-09-08 08:10:41.848 - FF
2024-09-08 08:14:42.225 - FF
2024-09-08 08:24:32.203 - 19 08 24 03 DD 00 4A 00 01 (调用情景-主卧起床)
2024-09-08 08:24:32.765 - EE 00 00 B1 00 00 00 FF FC FF FF (情景执行提示)
2024-09-08 08:24:33.360 - 09 06 00 0F 02 01 78 21 (提示音叮)
2024-09-08 08:24:33.904 - 50 F0 04 (开内卫影视)
2024-09-08 08:24:34.452 - 50 F0 05 (开主卧影视)
2024-09-08 08:24:35.002 - A5 00 53 FE 01 AA (主卧纱帘关)
2024-09-08 08:24:35.550 - A5 00 53 FE 01 AA (主卧纱帘关)
2024-09-08 08:24:36.099 - A5 00 52 FE 01 AA (主卧窗帘开)
2024-09-08 08:24:37.224 - A5 00 52 FE 01 AA (主卧窗帘开)
2024-09-08 08:24:38.296 - 1A 22 33 62 0F 00 02 01 0F (正反转地址-内卫卷帘, 内卫卷帘降)
2024-09-08 08:24:39.341 - 1A FF FF FF 56 00 00 00 0F (人体感应地址-内卫, 关闭内卫感应)
2024-09-08 08:24:39.444 - BC BC
2024-09-08 08:24:40.388 - 1A 20 07 01 55 00 01 00 0F (自保持开关地址-主卧顶灯, 主卧顶灯只关)
2024-09-08 08:24:41.441 - 1A 0C 02 08 01 FF 45 01 FF 45 01 FF 00 00 0F (调光器地址-内卫射灯, 内卫射灯微光)
2024-09-08 08:24:42.535 - 1A 0C 02 04 01 FF 45 01 FF 45 01 FF 00 00 0F (调光器地址-主卧筒灯, 主卧筒灯微光)
2024-09-08 08:24:43.134 - 1A 0C 02 04 03 FF 45 01 FF 45 01 FF 00 00 0F (调光器地址-主卧灯带, 主卧灯带微光)
2024-09-08 08:24:43.733 - 1A 0C 02 04 02 FF 45 01 FF 45 01 FF 00 00 0F (调光器地址-主卧过道, 主卧过道微光)
2024-09-08 08:24:44.318 - 50 F1 25 (主卧—有线2)
2024-09-08 08:24:44.867 - 50 F1 24 (内卫—有线2)
2024-09-08 08:24:45.915 - AF BF CF DF C2 21 (有线2/快捷-凤凰卫视)
2024-09-08 08:24:46.466 - 1A FF FF FF 60 0B 01 01 0F (红外总线地址-主卧发射设备, 主卧电视电源)
2024-09-08 08:24:46.984 - F0 0B 01 08
2024-09-08 08:24:49.469 - 55 20 20 00 00 0F 02 16 AA 55 20 20 00 00 0F 02 16 AA (主卧窗帘电机状态返回)
2024-09-08 08:24:51.502 - 09 06 00 0F 02 02 38 20 (提示音咚)
2024-09-08 08:24:52.053 - EE 00 00 B1 00 00 02 FF FC FF FF (情景完成返回主页)
2024-09-08 08:24:52.647 - A1 11 11 11 11 01 (内卫浴霸取暖判断)
2024-09-08 08:24:52.870 - 14 03 00 00 00 02 C6 CE (查询内卫温湿度)
2024-09-08 08:24:52.891 - 14 03 04 01 E4 01 00 FE A9 (内卫温湿度返回)
2024-09-08 08:44:02.068 - EE 00 00 B1 00 00 00 FF FC FF FF (情景执行提示)
2024-09-08 08:44:02.663 - 09 06 00 0F 02 01 78 21 (提示音叮)
2024-09-08 08:44:03.209 - A1 11 11 11 40 (客厅空调自动开)
2024-09-08 08:44:03.434 - 19 08 24 03 F0 BB 78 02 02 00
2024-09-08 08:44:03.485 - 23 AA 56 02 08 2C 05 18 09 08 07 73 65 6F 6B 65 6E 64
2024-09-08 08:44:04.446 - 01 10 07 D0 00 03 06 70 61 00 02 00 FA 6F 26 (客厅空调冷25度)
2024-09-08 08:44:04.480 - 01 10 07 D0 00 03 06 70 61 00 02 00 FA 6F 26 (客厅空调冷25度)
2024-09-08 08:44:07.243 - A1 11 11 11 41 (餐厅空调自动开)
2024-09-08 08:44:07.467 - 19 08 24 03 F0 BB 78 02 02 00
2024-09-08 08:44:07.519 - 23 AA 56 02 08 2C 0A 18 09 08 07 73 65 6F 6B 65 6E 64
2024-09-08 08:44:08.479 - 01 10 07 D3 00 03 06 70 61 00 02 00 FA 9F 29 (餐厅空调冷25度)
2024-09-08 08:44:08.519 - 01 10 07 D3 00 03 06 70 61 00 02 00 FA 9F 29 (餐厅空调冷25度)
2024-09-08 08:44:11.284 - 09 06 00 0F 02 02 38 20 (提示音咚)
2024-09-08 08:44:11.834 - EE 00 00 B1 00 00 02 FF FC FF FF (情景完成返回主页)
2024-09-08 09:01:33.233 - 19 08 24 03 CC 01 CC 00 01 (调用茶吧感应灯开的按键)
2024-09-08 09:01:33.283 - 1A AA AA AA 88 FF B0 01 FF B0 01 0F (调光器地址-茶吧灯带, 茶吧灯带明亮)
2024-09-08 09:02:14.313 - 19 08 24 03 CC 01 CD 00 01 (调用茶吧感应灯关的按键)
2024-09-08 09:02:14.344 - 1A AA AA AA 88 FF 00 01 FF 00 01 0F (调光器地址-茶吧灯带, 茶吧灯带关闭)
2024-09-08 09:03:02.910 - 19 08 24 03 CC 01 CC 00 01 (调用茶吧感应灯开的按键)
2024-09-08 09:03:02.941 - 1A AA AA AA 88 FF B0 01 FF B0 01 0F (调光器地址-茶吧灯带, 茶吧灯带明亮)
2024-09-08 09:03:07.232 - 19 08 24 03 CC 00 D3 00 01 (调用厨房感应灯开的按键)
2024-09-08 09:03:07.268 - 55 0A 32 00 00 00 01 92 55 0A 32 00 00 00 02 93 (厨房顶灯一开, 厨房顶灯二开)
2024-09-08 09:03:52.322 - 19 08 24 03 CC 00 D4 00 01 (调用厨房感应灯关的按键)
2024-09-08 09:03:52.356 - 55 0A 31 00 00 00 01 91 55 0A 31 00 00 00 02 92 (厨房顶灯一关, 厨房顶灯二关)
2024-09-08 09:04:09.897 - 19 08 24 03 DD 00 3B 00 01 (调用情景-书房照明关帘)
2024-09-08 09:04:10.444 - EE 00 00 B1 00 00 00 FF FC FF FF (情景执行提示)
2024-09-08 09:04:11.039 - 09 06 00 0F 02 01 78 21 (提示音叮)
2024-09-08 09:04:11.595 - 1A 0A 04 06 01 FF F0 01 FF F0 01 FF 00 00 0F (调光器地址-书房射灯, 书房射灯明亮)
2024-09-08 09:04:15.673 - A5 00 B7 FF 00 AA 22 0D (书房纱帘关)
2024-09-08 09:04:16.719 - A5 00 D2 FF 00 AA 22 0C (书房窗帘关)
2024-09-08 09:04:17.766 - 09 06 00 0F 02 02 38 20 (提示音咚)
2024-09-08 09:04:18.319 - EE 00 00 B1 00 00 02 FF FC FF FF (情景完成返回主页)
2024-09-08 09:04:19.075 - 19 08 24 03 CC 01 CD 00 01 (调用茶吧感应灯关的按键)
2024-09-08 09:04:19.106 - 1A AA AA AA 88 FF 00 01 FF 00 01 0F (调光器地址-茶吧灯带, 茶吧灯带关闭)
2024-09-08 09:10:27.164 - 19 08 24 03 DD 00 3A 00 01 (调用情景-离开书房)
2024-09-08 09:10:27.706 - EE 00 00 B1 00 00 00 FF FC FF FF (情景执行提示)
2024-09-08 09:10:28.300 - 09 06 00 0F 02 01 78 21 (提示音叮)
2024-09-08 09:10:28.848 - 01 06 07 DC FF 60 08 9C (书房空调关)
2024-09-08 09:10:28.879 - 01 06 07 DC FF 60 08 9C (书房空调关)
2024-09-08 09:10:29.442 - 50 F5 07 (关书房影视)
2024-09-08 09:10:29.805 - 19 08 24 03 CC 01 CC 00 01 (调用茶吧感应灯开的按键)
2024-09-08 09:10:29.856 - 1A AA AA AA 88 FF B0 01 FF B0 01 0F (调光器地址-茶吧灯带, 茶吧灯带明亮)
2024-09-08 09:10:30.256 - A5 00 D2 FE 01 AA 22 0D (书房窗帘开)
2024-09-08 09:10:30.311 - 55 00 D2 02 00 E5 00 F2 AA 55 00 D2 02 00 E5 FF (书房窗帘电机状态返回)
2024-09-08 09:10:31.390 - A5 00 B7 FF 00 AA 22 0D (书房纱帘关)
2024-09-08 09:10:31.605 - 19 08 24 03 CC 00 D3 00 01 (调用厨房感应灯开的按键)
2024-09-08 09:10:31.660 - 55 0A 32 00 00 00 01 92 55 0A 32 00 00 00 02 93 (厨房顶灯一开, 厨房顶灯二开)
2024-09-08 09:10:32.516 - 55 0D 31 00 00 00 01 94 (书房顶灯只关)
2024-09-08 09:10:33.589 - 1A 0A 04 06 01 FF 00 01 FF 00 01 FF 00 00 0F (调光器地址-书房射灯, 书房射灯关闭)
2024-09-08 09:10:37.147 - 55 00 D2 00 00 0E 00 F2 AA 55 00 D2 00 00 0E 00 F2 AA (书房窗帘电机状态返回)
2024-09-08 09:10:37.669 - 09 06 00 0F 02 02 38 20 (提示音咚)
2024-09-08 09:10:38.269 - EE 00 00 B1 00 00 02 FF FC FF FF (情景完成返回主页)
2024-09-08 09:10:41.830 - 19 08 24 03 CC 01 CD 00 01 (调用茶吧感应灯关的按键)
2024-09-08 09:10:41.879 - 1A AA AA AA 88 FF 00 01 FF 00 01 0F (调光器地址-茶吧灯带, 茶吧灯带关闭)
2024-09-08 09:10:42.832 - 19 08 24 03 CC 01 CC 00 01 (调用茶吧感应灯开的按键)
2024-09-08 09:10:42.863 - 1A AA AA AA 88 FF B0 01 FF B0 01 0F (调光器地址-茶吧灯带, 茶吧灯带明亮)
2024-09-08 09:11:03.373 - 19 08 24 03 CC 01 CD 00 01 (调用茶吧感应灯关的按键)
2024-09-08 09:11:03.404 - 1A AA AA AA 88 FF 00 01 FF 00 01 0F (调光器地址-茶吧灯带, 茶吧灯带关闭)
2024-09-08 09:11:22.706 - 19 08 24 03 CC 00 D4 00 01 (调用厨房感应灯关的按键)
2024-09-08 09:11:22.742 - 55 0A 31 00 00 00 01 91 55 0A 31 00 00 00 02 92 (厨房顶灯一关, 厨房顶灯二关)
2024-09-08 09:18:56.650 - A5 00 A6 FE 01 AA (餐厅窗帘开)
2024-09-08 09:18:56.701 - 55 00 A6 02 01 67 01 75 AA 55 00 A6 02 01 67 01 75 AA (餐厅窗帘电机状态返回)
2024-09-08 09:19:03.752 - 1A BE B0 DC 0A 00 02 00 (继电器地址-客厅纱帘, 客厅纱帘开)
2024-09-08 09:19:05.608 - 55 00 A6 00 00 0E 01 75 AA 55 00 A6 00 00 0E 01 75 AA (餐厅窗帘电机状态返回)
2024-09-08 09:22:28.723 - 19 08 24 03 CC 01 CC 00 01 (调用茶吧感应灯开的按键)
2024-09-08 09:22:28.775 - 1A AA AA AA 88 FF B0 01 FF B0 01 0F (调光器地址-茶吧灯带, 茶吧灯带明亮)
2024-09-08 09:22:46.059 - 19 08 24 03 CC 00 D3 00 01 (调用厨房感应灯开的按键)
2024-09-08 09:22:46.094 - 55 0A 32 00 00 00 01 92 55 0A 32 00 00 00 02 93 (厨房顶灯一开, 厨房顶灯二开)
2024-09-08 09:22:56.779 - 19 08 24 03 CC 01 CD 00 01 (调用茶吧感应灯关的按键)
2024-09-08 09:22:56.810 - 1A AA AA AA 88 FF 00 01 FF 00 01 0F (调光器地址-茶吧灯带, 茶吧灯带关闭)
2024-09-08 09:22:57.782 - 19 08 24 03 CC 01 CC 00 01 (调用茶吧感应灯开的按键)
2024-09-08 09:22:57.811 - 1A AA AA AA 88 FF B0 01 FF B0 01 0F (调光器地址-茶吧灯带, 茶吧灯带明亮)
2024-09-08 09:23:18.321 - 19 08 24 03 CC 01 CD 00 01 (调用茶吧感应灯关的按键)
2024-09-08 09:23:18.354 - 1A AA AA AA 88 FF 00 01 FF 00 01 0F (调光器地址-茶吧灯带, 茶吧灯带关闭)
2024-09-08 09:23:43.170 - 19 08 24 03 CC 00 D4 00 01 (调用厨房感应灯关的按键)
2024-09-08 09:23:43.206 - 55 0A 31 00 00 00 01 91 55 0A 31 00 00 00 02 92 (厨房顶灯一关, 厨房顶灯二关)
2024-09-08 09:31:15.764 - 19 08 24 03 CC 01 CC 00 01 (调用茶吧感应灯开的按键)
2024-09-08 09:31:15.794 - 1A AA AA AA 88 FF B0 01 FF B0 01 0F (调光器地址-茶吧灯带, 茶吧灯带明亮)
2024-09-08 09:31:42.113 - 19 08 24 03 CC 00 D3 00 01 (调用厨房感应灯开的按键)
2024-09-08 09:31:42.147 - 55 0A 32 00 00 00 01 92 55 0A 32 00 00 00 02 93 (厨房顶灯一开, 厨房顶灯二开)
2024-09-08 09:31:55.342 - 19 08 24 03 CC 01 CD 00 01 (调用茶吧感应灯关的按键)
2024-09-08 09:31:55.373 - 1A AA AA AA 88 FF 00 01 FF 00 01 0F (调光器地址-茶吧灯带, 茶吧灯带关闭)
2024-09-08 09:32:03.358 - 19 08 24 03 CC 01 CC 00 01 (调用茶吧感应灯开的按键)
2024-09-08 09:32:03.389 - 1A AA AA AA 88 FF B0 01 FF B0 01 0F (调光器地址-茶吧灯带, 茶吧灯带明亮)
2024-09-08 09:32:52.455 - 19 08 24 03 CC 01 CD 00 01 (调用茶吧感应灯关的按键)
2024-09-08 09:32:52.486 - 1A AA AA AA 88 FF 00 01 FF 00 01 0F (调光器地址-茶吧灯带, 茶吧灯带关闭)
2024-09-08 09:33:12.495 - 19 08 24 03 CC 01 CC 00 01 (调用茶吧感应灯开的按键)
2024-09-08 09:33:12.525 - 1A AA AA AA 88 FF B0 01 FF B0 01 0F (调光器地址-茶吧灯带, 茶吧灯带明亮)
2024-09-08 09:33:29.528 - 19 08 24 03 CC 01 CD 00 01 (调用茶吧感应灯关的按键)
2024-09-08 09:33:29.560 - 1A AA AA AA 88 FF 00 01 FF 00 01 0F (调光器地址-茶吧灯带, 茶吧灯带关闭)
2024-09-08 09:34:44.471 - 19 08 24 03 CC 00 D4 00 01 (调用厨房感应灯关的按键)
2024-09-08 09:34:44.506 - 55 0A 31 00 00 00 01 91 55 0A 31 00 00 00 02 92 (厨房顶灯一关, 厨房顶灯二关)
2024-09-08 09:34:45.472 - 19 08 24 03 CC 00 D3 00 01 (调用厨房感应灯开的按键)
2024-09-08 09:34:45.508 - 55 0A 32 00 00 00 01 92 55 0A 32 00 00 00 02 93 (厨房顶灯一开, 厨房顶灯二开)
2024-09-08 09:35:37.073 - 19 08 24 03 CC 00 D4 00 01 (调用厨房感应灯关的按键)
2024-09-08 09:35:37.109 - 55 0A 31 00 00 00 01 91 55 0A 31 00 00 00 02 92 (厨房顶灯一关, 厨房顶灯二关)
2024-09-08 09:35:38.076 - 19 08 24 03 CC 00 D3 00 01 (调用厨房感应灯开的按键)
2024-09-08 09:35:38.110 - 55 0A 32 00 00 00 01 92 55 0A 32 00 00 00 02 93 (厨房顶灯一开, 厨房顶灯二开)
2024-09-08 09:38:25.111 - 19 08 24 03 CC 01 CC 00 01 (调用茶吧感应灯开的按键)
2024-09-08 09:38:25.162 - 1A AA AA AA 88 FF B0 01 FF B0 01 0F (调光器地址-茶吧灯带, 茶吧灯带明亮)
2024-09-08 09:38:43.147 - 19 08 24 03 CC 01 CD 00 01 (调用茶吧感应灯关的按键)
2024-09-08 09:38:43.176 - 1A AA AA AA 88 FF 00 01 FF 00 01 0F (调光器地址-茶吧灯带, 茶吧灯带关闭)
2024-09-08 09:40:38.373 - 19 08 24 03 CC 01 CC 00 01 (调用茶吧感应灯开的按键)
2024-09-08 09:40:38.404 - 1A AA AA AA 88 FF B0 01 FF B0 01 0F (调光器地址-茶吧灯带, 茶吧灯带明亮)
2024-09-08 09:40:47.182 - 19 08 24 03 CC 00 D4 00 01 (调用厨房感应灯关的按键)
2024-09-08 09:40:47.217 - 55 0A 31 00 00 00 01 91 55 0A 31 00 00 00 02 92 (厨房顶灯一关, 厨房顶灯二关)
2024-09-08 09:41:01.919 - 19 08 24 03 CC 01 CD 00 01 (调用茶吧感应灯关的按键)
2024-09-08 09:41:01.950 - 1A AA AA AA 88 FF 00 01 FF 00 01 0F (调光器地址-茶吧灯带, 茶吧灯带关闭)
2024-09-08 09:41:11.939 - 19 08 24 03 CC 01 CC 00 01 (调用茶吧感应灯开的按键)
2024-09-08 09:41:11.970 - 1A AA AA AA 88 FF B0 01 FF B0 01 0F (调光器地址-茶吧灯带, 茶吧灯带明亮)
2024-09-08 09:41:32.481 - 19 08 24 03 CC 01 CD 00 01 (调用茶吧感应灯关的按键)
2024-09-08 09:41:32.510 - 1A AA AA AA 88 FF 00 01 FF 00 01 0F (调光器地址-茶吧灯带, 茶吧灯带关闭)
2024-09-08 09:48:57.858 - 19 08 24 03 CC 01 CC 00 01 (调用茶吧感应灯开的按键)
2024-09-08 09:48:57.889 - 1A AA AA AA 88 FF B0 01 FF B0 01 0F (调光器地址-茶吧灯带, 茶吧灯带明亮)
2024-09-08 09:49:00.152 - 19 08 24 03 CC 00 D3 00 01 (调用厨房感应灯开的按键)
2024-09-08 09:49:00.186 - 55 0A 32 00 00 00 01 92 55 0A 32 00 00 00 02 93 (厨房顶灯一开, 厨房顶灯二开)
2024-09-08 09:49:09.883 - 19 08 24 03 CC 01 CD 00 01 (调用茶吧感应灯关的按键)
2024-09-08 09:49:09.912 - 1A AA AA AA 88 FF 00 01 FF 00 01 0F (调光器地址-茶吧灯带, 茶吧灯带关闭)
2024-09-08 09:49:46.456 - 19 08 24 03 CC 01 CC 00 01 (调用茶吧感应灯开的按键)
2024-09-08 09:49:46.487 - 1A AA AA AA 88 FF B0 01 FF B0 01 0F (调光器地址-茶吧灯带, 茶吧灯带明亮)
2024-09-08 09:50:15.512 - 19 08 24 03 CC 01 CD 00 01 (调用茶吧感应灯关的按键)
2024-09-08 09:50:15.543 - 1A AA AA AA 88 FF 00 01 FF 00 01 0F (调光器地址-茶吧灯带, 茶吧灯带关闭)
2024-09-08 09:50:25.820 - 19 08 24 03 CC 00 D4 00 01 (调用厨房感应灯关的按键)
2024-09-08 09:50:25.854 - 55 0A 31 00 00 00 01 91 55 0A 31 00 00 00 02 92 (厨房顶灯一关, 厨房顶灯二关)
2024-09-08 09:50:51.759 - 1A FF FF FF 04 (继电器地址-东阳衣架)
2024-09-08 09:50:51.894 - FF
2024-09-08 09:54:50.115 - 19 08 24 03 DD 00 40 00 01 (调用情景-离开主卧)
2024-09-08 09:54:50.645 - EE 00 00 B1 00 00 00 FF FC FF FF (情景执行提示)
2024-09-08 09:54:51.241 - 09 06 00 0F 02 01 78 21 (提示音叮)
2024-09-08 09:54:51.783 - 50 F5 05 (关主卧影视)
2024-09-08 09:54:52.331 - 50 F5 04 (关内卫影视)
2024-09-08 09:54:52.884 - 01 06 07 D6 FF 60 28 9E (主卧空调关)
2024-09-08 09:54:52.917 - 01 06 07 D6 FF 60 28 9E (主卧空调关)
2024-09-08 09:54:53.480 - A5 00 52 FE 01 AA (主卧窗帘开)
2024-09-08 09:54:54.605 - A5 00 52 FE 01 AA (主卧窗帘开)
2024-09-08 09:54:55.671 - A5 00 53 FF 00 AA (主卧纱帘开)
2024-09-08 09:54:55.729 - 55 00 53 01 00 0C 02 30 AA 55 00 53 01 00 0C 02 30 FE (主卧纱帘电机状态返回)
2024-09-08 09:54:56.269 - A5 00 53 FF 00 AA (主卧纱帘开)
2024-09-08 09:54:56.820 - 1A 22 33 62 0F 00 00 01 0F (正反转地址-内卫卷帘, 内卫卷帘升)
2024-09-08 09:54:57.868 - 1A 20 07 01 40 00 01 00 0F (自保持开关地址-内卫顶灯, 内卫顶灯关)
2024-09-08 09:54:58.448 - 55 20 20 00 00 0F 02 16 AA 55 20 20 00 00 0F 02 16 AA (主卧窗帘电机状态返回)
2024-09-08 09:54:58.914 - 1A 20 07 01 55 00 01 00 0F (自保持开关地址-主卧顶灯, 主卧顶灯只关)
2024-09-08 09:54:59.469 - 1A 0C 02 08 01 FF 00 01 FF 00 01 FF 00 00 0F (调光器地址-内卫射灯, 内卫感应灯关)
2024-09-08 09:55:00.061 - 1A FF FF FF 56 00 00 01 0F (人体感应地址-内卫, 打开内卫感应)
2024-09-08 09:55:00.471 - 19 08 24 03 CC 01 54 00 01 (调用内卫感应灯开的按键)
2024-09-08 09:55:00.524 - 1A 0C 02 08 01 FF 45 01 FF 45 01 FF 00 00 0F (调光器地址-内卫射灯, 内卫射灯微光)
2024-09-08 09:55:03.956 - 1A 0C 02 04 FF FF 00 01 FF 00 01 FF 00 00 0F (主卧调光全关)
2024-09-08 09:55:05.046 - 09 06 00 0F 02 02 38 20 (提示音咚)
2024-09-08 09:55:05.646 - EE 00 00 B1 00 00 02 FF FC FF FF (情景完成返回主页)
2024-09-08 09:55:06.522 - 55 00 53 00 02 22 02 30 AA 55 00 53 00 02 22 02 30 AA (主卧纱帘电机状态返回)
2024-09-08 09:55:48.768 - 19 08 24 03 CC 01 55 00 01 (调用内卫感应灯关的按键)
2024-09-08 09:55:48.820 - 1A 0C 02 08 01 FF 00 01 FF 00 01 FF 00 00 0F (调光器地址-内卫射灯, 内卫感应灯关)
2024-09-08 09:56:49.889 - 19 08 24 03 CC 01 54 00 01 (调用内卫感应灯开的按键)
2024-09-08 09:56:49.949 - 1A 0C 02 08 01 FF 45 01 FF 45 01 FF 00 00 0F (调光器地址-内卫射灯, 内卫射灯微光)
2024-09-08 09:57:15.939 - 19 08 24 03 CC 01 55 00 01 (调用内卫感应灯关的按键)
2024-09-08 09:57:15.973 - 1A 0C 02 08 01 FF 00 01 FF 00 01 FF 00 00 0F (调光器地址-内卫射灯, 内卫感应灯关)
2024-09-08 10:31:10.863 - 19 08 24 03 CC 01 CC 00 01 (调用茶吧感应灯开的按键)
2024-09-08 10:31:10.896 - 1A AA AA AA 88 FF B0 01 FF B0 01 0F (调光器地址-茶吧灯带, 茶吧灯带明亮)
2024-09-08 10:31:31.404 - 19 08 24 03 CC 01 CD 00 01 (调用茶吧感应灯关的按键)
2024-09-08 10:31:31.435 - 1A AA AA AA 88 FF 00 01 FF 00 01 0F (调光器地址-茶吧灯带, 茶吧灯带关闭)
2024-09-08 10:32:30.521 - 19 08 24 03 CC 01 CC 00 01 (调用茶吧感应灯开的按键)
2024-09-08 10:32:30.552 - 1A AA AA AA 88 FF B0 01 FF B0 01 0F (调光器地址-茶吧灯带, 茶吧灯带明亮)
2024-09-08 10:32:45.315 - 19 08 24 03 CC 00 D3 00 01 (调用厨房感应灯开的按键)
2024-09-08 10:32:45.349 - 55 0A 32 00 00 00 01 92 55 0A 32 00 00 00 02 93 (厨房顶灯一开, 厨房顶灯二开)
2024-09-08 10:33:37.918 - 19 08 24 03 CC 00 D4 00 01 (调用厨房感应灯关的按键)
2024-09-08 10:33:37.954 - 55 0A 31 00 00 00 01 91 55 0A 31 00 00 00 02 92 (厨房顶灯一关, 厨房顶灯二关)
2024-09-08 10:33:51.946 - 19 08 24 03 CC 00 D3 00 01 (调用厨房感应灯开的按键)
2024-09-08 10:33:51.982 - 55 0A 32 00 00 00 01 92 55 0A 32 00 00 00 02 93 (厨房顶灯一开, 厨房顶灯二开)
2024-09-08 10:34:02.703 - 19 08 24 03 CC 01 CD 00 01 (调用茶吧感应灯关的按键)
2024-09-08 10:34:02.734 - 1A AA AA AA 88 FF 00 01 FF 00 01 0F (调光器地址-茶吧灯带, 茶吧灯带关闭)
2024-09-08 10:34:04.708 - 19 08 24 03 CC 01 CC 00 01 (调用茶吧感应灯开的按键)
2024-09-08 10:34:04.737 - 1A AA AA AA 88 FF B0 01 FF B0 01 0F (调光器地址-茶吧灯带, 茶吧灯带明亮)
2024-09-08 10:34:45.049 - 19 08 24 03 CC 00 D4 00 01 (调用厨房感应灯关的按键)
2024-09-08 10:34:45.084 - 55 0A 31 00 00 00 01 91 55 0A 31 00 00 00 02 92 (厨房顶灯一关, 厨房顶灯二关)
2024-09-08 10:34:55.307 - 19 08 24 03 CC 01 CD 00 01 (调用茶吧感应灯关的按键)
2024-09-08 10:34:55.338 - 1A AA AA AA 88 FF 00 01 FF 00 01 0F (调光器地址-茶吧灯带, 茶吧灯带关闭)
2024-09-08 11:01:43.468 - FF FF FF FF 0E FE (继电器地址-西阳小窗帘)
2024-09-08 11:01:43.602 - FE
2024-09-08 11:01:48.562 - 1A BE B0 DC 09 (继电器地址-客厅窗帘)
2024-09-08 11:01:48.697 - FE
2024-09-08 11:01:52.135 - 1A BE B0 DC 02 (正反转地址-外卫卷帘)
2024-09-08 11:01:53.575 - 1A BE B0 DC 0A FC (继电器地址-客厅纱帘)
2024-09-08 11:02:11.942 - 1A BE B0 DC 04 FE (继电器地址-西阳窗帘)
2024-09-08 11:02:58.913 - 1A BE B0 DC 01 FC (继电器地址-回水泵点动)
2024-09-08 11:02:59.048 - FF
2024-09-08 11:03:01.240 - 1A BE B0 DC 03 FC (继电器地址-西阳天幕)
2024-09-08 11:03:01.376 - FF
2024-09-08 11:06:11.858 - FF FF FF FF 0A FE (继电器地址-东阳窗帘)
2024-09-08 11:06:11.993 - FF
2024-09-08 11:16:17.207 - 19 08 24 03 CC 01 CC 00 01 (调用茶吧感应灯开的按键)
2024-09-08 11:16:17.257 - 1A AA AA AA 88 FF B0 01 FF B0 01 0F (调光器地址-茶吧灯带, 茶吧灯带明亮)
2024-09-08 11:16:19.450 - 19 08 24 03 CC 00 D3 00 01 (调用厨房感应灯开的按键)
2024-09-08 11:16:19.505 - 55 0A 32 00 00 00 01 92 55 0A 32 00 00 00 02 93 (厨房顶灯一开, 厨房顶灯二开)
2024-09-08 11:16:29.231 - 19 08 24 03 CC 01 CD 00 01 (调用茶吧感应灯关的按键)
2024-09-08 11:16:29.263 - 1A AA AA AA 88 FF 00 01 FF 00 01 0F (调光器地址-茶吧灯带, 茶吧灯带关闭)
2024-09-08 11:16:29.732 - 19 08 24 03 CC 01 CC 00 01 (调用茶吧感应灯开的按键)
2024-09-08 11:16:29.763 - 1A AA AA AA 88 FF B0 01 FF B0 01 0F (调光器地址-茶吧灯带, 茶吧灯带明亮)
2024-09-08 11:16:46.266 - 19 08 24 03 CC 01 CD 00 01 (调用茶吧感应灯关的按键)
2024-09-08 11:16:46.295 - 1A AA AA AA 88 FF 00 01 FF 00 01 0F (调光器地址-茶吧灯带, 茶吧灯带关闭)
2024-09-08 11:17:11.552 - 19 08 24 03 CC 00 D4 00 01 (调用厨房感应灯关的按键)
2024-09-08 11:17:11.587 - 55 0A 31 00 00 00 01 91 55 0A 31 00 00 00 02 92 (厨房顶灯一关, 厨房顶灯二关)
2024-09-08 11:31:12.476 - 19 08 24 03 CC 01 CC 00 01 (调用茶吧感应灯开的按键)
2024-09-08 11:31:12.507 - 1A AA AA AA 88 FF B0 01 FF B0 01 0F (调光器地址-茶吧灯带, 茶吧灯带明亮)
2024-09-08 11:31:24.131 - 19 08 24 03 CC 01 39 00 01
2024-09-08 11:31:25.001 - 19 08 24 03 CC 01 39 00 01
2024-09-08 11:31:25.792 - 19 08 24 03 CC 01 38 00 01
2024-09-08 11:31:27.184 - 19 08 24 03 CC 01 3A 00 01
2024-09-08 11:31:29.507 - 19 08 24 03 CC 01 3A 00 01
2024-09-08 11:31:36.252 - 19 08 24 03 CC 00 D3 00 01 (调用厨房感应灯开的按键)
2024-09-08 11:31:36.287 - 55 0A 32 00 00 00 01 92 55 0A 32 00 00 00 02 93 (厨房顶灯一开, 厨房顶灯二开)
2024-09-08 11:31:46.065 - 19 08 24 03 CC 01 3B 00 01
2024-09-08 11:31:47.225 - 19 08 24 03 CC 01 39 00 01
2024-09-08 11:31:47.656 - 19 08 24 03 CC 01 39 00 01
2024-09-08 11:31:47.948 - 19 08 24 03 CC 01 39 00 01
2024-09-08 11:31:48.287 - 19 08 24 03 CC 01 39 00 01
2024-09-08 11:31:48.747 - 19 08 24 03 CC 01 39 00 01
2024-09-08 11:32:31.147 - 19 08 24 03 CC 01 CD 00 01 (调用茶吧感应灯关的按键)
2024-09-08 11:32:31.205 - 1A AA AA AA 88 FF 00 01 FF 00 01 0F (调光器地址-茶吧灯带, 茶吧灯带关闭)
2024-09-08 11:33:03.925 - 19 08 24 03 CC 00 D4 00 01 (调用厨房感应灯关的按键)
2024-09-08 11:33:03.959 - 55 0A 31 00 00 00 01 91 55 0A 31 00 00 00 02 92 (厨房顶灯一关, 厨房顶灯二关)
2024-09-08 11:39:13.942 - 19 08 24 03 CC 01 CC 00 01 (调用茶吧感应灯开的按键)
2024-09-08 11:39:13.972 - 1A AA AA AA 88 FF B0 01 FF B0 01 0F (调光器地址-茶吧灯带, 茶吧灯带明亮)
2024-09-08 11:39:43.709 - 19 08 24 03 CC 00 D3 00 01 (调用厨房感应灯开的按键)
2024-09-08 11:39:43.745 - 55 0A 32 00 00 00 01 92 55 0A 32 00 00 00 02 93 (厨房顶灯一开, 厨房顶灯二开)
2024-09-08 11:39:56.025 - 19 08 24 03 CC 01 CD 00 01 (调用茶吧感应灯关的按键)
2024-09-08 11:39:56.055 - 1A AA AA AA 88 FF 00 01 FF 00 01 0F (调光器地址-茶吧灯带, 茶吧灯带关闭)
2024-09-08 11:40:05.043 - 19 08 24 03 CC 01 CC 00 01 (调用茶吧感应灯开的按键)
2024-09-08 11:40:05.083 - 1A AA AA AA 88 FF B0 01 FF B0 01 0F (调光器地址-茶吧灯带, 茶吧灯带明亮)
2024-09-08 11:40:07.808 - 19 08 24 03 CC 01 39 00 01
2024-09-08 11:40:08.527 - 19 08 24 03 CC 01 39 00 01
2024-09-08 11:40:08.929 - 19 08 24 03 CC 01 39 00 01
2024-09-08 11:40:09.193 - 19 08 24 03 CC 01 39 00 01
2024-09-08 11:40:09.420 - 19 08 24 03 CC 01 39 00 01
2024-09-08 11:40:09.870 - 19 08 24 03 CC 01 39 00 01
2024-09-08 11:40:10.170 - 19 08 24 03 CC 01 39 00 01
2024-09-08 11:40:10.463 - 19 08 24 03 CC 01 39 00 01
2024-09-08 11:40:33.599 - 19 08 24 03 CC 01 CD 00 01 (调用茶吧感应灯关的按键)
2024-09-08 11:40:33.629 - 1A AA AA AA 88 FF 00 01 FF 00 01 0F (调光器地址-茶吧灯带, 茶吧灯带关闭)
2024-09-08 11:41:19.690 - 19 08 24 03 CC 01 CC 00 01 (调用茶吧感应灯开的按键)
2024-09-08 11:41:19.721 - 1A AA AA AA 88 FF B0 01 FF B0 01 0F (调光器地址-茶吧灯带, 茶吧灯带明亮)
2024-09-08 11:41:29.418 - 19 08 24 03 CC 00 D4 00 01 (调用厨房感应灯关的按键)
2024-09-08 11:41:29.452 - 55 0A 31 00 00 00 01 91 55 0A 31 00 00 00 02 92 (厨房顶灯一关, 厨房顶灯二关)
2024-09-08 11:41:31.713 - 19 08 24 03 CC 01 CD 00 01 (调用茶吧感应灯关的按键)
2024-09-08 11:41:31.744 - 1A AA AA AA 88 FF 00 01 FF 00 01 0F (调光器地址-茶吧灯带, 茶吧灯带关闭)
2024-09-08 11:42:26.821 - 19 08 24 03 CC 01 CC 00 01 (调用茶吧感应灯开的按键)
2024-09-08 11:42:26.852 - 1A AA AA AA 88 FF B0 01 FF B0 01 0F (调光器地址-茶吧灯带, 茶吧灯带明亮)
2024-09-08 11:42:29.035 - 19 08 24 03 CC 00 D3 00 01 (调用厨房感应灯开的按键)
2024-09-08 11:42:29.070 - 55 0A 32 00 00 00 01 92 55 0A 32 00 00 00 02 93 (厨房顶灯一开, 厨房顶灯二开)
2024-09-08 11:42:39.347 - 19 08 24 03 CC 01 CD 00 01 (调用茶吧感应灯关的按键)
2024-09-08 11:42:39.376 - 1A AA AA AA 88 FF 00 01 FF 00 01 0F (调光器地址-茶吧灯带, 茶吧灯带关闭)
2024-09-08 11:42:43.354 - 19 08 24 03 CC 01 CC 00 01 (调用茶吧感应灯开的按键)
2024-09-08 11:42:43.386 - 1A AA AA AA 88 FF B0 01 FF B0 01 0F (调光器地址-茶吧灯带, 茶吧灯带明亮)
2024-09-08 11:42:54.877 - 19 08 24 03 CC 01 CD 00 01 (调用茶吧感应灯关的按键)
2024-09-08 11:42:54.908 - 1A AA AA AA 88 FF 00 01 FF 00 01 0F (调光器地址-茶吧灯带, 茶吧灯带关闭)
2024-09-08 11:43:23.642 - 19 08 24 03 CC 00 D4 00 01 (调用厨房感应灯关的按键)
2024-09-08 11:43:23.677 - 55 0A 31 00 00 00 01 91 55 0A 31 00 00 00 02 92 (厨房顶灯一关, 厨房顶灯二关)
2024-09-08 11:44:36.578 - 19 08 24 03 CC 01 CC 00 01 (调用茶吧感应灯开的按键)
2024-09-08 11:44:36.608 - 1A AA AA AA 88 FF B0 01 FF B0 01 0F (调光器地址-茶吧灯带, 茶吧灯带明亮)
2024-09-08 11:44:38.289 - 19 08 24 03 CC 00 D3 00 01 (调用厨房感应灯开的按键)
2024-09-08 11:44:38.325 - 55 0A 32 00 00 00 01 92 55 0A 32 00 00 00 02 93 (厨房顶灯一开, 厨房顶灯二开)
2024-09-08 11:44:57.620 - 19 08 24 03 CC 01 CD 00 01 (调用茶吧感应灯关的按键)
2024-09-08 11:44:57.651 - 1A AA AA AA 88 FF 00 01 FF 00 01 0F (调光器地址-茶吧灯带, 茶吧灯带关闭)
2024-09-08 11:45:27.887 - 19 08 24 03 CC 00 D4 00 01 (调用厨房感应灯关的按键)
2024-09-08 11:45:27.927 - 55 0A 31 00 00 00 01 91 55 0A 31 00 00 00 02 92 (厨房顶灯一关, 厨房顶灯二关)
2024-09-08 11:48:53.643 - 19 08 24 03 CC 01 54 00 01 (调用内卫感应灯开的按键)
2024-09-08 11:48:54.101 - 1A 0C 02 08 01 FF 45 01 FF 45 01 FF 00 00 0F (调光器地址-内卫射灯, 内卫射灯微光)
2024-09-08 11:49:14.874 - 1A 20 00 00 00 86 86 86 0F (调用查询模块-阳台测温湿气压转换, 阳台温湿气压虚拟地址)
2024-09-08 11:49:15.093 - 20 03 00 00 00 03 03 7A (查询阳台温湿度气压)
2024-09-08 11:49:15.114 - 20 03 06 01 7D 00 F2 27 29 A3 22 (阳台温湿度返回)
2024-09-08 11:49:15.617 - 1A 20 00 00 00 00 00 01 00 00 01 00 00 01 01 7D 01 00 F2 01 27 29 01 00 00 01 0F (阳台温湿气压虚拟地址)
2024-09-08 11:49:15.756 - 1A 21 00 00 00 86 86 86 0F (调用查询模块-储藏室测温湿气压转换, 储藏室温湿气压虚拟地址)
2024-09-08 11:49:15.976 - 21 03 00 00 00 03 02 AB (查询储藏室温湿度气压)
2024-09-08 11:49:15.997 - 21 03 06 01 3A 02 4C 27 2C BB 22 (储藏室温湿度返回)
2024-09-08 11:49:16.497 - 1A 21 00 00 00 00 00 01 00 00 01 00 00 01 01 3A 01 02 4C 01 27 2C 01 00 00 01 0F (储藏室温湿气压虚拟地址)
2024-09-08 11:49:16.677 - 1A 22 00 00 00 86 86 86 0F (调用查询模块-室外测温湿气压转换, 室外温湿气压虚拟地址)
2024-09-08 11:49:16.899 - 22 03 00 00 00 03 02 98 (查询室外温湿度气压)
2024-09-08 11:49:16.919 - 22 03 06 01 42 02 10 27 2A 4F C8 (室外温湿度返回)
2024-09-08 11:49:17.419 - 1A 22 00 00 00 00 00 01 00 00 01 00 00 01 01 42 01 02 10 01 27 2A 01 00 00 01 0F (室外温湿气压虚拟地址)
2024-09-08 11:49:17.635 - 1A 23 00 00 00 86 86 86 0F (调用查询模块-客厅测温湿气压转换, 客厅温湿气压虚拟地址)
2024-09-08 11:49:17.861 - 23 03 00 00 00 03 03 49 (查询客厅温湿度气压)
2024-09-08 11:49:17.881 - 23 03 06 00 FC 01 BE 27 2C 8A 35 (客厅温湿度返回)
2024-09-08 11:49:18.382 - 1A 23 00 00 00 00 00 01 00 00 01 00 00 01 00 FC 01 01 BE 01 27 2C 01 00 00 01 0F (客厅温湿气压虚拟地址)
2024-09-08 11:49:18.519 - 1A 24 00 00 00 86 86 86 0F (调用查询模块-餐厅测温湿气压转换, 餐厅温湿气压虚拟地址)
2024-09-08 11:49:18.742 - 24 03 00 00 00 03 02 FE (查询餐厅温湿度气压)
2024-09-08 11:49:18.764 - 24 03 06 01 1F 01 7A 27 2A A9 FD (餐厅温湿度返回)
2024-09-08 11:49:19.264 - 1A 24 00 00 00 00 00 01 00 00 01 00 00 01 01 1F 01 01 7A 01 27 2A 01 00 00 01 0F (餐厅温湿气压虚拟地址)
2024-09-08 11:49:19.480 - 1A 25 00 00 00 86 86 86 0F (调用查询模块-主卧测温湿气压转换, 主卧温湿气压虚拟地址)
2024-09-08 11:49:19.705 - 25 03 00 00 00 03 03 2F (查询主卧温湿度气压)
2024-09-08 11:49:19.725 - 25 03 06 01 27 01 C0 27 29 64 4C (主卧温湿度返回)
2024-09-08 11:49:20.227 - 1A 25 00 00 00 00 00 01 00 00 01 00 00 01 01 27 01 01 C0 01 27 29 01 00 00 01 0F (主卧温湿气压虚拟地址)
2024-09-08 11:49:21.484 - 1A 25 00 00 00 86 86 86 0F (调用查询模块-主卧测温湿气压转换, 主卧温湿气压虚拟地址)
2024-09-08 11:49:21.709 - 25 03 00 00 00 03 03 2F (查询主卧温湿度气压)
2024-09-08 11:49:21.731 - 25 03 06 01 27 01 C1 27 29 35 8C (主卧温湿度返回)
2024-09-08 11:49:22.231 - 1A 25 00 00 00 00 00 01 00 00 01 00 00 01 01 27 01 01 C1 01 27 29 01 00 00 01 0F (主卧温湿气压虚拟地址)
2024-09-08 11:55:33.909 - 19 08 24 03 CC 01 64 00 01
2024-09-08 11:55:33.950 - 50 F5 08 (关客厅影视)
2024-09-08 11:55:38.275 - 19 08 24 03 DD 00 00 00 01 (调用情景-离家（末）)
2024-09-08 11:55:38.813 - EE 00 00 B1 00 00 00 FF FC FF FF (情景执行提示)
2024-09-08 11:55:39.407 - 09 06 00 0F 02 02 38 20 (提示音咚)
2024-09-08 11:55:39.951 - 50 F7 01 (全屋影音全关)
2024-09-08 11:55:40.504 - 01 06 07 D0 FF 60 C8 9F (客厅空调关)
2024-09-08 11:55:40.539 - 01 06 07 D0 FF 60 C8 9F (客厅空调关)
2024-09-08 11:55:41.102 - 01 06 07 D0 FF 60 C8 9F (客厅空调关)
2024-09-08 11:55:41.134 - 01 06 07 D0 FF 60 C8 9F (客厅空调关)
2024-09-08 11:55:41.700 - 01 06 07 D3 FF 60 38 9F (餐厅空调关)
2024-09-08 11:55:41.729 - 01 06 07 D3 FF 60 38 9F (餐厅空调关)
2024-09-08 11:55:42.297 - 01 06 07 D3 FF 60 38 9F (餐厅空调关)
2024-09-08 11:55:42.326 - 01 06 07 D3 FF 60 38 9F (餐厅空调关)
2024-09-08 11:55:42.895 - 01 06 07 D6 FF 60 28 9E (主卧空调关)
2024-09-08 11:55:42.932 - 01 06 07 D6 FF 60 28 9E (主卧空调关)
2024-09-08 11:55:43.493 - 01 06 07 D6 FF 60 28 9E (主卧空调关)
2024-09-08 11:55:43.528 - 01 06 07 D6 FF 60 28 9E (主卧空调关)
2024-09-08 11:55:44.092 - 01 06 07 D9 FF 60 18 9D (次卧空调关)
2024-09-08 11:55:44.123 - 01 06 07 D9 FF 60 18 9D (次卧空调关)
2024-09-08 11:55:44.689 - 01 06 07 D9 FF 60 18 9D (次卧空调关)
2024-09-08 11:55:44.718 - 01 06 07 D9 FF 60 18 9D (次卧空调关)
2024-09-08 11:55:45.287 - 01 06 07 DC FF 60 08 9C (书房空调关)
2024-09-08 11:55:45.315 - 01 06 07 DC FF 60 08 9C (书房空调关)
2024-09-08 11:55:45.886 - 01 06 07 DC FF 60 08 9C (书房空调关)
2024-09-08 11:55:45.922 - 01 06 07 DC FF 60 08 9C (书房空调关)
2024-09-08 11:55:46.484 - 09 06 00 0F 02 02 38 20 (提示音咚)
2024-09-08 11:55:47.033 - 1A FF FF FF 56 00 00 00 0F (人体感应地址-内卫, 关闭内卫感应)
2024-09-08 11:55:47.580 - 1A FF FF FF 55 00 00 00 0F (人体感应地址-外卫, 关闭外卫感应)
2024-09-08 11:55:47.594 - BC BC
2024-09-08 11:55:48.179 - 1A FF FF FF 57 00 00 00 0F (人体感应地址-厨房, 关闭厨房感应)
2024-09-08 11:55:48.775 - 1A FF FF FF 58 00 00 00 0F (人体感应地址-茶吧, 关闭茶吧感应)
2024-09-08 11:55:48.827 - BC BC
2024-09-08 11:55:49.376 - 1A 20 07 00 93 00 01 00 0F (自保持开关地址-设备区顶, 设备区顶灯关)
2024-09-08 11:55:50.420 - 1A 20 07 01 40 00 01 00 0F (自保持开关地址-内卫顶灯, 内卫顶灯关)
2024-09-08 11:55:51.467 - 1A 20 07 01 55 00 01 00 0F (自保持开关地址-主卧顶灯, 主卧顶灯只关)
2024-09-08 11:55:52.514 - 1A 20 07 00 42 00 01 00 0F (自保持开关地址-外卫顶灯, 外卫顶灯关)
2024-09-08 11:55:53.559 - 55 0D 31 00 00 00 01 94 (书房顶灯只关)
2024-09-08 11:55:54.605 - 55 0A 31 00 00 00 01 91 (厨房顶灯一关)
2024-09-08 11:55:55.652 - 55 0A 31 00 00 00 02 92 (厨房顶灯二关)
2024-09-08 11:55:56.697 - 55 0B 31 00 00 00 01 92 (厨房风扇只关)
2024-09-08 11:55:57.745 - 55 0C 31 00 00 00 01 93 (餐厅顶灯关)
2024-09-08 11:55:58.791 - 1A 20 07 01 30 00 01 00 0F (自保持开关地址-西阳顶灯, 西阳顶灯关)
2024-09-08 11:55:59.838 - 1A 18 05 21 89 00 01 00 0F (自保持开关地址-客厅顶灯, 客厅顶灯一关)
2024-09-08 11:56:00.884 - 1A 18 05 01 94 00 01 00 0F (自保持开关地址-客厅顶灯, 客厅顶灯二关)
2024-09-08 11:56:01.930 - 1A 20 07 00 70 00 01 00 0F (自保持开关地址-次卧顶灯, 次卧顶灯只关)
2024-09-08 11:56:02.977 - 1A 18 05 10 31 00 01 00 0F (自保持开关地址-门厅顶灯, 门厅顶灯关)
2024-09-08 11:56:04.023 - 1A FF FF FF 04 00 03 02 (继电器地址-东阳衣架, 东阳衣架照明关)
2024-09-08 11:56:04.570 - 09 06 00 0F 02 02 38 20 (提示音咚)
2024-09-08 11:56:05.117 - A5 00 A6 FE 01 AA (餐厅窗帘开)
