2024-08-31 20:11:23.448 - 19 08 24 03 CC 00 D3 00 01 (调用厨房感应灯开的按键)
2024-08-31 20:11:23.482 - 55 0A 32 00 00 00 01 92 55 0A 32 00 00 00 02 93 (厨房顶灯一开, 厨房顶灯二开)
2024-08-31 20:12:00.017 - 19 08 24 03 CC 00 D4 00 01 (调用厨房感应灯关的按键)
2024-08-31 20:12:00.052 - 55 0A 31 00 00 00 01 91 55 0A 31 00 00 00 02 92 (厨房顶灯一关, 厨房顶灯二关)
2024-08-31 20:12:44.111 - 19 08 24 03 CC 00 D3 00 01 (调用厨房感应灯开的按键)
2024-08-31 20:12:44.145 - 55 0A 32 00 00 00 01 92 55 0A 32 00 00 00 02 93 (厨房顶灯一开, 厨房顶灯二开)
2024-08-31 20:15:44.963 - 19 08 24 03 CC 00 D4 00 01 (调用厨房感应灯关的按键)
2024-08-31 20:15:44.995 - 55 0A 31 00 00 00 01 91 55 0A 31 00 00 00 02 92 (厨房顶灯一关, 厨房顶灯二关)
2024-08-31 20:16:38.060 - 19 08 24 03 CC 00 D3 00 01 (调用厨房感应灯开的按键)
2024-08-31 20:16:38.104 - 55 0A 32 00 00 00 01 92 55 0A 32 00 00 00 02 93 (厨房顶灯一开, 厨房顶灯二开)
2024-08-31 20:17:13.132 - 19 08 24 03 CC 00 D4 00 01 (调用厨房感应灯关的按键)
2024-08-31 20:17:13.176 - 55 0A 31 00 00 00 01 91 55 0A 31 00 00 00 02 92 (厨房顶灯一关, 厨房顶灯二关)
2024-08-31 20:17:39.687 - 19 08 24 03 CC 00 D3 00 01 (调用厨房感应灯开的按键)
2024-08-31 20:17:39.719 - 55 0A 32 00 00 00 01 92 55 0A 32 00 00 00 02 93 (厨房顶灯一开, 厨房顶灯二开)
2024-08-31 20:20:43.038 - 19 08 24 03 CC 00 D4 00 01 (调用厨房感应灯关的按键)
2024-08-31 20:20:43.086 - 55 0A 31 00 00 00 01 91 55 0A 31 00 00 00 02 92 (厨房顶灯一关, 厨房顶灯二关)
2024-08-31 20:22:25.855 - 19 08 24 03 CC 01 CC 00 01 (调用茶吧感应灯开的按键)
2024-08-31 20:22:25.889 - 1A AA AA AA 88 FF B0 01 FF B0 01 0F (调光器地址-茶吧灯带, 茶吧灯带明亮)
2024-08-31 20:22:39.275 - 19 08 24 03 CC 00 D3 00 01 (调用厨房感应灯开的按键)
2024-08-31 20:22:39.309 - 55 0A 32 00 00 00 01 92 55 0A 32 00 00 00 02 93 (厨房顶灯一开, 厨房顶灯二开)
2024-08-31 20:23:14.343 - 19 08 24 03 CC 00 D4 00 01 (调用厨房感应灯关的按键)
2024-08-31 20:23:14.386 - 55 0A 31 00 00 00 01 91 55 0A 31 00 00 00 02 92 (厨房顶灯一关, 厨房顶灯二关)
2024-08-31 20:23:18.468 - 19 08 24 03 CC 01 CD 00 01 (调用茶吧感应灯关的按键)
2024-08-31 20:23:18.493 - 1A AA AA AA 88 FF 00 01 FF 00 01 0F (调光器地址-茶吧灯带, 茶吧灯带关闭)
2024-08-31 20:24:25.987 - 19 08 24 03 CC 00 D3 00 01 (调用厨房感应灯开的按键)
2024-08-31 20:24:26.019 - 55 0A 32 00 00 00 01 92 55 0A 32 00 00 00 02 93 (厨房顶灯一开, 厨房顶灯二开)
2024-08-31 20:25:42.131 - 19 08 24 03 CC 00 D4 00 01 (调用厨房感应灯关的按键)
2024-08-31 20:25:42.175 - 55 0A 31 00 00 00 01 91 55 0A 31 00 00 00 02 92 (厨房顶灯一关, 厨房顶灯二关)
2024-08-31 20:26:51.268 - 19 08 24 03 CC 00 D3 00 01 (调用厨房感应灯开的按键)
2024-08-31 20:26:51.300 - 55 0A 32 00 00 00 01 92 55 0A 32 00 00 00 02 93 (厨房顶灯一开, 厨房顶灯二开)
2024-08-31 20:27:46.384 - 19 08 24 03 CC 00 D4 00 01 (调用厨房感应灯关的按键)
2024-08-31 20:27:46.418 - 55 0A 31 00 00 00 01 91 55 0A 31 00 00 00 02 92 (厨房顶灯一关, 厨房顶灯二关)
2024-08-31 20:28:44.112 - 19 08 24 03 CC 01 CC 00 01 (调用茶吧感应灯开的按键)
2024-08-31 20:28:44.143 - 1A AA AA AA 88 FF B0 01 FF B0 01 0F (调光器地址-茶吧灯带, 茶吧灯带明亮)
2024-08-31 20:29:21.071 - 19 08 24 03 CC 00 D3 00 01 (调用厨房感应灯开的按键)
2024-08-31 20:29:21.105 - 55 0A 32 00 00 00 01 92 55 0A 32 00 00 00 02 93 (厨房顶灯一开, 厨房顶灯二开)
2024-08-31 20:29:32.705 - 19 08 24 03 CC 01 CD 00 01 (调用茶吧感应灯关的按键)
2024-08-31 20:29:32.739 - 1A AA AA AA 88 FF 00 01 FF 00 01 0F (调光器地址-茶吧灯带, 茶吧灯带关闭)
2024-08-31 20:32:42.582 - 19 08 24 03 CC 01 CC 00 01 (调用茶吧感应灯开的按键)
2024-08-31 20:32:42.614 - 1A AA AA AA 88 FF B0 01 FF B0 01 0F (调光器地址-茶吧灯带, 茶吧灯带明亮)
2024-08-31 20:33:09.511 - 19 08 24 03 CC 00 D4 00 01 (调用厨房感应灯关的按键)
2024-08-31 20:33:09.555 - 55 0A 31 00 00 00 01 91 55 0A 31 00 00 00 02 92 (厨房顶灯一关, 厨房顶灯二关)
2024-08-31 20:33:20.038 - 19 08 24 03 CC 00 D3 00 01 (调用厨房感应灯开的按键)
2024-08-31 20:33:20.072 - 55 0A 32 00 00 00 01 92 55 0A 32 00 00 00 02 93 (厨房顶灯一开, 厨房顶灯二开)
2024-08-31 20:33:44.705 - 19 08 24 03 CC 01 CD 00 01 (调用茶吧感应灯关的按键)
2024-08-31 20:33:44.737 - 1A AA AA AA 88 FF 00 01 FF 00 01 0F (调光器地址-茶吧灯带, 茶吧灯带关闭)
2024-08-31 20:33:52.490 - 1A FF FF FF 04 FE (继电器地址-东阳衣架)
2024-08-31 20:33:52.622 - 00
2024-08-31 20:34:05.616 - 19 08 24 03 CC 00 D4 00 01 (调用厨房感应灯关的按键)
2024-08-31 20:34:05.684 - 55 0A 31 00 00 00 01 91 55 0A 31 00 00 00 02 92 (厨房顶灯一关, 厨房顶灯二关)
2024-08-31 20:42:31.740 - 19 08 24 03 CC 01 CC 00 01 (调用茶吧感应灯开的按键)
2024-08-31 20:42:31.787 - 1A AA AA AA 88 FF B0 01 FF B0 01 0F (调光器地址-茶吧灯带, 茶吧灯带明亮)
2024-08-31 20:42:34.132 - 19 08 24 03 CC 00 D3 00 01 (调用厨房感应灯开的按键)
2024-08-31 20:42:34.163 - 55 0A 32 00 00 00 01 92 55 0A 32 00 00 00 02 93 (厨房顶灯一开, 厨房顶灯二开)
2024-08-31 20:42:44.263 - 19 08 24 03 CC 01 CD 00 01 (调用茶吧感应灯关的按键)
2024-08-31 20:42:44.298 - 1A AA AA AA 88 FF 00 01 FF 00 01 0F (调光器地址-茶吧灯带, 茶吧灯带关闭)
2024-08-31 20:44:14.944 - 19 08 24 03 CC 01 CC 00 01 (调用茶吧感应灯开的按键)
2024-08-31 20:44:14.978 - 1A AA AA AA 88 FF B0 01 FF B0 01 0F (调光器地址-茶吧灯带, 茶吧灯带明亮)
2024-08-31 20:44:34.487 - 19 08 24 03 CC 01 CD 00 01 (调用茶吧感应灯关的按键)
2024-08-31 20:44:34.507 - 1A AA AA AA 88 FF 00 01 FF 00 01 0F (调光器地址-茶吧灯带, 茶吧灯带关闭)
2024-08-31 20:44:54.907 - 19 08 24 03 CC 00 D4 00 01 (调用厨房感应灯关的按键)
2024-08-31 20:44:54.941 - 55 0A 31 00 00 00 01 91 55 0A 31 00 00 00 02 92 (厨房顶灯一关, 厨房顶灯二关)
2024-08-31 21:07:03.625 - 1A BE B0 DC 04 FC (继电器地址-西阳窗帘)
2024-08-31 21:07:03.769 - FE
2024-08-31 21:07:04.952 - FF FF FF FF 0E FE (继电器地址-西阳小窗帘)
2024-08-31 21:07:05.092 - FE
2024-08-31 21:07:10.037 - 1A BE B0 DC 09 (继电器地址-客厅窗帘)
2024-08-31 21:07:10.180 - FE
2024-08-31 21:08:13.795 - 1A BE B0 DC 02 FC (正反转地址-外卫卷帘)
2024-08-31 21:08:13.915 - FF
2024-08-31 21:08:15.529 - 1A BE B0 DC 0A (继电器地址-客厅纱帘)
2024-08-31 21:10:21.814 - 1A BE B0 DC 01 FF (继电器地址-回水泵点动)
2024-08-31 21:10:21.946 - FF
2024-08-31 21:10:22.600 - 1A BE B0 DC 03 FC (继电器地址-西阳天幕)
2024-08-31 21:10:22.732 - FF
2024-08-31 21:11:21.548 - FF FF FF FF 0A FE (继电器地址-东阳窗帘)
2024-08-31 22:17:20.888 - FF
2024-08-31 22:38:59.733 - 19 08 24 03 DD 00 42 00 01 (调用情景-主卧电视空调)
2024-08-31 22:39:00.310 - EE 00 00 B1 00 00 00 FF FC FF FF (情景执行提示)
2024-08-31 22:39:00.905 - 09 06 00 0F 02 01 78 21 (提示音叮)
2024-08-31 22:39:01.450 - 50 F0 05 (开主卧影视)
2024-08-31 22:39:01.994 - 50 F0 04 (开内卫影视)
2024-08-31 22:39:02.550 - 1A FF FF FF 56 00 00 00 0F (人体感应地址-内卫, 关闭内卫感应)
2024-08-31 22:39:03.100 - 1A 22 33 62 0F 00 02 01 0F (正反转地址-内卫卷帘, 内卫卷帘降)
2024-08-31 22:39:03.645 - A5 00 53 FE 01 AA (主卧纱帘关)
2024-08-31 22:39:03.700 - 55 00 53 02 02 22 02 30 AA 55 00 53 02 02 22 02 30 AA (主卧纱帘电机状态返回)
2024-08-31 22:39:04.737 - A5 00 52 FF 00 AA (主卧窗帘关)
2024-08-31 22:39:05.790 - 1A 0C 02 04 FF FF 45 01 FF 45 01 FF 00 00 0F (主卧调光微光)
2024-08-31 22:39:09.873 - 1A 0C 02 08 01 FF 45 01 FF 45 01 FF 00 00 0F (调光器地址-内卫射灯, 内卫射灯微光)
2024-08-31 22:39:10.464 - 50 F1 25 (主卧—有线2)
2024-08-31 22:39:11.008 - A1 11 11 11 42 (主卧空调自动开)
2024-08-31 22:39:11.246 - 19 08 24 03 F0 BB 78 02 02 00
2024-08-31 22:39:11.325 - 23 AA 56 02 16 27 2D 18 08 1F 06 73 65 6F 6B 65 6E 64
2024-08-31 22:39:11.564 - 50 F1 24 (内卫—有线2)
2024-08-31 22:39:12.250 - 01 10 07 D6 00 03 06 70 61 00 02 00 F0 0F 3E (主卧空调冷24度)
2024-08-31 22:39:12.297 - 01 10 07 D6 00 03 06 70 61 00 02 00 F0 0F 3E (主卧空调冷24度)
2024-08-31 22:39:13.611 - AF BF CF DF C2 21 (有线2/快捷-凤凰卫视)
2024-08-31 22:39:14.786 - 55 00 53 00 00 0C 02 30 AA 55 00 53 00 00 0C 02 30 AA (主卧纱帘电机状态返回)
2024-08-31 22:39:15.261 - FF
2024-08-31 22:39:15.652 - 1A FF FF FF 60 0B 01 01 0F (红外总线地址-主卧发射设备, 主卧电视电源)
2024-08-31 22:39:16.173 - F0 0B 01 08
2024-08-31 22:39:23.679 - 09 06 00 0F 02 02 38 20 (提示音咚)
2024-08-31 22:39:24.278 - EE 00 00 B1 00 00 02 FF FC FF FF (情景完成返回主页)
2024-08-31 22:39:35.128 - 19 08 24 03 CC 01 CC 00 01 (调用茶吧感应灯开的按键)
2024-08-31 22:39:35.179 - 1A AA AA AA 88 FF B0 01 FF B0 01 0F (调光器地址-茶吧灯带, 茶吧灯带明亮)
2024-08-31 22:39:56.766 - 19 08 24 03 DD 00 13 00 01 (调用情景-公共区域关)
2024-08-31 22:39:57.272 - EE 00 00 B1 00 00 00 FF FC FF FF (情景执行提示)
2024-08-31 22:39:57.867 - 09 06 00 0F 02 01 78 21 (提示音叮)
2024-08-31 22:39:58.411 - 55 0B 31 00 00 00 01 92 (厨房风扇只关)
2024-08-31 22:39:59.466 - 01 06 07 D3 FF 60 38 9F (餐厅空调关)
2024-08-31 22:39:59.494 - 01 06 07 D3 FF 60 38 9F (餐厅空调关)
2024-08-31 22:40:00.554 - 01 06 07 D0 FF 60 C8 9F (客厅空调关)
2024-08-31 22:40:00.595 - 01 06 07 D0 FF 60 C8 9F (客厅空调关)
2024-08-31 22:40:04.641 - 50 F5 02 (关厨房影视)
2024-08-31 22:40:05.694 - 50 F5 01 (关餐厅影视)
2024-08-31 22:40:06.731 - 50 F5 08 (关客厅影视)
2024-08-31 22:40:07.784 - 50 F5 03 (关外卫影视)
2024-08-31 22:40:08.836 - 55 0A 31 00 00 00 01 91 (厨房顶灯一关)
2024-08-31 22:40:09.874 - 55 0A 31 00 00 00 02 92 (厨房顶灯二关)
2024-08-31 22:40:10.929 - 55 0C 31 00 00 00 01 93 (餐厅顶灯关)
2024-08-31 22:40:11.979 - 1A 18 05 10 31 00 01 00 0F (自保持开关地址-门厅顶灯, 门厅顶灯关)
2024-08-31 22:40:13.015 - 1A 20 07 00 42 00 01 00 0F (自保持开关地址-外卫顶灯, 外卫顶灯关)
2024-08-31 22:40:14.070 - 1A 18 05 21 89 00 01 00 0F (自保持开关地址-客厅顶灯, 客厅顶灯一关)
2024-08-31 22:40:15.108 - 1A 18 05 01 94 00 01 00 0F (自保持开关地址-客厅顶灯, 客厅顶灯二关)
2024-08-31 22:40:16.162 - 1A 20 07 01 30 00 01 00 0F (自保持开关地址-西阳顶灯, 西阳顶灯关)
2024-08-31 22:40:17.217 - 1A FF 01 FF FF FF 00 01 FF 00 01 FF 00 00 0F (调光器地址-公共区域统配地址, 公共区域灯光全关)
2024-08-31 22:40:18.306 - 09 06 00 0F 02 02 38 20 (提示音咚)
2024-08-31 22:40:20.401 - EE 00 00 B1 00 00 02 FF FC FF FF (情景完成返回主页)
2024-08-31 22:40:30.374 - 19 08 24 03 DD 00 3B 00 01 (调用情景-书房照明关帘)
2024-08-31 22:40:30.916 - EE 00 00 B1 00 00 00 FF FC FF FF (情景执行提示)
2024-08-31 22:40:31.509 - 09 06 00 0F 02 01 78 21 (提示音叮)
2024-08-31 22:40:32.070 - 1A 0A 04 06 01 FF F0 01 FF F0 01 FF 00 00 0F (调光器地址-书房射灯, 书房射灯明亮)
2024-08-31 22:40:36.144 - A5 00 B7 FF 00 AA 22 0D (书房纱帘关)
2024-08-31 22:40:37.187 - A5 00 D2 FF 00 AA 22 0C (书房窗帘关)
2024-08-31 22:40:37.238 - 55 00 D2 01 00 0E 00 F2 AA 55 00 D2 01 00 0E 00 F2 AA (书房窗帘电机状态返回)
2024-08-31 22:40:38.281 - 09 06 00 0F 02 02 38 20 (提示音咚)
2024-08-31 22:40:38.839 - EE 00 00 B1 00 00 02 FF FC FF FF (情景完成返回主页)
2024-08-31 22:40:40.777 - 19 08 24 03 CC 01 CD 00 01 (调用茶吧感应灯关的按键)
2024-08-31 22:40:40.833 - 1A AA AA AA 88 FF 00 01 FF 00 01 0F (调光器地址-茶吧灯带, 茶吧灯带关闭)
2024-08-31 22:40:45.097 - 55 00 D2 00 00 E5 00 F2 AA 55 00 D2 00 00 E5 00 F2 AA (书房窗帘电机状态返回)
2024-08-31 22:53:29.307 - 19 08 24 03 DD 00 3A 00 01 (调用情景-离开书房)
2024-08-31 22:53:29.843 - EE 00 00 B1 00 00 00 FF FC FF FF (情景执行提示)
2024-08-31 22:53:30.433 - 09 06 00 0F 02 01 78 21 (提示音叮)
2024-08-31 22:53:30.991 - 01 06 07 DC FF 60 08 9C (书房空调关)
2024-08-31 22:53:31.025 - 01 06 07 DC FF 60 08 9C (书房空调关)
2024-08-31 22:53:31.582 - 50 F5 07 (关书房影视)
2024-08-31 22:53:32.131 - A5 00 D2 FE 01 AA 22 0D (书房窗帘开)
2024-08-31 22:53:32.189 - 55 00 D2 02 00 E5 00 F2 AA 55 00 D2 02 00 E5 00 F2 FF (书房窗帘电机状态返回)
2024-08-31 22:53:33.225 - A5 00 B7 FF 00 AA 22 0D (书房纱帘关)
2024-08-31 22:53:34.277 - 55 0D 31 00 00 00 01 94 (书房顶灯只关)
2024-08-31 22:53:35.329 - 1A 0A 04 06 01 FF 00 01 FF 00 01 FF 00 00 0F (调光器地址-书房射灯, 书房射灯关闭)
2024-08-31 22:53:38.996 - 55 00 D2 00 00 0D 00 F2 AA 55 00 D2 00 00 0D 00 F2 AA (书房窗帘电机状态返回)
2024-08-31 22:53:39.411 - 09 06 00 0F 02 02 38 20 (提示音咚)
2024-08-31 22:53:39.955 - EE 00 00 B1 00 00 02 FF FC FF FF (情景完成返回主页)
2024-08-31 22:53:57.852 - 19 08 24 03 CC 01 CD 00 01 (调用茶吧感应灯关的按键)
2024-08-31 22:53:57.901 - 1A AA AA AA 88 FF 00 01 FF 00 01 0F (调光器地址-茶吧灯带, 茶吧灯带关闭)
2024-08-31 22:54:50.371 - FF
2024-08-31 22:59:16.571 - 19 08 24 03 DD 00 4F 00 01 (调用情景-内卫使用完毕)
2024-08-31 22:59:17.146 - EE 00 00 B1 00 00 00 FF FC FF FF (情景执行提示)
2024-08-31 22:59:17.739 - 09 06 00 0F 02 01 78 21 (提示音叮)
2024-08-31 22:59:18.295 - 1A 0C 02 08 01 FF 00 01 FF 00 01 FF 00 00 0F (调光器地址-内卫射灯, 内卫感应灯关)
2024-08-31 22:59:22.364 - 50 F5 04 (关内卫影视)
2024-08-31 22:59:22.919 - 1A 20 07 01 40 00 01 00 0F (自保持开关地址-内卫顶灯, 内卫顶灯关)
2024-08-31 22:59:23.470 - 1A FF FF FF 56 00 00 01 0F (人体感应地址-内卫, 打开内卫感应)
2024-08-31 22:59:23.557 - BC BC
2024-08-31 22:59:23.861 - 19 08 24 03 CC 01 54 00 01 (调用内卫感应灯开的按键)
2024-08-31 22:59:23.912 - 1A 0C 02 08 01 FF 45 01 FF 45 01 FF 00 00 0F (调光器地址-内卫射灯, 内卫射灯微光)
2024-08-31 22:59:26.316 - 09 06 00 0F 02 02 38 20 (提示音咚)
2024-08-31 22:59:26.858 - EE 00 00 B1 00 00 02 FF FC FF FF (情景完成返回主页)
2024-08-31 23:00:05.650 - 19 08 24 03 CC 01 55 00 01 (调用内卫感应灯关的按键)
2024-08-31 23:00:05.684 - 1A 0C 02 08 01 FF 00 01 FF 00 01 FF 00 00 0F (调光器地址-内卫射灯, 内卫感应灯关)
2024-08-31 23:01:21.794 - 19 08 24 03 CC 01 54 00 01 (调用内卫感应灯开的按键)
2024-08-31 23:01:21.828 - 1A 0C 02 08 01 FF 45 01 FF 45 01 FF 00 00 0F (调光器地址-内卫射灯, 内卫射灯微光)
2024-08-31 23:01:48.843 - 19 08 24 03 CC 01 55 00 01 (调用内卫感应灯关的按键)
2024-08-31 23:01:48.874 - 1A 0C 02 08 01 FF 00 01 FF 00 01 FF 00 00 0F (调光器地址-内卫射灯, 内卫感应灯关)
2024-08-31 23:08:09.372 - FF
2024-08-31 23:21:47.824 - 1A FF FF FF 60 (红外总线地址-主卧发射设备)
2024-08-31 23:30:00.614 - FF
2024-08-31 23:32:50.307 - FF
2024-08-31 23:44:44.782 - FF
2024-08-31 23:54:56.195 - 1A FF FF FF 04 (继电器地址-东阳衣架)
2024-09-01 00:02:40.523 - FF
2024-09-01 00:05:26.914 - FF
2024-09-01 00:06:21.478 - 19 08 24 03 CC 01 54 00 01 (调用内卫感应灯开的按键)
2024-09-01 00:06:21.526 - 1A 0C 02 08 01 FF 45 01 FF 45 01 FF 00 00 0F (调光器地址-内卫射灯, 内卫射灯微光)
2024-09-01 00:07:45.737 - 19 08 24 03 DD 00 4B 00 01 (调用情景-主卧睡觉)
2024-09-01 00:07:46.264 - EE 00 00 B1 00 00 00 FF FC FF FF (情景执行提示)
2024-09-01 00:07:46.862 - 09 06 00 0F 02 01 78 21 (提示音叮)
2024-09-01 00:07:47.404 - 50 F5 04 (关内卫影视)
2024-09-01 00:07:47.948 - A5 00 53 FE 01 AA (主卧纱帘关)
2024-09-01 00:07:49.002 - A5 00 52 FF 00 AA (主卧窗帘关)
2024-09-01 00:07:50.053 - 1A 22 33 62 0F 00 02 01 0F (正反转地址-内卫卷帘, 内卫卷帘降)
2024-09-01 00:07:51.094 - 1A 20 07 01 40 00 01 00 0F (自保持开关地址-内卫顶灯, 内卫顶灯关)
2024-09-01 00:07:52.142 - 1A 20 07 01 55 00 01 00 0F (自保持开关地址-主卧顶灯, 主卧顶灯只关)
2024-09-01 00:07:52.692 - 1A FF FF FF 56 00 00 01 0F (人体感应地址-内卫, 打开内卫感应)
2024-09-01 00:07:52.709 - BC BC
2024-09-01 00:07:56.288 - 1A 0C 02 08 01 FF 00 01 FF 00 01 FF 00 00 0F (调光器地址-内卫射灯, 内卫感应灯关)
2024-09-01 00:07:56.879 - 1A 0C 02 04 01 FF 00 01 FF 00 01 FF 00 00 0F (调光器地址-主卧筒灯, 主卧筒灯关闭)
2024-09-01 00:07:57.488 - 1A 0C 02 04 03 FF 00 01 FF 00 01 FF 00 00 0F (调光器地址-主卧灯带, 主卧灯带关闭)
2024-09-01 00:07:58.083 - 1A 0C 02 04 04 FF 00 01 FF 00 01 FF 00 00 0F (调光器地址-主卧南阅, 主卧南阅关闭)
2024-09-01 00:07:58.682 - 1A 0C 02 04 05 FF 00 01 FF 00 01 FF 00 00 0F (调光器地址-主卧北阅, 主卧北阅关闭)
2024-09-01 00:07:59.274 - 1A 0C 02 04 02 FF 00 01 FF 00 01 FF 00 00 0F (调光器地址-主卧过道, 主卧过道关闭)
2024-09-01 00:07:59.869 - 09 06 00 0F 02 02 38 20 (提示音咚)
2024-09-01 00:08:00.421 - EE 00 00 B1 00 00 02 FF FC FF FF (情景完成返回主页)
2024-09-01 00:08:04.711 - 19 08 24 03 CC 01 55 00 01 (调用内卫感应灯关的按键)
2024-09-01 00:08:04.767 - 1A 0C 02 08 01 FF 00 01 FF 00 01 FF 00 00 0F (调光器地址-内卫射灯, 内卫感应灯关)
2024-09-01 00:09:45.414 - 19 08 24 03 CC 01 54 00 01 (调用内卫感应灯开的按键)
2024-09-01 00:09:45.446 - 1A 0C 02 08 01 FF 45 01 FF 45 01 FF 00 (调光器地址-内卫射灯)
2024-09-01 00:09:45.446 - 00 0F
2024-09-01 00:10:10.965 - 19 08 24 03 CC 01 55 00 01 (调用内卫感应灯关的按键)
2024-09-01 00:10:10.999 - 1A 0C 02 08 01 FF 00 01 FF 00 01 FF 00 00 0F (调光器地址-内卫射灯, 内卫感应灯关)
2024-09-01 00:29:16.962 - FF
2024-09-01 00:29:47.063 - 1A BE B0 DC 04 (继电器地址-西阳窗帘)
2024-09-01 00:29:47.199 - FF
2024-09-01 00:29:47.866 - FF FF FF FF 0E (继电器地址-西阳小窗帘)
2024-09-01 00:29:47.998 - FC
2024-09-01 00:29:49.971 - 1A BE B0 DC 09 (继电器地址-客厅窗帘)
2024-09-01 00:29:50.099 - FF
2024-09-01 00:30:50.788 - 1A BE B0 DC 02 (正反转地址-外卫卷帘)
2024-09-01 00:30:50.930 - FF
2024-09-01 00:30:51.282 - 1A BE B0 DC 0A (继电器地址-客厅纱帘)
2024-09-01 00:30:51.418 - FF
2024-09-01 00:32:48.812 - FF FF FF FF 0A FF (继电器地址-东阳窗帘)
2024-09-01 00:32:53.641 - 1A BE B0 DC 01 (继电器地址-回水泵点动)
2024-09-01 00:32:53.777 - FF
2024-09-01 00:32:54.072 - 1A BE B0 DC 03 (继电器地址-西阳天幕)
2024-09-01 00:50:45.566 - FF
2024-09-01 00:58:22.657 - 19 08 24 03 CC 01 54 00 01 (调用内卫感应灯开的按键)
2024-09-01 00:58:22.705 - 1A 0C 02 08 01 FF 45 01 FF 45 01 FF 00 00 0F (调光器地址-内卫射灯, 内卫射灯微光)
2024-09-01 01:00:42.437 - 19 08 24 03 CC 01 55 00 01 (调用内卫感应灯关的按键)
2024-09-01 01:00:42.469 - 1A 0C 02 08 01 FF 00 01 FF 00 01 FF 00 00 0F (调光器地址-内卫射灯, 内卫感应灯关)
2024-09-01 01:01:52.070 - 19 08 24 03 CC 01 54 00 01 (调用内卫感应灯开的按键)
2024-09-01 01:01:52.104 - 1A 0C 02 08 01 FF 45 01 FF 45 01 FF 00 00 0F (调光器地址-内卫射灯, 内卫射灯微光)
2024-09-01 01:02:19.119 - 19 08 24 03 CC 01 55 00 01 (调用内卫感应灯关的按键)
2024-09-01 01:02:19.151 - 1A 0C 02 08 01 FF 00 01 FF 00 01 FF 00 00 0F (调光器地址-内卫射灯, 内卫感应灯关)
2024-09-01 01:11:24.604 - FF
2024-09-01 01:28:13.895 - 19 08 24 03 CC 00 D3 00 01 (调用厨房感应灯开的按键)
2024-09-01 01:28:13.962 - 55 0A 32 00 00 00 01 92 55 0A 32 00 00 00 02 93 (厨房顶灯一开, 厨房顶灯二开)
2024-09-01 01:28:48.974 - 19 08 24 03 CC 00 D4 00 01 (调用厨房感应灯关的按键)
2024-09-01 01:28:49.031 - 55 0A 31 00 00 00 01 91 55 0A 31 00 00 00 02 92 (厨房顶灯一关, 厨房顶灯二关)
2024-09-01 01:46:36.317 - 19 08 24 03 CC 01 CC 00 01 (调用茶吧感应灯开的按键)
2024-09-01 01:46:36.349 - 1A AA AA AA 88 FF B0 01 FF B0 01 0F (调光器地址-茶吧灯带, 茶吧灯带明亮)
2024-09-01 01:46:43.336 - 19 08 24 03 CC 01 CD 00 01 (调用茶吧感应灯关的按键)
2024-09-01 01:46:43.365 - 1A AA AA AA 88 FF 00 01 FF 00 01 0F (调光器地址-茶吧灯带, 茶吧灯带关闭)
2024-09-01 01:55:07.378 - 19 08 24 03 CC 01 54 00 01 (调用内卫感应灯开的按键)
2024-09-01 01:55:07.410 - 1A 0C 02 08 01 FF 45 01 FF 45 01 FF 00 00 0F (调光器地址-内卫射灯, 内卫射灯微光)
2024-09-01 01:58:02.717 - 19 08 24 03 CC 01 55 00 01 (调用内卫感应灯关的按键)
2024-09-01 01:58:02.749 - 1A 0C 02 08 01 FF 00 01 FF 00 01 FF 00 00 0F (调光器地址-内卫射灯, 内卫感应灯关)
2024-09-01 01:59:05.348 - 19 08 24 03 CC 01 54 00 01 (调用内卫感应灯开的按键)
2024-09-01 01:59:05.382 - 1A 0C 02 08 01 FF 45 01 FF 45 01 FF 00 00 0F (调光器地址-内卫射灯, 内卫射灯微光)
2024-09-01 01:59:47.421 - 19 08 24 03 CC 01 55 00 01 (调用内卫感应灯关的按键)
2024-09-01 01:59:47.465 - 1A 0C 02 08 01 FF 00 01 FF 00 01 FF 00 00 0F (调光器地址-内卫射灯, 内卫感应灯关)
2024-09-01 02:12:00.819 - FF
2024-09-01 02:21:01.884 - FF
2024-09-01 02:21:19.018 - FF
2024-09-01 02:22:55.744 - FF
2024-09-01 02:23:37.867 - FF
2024-09-01 02:52:14.235 - FF
2024-09-01 02:59:26.934 - 50 F7 01 (全屋影音全关)
2024-09-01 03:07:40.695 - FF
2024-09-01 03:11:56.044 - FF
2024-09-01 03:15:59.478 - 1A FF FF FF 04 FC (继电器地址-东阳衣架)
2024-09-01 03:15:59.614 - 03
2024-09-01 03:17:01.176 - FF
2024-09-01 03:21:10.532 - 19 08 24 03 CC 01 CC 00 01 (调用茶吧感应灯开的按键)
2024-09-01 03:21:10.580 - 1A AA AA AA 88 FF B0 01 FF B0 01 0F (调光器地址-茶吧灯带, 茶吧灯带明亮)
2024-09-01 03:21:17.545 - 19 08 24 03 CC 01 CD 00 01 (调用茶吧感应灯关的按键)
2024-09-01 03:21:17.579 - 1A AA AA AA 88 FF 00 01 FF 00 01 0F (调光器地址-茶吧灯带, 茶吧灯带关闭)
2024-09-01 03:25:02.309 - FF
2024-09-01 03:43:26.386 - FF
2024-09-01 03:49:40.782 - 1A BE B0 DC 04 (继电器地址-西阳窗帘)
2024-09-01 03:49:49.200 - FF FF FF FF 0E (继电器地址-西阳小窗帘)
2024-09-01 03:49:49.322 - FF
2024-09-01 03:50:12.061 - 1A BE B0 DC 09 FF (继电器地址-客厅窗帘)
2024-09-01 03:51:21.533 - 1A BE B0 DC 02 FE (正反转地址-外卫卷帘)
2024-09-01 03:51:21.672 - FC
2024-09-01 03:51:25.532 - 1A BE B0 DC 0A FC (继电器地址-客厅纱帘)
2024-09-01 03:51:25.665 - FE
2024-09-01 03:53:04.220 - FF FF FF FF 0A FF (继电器地址-东阳窗帘)
2024-09-01 03:53:04.362 - FE
2024-09-01 03:53:47.753 - 1A BE B0 DC 01 FC (继电器地址-回水泵点动)
2024-09-01 03:53:47.881 - FE
2024-09-01 03:53:51.246 - 1A BE B0 DC 03 FE (继电器地址-西阳天幕)
2024-09-01 03:53:51.382 - FF
2024-09-01 04:16:56.406 - FF
2024-09-01 04:17:37.304 - FF
2024-09-01 04:19:27.644 - 1A EC A0 DC 01 00 01 00 0F (自保持开关地址-电视、设备12V供电, 12V 设备供电关)
2024-09-01 04:19:28.199 - 1A EC A0 DC 01 00 01 00 0F (自保持开关地址-电视、设备12V供电, 12V 设备供电关)
2024-09-01 04:19:38.262 - 1A EC A0 DC 01 00 01 01 0F (自保持开关地址-电视、设备12V供电, 12V 设备供电开)
2024-09-01 04:19:38.501 - 0A 00
2024-09-01 04:19:38.501 - 00
2024-09-01 04:19:38.632 - FF
2024-09-01 04:19:38.660 - 1A 27
2024-09-01 04:19:38.664 - FF
2024-09-01 04:19:38.698 - EE 00 7E 07 FF FC FF
2024-09-01 04:19:38.851 - FF EB FB 0A FC
2024-09-01 04:19:38.886 - EE 00 71 B1 01 00 02 FF FC FF FF
2024-09-01 04:19:38.995 - FF
2024-09-01 04:19:39.209 - FF
2024-09-01 04:19:39.311 - 1A EC A0 DC 01 00 01 01 0F (自保持开关地址-电视、设备12V供电, 12V 设备供电开)
2024-09-01 04:19:39.825 - FC
2024-09-01 04:19:39.841 - FF
2024-09-01 04:19:40.097 - 68 86 FF
2024-09-01 04:19:40.144 - 68 86
2024-09-01 04:19:40.229 - 2D 38
2024-09-01 04:19:40.368 - 1A BE B0 DC 03 FC (继电器地址-西阳天幕)
2024-09-01 04:19:40.501 - FC
2024-09-01 04:19:41.117 - FF
2024-09-01 04:19:41.409 - F7
2024-09-01 04:19:41.739 - 68 86
2024-09-01 04:19:47.688 - 19 08 24 03 CC 01 CC 00 01 (调用茶吧感应灯开的按键)
2024-09-01 04:19:47.736 - 1A AA AA AA 88 FF B0 01 FF B0 01 0F (调光器地址-茶吧灯带, 茶吧灯带明亮)
2024-09-01 04:19:55.689 - 19 08 24 03 CC 01 CD 00 01 (调用茶吧感应灯关的按键)
2024-09-01 04:19:55.723 - 1A AA AA AA 88 FF 00 01 FF 00 01 0F (调光器地址-茶吧灯带, 茶吧灯带关闭)
2024-09-01 04:38:36.946 - FF
2024-09-01 04:40:18.604 - 19 08 24 03 CC 01 CC 00 01 (调用茶吧感应灯开的按键)
2024-09-01 04:40:18.652 - 1A AA AA AA 88 FF B0 01 FF B0 01 0F (调光器地址-茶吧灯带, 茶吧灯带明亮)
2024-09-01 04:40:26.113 - 19 08 24 03 CC 01 CD 00 01 (调用茶吧感应灯关的按键)
2024-09-01 04:40:26.164 - 1A AA AA AA 88 FF 00 01 FF 00 01 0F (调光器地址-茶吧灯带, 茶吧灯带关闭)
2024-09-01 04:49:28.098 - EE 00 00 B1 00 00 00 FF FC FF FF (情景执行提示)
2024-09-01 04:49:28.703 - A5 00 A2 FF 00 AA (餐厅纱帘关)
2024-09-01 04:49:29.819 - A5 00 A6 FF 00 AA (餐厅窗帘关)
2024-09-01 04:49:29.884 - 55 00 A6 01 00 0E 01 75 AA 55 00 A6 01 00 0E 01 F5 (餐厅窗帘电机状态返回)
2024-09-01 04:49:30.887 - A5 00 B7 FF 00 AA 22 0D (书房纱帘关)
2024-09-01 04:49:31.942 - A5 00 D2 FF 00 AA 22 0C (书房窗帘关)
2024-09-01 04:49:31.993 - 55 00 D2 01 00 0D 00 F2 AA 55 00 D2 01 00 0D 00 F2 EA (书房窗帘电机状态返回)
2024-09-01 04:49:33.039 - EE 00 00 B1 00 00 02 FF FC FF FF (情景完成返回主页)
2024-09-01 04:49:38.387 - 55 00 A6 00 01 67 01 75 AA 55 00 A6 00 01 67 01 75 AA (餐厅窗帘电机状态返回)
2024-09-01 04:49:39.818 - 55 00 D2 00 00 E5 00 F2 AA 55 00 D2 00 00 E5 00 F2 AA (书房窗帘电机状态返回)
2024-09-01 05:08:58.111 - FF
2024-09-01 05:19:05.388 - FF
2024-09-01 05:32:05.771 - FF
2024-09-01 05:33:30.560 - FF
2024-09-01 05:42:36.767 - FF
2024-09-01 06:07:10.979 - FF
2024-09-01 06:22:02.618 - FF
2024-09-01 06:28:35.929 - 19 08 24 03 CC 01 CC 00 01 (调用茶吧感应灯开的按键)
2024-09-01 06:28:35.979 - 1A AA AA AA 88 FF B0 01 FF B0 01 0F (调光器地址-茶吧灯带, 茶吧灯带明亮)
2024-09-01 06:28:42.938 - 19 08 24 03 CC 01 CD 00 01 (调用茶吧感应灯关的按键)
2024-09-01 06:28:42.986 - 1A AA AA AA 88 FF 00 01 FF 00 01 0F (调光器地址-茶吧灯带, 茶吧灯带关闭)
2024-09-01 06:32:13.014 - FF
2024-09-01 06:37:02.088 - 1A FF FF FF 04 FC (继电器地址-东阳衣架)
2024-09-01 06:37:02.216 - 00
2024-09-01 06:37:59.189 - FF
2024-09-01 06:39:13.993 - FF
2024-09-01 06:40:40.967 - FF
2024-09-01 07:03:07.528 - 19 08 24 03 CC 01 CC 00 01 (调用茶吧感应灯开的按键)
2024-09-01 07:03:07.577 - 1A AA AA AA 88 FF B0 01 FF B0 01 0F (调光器地址-茶吧灯带, 茶吧灯带明亮)
2024-09-01 07:03:15.043 - 19 08 24 03 CC 01 CD 00 01 (调用茶吧感应灯关的按键)
2024-09-01 07:03:15.070 - 1A AA AA AA 88 FF 00 01 FF 00 01 0F (调光器地址-茶吧灯带, 茶吧灯带关闭)
2024-09-01 07:24:48.598 - 19 08 24 03 CC 01 CC 00 01 (调用茶吧感应灯开的按键)
2024-09-01 07:24:48.628 - 1A AA AA AA 88 FF B0 01 FF B0 01 0F (调光器地址-茶吧灯带, 茶吧灯带明亮)
2024-09-01 07:24:55.603 - 19 08 24 03 CC 01 CD 00 01 (调用茶吧感应灯关的按键)
2024-09-01 07:24:55.637 - 1A AA AA AA 88 FF 00 01 FF 00 01 0F (调光器地址-茶吧灯带, 茶吧灯带关闭)
2024-09-01 07:25:56.224 - 19 08 24 03 CC 01 54 00 01 (调用内卫感应灯开的按键)
2024-09-01 07:25:56.256 - 1A 0C 02 08 01 FF 45 01 FF 45 01 FF 00 00 0F (调光器地址-内卫射灯, 内卫射灯微光)
2024-09-01 07:28:01.970 - 19 08 24 03 CC 01 55 00 01 (调用内卫感应灯关的按键)
2024-09-01 07:28:02.002 - 1A 0C 02 08 01 FF 00 01 FF 00 01 FF 00 00 0F (调光器地址-内卫射灯, 内卫感应灯关)
2024-09-01 07:29:17.629 - 19 08 24 03 CC 01 54 00 01 (调用内卫感应灯开的按键)
2024-09-01 07:29:17.661 - 1A 0C 02 08 01 FF 45 01 FF 45 01 FF 00 00 0F (调光器地址-内卫射灯, 内卫射灯微光)
2024-09-01 07:29:43.182 - 19 08 24 03 CC 01 55 00 01 (调用内卫感应灯关的按键)
2024-09-01 07:29:43.216 - 1A 0C 02 08 01 FF 00 01 FF 00 01 FF 00 00 0F (调光器地址-内卫射灯, 内卫感应灯关)
2024-09-01 07:39:31.046 - 1A BE B0 DC 04 FC (继电器地址-西阳窗帘)
2024-09-01 07:39:31.177 - FE
2024-09-01 07:39:39.905 - FF FF FF FF 0E (继电器地址-西阳小窗帘)
2024-09-01 07:39:40.045 - FF
2024-09-01 07:40:00.618 - 1A BE B0 DC 09 (继电器地址-客厅窗帘)
2024-09-01 07:40:00.746 - FF
2024-09-01 07:40:10.524 - 1A BE B0 DC 02 (正反转地址-外卫卷帘)
2024-09-01 07:40:10.655 - FE
2024-09-01 07:40:13.125 - 1A BE B0 DC 0A (继电器地址-客厅纱帘)
2024-09-01 07:40:13.268 - FF
2024-09-01 07:40:32.616 - 1A BE B0 DC 01 FC (继电器地址-回水泵点动)
2024-09-01 07:40:37.355 - 1A BE B0 DC 03 FC (继电器地址-西阳天幕)
2024-09-01 07:40:56.279 - FF FF FF FF 0A (继电器地址-东阳窗帘)
2024-09-01 07:41:58.202 - FF
2024-09-01 08:13:17.763 - FF
2024-09-01 08:19:30.072 - 19 08 24 03 CC 01 CC 00 01 (调用茶吧感应灯开的按键)
2024-09-01 08:19:30.120 - 1A AA AA AA 88 FF B0 01 FF B0 01 0F (调光器地址-茶吧灯带, 茶吧灯带明亮)
2024-09-01 08:19:34.031 - FF
2024-09-01 08:19:37.586 - 19 08 24 03 CC 01 CD 00 01 (调用茶吧感应灯关的按键)
2024-09-01 08:19:37.620 - 1A AA AA AA 88 FF 00 01 FF 00 01 0F (调光器地址-茶吧灯带, 茶吧灯带关闭)
2024-09-01 08:29:01.597 - FF
2024-09-01 08:49:36.051 - 1A FF FF FF 60 (红外总线地址-主卧发射设备)
2024-09-01 09:09:07.961 - 19 08 24 03 CC 01 CC 00 01 (调用茶吧感应灯开的按键)
2024-09-01 09:09:08.007 - 1A AA AA AA 88 FF B0 01 FF B0 01 0F (调光器地址-茶吧灯带, 茶吧灯带明亮)
2024-09-01 09:09:15.471 - 19 08 24 03 CC 01 CD 00 01 (调用茶吧感应灯关的按键)
2024-09-01 09:09:15.503 - 1A AA AA AA 88 FF 00 01 FF 00 01 0F (调光器地址-茶吧灯带, 茶吧灯带关闭)
2024-09-01 09:15:40.100 - FF
2024-09-01 09:58:05.448 - 1A FF FF FF 04 FC (继电器地址-东阳衣架)
2024-09-01 09:58:05.576 - 03
2024-09-01 10:10:39.860 - 19 08 24 03 DD 00 4A 00 01 (调用情景-主卧起床)
2024-09-01 10:10:40.412 - EE 00 00 B1 00 00 00 FF FC FF FF (情景执行提示)
2024-09-01 10:10:41.009 - 09 06 00 0F 02 01 78 21 (提示音叮)
2024-09-01 10:10:41.551 - 50 F0 04 (开内卫影视)
2024-09-01 10:10:42.096 - 50 F0 05 (开主卧影视)
2024-09-01 10:10:42.650 - A5 00 53 FE 01 AA (主卧纱帘关)
2024-09-01 10:10:43.201 - A5 00 53 FE 01 AA (主卧纱帘关)
2024-09-01 10:10:43.750 - A5 00 52 FE 01 AA (主卧窗帘开)
2024-09-01 10:10:44.788 - A5 00 52 FE 01 AA (主卧窗帘开)
2024-09-01 10:10:45.841 - 1A 22 33 62 0F 00 02 01 0F (正反转地址-内卫卷帘, 内卫卷帘降)
2024-09-01 10:10:46.891 - 1A FF FF FF 56 00 00 00 0F (人体感应地址-内卫, 关闭内卫感应)
2024-09-01 10:10:46.993 - BC BC
2024-09-01 10:10:47.931 - 1A 20 07 01 55 00 01 00 0F (自保持开关地址-主卧顶灯, 主卧顶灯只关)
2024-09-01 10:10:48.984 - 1A 0C 02 08 01 FF 45 01 FF 45 01 FF 00 00 0F (调光器地址-内卫射灯, 内卫射灯微光)
2024-09-01 10:10:50.086 - 1A 0C 02 04 01 FF 45 01 FF 45 01 FF 00 00 0F (调光器地址-主卧筒灯, 主卧筒灯微光)
2024-09-01 10:10:50.682 - 1A 0C 02 04 03 FF 45 01 FF 45 01 FF 00 00 0F (调光器地址-主卧灯带, 主卧灯带微光)
2024-09-01 10:10:51.281 - 1A 0C 02 04 02 FF 45 01 FF 45 01 FF 00 00 0F (调光器地址-主卧过道, 主卧过道微光)
2024-09-01 10:10:51.870 - 50 F1 25 (主卧—有线2)
2024-09-01 10:10:52.417 - 50 F1 24 (内卫—有线2)
2024-09-01 10:10:53.514 - AF BF CF DF C2 21 (有线2/快捷-凤凰卫视)
2024-09-01 10:10:54.118 - 1A FF FF FF 60 0B 01 01 0F (红外总线地址-主卧发射设备, 主卧电视电源)
2024-09-01 10:10:54.631 - F0 0B 01 08
2024-09-01 10:10:57.581 - 55 20 20 00 00 0F 02 16 AA 55 20 20 00 00 0F 02 16 AA (主卧窗帘电机状态返回)
2024-09-01 10:10:59.151 - 09 06 00 0F 02 02 38 20 (提示音咚)
2024-09-01 10:10:59.700 - EE 00 00 B1 00 00 02 FF FC FF FF (情景完成返回主页)
2024-09-01 10:11:00.290 - A1 11 11 11 11 01 (内卫浴霸取暖判断)
2024-09-01 10:11:00.514 - 14 03 00 00 00 02 C6 CE (查询内卫温湿度)
2024-09-01 10:11:00.546 - 14 03 04 01 C4 00 FC FE B2 (内卫温湿度返回)
2024-09-01 10:21:55.283 - FF
2024-09-01 10:33:07.933 - 19 08 24 03 CC 01 CC 00 01 (调用茶吧感应灯开的按键)
2024-09-01 10:33:07.984 - 1A AA AA AA 88 FF B0 01 FF B0 01 0F (调光器地址-茶吧灯带, 茶吧灯带明亮)
2024-09-01 10:33:15.450 - 19 08 24 03 CC 01 CD 00 01 (调用茶吧感应灯关的按键)
2024-09-01 10:33:15.508 - 1A AA AA AA 88 FF 00 01 FF 00 01 0F (调光器地址-茶吧灯带, 茶吧灯带关闭)
2024-09-01 10:44:27.268 - EE 00 00 B1 00 00 00 FF FC FF FF (情景执行提示)
2024-09-01 10:44:27.863 - 09 06 00 0F 02 01 78 21 (提示音叮)
2024-09-01 10:44:28.458 - A1 11 11 11 40 (客厅空调自动开)
2024-09-01 10:44:28.680 - 19 08 24 03 F0 BB 78 02 02 00
2024-09-01 10:44:28.733 - 23 AA 56 02 0A 2D 03 18 09 01 07 73 65 6F 6B 65 6E 64
2024-09-01 10:44:29.691 - 01 10 07 D0 00 03 06 70 61 00 02 00 FA 6F 26 (客厅空调冷25度)
2024-09-01 10:44:29.722 - 01 10 07 D0 00 03 06 70 61 00 02 00 FA 6F 26 (客厅空调冷25度)
2024-09-01 10:44:32.488 - A1 11 11 11 41 (餐厅空调自动开)
2024-09-01 10:44:32.720 - 19 08 24 03 F0 BB 78 02 02 00
2024-09-01 10:44:32.768 - 23 AA 56 02 0A 2D 07 18 09 01 07 73 65 6F 6B 65 6E 64
2024-09-01 10:44:33.730 - 01 10 07 D3 00 03 06 70 61 00 02 00 FA 9F 29 (餐厅空调冷25度)
2024-09-01 10:44:33.764 - 01 10 07 D3 00 03 06 70 61 00 02 00 FA 9F 29 (餐厅空调冷25度)
2024-09-01 10:44:36.535 - 09 06 00 0F 02 02 38 20 (提示音咚)
2024-09-01 10:44:37.080 - EE 00 00 B1 00 00 02 FF FC FF FF (情景完成返回主页)
2024-09-01 10:52:09.191 - 19 08 24 03 CC 01 CC 00 01 (调用茶吧感应灯开的按键)
2024-09-01 10:52:09.239 - 1A AA AA AA 88 FF B0 01 FF B0 01 0F (调光器地址-茶吧灯带, 茶吧灯带明亮)
2024-09-01 10:52:28.046 - 19 08 24 03 CC 00 D3 00 01 (调用厨房感应灯开的按键)
2024-09-01 10:52:28.080 - 55 0A 32 00 00 00 01 92 55 0A 32 00 00 00 02 93 (厨房顶灯一开, 厨房顶灯二开)
2024-09-01 10:54:16.256 - 19 08 24 03 CC 00 D4 00 01 (调用厨房感应灯关的按键)
2024-09-01 10:54:16.290 - 55 0A 31 00 00 00 01 91 55 0A 31 00 00 00 02 92 (厨房顶灯一关, 厨房顶灯二关)
2024-09-01 10:54:43.301 - 19 08 24 03 CC 00 D3 00 01 (调用厨房感应灯开的按键)
2024-09-01 10:54:43.334 - 55 0A 32 00 00 00 01 92 55 0A 32 00 00 00 02 93 (厨房顶灯一开, 厨房顶灯二开)
2024-09-01 10:54:56.030 - 19 08 24 03 CC 01 CD 00 01 (调用茶吧感应灯关的按键)
2024-09-01 10:54:56.057 - 1A AA AA AA 88 FF 00 01 FF 00 01 0F (调光器地址-茶吧灯带, 茶吧灯带关闭)
2024-09-01 10:55:54.144 - 19 08 24 03 CC 01 CC 00 01 (调用茶吧感应灯开的按键)
2024-09-01 10:55:54.170 - 1A AA AA AA 88 FF B0 01 FF B0 01 0F (调光器地址-茶吧灯带, 茶吧灯带明亮)
2024-09-01 10:56:19.693 - 19 08 24 03 CC 01 CD 00 01 (调用茶吧感应灯关的按键)
2024-09-01 10:56:19.725 - 1A AA AA AA 88 FF 00 01 FF 00 01 0F (调光器地址-茶吧灯带, 茶吧灯带关闭)
2024-09-01 10:56:50.251 - 19 08 24 03 CC 01 CC 00 01 (调用茶吧感应灯开的按键)
2024-09-01 10:56:50.283 - 1A AA AA AA 88 FF B0 01 FF B0 01 0F (调光器地址-茶吧灯带, 茶吧灯带明亮)
2024-09-01 10:57:22.319 - 19 08 24 03 CC 01 CD 00 01 (调用茶吧感应灯关的按键)
2024-09-01 10:57:22.350 - 1A AA AA AA 88 FF 00 01 FF 00 01 0F (调光器地址-茶吧灯带, 茶吧灯带关闭)
2024-09-01 10:57:48.865 - 19 08 24 03 CC 01 CC 00 01 (调用茶吧感应灯开的按键)
2024-09-01 10:57:48.897 - 1A AA AA AA 88 FF B0 01 FF B0 01 0F (调光器地址-茶吧灯带, 茶吧灯带明亮)
2024-09-01 10:58:09.905 - 19 08 24 03 CC 01 CD 00 01 (调用茶吧感应灯关的按键)
2024-09-01 10:58:09.937 - 1A AA AA AA 88 FF 00 01 FF 00 01 0F (调光器地址-茶吧灯带, 茶吧灯带关闭)
2024-09-01 10:59:41.560 - 1A BE B0 DC 04 FE (继电器地址-西阳窗帘)
2024-09-01 10:59:41.688 - FF
2024-09-01 10:59:42.895 - FF FF FF FF 0E FC (继电器地址-西阳小窗帘)
2024-09-01 11:00:05.137 - 19 08 24 03 CC 01 CC 00 01 (调用茶吧感应灯开的按键)
2024-09-01 11:00:05.185 - 1A AA AA AA 88 FF B0 01 FF B0 01 0F (调光器地址-茶吧灯带, 茶吧灯带明亮)
2024-09-01 11:00:44.511 - 19 08 24 03 CC 00 D4 00 01 (调用厨房感应灯关的按键)
2024-09-01 11:00:44.575 - 55 0A 31 00 00 00 01 91 55 0A 31 00 00 00 02 92 (厨房顶灯一关, 厨房顶灯二关)
2024-09-01 11:00:48.167 - 1A BE B0 DC 09 (继电器地址-客厅窗帘)
2024-09-01 11:00:50.174 - 1A BE B0 DC 02 FF (正反转地址-外卫卷帘)
2024-09-01 11:00:50.310 - FF
2024-09-01 11:00:50.429 - 83 E3 0A
2024-09-01 11:00:50.571 - FF
2024-09-01 11:00:57.541 - 19 08 24 03 CC 00 D3 00 01 (调用厨房感应灯开的按键)
2024-09-01 11:00:57.592 - 55 0A 32 00 00 00 01 92 55 0A 32 00 00 00 02 93 (厨房顶灯一开, 厨房顶灯二开)
2024-09-01 11:01:07.766 - 19 08 24 03 CC 01 CD 00 01 (调用茶吧感应灯关的按键)
2024-09-01 11:01:07.814 - 1A AA AA AA 88 FF 00 01 FF 00 01 0F (调光器地址-茶吧灯带, 茶吧灯带关闭)
2024-09-01 11:01:55.692 - 1A BE B0 DC 01 (继电器地址-回水泵点动)
2024-09-01 11:01:55.831 - FF
2024-09-01 11:01:56.468 - 1A BE B0 DC 03 FE (继电器地址-西阳天幕)
2024-09-01 11:01:56.596 - FC
2024-09-01 11:02:12.886 - 19 08 24 03 CC 01 CC 00 01 (调用茶吧感应灯开的按键)
2024-09-01 11:02:12.937 - 1A AA AA AA 88 FF B0 01 FF B0 01 0F (调光器地址-茶吧灯带, 茶吧灯带明亮)
2024-09-01 11:02:17.631 - EE 00 71 B1 01 00 03 FF FC FF FF
2024-09-01 11:02:18.993 - EE 00 71 B1 01 00 02 FF FC FF FF
2024-09-01 11:02:23.652 - A5 00 A6 FE 01 AA (餐厅窗帘开)
2024-09-01 11:02:23.719 - 55 00 A6 02 01 67 01 75 AA 55 00 A6 02 01 67 01 FF (餐厅窗帘电机状态返回)
2024-09-01 11:02:32.767 - 55 00 A6 00 00 0E 01 75 AA 55 00 A6 00 00 0E 01 75 AA (餐厅窗帘电机状态返回)
2024-09-01 11:02:41.440 - 19 08 24 03 CC 01 CD 00 01 (调用茶吧感应灯关的按键)
2024-09-01 11:02:41.491 - 1A AA AA AA 88 FF 00 01 FF 00 01 0F (调光器地址-茶吧灯带, 茶吧灯带关闭)
2024-09-01 11:04:30.419 - FF FF FF FF 0A (继电器地址-东阳窗帘)
2024-09-01 11:04:30.561 - FF
2024-09-01 11:08:28.628 - 19 08 24 03 CC 01 CC 00 01 (调用茶吧感应灯开的按键)
2024-09-01 11:08:28.676 - 1A AA AA AA 88 FF B0 01 FF B0 01 0F (调光器地址-茶吧灯带, 茶吧灯带明亮)
2024-09-01 11:08:45.158 - 19 08 24 03 CC 01 CD 00 01 (调用茶吧感应灯关的按键)
2024-09-01 11:08:45.216 - 1A AA AA AA 88 FF 00 01 FF 00 01 0F (调光器地址-茶吧灯带, 茶吧灯带关闭)
2024-09-01 11:09:15.219 - 19 08 24 03 CC 01 CC 00 01 (调用茶吧感应灯开的按键)
2024-09-01 11:09:15.253 - 1A AA AA AA 88 FF B0 01 FF B0 01 0F (调光器地址-茶吧灯带, 茶吧灯带明亮)
2024-09-01 11:09:25.071 - 19 08 24 03 CC 00 D4 00 01 (调用厨房感应灯关的按键)
2024-09-01 11:09:25.103 - 55 0A 31 00 00 00 01 91 55 0A 31 00 00 00 02 92 (厨房顶灯一关, 厨房顶灯二关)
2024-09-01 11:09:43.603 - 19 08 24 03 CC 00 D3 00 01 (调用厨房感应灯开的按键)
2024-09-01 11:09:43.641 - 55 0A 32 00 00 00 01 92 55 0A 32 00 00 00 02 93 (厨房顶灯一开, 厨房顶灯二开)
2024-09-01 11:10:20.342 - 19 08 24 03 CC 01 CD 00 01 (调用茶吧感应灯关的按键)
2024-09-01 11:10:20.376 - 1A AA AA AA 88 FF 00 01 FF 00 01 0F (调光器地址-茶吧灯带, 茶吧灯带关闭)
2024-09-01 11:10:39.213 - 19 08 24 03 CC 00 D4 00 01 (调用厨房感应灯关的按键)
2024-09-01 11:10:39.244 - 55 0A 31 00 00 00 01 91 55 0A 31 00 00 00 02 92 (厨房顶灯一关, 厨房顶灯二关)
2024-09-01 11:16:51.343 - FF
2024-09-01 11:23:32.414 - 19 08 24 03 CC 01 CC 00 01 (调用茶吧感应灯开的按键)
2024-09-01 11:23:32.465 - 1A AA AA AA 88 FF B0 01 FF B0 01 0F (调光器地址-茶吧灯带, 茶吧灯带明亮)
2024-09-01 11:23:34.727 - 19 08 24 03 CC 00 D3 00 01 (调用厨房感应灯开的按键)
2024-09-01 11:23:34.788 - 55 0A 32 00 00 00 01 92 55 0A 32 00 00 00 02 93 (厨房顶灯一开, 厨房顶灯二开)
2024-09-01 11:23:44.932 - 19 08 24 03 CC 01 CD 00 01 (调用茶吧感应灯关的按键)
2024-09-01 11:23:44.966 - 1A AA AA AA 88 FF 00 01 FF 00 01 0F (调光器地址-茶吧灯带, 茶吧灯带关闭)
2024-09-01 11:26:04.713 - 19 08 24 03 CC 01 CC 00 01 (调用茶吧感应灯开的按键)
2024-09-01 11:26:04.745 - 1A AA AA AA 88 FF B0 01 FF B0 01 0F (调光器地址-茶吧灯带, 茶吧灯带明亮)
2024-09-01 11:26:24.748 - 19 08 24 03 CC 01 CD 00 01 (调用茶吧感应灯关的按键)
2024-09-01 11:26:24.781 - 1A AA AA AA 88 FF 00 01 FF 00 01 0F (调光器地址-茶吧灯带, 茶吧灯带关闭)
2024-09-01 11:26:35.274 - 19 08 24 03 CC 01 CC 00 01 (调用茶吧感应灯开的按键)
2024-09-01 11:26:35.307 - 1A AA AA AA 88 FF B0 01 FF B0 01 0F (调光器地址-茶吧灯带, 茶吧灯带明亮)
2024-09-01 11:27:06.649 - 19 08 24 03 CC 00 D4 00 01 (调用厨房感应灯关的按键)
2024-09-01 11:27:06.683 - 55 0A 31 00 00 00 01 91 55 0A 31 00 00 00 02 92 (厨房顶灯一关, 厨房顶灯二关)
2024-09-01 11:27:15.674 - 19 08 24 03 CC 00 D3 00 01 (调用厨房感应灯开的按键)
2024-09-01 11:27:15.706 - 55 0A 32 00 00 00 01 92 55 0A 32 00 00 00 02 93 (厨房顶灯一开, 厨房顶灯二开)
2024-09-01 11:27:32.654 - 19 08 24 03 DD 00 40 00 01 (调用情景-离开主卧)
2024-09-01 11:27:33.181 - EE 00 00 B1 00 00 00 FF FC FF FF (情景执行提示)
2024-09-01 11:27:33.782 - 09 06 00 0F 02 01 78 21 (提示音叮)
2024-09-01 11:27:34.325 - 50 F5 05 (关主卧影视)
2024-09-01 11:27:34.916 - 50 F5 04 (关内卫影视)
2024-09-01 11:27:35.473 - 01 06 07 D6 FF 60 28 9E (主卧空调关)
2024-09-01 11:27:35.505 - 01 06 07 D6 FF 60 28 9E (主卧空调关)
2024-09-01 11:27:36.072 - A5 00 52 FE 01 AA (主卧窗帘开)
2024-09-01 11:27:37.116 - A5 00 52 FE 01 AA (主卧窗帘开)
2024-09-01 11:27:38.165 - A5 00 53 FF 00 AA (主卧纱帘开)
2024-09-01 11:27:38.217 - 55 00 53 01 00 0C 02 30 AA 55 00 53 01 00 0C 02 30 AA (主卧纱帘电机状态返回)
2024-09-01 11:27:38.759 - A5 00 53 FF 00 AA (主卧纱帘开)
2024-09-01 11:27:39.303 - 1A 22 33 62 0F 00 00 01 0F (正反转地址-内卫卷帘, 内卫卷帘升)
2024-09-01 11:27:40.035 - 55 20 20 00 00 0F 02 16 AA 55 20 20 00 00 0F 02 16 AA (主卧窗帘电机状态返回)
2024-09-01 11:27:40.357 - 1A 20 07 01 40 00 01 00 0F (自保持开关地址-内卫顶灯, 内卫顶灯关)
2024-09-01 11:27:41.407 - 1A 20 07 01 55 00 01 00 0F (自保持开关地址-主卧顶灯, 主卧顶灯只关)
2024-09-01 11:27:41.955 - 1A 0C 02 08 01 FF 00 01 FF 00 01 FF 00 00 0F (调光器地址-内卫射灯, 内卫感应灯关)
2024-09-01 11:27:42.555 - 1A FF FF FF 56 00 00 01 0F (人体感应地址-内卫, 打开内卫感应)
2024-09-01 11:27:42.958 - 19 08 24 03 CC 01 54 00 01 (调用内卫感应灯开的按键)
2024-09-01 11:27:43.018 - 1A 0C 02 08 01 FF 45 01 FF 45 01 FF 00 00 0F (调光器地址-内卫射灯, 内卫射灯微光)
2024-09-01 11:27:46.400 - 1A 0C 02 04 FF FF 00 01 FF 00 01 FF 00 00 0F (主卧调光全关)
2024-09-01 11:27:47.485 - 09 06 00 0F 02 02 38 20 (提示音咚)
2024-09-01 11:27:48.028 - EE 00 00 B1 00 00 02 FF FC FF FF (情景完成返回主页)
2024-09-01 11:27:49.256 - 55 00 53 00 02 22 02 30 AA 55 00 53 00 02 22 02 30 AA (主卧纱帘电机状态返回)
2024-09-01 11:28:01.258 - 19 08 24 03 CC 00 D4 00 01 (调用厨房感应灯关的按键)
2024-09-01 11:28:01.315 - 55 0A 31 00 00 00 01 91 55 0A 31 00 00 00 02 92 (厨房顶灯一关, 厨房顶灯二关)
2024-09-01 11:28:29.763 - 19 08 24 03 CC 01 55 00 01 (调用内卫感应灯关的按键)
2024-09-01 11:28:29.795 - 1A 0C 02 08 01 FF 00 01 FF 00 01 FF 00 00 0F (调光器地址-内卫射灯, 内卫感应灯关)
2024-09-01 11:28:49.292 - 19 08 24 03 CC 01 54 00 01 (调用内卫感应灯开的按键)
2024-09-01 11:28:49.336 - 1A 0C 02 08 01 FF 45 01 FF 45 01 FF 00 00 0F (调光器地址-内卫射灯, 内卫射灯微光)
2024-09-01 11:29:04.750 - A1 11 11 11 42 (主卧空调自动开)
2024-09-01 11:29:04.971 - 19 08 24 03 F0 BB 78 02 02 00
2024-09-01 11:29:05.033 - 23 AA 56 02 0B 1D 28 18 09 01 07 73 65 6F 6B 65 6E 64
2024-09-01 11:29:05.992 - 01 10 07 D6 00 03 06 70 61 00 02 00 F0 0F 3E (主卧空调冷24度)
2024-09-01 11:29:06.025 - 01 10 07 D6 00 03 06 70 61 00 02 00 F0 0F 3E (主卧空调冷24度)
2024-09-01 11:29:12.421 - EE 00 6E B1 01 00 03 FF FC FF FF
2024-09-01 11:29:12.979 - EE 00 6E B1 01 00 08 FF FC FF FF
2024-09-01 11:29:13.408 - 1A BE B0 DC 0A 00 02 00 (继电器地址-客厅纱帘, 客厅纱帘开)
2024-09-01 11:29:23.866 - 19 08 24 03 CC 01 55 00 01 (调用内卫感应灯关的按键)
2024-09-01 11:29:23.917 - 1A 0C 02 08 01 FF 00 01 FF 00 01 FF 00 00 0F (调光器地址-内卫射灯, 内卫感应灯关)
2024-09-01 11:31:04.064 - 19 08 24 03 CC 01 54 00 01 (调用内卫感应灯开的按键)
2024-09-01 11:31:04.096 - 1A 0C 02 08 01 FF 45 01 FF 45 01 FF 00 00 0F (调光器地址-内卫射灯, 内卫射灯微光)
2024-09-01 11:31:29.616 - 19 08 24 03 CC 01 55 00 01 (调用内卫感应灯关的按键)
2024-09-01 11:31:29.650 - 1A 0C 02 08 01 FF 00 01 FF 00 01 FF 00 00 0F (调光器地址-内卫射灯, 内卫感应灯关)
2024-09-01 11:51:21.918 - 19 08 24 03 DD 00 3B 00 01 (调用情景-书房照明关帘)
2024-09-01 11:51:22.417 - EE 00 00 B1 00 00 00 FF FC FF FF (情景执行提示)
2024-09-01 11:51:23.018 - 09 06 00 0F 02 01 78 21 (提示音叮)
2024-09-01 11:51:23.576 - 1A 0A 04 06 01 FF F0 01 FF F0 01 FF 00 00 0F (调光器地址-书房射灯, 书房射灯明亮)
2024-09-01 11:51:27.655 - A5 00 B7 FF 00 AA 22 0D (书房纱帘关)
2024-09-01 11:51:28.693 - A5 00 D2 FF 00 AA 22 0C (书房窗帘关)
2024-09-01 11:51:29.746 - 09 06 00 0F 02 02 38 20 (提示音咚)
2024-09-01 11:51:30.290 - EE 00 00 B1 00 00 02 FF FC FF FF (情景完成返回主页)
2024-09-01 11:53:01.651 - 19 08 24 03 CC 01 54 00 01 (调用内卫感应灯开的按键)
2024-09-01 11:53:01.698 - 1A 0C 02 08 01 FF 45 01 FF 45 01 FF 00 00 0F (调光器地址-内卫射灯, 内卫射灯微光)
2024-09-01 11:53:44.746 - 19 08 24 03 CC 01 55 00 01 (调用内卫感应灯关的按键)
2024-09-01 11:53:44.779 - 1A 0C 02 08 01 FF 00 01 FF 00 01 FF 00 00 0F (调光器地址-内卫射灯, 内卫感应灯关)
2024-09-01 11:55:07.405 - 19 08 24 03 CC 01 54 00 01 (调用内卫感应灯开的按键)
2024-09-01 11:55:07.437 - 1A 0C 02 08 01 FF 45 01 FF 45 01 FF 00 00 0F (调光器地址-内卫射灯, 内卫射灯微光)
2024-09-01 11:55:33.457 - 19 08 24 03 CC 01 55 00 01 (调用内卫感应灯关的按键)
2024-09-01 11:55:33.491 - 1A 0C 02 08 01 FF 00 01 FF 00 01 FF 00 00 0F (调光器地址-内卫射灯, 内卫感应灯关)
2024-09-01 11:57:00.122 - 19 08 24 03 CC 01 54 00 01 (调用内卫感应灯开的按键)
2024-09-01 11:57:00.168 - 1A 0C 02 08 01 FF 45 01 FF 45 01 FF 00 00 0F (调光器地址-内卫射灯, 内卫射灯微光)
2024-09-01 11:57:49.726 - 19 08 24 03 CC 01 55 00 01 (调用内卫感应灯关的按键)
2024-09-01 11:57:49.760 - 1A 0C 02 08 01 FF 00 01 FF 00 01 FF 00 00 0F (调光器地址-内卫射灯, 内卫感应灯关)
2024-09-01 11:57:58.748 - 19 08 24 03 CC 01 54 00 01 (调用内卫感应灯开的按键)
2024-09-01 11:57:58.780 - 1A 0C 02 08 01 FF 45 01 FF 45 01 FF 00 00 0F (调光器地址-内卫射灯, 内卫射灯微光)
2024-09-01 11:58:35.823 - 19 08 24 03 CC 01 55 00 01 (调用内卫感应灯关的按键)
2024-09-01 11:58:35.855 - 1A 0C 02 08 01 FF 00 01 FF 00 01 FF 00 00 0F (调光器地址-内卫射灯, 内卫感应灯关)
2024-09-01 11:59:37.946 - 19 08 24 03 CC 01 54 00 01 (调用内卫感应灯开的按键)
2024-09-01 11:59:37.978 - 1A 0C 02 08 01 FF 45 01 FF 45 01 FF 00 00 0F (调光器地址-内卫射灯, 内卫射灯微光)
2024-09-01 12:01:18.635 - 19 08 24 03 CC 01 55 00 01 (调用内卫感应灯关的按键)
2024-09-01 12:01:18.667 - 1A 0C 02 08 01 FF 00 01 FF 00 01 FF 00 00 0F (调光器地址-内卫射灯, 内卫感应灯关)
2024-09-01 12:01:47.696 - 19 08 24 03 CC 01 54 00 01 (调用内卫感应灯开的按键)
2024-09-01 12:01:47.728 - 1A 0C 02 08 01 FF 45 01 FF 45 01 FF 00 00 0F (调光器地址-内卫射灯, 内卫射灯微光)
2024-09-01 12:02:36.290 - 19 08 24 03 CC 01 55 00 01 (调用内卫感应灯关的按键)
2024-09-01 12:02:36.325 - 1A 0C 02 08 01 FF 00 01 FF 00 01 FF 00 00 0F (调光器地址-内卫射灯, 内卫感应灯关)
2024-09-01 12:02:36.793 - 19 08 24 03 CC 01 54 00 01 (调用内卫感应灯开的按键)
2024-09-01 12:02:36.830 - 1A 0C 02 08 01 FF 45 01 FF 45 01 FF 00 00 0F (调光器地址-内卫射灯, 内卫射灯微光)
2024-09-01 12:03:07.857 - 19 08 24 03 CC 01 55 00 01 (调用内卫感应灯关的按键)
2024-09-01 12:03:07.889 - 1A 0C 02 08 01 FF 00 01 FF 00 01 FF 00 00 0F (调光器地址-内卫射灯, 内卫感应灯关)
2024-09-01 12:03:14.365 - 19 08 24 03 CC 01 54 00 01 (调用内卫感应灯开的按键)
2024-09-01 12:03:14.397 - 1A 0C 02 08 01 FF 45 01 FF 45 01 FF 00 00 0F (调光器地址-内卫射灯, 内卫射灯微光)
2024-09-01 12:03:40.408 - 19 08 24 03 CC 01 55 00 01 (调用内卫感应灯关的按键)
2024-09-01 12:03:40.455 - 1A 0C 02 08 01 FF 00 01 FF 00 01 FF 00 00 0F (调光器地址-内卫射灯, 内卫感应灯关)
2024-09-01 12:04:03.966 - 19 08 24 03 CC 01 54 00 01 (调用内卫感应灯开的按键)
2024-09-01 12:04:04.013 - 1A 0C 02 08 01 FF 45 01 FF 45 01 FF 00 00 0F (调光器地址-内卫射灯, 内卫射灯微光)
2024-09-01 12:04:21.504 - 19 08 24 03 CC 01 55 00 01 (调用内卫感应灯关的按键)
2024-09-01 12:04:21.536 - 1A 0C 02 08 01 FF 00 01 FF 00 01 FF 00 00 0F (调光器地址-内卫射灯, 内卫感应灯关)
2024-09-01 12:05:14.606 - 19 08 24 03 CC 01 54 00 01 (调用内卫感应灯开的按键)
2024-09-01 12:05:14.640 - 1A 0C 02 08 01 FF 45 01 FF 45 01 FF 00 00 0F (调光器地址-内卫射灯, 内卫射灯微光)
2024-09-01 12:05:31.636 - 19 08 24 03 CC 01 55 00 01 (调用内卫感应灯关的按键)
2024-09-01 12:05:31.665 - 1A 0C 02 08 01 FF 00 01 FF 00 01 FF 00 00 0F (调光器地址-内卫射灯, 内卫感应灯关)
2024-09-01 12:06:04.198 - 19 08 24 03 CC 01 54 00 01 (调用内卫感应灯开的按键)
2024-09-01 12:06:04.232 - 1A 0C 02 08 01 FF 45 01 FF 45 01 FF 00 00 0F (调光器地址-内卫射灯, 内卫射灯微光)
2024-09-01 12:06:28.751 - 19 08 24 03 CC 01 55 00 01 (调用内卫感应灯关的按键)
2024-09-01 12:06:28.783 - 1A 0C 02 08 01 FF 00 01 FF 00 01 FF 00 00 0F (调光器地址-内卫射灯, 内卫感应灯关)
2024-09-01 12:06:31.257 - 19 08 24 03 CC 01 54 00 01 (调用内卫感应灯开的按键)
2024-09-01 12:06:31.291 - 1A 0C 02 08 01 FF 45 01 FF 45 01 FF 00 00 0F (调光器地址-内卫射灯, 内卫射灯微光)
2024-09-01 12:07:02.315 - 19 08 24 03 CC 01 55 00 01 (调用内卫感应灯关的按键)
2024-09-01 12:07:02.347 - 1A 0C 02 08 01 FF 00 01 FF 00 01 FF 00 00 0F (调光器地址-内卫射灯, 内卫感应灯关)
2024-09-01 12:08:41.011 - 19 08 24 03 CC 01 54 00 01 (调用内卫感应灯开的按键)
2024-09-01 12:08:41.049 - 1A 0C 02 08 01 FF 45 01 FF 45 01 FF 00 00 0F (调光器地址-内卫射灯, 内卫射灯微光)
2024-09-01 12:09:07.066 - 19 08 24 03 CC 01 55 00 01 (调用内卫感应灯关的按键)
2024-09-01 12:09:07.100 - 1A 0C 02 08 01 FF 00 01 FF 00 01 FF 00 00 0F (调光器地址-内卫射灯, 内卫感应灯关)
2024-09-01 12:09:55.654 - 19 08 24 03 CC 01 54 00 01 (调用内卫感应灯开的按键)
2024-09-01 12:09:55.695 - 1A 0C 02 08 01 FF 45 01 FF 45 01 FF 00 00 0F (调光器地址-内卫射灯, 内卫射灯微光)
2024-09-01 12:10:48.259 - 19 08 24 03 CC 01 55 00 01 (调用内卫感应灯关的按键)
2024-09-01 12:10:48.293 - 1A 0C 02 08 01 FF 00 01 FF 00 01 FF 00 00 0F (调光器地址-内卫射灯, 内卫感应灯关)
2024-09-01 12:12:28.963 - 19 08 24 03 CC 01 54 00 01 (调用内卫感应灯开的按键)
2024-09-01 12:12:28.997 - 1A 0C 02 08 01 FF 45 01 FF 45 01 FF 00 00 0F (调光器地址-内卫射灯, 内卫射灯微光)
2024-09-01 12:12:54.512 - 19 08 24 03 CC 01 55 00 01 (调用内卫感应灯关的按键)
2024-09-01 12:12:54.544 - 1A 0C 02 08 01 FF 00 01 FF 00 01 FF 00 00 0F (调光器地址-内卫射灯, 内卫感应灯关)
2024-09-01 12:27:31.999 - 19 08 24 03 CC 01 CC 00 01 (调用茶吧感应灯开的按键)
2024-09-01 12:27:32.021 - 1A AA AA AA 88 FF B0 01 FF B0 01 0F (调光器地址-茶吧灯带, 茶吧灯带明亮)
2024-09-01 12:27:43.867 - 19 08 24 03 DD 00 1A 00 01 (调用情景-客厅电视播放)
2024-09-01 12:27:44.377 - EE 00 00 B1 00 00 00 FF FC FF FF (情景执行提示)
2024-09-01 12:27:44.975 - 09 06 00 0F 02 01 78 21 (提示音叮)
2024-09-01 12:27:45.517 - 50 F0 08 (开客厅影视)
2024-09-01 12:27:54.530 - 50 F1 28 (客厅—有线2)
2024-09-01 12:27:55.090 - 09 06 00 0F 02 01 78 21 (提示音叮)
2024-09-01 12:27:55.646 - EE 00 00 B1 00 00 02 FF FC FF FF (情景完成返回主页)
2024-09-01 12:28:26.622 - 19 08 24 03 CC 01 CD 00 01 (调用茶吧感应灯关的按键)
2024-09-01 12:28:26.654 - 1A AA AA AA 88 FF 00 01 FF 00 01 0F (调光器地址-茶吧灯带, 茶吧灯带关闭)
2024-09-01 12:42:40.313 - 19 08 24 03 CC 01 CC 00 01 (调用茶吧感应灯开的按键)
2024-09-01 12:42:40.344 - 1A AA AA AA 88 FF B0 01 FF B0 01 0F (调光器地址-茶吧灯带, 茶吧灯带明亮)
2024-09-01 12:43:05.859 - 19 08 24 03 CC 01 CD 00 01 (调用茶吧感应灯关的按键)
2024-09-01 12:43:05.894 - 1A AA AA AA 88 FF 00 01 FF 00 01 0F (调光器地址-茶吧灯带, 茶吧灯带关闭)
2024-09-01 13:02:50.191 - 19 08 24 03 CC 01 CC 00 01 (调用茶吧感应灯开的按键)
2024-09-01 13:02:50.222 - 1A AA AA AA 88 FF B0 01 FF B0 01 0F (调光器地址-茶吧灯带, 茶吧灯带明亮)
2024-09-01 13:03:08.726 - 19 08 24 03 CC 01 CD 00 01 (调用茶吧感应灯关的按键)
2024-09-01 13:03:08.757 - 1A AA AA AA 88 FF 00 01 FF 00 01 0F (调光器地址-茶吧灯带, 茶吧灯带关闭)
2024-09-01 13:09:27.246 - 19 08 24 03 CC 00 D3 00 01 (调用厨房感应灯开的按键)
2024-09-01 13:09:27.280 - 55 0A 32 00 00 00 01 92 55 0A 32 00 00 00 02 93 (厨房顶灯一开, 厨房顶灯二开)
2024-09-01 13:10:02.310 - 19 08 24 03 CC 00 D4 00 01 (调用厨房感应灯关的按键)
2024-09-01 13:10:02.344 - 55 0A 31 00 00 00 01 91 55 0A 31 00 00 00 02 92 (厨房顶灯一关, 厨房顶灯二关)
2024-09-01 13:10:06.579 - AF BF CF DF C2 22 (有线2/快捷-国家地理)
2024-09-01 13:10:10.218 - AF BF CF DF C2 21 (有线2/快捷-凤凰卫视)
2024-09-01 13:10:40.836 - 19 08 24 03 CC 01 54 00 01 (调用内卫感应灯开的按键)
2024-09-01 13:10:40.868 - 1A 0C 02 08 01 FF 45 01 FF 45 01 FF 00 00 0F (调光器地址-内卫射灯, 内卫射灯微光)
2024-09-01 13:11:12.900 - 19 08 24 03 CC 01 55 00 01 (调用内卫感应灯关的按键)
2024-09-01 13:11:12.934 - 1A 0C 02 08 01 FF 00 01 FF 00 01 FF 00 00 0F (调光器地址-内卫射灯, 内卫感应灯关)
2024-09-01 13:11:25.925 - 19 08 24 03 CC 01 54 00 01 (调用内卫感应灯开的按键)
2024-09-01 13:11:25.959 - 1A 0C 02 08 01 FF 45 01 FF 45 01 FF 00 00 0F (调光器地址-内卫射灯, 内卫射灯微光)
2024-09-01 13:11:56.985 - 19 08 24 03 CC 01 55 00 01 (调用内卫感应灯关的按键)
2024-09-01 13:11:57.020 - 1A 0C 02 08 01 FF 00 01 FF 00 01 FF 00 00 0F (调光器地址-内卫射灯, 内卫感应灯关)
2024-09-01 13:13:37.181 - 19 08 24 03 CC 01 54 00 01 (调用内卫感应灯开的按键)
2024-09-01 13:13:37.220 - 1A 0C 02 08 01 FF 45 01 FF 45 01 FF 00 00 0F (调光器地址-内卫射灯, 内卫射灯微光)
2024-09-01 13:14:02.732 - 19 08 24 03 CC 01 55 00 01 (调用内卫感应灯关的按键)
2024-09-01 13:14:02.763 - 1A 0C 02 08 01 FF 00 01 FF 00 01 FF 00 00 0F (调光器地址-内卫射灯, 内卫感应灯关)
2024-09-01 13:19:16.481 - 1A FF FF FF 04 (继电器地址-东阳衣架)
2024-09-01 13:19:16.618 - 00
2024-09-01 13:24:26.104 - EE 00 6E B1 01 00 09 FF FC FF FF
2024-09-01 13:24:27.620 - EE 00 6E B1 01 00 0A FF FC FF FF
2024-09-01 13:24:28.624 - 1A 22 33 62 5F 00 01 01 0F (投影仪升降机控制更换前地址)
2024-09-01 13:24:28.848 - 1A 22 33 62 30 00 01 01 0F (正反转地址-投影仪升降, 投影仪停)
2024-09-01 13:24:29.836 - 1A 22 33 62 5F 00 00 01 0F (投影仪升降机控制更换前地址)
2024-09-01 13:24:30.060 - 1A 22 33 62 30 00 00 01 0F (正反转地址-投影仪升降, 投影仪降)
2024-09-01 13:24:33.663 - 1A 22 33 62 5F 00 02 01 0F (投影仪升降机控制更换前地址)
2024-09-01 13:24:33.893 - 1A 22 33 62 30 00 02 01 0F (正反转地址-投影仪升降, 投影仪升)
2024-09-01 13:26:03.308 - 1A 22 33 62 5F 00 00 01 0F (投影仪升降机控制更换前地址)
2024-09-01 13:26:03.529 - 1A 22 33 62 30 00 00 01 0F (正反转地址-投影仪升降, 投影仪降)
2024-09-01 13:27:18.542 - A1 11 11 11 48 (调用查询模块-自动开投影)
2024-09-01 13:27:18.771 - 1B 03 00 00 00 02 C6 31 (查询室外光线)
2024-09-01 13:27:18.790 - 1B 03 04 00 00 05 C5 82 F1 (室外光线返回)
2024-09-01 13:27:19.775 - 19 08 24 03 DD 00 14 00 01 (调用情景-白天放投影)
2024-09-01 13:27:20.336 - EE 00 00 B1 00 00 01 FF FC FF FF (情景暂停提示)
2024-09-01 13:27:20.930 - 09 06 00 0F 02 01 78 21 (提示音叮)
2024-09-01 13:27:21.479 - 1A 22 33 62 30 00 00 01 0F (正反转地址-投影仪升降, 投影仪降)
2024-09-01 13:27:23.528 - AE BE CE DE 50 57 52 20 4F 4E 0D (投影仪电源开PWR ON)
2024-09-01 13:27:24.129 - AE BE CE DE 53 4F 55 52 43 45 20 33 30 0D (投影仪HDMI信号源SOURCE 30)
2024-09-01 13:27:25.214 - 50 F0 08 (开客厅影视)
2024-09-01 13:27:26.324 - 1A 0D 01 01 01 FF 00 01 FF 00 01 FF 00 00 0F (调光器地址-客厅筒灯, 客厅筒灯关闭)
2024-09-01 13:27:27.413 - 1A 18 05 21 89 00 01 00 0F (自保持开关地址-客厅顶灯, 客厅顶灯一关)
2024-09-01 13:27:28.509 - 1A 18 05 01 94 00 01 00 0F (自保持开关地址-客厅顶灯, 客厅顶灯二关)
2024-09-01 13:27:29.611 - AE BE CE DE 53 4F 55 52 43 45 20 33 30 0D (投影仪HDMI信号源SOURCE 30)
2024-09-01 13:27:30.701 - 1A BE B0 DC 04 00 02 00 (继电器地址-西阳窗帘, 西阳窗帘关)
2024-09-01 13:27:31.293 - FF FF FF FF 0E 00 02 00 (继电器地址-西阳小窗帘, 西阳小窗帘关)
2024-09-01 13:27:31.848 - 1A BE B0 DC 03 00 03 00 (继电器地址-西阳天幕, 西阳天幕关)
2024-09-01 13:27:32.392 - 1A BE B0 DC 03 00 03 00 (继电器地址-西阳天幕, 西阳天幕关)
2024-09-01 13:27:32.944 - 1A BE B0 DC 03 00 03 00 (继电器地址-西阳天幕, 西阳天幕关)
2024-09-01 13:27:33.488 - 09 06 00 0F 02 02 38 20 (提示音咚)
2024-09-01 13:27:34.041 - EE 00 00 B1 00 00 02 FF FC FF FF (情景完成返回主页)
2024-09-01 13:30:31.972 - 07 67 00 00 00 00 34 64 07 67 36 00 00 00 70 C5 6C 00 00 15 DF 00 17 00 0A 00 00 00 00 00 00 00
2024-09-01 13:30:32.003 - 00 15 CF 00 00 1C 10 10 01 01 06 AF BF CF DF C1 01 D3 D0 CF DF 31 20 2F 20 B5 E7 D4 FC (有线1/电源开关)
2024-09-01 13:30:32.153 - 44 32 6A C6 80 80 01 00 8E 8B CD C6 03 00 8D A5 8E 8B 1D 16 22 7C 07 00 8D 83 AE
2024-09-01 13:30:32.187 - 07 67 00 01 00 00 65 A4 07 67 36 00 03 00 70 F8 8D A5 01 00 CD B2 8D F9 01 00 0D 18 0C 10
2024-09-01 13:30:32.247 - DC
2024-09-01 13:30:32.279 - 00 8D A5 8E 8C 1D 16 22 7D 05 00 8E F8 8D A5 01 00 CD B2 8E F8 01 00 0D 19 0D 10 01 01 06 AF BF
2024-09-01 13:30:32.299 - CF DF C1 04 D3 D0 CF DF 31 20 2F 20 9C 4F
2024-09-01 13:30:32.311 - 07 67 00 01 00 00 65 A4 07 67 9B
2024-09-01 13:30:32.343 - 05 00 70 D2 F4 C1 BF 2B 2C 80 09 01 01 26 02 24 26 CD C6 80 80 01 00 8E 8B CD C7 03 00 8D A5 8E
2024-09-01 13:30:32.359 - 8B 1D 16 62 7C 06 00 8D F8 8D A5 01 00 CD B1 8D F9 01 00 0D 19 B6 25
2024-09-01 13:30:32.406 - 27 67 00 01 00 00 65 A4 07 67 36 00 06 00 70 0D 10 01 01 06 AF BF CF DF C1 05 D3 D0 CF DF 31 20 (有线1/音量-)
2024-09-01 13:30:32.437 - 2F 20 D2 F4 C1 BF 2D 2C 80 09 01 01 26 02 24 26 CD C6 80 80 01 00 8E 8B CD C7 03 00 FD
2024-09-01 13:30:32.581 - F8 8E A4 01 00 CD B1 8E F9 01 00 0D 16 0A 10 01 01 06 AF BF CF DF C1 07 D3 D0 87 B0 (有线1/上)
2024-09-01 13:30:32.613 - 07 67 00 01 00 00 65 A4 07 67 36 00 09 00 70 CF DF 31 20 2F 20 C9 CF 2C 80 09 01 01 26 E2
2024-09-01 13:30:32.747 - D0 96 13
2024-09-01 13:30:32.781 - 0B 00 70 16 22 7F 01 00 8E F8 8D A5 01 00 CD B2 8E F8 01 00 0D 16 0A 10 01 01 06 AF BF CF DF C1
2024-09-01 13:30:32.804 - 09 D3 D0 CF DF 31 20 2F 20 D7 F3 2C 80 09 01 01 26 02 24 26 CD F3 FB
2024-09-01 13:30:32.836 - 07 67 00 01 00 00 65 A4 07 67 36 00 0C 00 70 C6 80 80 01 00 8E 8C CD C7 03 00 8E A4 8E 8C 1D 16
2024-09-01 13:30:32.868 - 22 7E 03 00 8D F8 8E A4 01 00 CD B2 8D F8 01 00 0D 16 0A 10 01 01 06 AF BF CF DF C1 FA
2024-09-01 13:30:33.019 - 2C 80 09 01 01 26 02 24 26 CD C6 80 80 01 00 8D 8C CD C6 03 00 8D A5 8D 8C 1D 4A 86
2024-09-01 13:30:33.053 - 07 67 00 01 00 00 65 A4 07 67 36 00 0F 00 70 16 22 70 1F 00 8D F8 8D A5 01 00 CD B2 8D F9
2024-09-01 13:30:33.172 - D0 96 13
2024-09-01 13:30:33.206 - 11 00 70 CF DF 31 20 2F 20 CA FD D7 D6 31 2C 80 09 01 01 26 02 24 26 CD C6 80 80 01 00 8E 8B CD
2024-09-01 13:30:33.240 - C6 03 00 8D A4 8E 8B 1D 16 22 77 11 00 8E F8 8D A4 01 00 CD B2 0E 21
2024-09-01 13:30:33.274 - 07 67 00 01 00 00 65 A4 07 67 36 00 12 00 70 8E F8 01 00 0D 19 0D 10 01 01 06 AF BF CF DF C1 12 (有线1/数字2)
2024-09-01 13:30:33.308 - D3 D0 CF DF 31 20 2F 20 CA FD D7 D6 32 2C 80 09 01 01 26 02 24 26 CD C6 80 80 01 00 FE
2024-09-01 13:30:33.458 - 1D 16 22 76 13 00 8E F8 8E A4 01 00 CD B2 8E F8 01 00 0D 19 0D 10 01 01 06 AF B5 F0
2024-09-01 13:30:33.495 - 07 67 00 01 00 00 65 A4 07 67 36 00 15 00 70 BF CF DF C1 14 D3 D0 CF DF 31 20 2F 20 CA FD
2024-09-01 13:30:33.618 - D0 96 13
2024-09-01 13:30:33.649 - 17 00 70 01 00 8E 8B CD C7 03 00 8D A4 8E 8B 1D 16 22 75 15 00 8E F8 8D A4 01 00 CD B2 8E F8 01
2024-09-01 13:30:33.674 - 00 0D 19 0D 10 01 01 06 AF BF CF DF C1 16 D3 D0 CF DF 31 20 2F 8A 4F (有线1/数字6)
2024-09-01 13:30:33.713 - 07 67 00 01 00 00 65 A4 07 67 36 00 18 00 70 20 CA FD D7 D6 36 2C 80 09 01 01 26 02 24 26 CD C6
2024-09-01 13:30:33.737 - 80 80 01 00 8E 8C CD C7 03 00 8E A4 8E 8C 1D 16 62 74 16 00 8D F8 8E A4 01 00 CD B2 FD
2024-09-01 13:30:33.890 - 32 AF BF CF DF C1 18 D3 D0 CF DF 31 20 2F 20 CA FD D7 D6 38 2C 80 09 01 01 26 2C B0 (有线1/数字8)
2024-09-01 13:30:33.924 - 07 67 00 01 00 00 65 A4 07 67 36 00 1B 00 70 02 24 26 CD C6 80 80 01 00 8F 8B CD C7 03 FF
2024-09-01 13:30:34.080 - 3B 67 36 00 1D 00 70 CD B2 8D F9 01 00 0D 19 0D 10 01 01 06 AF BF CF DF C1 10 D3 D0 CF DF 31 20 (有线1/数字0)
2024-09-01 13:30:34.112 - 2F 20 CA FD D7 D6 30 2C 80 09 01 01 26 02 24 26 CD C6 80 80 01 00 8E 8C CD 5F 9B
2024-09-01 13:30:34.176 - 26 7A 02 FA 63 BD DD FF 9C
2024-09-01 13:30:34.218 - 07 67 00 01 00 00 65 A4 07 67 36 00 1F 00 70 A3 BA B7 EF BB CB CE C0 CA D3 31 35 38 C6 B5 B5 C0
2024-09-01 13:30:34.237 - 2C 80 09 01 01 26 02 24 26 CD C6 80 80 01 00 8E
2024-09-01 13:30:34.363 - 10
2024-09-01 13:30:34.393 - 0D 09 80 11 01 01 00 00 00 64 2C 80 09 01 01 26 02 24 26 CD C6 80 80 01 00 8F 8B CD C7 03 00 8E
2024-09-01 13:30:34.400 - A4 8F 8B 1D 16 6B AC
2024-09-01 13:30:34.422 - 07 67 00 01 00 00 65 A4 07 67 36 00 22 00 70 62 F3
2024-09-01 13:30:34.550 - D7 CF
2024-09-01 13:30:34.584 - 07 67 00 01 00 00 65 A4 07 67 36 00 24 00 70 00 0D 09 80 11 01 01 00 00 00 64 2C 80 09 01 01 26
2024-09-01 13:30:34.618 - 02 24 26 CD C6 80 80 01 00 8E 8B CD C7 03 00 8D A4 8E 8B 1D 16 22 75 15 00 8E F8 8D A4 01 00 CD
2024-09-01 13:30:34.618 - B2 FF 6D
2024-09-01 13:30:34.656 - 07 67 00 01 00 00 65 A4 07 67 36 00 25 00 70 8E F8 01 00 0D 09 80 11 01 01 00 00 00 64 2C 80 09
2024-09-01 13:30:34.687 - 01 01 26 02 24 26 CD C6 80 80 01 00 8E 8B CD C6 03 00 8D A4 8E 8B 1D 16 62 76 12 00 8D F8 8D A4
2024-09-01 13:30:34.695 - 01 FE EF
2024-09-01 13:30:34.720 - 07 67 00 01 00 00 65 A4 07 67 36 00 26 00 70 00 CD B2 8D F9 01 00 0D 29 1D 10 01 01 06 AF BF CF
2024-09-01 13:30:34.734 - DF C1 23
2024-09-01 13:30:34.890 - 00 70 00 64 2C 80 09 01 01 26 02 24 26 CD C6 80 80 01 00 8E 8C CD C7 03 00 8E A4 8E 8C 1D 16 62
2024-09-01 13:30:34.911 - 74 16 00 8D F8 8E A4 01 00 CD B2 8D F9 01 00 0D 09 80 11 01 82 49
2024-09-01 13:30:34.942 - 07 67 00 01 00 00 65 A4 07 67 36 00 29 00 70 01 00 00 00 64 2C 80 09 01 01 26 02 24 26 CD C6 80
2024-09-01 13:30:34.975 - 80 01 00 8E 8B CD C7 03 00 8D A5 8E 8B 1D 16 62 75 14 00 8D F8 8D A5 01 00 CD B2 8D F9 01 00 FD
2024-09-01 13:30:35.134 - 7A FB 7B DF C2 02 D3 D0 CF DF 32 20 2F 20 B2 CB B5 A5 2C 80 09 01 02 FF F8
2024-09-01 13:30:35.166 - 07 67 00 01 00 00 65 A4 07 67 36 00 2C 00 70 26 02 24 26 CD C6 80 80 01 00 8E 8B CD C6 03 00 8D
2024-09-01 13:30:35.293 - 13
2024-09-01 13:30:35.325 - 2E 00 70 CD B2 8E F8 01 00 0D 19 0D 10 01 01 06 AF BF CF DF C2 04 D3 D0 CF DF 32 20 2F 20 D2 F4 (有线2/音量+)
2024-09-01 13:30:35.349 - C1 BF 2B 2C 80 09 01 02 26 02 24 26 CD C6 80 80 01 00 8E 8B CD 8B E1
2024-09-01 13:30:35.349 - 87
2024-09-01 13:30:35.486 - 8D A4 01 00 CD B2 8E F8 01 00 0D 18 0C 10 01 01 14 28
2024-09-01 13:30:35.520 - 07 67 00 01 00 00 65 A4 07 67 36 00 31 00 70 06 AF BF CF DF C2 06 D3 D0 CF DF 32 20 2F 20 BE B2 (有线2/静音)
2024-09-01 13:30:35.565 - D2 F4 2C 80 09 01 02 26 02 24 26 CD C6 80 80 01 00 8E 8C CD C7 03 00 8E A4 8E 8C 1D 16 62 79 0C
2024-09-01 13:30:35.565 - 00 86 E5
2024-09-01 13:30:35.605 - 07 67 00 01 00 00 65 A4 07 67 36 00 32 00 70 8E F8 8E A4 01 00 CD B1 8E F9 01 00 0D 16 0A 10 01
2024-09-01 13:30:35.629 - 01 06 AF BF CF DF C2 07 D3 D0 CF DF 32 20 2F 20 C9 CF 2C 80 09 01 02 26 02 24 26 CD C6 80 80 01 (有线2/上)
2024-09-01 13:30:35.640 - 00 C4 29
2024-09-01 13:30:35.677 - 07 67 00 01 00 00 65 A4 07 67 36 00 33 00 70 8D 8C CD C6 03 00 8E A4 8D 8C 1D 16 62 7F 00 00 8D
2024-09-01 13:30:35.708 - F8 8E A4 01 00 CD B2 8D F9 01 00 0D 16 0A 10 01 01 06 AF BF CF DF C2 08 D3 D0 CF DF 32 20 2F 20 (有线2/下)
2024-09-01 13:30:35.716 - CF C4 53
2024-09-01 13:30:35.725 - 07 67 00 01 00 00 65 A4 87
2024-09-01 13:30:35.859 - 1D 16 22 7E 03 00 8D F8 3B 48
2024-09-01 13:30:35.894 - 07 67 00 01 00 00 65 A4 07 67 36 00 36 00 70 8E A4 01 00 CD B2 8D F8 01 00 0D 16 0A 10 01 01 06
2024-09-01 13:30:35.927 - AF BF CF DF C2 0A D3 D0 CF DF 32 20 2F 20 D3 D2 2C 80 09 01 02 26 02 24 26 CD C6 80 80 01 00 8D (有线2/右)
2024-09-01 13:30:35.931 - 8C C0 65
2024-09-01 13:30:35.963 - 07 67 00 01 00 00 65 A4 07 67 36 00 37 00 70 CD C7 03 00 8D A4 8D 8C 1D 16 62 7E 02 00 8E F8 8D
2024-09-01 13:30:36.002 - A4 01 00 CD B2 8E F8 01 00 0D 18 0C 10 01 01 06 AF BF CF DF C2 0B D3 D0 CF DF 32 20 2F 20 C8 B7 (有线2/确认)
2024-09-01 13:30:36.002 - C8 EF 02
2024-09-01 13:30:36.043 - 07 67 00 01 00 00 65 A4 07 67 36 00 38 00 70 CF 2C 80 09 01 02 26 02 24 26 CD C6 80 80 01 00 8D
2024-09-01 13:30:36.075 - 8C CD C6 03 00 8D A5 8D 8C 1D 16 22 70 1F 00 8D F8 8D A5 01 00 CD B2 8D F9 01 00 0D 18 0C 10 01
2024-09-01 13:30:36.080 - 01 E4 B3
2024-09-01 13:30:36.114 - 07 67 00 01 00 00 65 A4 07 67 36 00 39 00 70 06 AF BF CF DF C2 0C D3 D0 CF DF 32 20 2F 20 B7 B5 (有线2/返回)
2024-09-01 13:30:36.148 - BB D8 2C 80 09 01 02 26 02 24 26 CD C6 80 80 01 00 8E 8C CD C7 03 00 8E A4 8E 8C 1D 16 62 71 1C
2024-09-01 13:30:36.148 - 00 97 E1
2024-09-01 13:30:36.165 - 07 67 00 01 00 00 E5
2024-09-01 13:30:36.298 - DF C2 12 D3 D0 CF DF 32 20 2F 3E 21
2024-09-01 13:30:36.335 - 07 67 00 01 00 00 65 A4 07 67 36 00 3C 00 70 20 CA FD D7 D6 32 2C 80 09 01 02 26 02 24 26 CD C6
2024-09-01 13:30:36.369 - 80 80 01 00 8E 8B CD C6 03 00 8D A4 8E 8B 1D 16 62 76 12 00 8D F8 8D A4 01 00 CD B2 8D F9 01 00
2024-09-01 13:30:36.369 - 0D 85 03
2024-09-01 13:30:36.403 - 07 67 00 01 00 00 65 A4 07 67 36 00 3D 00 70 19 0D 10 01 01 06 AF BF CF DF C2 13 D3 D0 CF DF 32 (有线2/数字3)
2024-09-01 13:30:36.437 - 20 2F 20 CA FD D7 D6 33 2C 80 09 01 02 26 02 24 26 CD C6 80 80 01 00 8E 8B CD C7 03 00 8E A4 8E
2024-09-01 13:30:36.442 - 8B 81 28
2024-09-01 13:30:36.474 - 07 67 00 01 00 00 65 A4 07 67 36 00 3E 00 70 1D 16 22 76 13 00 8E F8 8E A4 01 00 CD B2 8E F8 01
2024-09-01 13:30:36.515 - 00 0D 19 0D 10 01 01 06 AF BF CF DF C2 14 D3 D0 CF DF 32 20 2F 20 CA FD D7 D6 34 2C 80 09 01 02 (有线2/数字4)
2024-09-01 13:30:36.515 - 26 62 24
2024-09-01 13:30:36.539 - 07 67 00 01 00 00 65 A4 07 67 36 00 3F 00 70 81 92 52 CE
2024-09-01 13:30:36.573 - 80 80 01 00 8E 8B CD C7 03 00 8D A5 8E 8B 1D 16 62 75 14 00 8D F8 8D A5 01 00 CD B2 8D F9 01 00
2024-09-01 13:30:36.590 - 0D 19 0D 10 01 01 06 AF BF CF DF C2 15 E4 33 (有线2/数字5)
2024-09-01 13:30:36.602 - 07 67 00 01 E0
2024-09-01 13:30:36.734 - 12 24 26 CD C6 80 80 01 00 8E 8C CD EA 61
2024-09-01 13:30:36.765 - 07 67 00 01 00 00 65 A4 07 67 36 00 42 00 70 C7 03 00 8E A4 8E 8C 1D 16 62 74 16 00 8D F8 8E A4
2024-09-01 13:30:36.799 - 01 00 CD B2 8D F9 01 00 0D 19 0D 10 01 01 06 AF BF CF DF C2 17 D3 D0 CF DF 32 20 2F 20 CA FD D7 (有线2/数字7)
2024-09-01 13:30:36.810 - D6 BC 34
2024-09-01 13:30:36.844 - 07 67 00 01 00 00 65 A4 07 67 36 00 43 00 70 37 2C 80 09 01 02 26 02 24 26 CD C6 80 80 01 00 8E
2024-09-01 13:30:36.850 - FC
2024-09-01 13:30:37.000 - D9 00 45 00 70 00 8E F8 8E A4 01 00 CD B1 8E F8 01 00 0D 19 0D 10 01 01 06 AF BF CF DF C2 19 D3 (有线2/数字9)
2024-09-01 13:30:37.032 - D0 CF DF 32 20 2F 20 CA FD D7 D6 39 2C 80 09 01 02 26 02 24 26 CD C6 EF 22
2024-09-01 13:30:37.100 - 10 D3 D0 CF DF 32 6B 6A
2024-09-01 13:30:37.140 - 07 67 00 01 00 00 65 A4 07 67 36 00 47 00 70 20 2F 20 CA FD D7 D6 30 2C 80 09 01 02 26 02 24 26
2024-09-01 13:30:37.172 - CD C6 80 80 01 00 8E 8C CD C7 03 00 8E A4 8E 8C 1D 16 62 77 10 00 8E F8 8E A4 01 00 CD B2 8E F8
2024-09-01 13:30:37.175 - 01 3D 3F
2024-09-01 13:30:37.207 - 07 67 00 01 00 00 65 A4 07 67 36 00 48 00 70 00 0D 29 1D 10 01 01 06 AF BF CF DF C2 21 D3 D0 CF (有线2/快捷-凤凰卫视)
2024-09-01 13:30:37.239 - DF 32 20 2F 20 BF EC BD DD A3 BA B7 EF BB CB CE C0 CA D3 31 35 38 C6 B5 B5 C0 2C 80 09 01 02 26
2024-09-01 13:30:37.239 - 02 B8 7A
2024-09-01 13:30:37.271 - 07 67 00 01 00 00 65 A4 07 67 36 00 49 00 70 24 26 CD C6 80 80 01 00 8E 8B CD C6 03 00 8D A4 8E
2024-09-01 13:30:37.319 - 8B 1D 16 22 77 11 00 8E F8 8D A4 01 00 CD B2 8E F8 01 00 0D 09 80 11 01 01 00 00 00 64 2C 80 09
2024-09-01 13:30:37.321 - 01 A5 99
2024-09-01 13:30:37.359 - 07 67 00 01 00 00 65 A4 07 67 36 00 4A 00 70 02 26 02 24 26 CD C6 80 80 01 00 8E 8B CD C7 03 00
2024-09-01 13:30:37.390 - 8D A4 8E 8B 1D 16 22 75 15 00 8E F8 8D A4 01 00 CD B2 8E F8 01 00 0D 09 80 11 01 01 00 00 00 64
2024-09-01 13:30:37.393 - 2C 97 B0
2024-09-01 13:30:37.406 - 07 67 00 01 00 00 65 A4 E7
2024-09-01 13:30:37.541 - C9 6A C6 80 80 01 00 8E DA E7
2024-09-01 13:30:37.578 - 07 67 00 01 00 00 65 A4 07 67 36 00 4D 00 70 8B CD C6 03 00 8D A4 8E 8B 1D 16 22 77 11 00 8E F8
2024-09-01 13:30:37.592 - 8D A4 01 00 CD B2 8E F8 01 00 0D 09 80 11 C1
2024-09-01 13:30:37.718 - 20
2024-09-01 13:30:37.749 - 8D A4 8E 8B 1D 16 62 76 12 00 8D F8 8D A4 01 00 CD B2 8D F9 01 00 0D 29 1D 10 01 01 06 AF BF CF
2024-09-01 13:30:37.762 - DF C2 23 D3 D0 CF DF 45 96
2024-09-01 13:30:37.780 - 07 67 00 01 00 00 65 A4 07 67 36 00 50 00 FC
2024-09-01 13:30:37.898 - 08
2024-09-01 13:30:37.907 - 8E DC 23
2024-09-01 13:30:37.939 - 07 67 00 01 00 00 65 A4 07 67 36 00 52 00 70 A4 8E 8C 1D 16 62 74 16 00 8D F8 8E A4 01 00 CD B2
2024-09-01 13:30:37.966 - 8D F9 01 00 0D 09 80 11 01 01 00 00 00 64 2C 80 09 01 02 26 FE
2024-09-01 13:30:38.086 - 02
2024-09-01 13:30:38.118 - 8D 8C CD C6 03 00 8D A5 8D 8C 1D 0E 22 6F 21 00 0C 1B 0F 10 01 01 06 AF BF CF DF C4 02 4D 45 43 (盒子CH4/音量+)
2024-09-01 13:30:38.118 - 4F 4F B9 DC
2024-09-01 13:30:38.153 - 07 67 00 01 00 00 65 A4 07 67 36 00 55 00 70 4C 34 20 2F FC
2024-09-01 13:30:38.306 - 07 67 00 01 00 00 65 A4 07 67 36 00 57 00 70 0C 1A 0E 10 01 01 06 AF BF CF DF C4 04 4D 45 43 4F (盒子CH4/静音)
2024-09-01 13:30:38.340 - 4F 4C 34 20 2F 20 BE B2 D2 F4 2C 80 09 01 04 26 02 24 26 CD C6 80 80 01 00 8D 8C CD FE
2024-09-01 13:30:38.493 - AA 55 00 0C 18 0C 10 01 01 06 AF BF CF DF C4 06 4D 45 43 4F 4F 4C 34 20 2F 20 CF 1E 92 (盒子CH4/下)
2024-09-01 13:30:38.527 - 07 67 00 01 00 00 65 A4 07 67 36 00 5A 00 70 C2 20 80 09 01 04 1A 02 18 26 CD C6 80
2024-09-01 13:30:38.656 - 80 59 DA D0 96 13
2024-09-01 13:30:38.688 - 5C 00 70 0C 18 0C 10 01 01 06 AF BF CF DF C4 08 4D 45 43 4F 4F 4C 34 20 2F 20 D3 D2 20 80 09 01 (盒子CH4/右)
2024-09-01 13:30:38.706 - 04 1A 02 18 26 CD C6 80 80 01 00 8D 8C CD C6 03 00 8E A4 8D 8C F4
2024-09-01 13:30:38.859 - 3D 3D 31 D1 20 2F 20 B7 B5 BB D8 20 80 09 01 04 1A 02 18 26 CD C6 57 C4
2024-09-01 13:30:38.895 - 07 67 00 01 00 00 65 A4 07 67 36 00 5F 00 70 80 80 01 00 8E 8C CD C7 03 00 8E A4 8E 8C 1D 0E 62
2024-09-01 13:30:38.895 - 5B
2024-09-01 13:30:39.020 - 13
2024-09-01 13:30:39.055 - 61 00 70 20 C9 E8 D6 C3 20 80 09 01 04 1A 02 18 26 CD C6 80 80 01 00 8E 8B CD C6 03 00 8D A5 8E
2024-09-01 13:30:39.079 - 8B 1D 0E 22 78 0F 00 0C 1A 0E 10 01 01 06 AF BF CF DF C5 01 4D 97 F9 (盒子CH5/电源)
2024-09-01 13:30:39.079 - FF
2024-09-01 13:30:39.207 - 07
2024-09-01 13:30:39.224 - 80 01 00 8D 8C CD C6 03 00 8D A5 8D 8C 1D 0E 22 CD 69
2024-09-01 13:30:39.262 - 07 67 00 01 00 00 65 A4 07 67 36 00 64 00 70 6F 21 00 0C 1B 0F 10 01 01 06 AF BF CF DF C5 03 4D (盒子CH5/音量-)
2024-09-01 13:30:39.265 - 45 43 4F 4F 4C FD
2024-09-01 13:30:39.422 - 01 80 01 00 8D 8C CD C6 03 00 8D A5 8D 8C 1D 0E 22 6D 25 00 8C FE 8D A5 01 00 CD B1 8C FE 01 00
2024-09-01 13:30:39.445 - 0C 18 0C 10 01 01 06 AF BF CF DF C5 05 4D 45 43 4F 4F 1D 82 (盒子CH5/上)
2024-09-01 13:30:39.454 - 07 67 00 01 E0
2024-09-01 13:30:39.581 - D6 E4
2024-09-01 13:30:39.583 - 62 74 16 00 0C 18 0C 10 01 01 FA 64
2024-09-01 13:30:39.615 - 07 67 00 01 00 00 65 A4 07 67 36 00 69 00 70 06 AF BF CF DF C5 07 4D 45 43 4F 4F 4C 35 20 2F 20 (盒子CH5/左)
2024-09-01 13:30:39.640 - D7 F3 2C 80 09 01 05 26 02 24 F6
2024-09-01 13:30:39.796 - C6 03 00 8E A4 8D 8C 1D 0E 62 73 18 00 0C 18 0C 10 01 01 06 AF BF CF DF C5 09 4D 45 43 4F 4F 4C (盒子CH5/OK)
2024-09-01 13:30:39.806 - 35 20 2F 20 4F 4B 20 80 09 01 05 1A 02 9B 1B
2024-09-01 13:30:39.828 - 07 67 00 01 00 00 65 A4 07 E7
2024-09-01 13:30:39.955 - 57 0B 4D 45 43 4F 4F 35 92
2024-09-01 13:30:39.989 - 07 67 00 01 00 00 65 A4 07 67 36 00 6E 00 70 4C 35 20 2F 20 CA D7 D2 B3 20 80 09 01 05 1A 02 18
2024-09-01 13:30:40.013 - 26 CD C6 80 80 01 00 8D 8C CD C6 03 00 8E A4 FD
2024-09-01 13:33:31.324 - 4D 55 54 45 20 4F 4E 0D (投影仪信号暂停开MUTE ON)
2024-09-01 13:33:33.428 - 4D 55 54 45 20 4F 4E 0D (投影仪信号暂停开MUTE ON)
2024-09-01 13:33:35.089 - 19 08 24 03 CC 00 D3 00 01 (调用厨房感应灯开的按键)
2024-09-01 13:33:35.142 - 55 0A 32 00 00 00 01 92 55 0A 32 00 00 00 02 93 (厨房顶灯一开, 厨房顶灯二开)
2024-09-01 13:33:37.295 - 4D 55 54 45 20 4F 4E 0D (投影仪信号暂停开MUTE ON)
2024-09-01 13:33:42.675 - 4D 55 54 45 20 4F 4E 0D (投影仪信号暂停开MUTE ON)
2024-09-01 13:33:56.360 - 4D 55 54 45 20 4F 46 46 0D (投影仪信号暂停关MUTE OFF)
2024-09-01 13:34:10.655 - 19 08 24 03 CC 00 D4 00 01 (调用厨房感应灯关的按键)
2024-09-01 13:34:10.687 - 55 0A 31 00 00 00 01 91 55 0A 31 00 00 00 02 92 (厨房顶灯一关, 厨房顶灯二关)
2024-09-01 13:34:35.664 - 4B 45 59 20 30 33 0D (投影仪键MENU)
2024-09-01 13:34:37.063 - 4B 45 59 20 30 33 0D (投影仪键MENU)
2024-09-01 13:34:38.572 - 4B 45 59 20 30 33 0D (投影仪键MENU)
2024-09-01 13:34:52.058 - 50 57 52 20 4F 46 46 0D (投影仪电源关PWR OFF)
2024-09-01 13:34:54.359 - 50 57 52 20 4F 46 46 0D (投影仪电源关PWR OFF)
2024-09-01 13:35:40.845 - AE BE CE DE 4D 55 54 45 20 4F 4E 0D (投影仪信号暂停开MUTE ON)
2024-09-01 13:35:46.297 - AE BE CE DE 4D 55 54 45 20 4F 46 46 0D (投影仪信号暂停关MUTE OFF)
2024-09-01 13:36:11.009 - AE BE CE DE 4B 45 59 20 39 44 0D (投影仪键2D/3D)
2024-09-01 13:39:59.857 - 4B 45 59 20 34 38 0D (投影仪键SOURCE)
2024-09-01 13:40:04.961 - 4B 45 59 20 34 38 0D (投影仪键SOURCE)
2024-09-01 13:40:58.331 - 4B 45 59 20 34 38 0D (投影仪键SOURCE)
2024-09-01 13:41:02.197 - 4B 45 59 20 34 38 0D (投影仪键SOURCE)
2024-09-01 13:41:05.293 - 4B 45 59 20 34 38 0D (投影仪键SOURCE)
2024-09-01 13:41:40.032 - 4B 45 59 20 34 38 0D (投影仪键SOURCE)
2024-09-01 13:41:42.792 - 4B 45 59 20 34 38 0D (投影仪键SOURCE)
2024-09-01 13:42:17.239 - AE BE CE DE 4B 45 59 20 34 38 0D (投影仪键SOURCE)
2024-09-01 13:42:19.143 - AE BE CE DE 4B 45 59 20 34 38 0D (投影仪键SOURCE)
2024-09-01 13:42:19.727 - AE BE CE DE 4B 45 59 20 34 38 0D (投影仪键SOURCE)
2024-09-01 13:42:20.286 - AE BE CE DE 4B 45 59 20 34 38 0D (投影仪键SOURCE)
2024-09-01 13:42:20.780 - AE BE CE DE 4B 45 59 20 34 38 0D (投影仪键SOURCE)
2024-09-01 13:42:21.285 - AE BE CE DE 4B 45 59 20 34 38 0D (投影仪键SOURCE)
2024-09-01 13:42:26.962 - AE BE CE DE 4B 45 59 20 34 38 0D (投影仪键SOURCE)
2024-09-01 13:42:29.989 - AE BE CE DE 4B 45 59 20 34 38 0D (投影仪键SOURCE)
2024-09-01 13:44:42.721 - 19 08 24 03 CC 01 52 00 01 (调用外卫感应灯开的按键)
2024-09-01 13:44:42.787 - 1A 0D 01 07 01 FF 45 01 FF 45 01 FF 00 00 0F (调光器地址-外卫射灯, 外卫感应灯开)
2024-09-01 13:45:55.367 - 19 08 24 03 CC 01 53 00 01 (调用外卫感应灯关的按键)
2024-09-01 13:45:55.401 - 1A 0D 01 07 01 FF 00 01 FF 00 01 FF 00 00 0F (调光器地址-外卫射灯, 外卫感应灯关)
2024-09-01 13:45:59.586 - A1 11 11 11 49 (调用查询模块-自动关投影)
2024-09-01 13:45:59.807 - 1B 03 00 00 00 02 C6 31 (查询室外光线)
2024-09-01 13:45:59.829 - 1B 03 04 00 00 06 CD 83 C7 (室外光线返回)
2024-09-01 13:46:00.810 - 19 08 24 03 DD 00 16 00 01 (调用情景-白天关投影)
2024-09-01 13:46:01.360 - EE 00 00 B1 00 00 00 FF FC FF FF (情景执行提示)
2024-09-01 13:46:01.951 - 09 06 00 0F 02 01 78 21 (提示音叮)
2024-09-01 13:46:02.512 - FF FF FF FF 0E 00 01 00 (继电器地址-西阳小窗帘, 西阳小窗帘开)
2024-09-01 13:46:03.056 - 1A BE B0 DC 04 00 01 00 (继电器地址-西阳窗帘, 西阳窗帘开)
2024-09-01 13:46:05.097 - AE BE CE DE 50 57 52 20 4F 46 46 0D (投影仪电源关PWR OFF)
2024-09-01 13:46:07.190 - 50 F5 08 (关客厅影视)
2024-09-01 13:46:09.742 - 1A 22 33 62 30 00 02 01 0F (正反转地址-投影仪升降, 投影仪升)
2024-09-01 13:46:10.779 - 09 06 00 0F 02 02 38 20 (提示音咚)
2024-09-01 13:46:11.335 - EE 00 00 B1 00 00 02 FF FC FF FF (情景完成返回主页)
2024-09-01 13:47:36.384 - FF
2024-09-01 13:51:48.734 - 19 08 24 03 CC 01 54 00 01 (调用内卫感应灯开的按键)
2024-09-01 13:51:48.787 - 1A 0C 02 08 01 FF 45 01 FF 45 01 FF 00 00 0F (调光器地址-内卫射灯, 内卫射灯微光)
2024-09-01 13:53:42.744 - 19 08 24 03 CC 01 CC 00 01 (调用茶吧感应灯开的按键)
2024-09-01 13:53:42.798 - 1A AA AA AA 88 FF B0 01 FF B0 01 0F (调光器地址-茶吧灯带, 茶吧灯带明亮)
2024-09-01 13:53:50.000 - 19 08 24 03 CC 00 D3 00 01 (调用厨房感应灯开的按键)
2024-09-01 13:53:50.022 - 55 0A 32 00 00 00 01 92 55 0A 32 00 00 00 02 93 (厨房顶灯一开, 厨房顶灯二开)
2024-09-01 13:53:59.782 - 19 08 24 03 CC 01 CD 00 01 (调用茶吧感应灯关的按键)
2024-09-01 13:53:59.814 - 1A AA AA AA 88 FF 00 01 FF 00 01 0F (调光器地址-茶吧灯带, 茶吧灯带关闭)
2024-09-01 13:54:09.003 - 19 08 24 03 CC 01 55 00 01 (调用内卫感应灯关的按键)
2024-09-01 13:54:09.035 - 1A 0C 02 08 01 FF 00 01 FF 00 01 FF 00 00 0F (调光器地址-内卫射灯, 内卫感应灯关)
2024-09-01 13:55:22.654 - 19 08 24 03 CC 01 54 00 01 (调用内卫感应灯开的按键)
2024-09-01 13:55:22.686 - 1A 0C 02 08 01 FF 45 01 FF 45 01 FF 00 00 0F (调光器地址-内卫射灯, 内卫射灯微光)
2024-09-01 13:55:48.202 - 19 08 24 03 CC 01 55 00 01 (调用内卫感应灯关的按键)
2024-09-01 13:55:48.253 - 1A 0C 02 08 01 FF 00 01 FF 00 01 FF 00 00 0F (调光器地址-内卫射灯, 内卫感应灯关)
2024-09-01 13:56:25.571 - 19 08 24 03 CC 01 CC 00 01 (调用茶吧感应灯开的按键)
2024-09-01 13:56:25.597 - 1A AA AA AA 88 FF B0 01 FF B0 01 0F (调光器地址-茶吧灯带, 茶吧灯带明亮)
2024-09-01 13:57:12.394 - 19 08 24 03 CC 00 D4 00 01 (调用厨房感应灯关的按键)
2024-09-01 13:57:12.428 - 55 0A 31 00 00 00 01 91 55 0A 31 00 00 00 02 92 (厨房顶灯一关, 厨房顶灯二关)
2024-09-01 13:57:28.421 - 19 08 24 03 CC 00 D3 00 01 (调用厨房感应灯开的按键)
2024-09-01 13:57:28.454 - 55 0A 32 00 00 00 01 92 55 0A 32 00 00 00 02 93 (厨房顶灯一开, 厨房顶灯二开)
2024-09-01 13:59:08.119 - 19 08 24 03 CC 00 D4 00 01 (调用厨房感应灯关的按键)
2024-09-01 13:59:08.151 - 55 0A 31 00 00 00 01 91 55 0A 31 00 00 00 02 92 (厨房顶灯一关, 厨房顶灯二关)
2024-09-01 13:59:23.149 - 19 08 24 03 CC 00 D3 00 01 (调用厨房感应灯开的按键)
2024-09-01 13:59:23.181 - 55 0A 32 00 00 00 01 92 55 0A 32 00 00 00 02 93 (厨房顶灯一开, 厨房顶灯二开)
2024-09-01 13:59:41.534 - A1 11 11 11 48 (调用查询模块-自动开投影)
2024-09-01 13:59:41.756 - 1B 03 00 00 00 02 C6 31 (查询室外光线)
2024-09-01 13:59:41.774 - 1B 03 04 00 00 05 F0 42 E6 (室外光线返回)
2024-09-01 13:59:42.759 - 19 08 24 03 DD 00 14 00 01 (调用情景-白天放投影)
2024-09-01 13:59:43.287 - EE 00 00 B1 00 00 01 FF FC FF FF (情景暂停提示)
2024-09-01 13:59:43.881 - 09 06 00 0F 02 01 78 21 (提示音叮)
2024-09-01 13:59:44.425 - 1A 22 33 62 30 00 00 01 0F (正反转地址-投影仪升降, 投影仪降)
2024-09-01 13:59:46.527 - AE BE CE DE 50 57 52 20 4F 4E 0D (投影仪电源开PWR ON)
2024-09-01 13:59:47.132 - AE BE CE DE 53 4F 55 52 43 45 20 33 30 0D (投影仪HDMI信号源SOURCE 30)
2024-09-01 13:59:48.203 - 50 F0 08 (开客厅影视)
2024-09-01 13:59:49.273 - 1A 0D 01 01 01 FF 00 01 FF 00 01 FF 00 00 0F (调光器地址-客厅筒灯, 客厅筒灯关闭)
2024-09-01 13:59:50.365 - 1A 18 05 21 89 00 01 00 0F (自保持开关地址-客厅顶灯, 客厅顶灯一关)
2024-09-01 13:59:51.413 - 1A 18 05 01 94 00 01 00 0F (自保持开关地址-客厅顶灯, 客厅顶灯二关)
2024-09-01 13:59:52.454 - AE BE CE DE 53 4F 55 52 43 45 20 33 30 0D (投影仪HDMI信号源SOURCE 30)
2024-09-01 13:59:53.552 - 1A BE B0 DC 04 00 02 00 (继电器地址-西阳窗帘, 西阳窗帘关)
2024-09-01 13:59:54.102 - FF FF FF FF 0E 00 02 00 (继电器地址-西阳小窗帘, 西阳小窗帘关)
2024-09-01 13:59:54.651 - 1A BE B0 DC 03 00 03 00 (继电器地址-西阳天幕, 西阳天幕关)
2024-09-01 13:59:55.194 - 1A BE B0 DC 03 00 03 00 (继电器地址-西阳天幕, 西阳天幕关)
2024-09-01 13:59:55.735 - 1A BE B0 DC 03 00 03 00 (继电器地址-西阳天幕, 西阳天幕关)
2024-09-01 13:59:56.341 - 09 06 00 0F 02 02 38 20 (提示音咚)
2024-09-01 13:59:56.891 - EE 00 00 B1 00 00 02 FF FC FF FF (情景完成返回主页)
2024-09-01 14:00:13.252 - 19 08 24 03 CC 00 D4 00 01 (调用厨房感应灯关的按键)
2024-09-01 14:00:13.286 - 55 0A 31 00 00 00 01 91 55 0A 31 00 00 00 02 92 (厨房顶灯一关, 厨房顶灯二关)
2024-09-01 14:00:31.641 - AE BE CE DE 4B 45 59 20 34 38 0D (投影仪键SOURCE)
2024-09-01 14:00:32.802 - AE BE CE DE 4B 45 59 20 34 38 0D (投影仪键SOURCE)
2024-09-01 14:00:38.517 - AE BE CE DE 4B 45 59 20 34 38 0D (投影仪键SOURCE)
2024-09-01 14:00:39.458 - AE BE CE DE 4B 45 59 20 34 38 0D (投影仪键SOURCE)
2024-09-01 14:00:39.876 - AE BE CE DE 4B 45 59 20 34 38 0D (投影仪键SOURCE)
2024-09-01 14:00:40.191 - AE BE CE DE 4B 45 59 20 34 38 0D (投影仪键SOURCE)
2024-09-01 14:00:40.527 - AE BE CE DE 4B 45 59 20 34 38 0D (投影仪键SOURCE)
2024-09-01 14:00:40.859 - AE BE CE DE 4B 45 59 20 34 38 0D (投影仪键SOURCE)
2024-09-01 14:00:53.945 - AE BE CE DE 4B 45 59 20 30 33 0D (投影仪键MENU)
2024-09-01 14:00:55.866 - AE BE CE DE 4B 45 59 20 33 36 0D (投影仪键DOWN)
2024-09-01 14:00:56.699 - AE BE CE DE 4B 45 59 20 33 36 0D (投影仪键DOWN)
2024-09-01 14:00:58.077 - AE BE CE DE 4B 45 59 20 33 35 0D (投影仪键UP)
2024-09-01 14:00:58.922 - AE BE CE DE 4B 45 59 20 33 35 0D (投影仪键UP)
2024-09-01 14:01:00.171 - AE BE CE DE 4B 45 59 20 33 38 0D (投影仪键RIGHT)
2024-09-01 14:01:00.869 - AE BE CE DE 4B 45 59 20 33 36 0D (投影仪键DOWN)
2024-09-01 14:01:02.771 - AE BE CE DE 4B 45 59 20 33 38 0D (投影仪键RIGHT)
2024-09-01 14:01:04.423 - AE BE CE DE 4B 45 59 20 33 36 0D (投影仪键DOWN)
2024-09-01 14:01:05.715 - AE BE CE DE 4B 45 59 20 33 37 0D (投影仪键LEFT)
2024-09-01 14:01:08.525 - AE BE CE DE 4B 45 59 20 30 35 0D (投影仪键ESC)
2024-09-01 14:01:11.584 - AE BE CE DE 4D 55 54 45 20 4F 4E 0D (投影仪信号暂停开MUTE ON)
2024-09-01 14:01:14.938 - AE BE CE DE 4D 55 54 45 20 4F 46 46 0D (投影仪信号暂停关MUTE OFF)
2024-09-01 14:01:18.594 - AE BE CE DE 4B 45 59 20 39 44 0D (投影仪键2D/3D)
2024-09-01 14:01:20.614 - AE BE CE DE 4B 45 59 20 39 44 0D (投影仪键2D/3D)
2024-09-01 14:01:23.367 - AE BE CE DE 4B 45 59 20 39 44 0D (投影仪键2D/3D)
2024-09-01 14:01:23.880 - 19 08 24 03 CC 00 D3 00 01 (调用厨房感应灯开的按键)
2024-09-01 14:01:23.925 - 55 0A 32 00 00 00 01 92 55 0A 32 00 00 00 02 93 (厨房顶灯一开, 厨房顶灯二开)
2024-09-01 14:01:27.841 - AE BE CE DE 50 57 52 20 4F 46 46 0D (投影仪电源关PWR OFF)
2024-09-01 14:01:34.206 - AE BE CE DE 50 57 52 20 4F 4E 0D (投影仪电源开PWR ON)
2024-09-01 14:01:41.726 - AE BE CE DE 50 57 52 20 4F 4E 0D (投影仪电源开PWR ON)
2024-09-01 14:01:56.683 - AE BE CE DE 50 57 52 20 4F 4E 0D (投影仪电源开PWR ON)
2024-09-01 14:02:05.972 - 19 08 24 03 CC 00 D4 00 01 (调用厨房感应灯关的按键)
2024-09-01 14:02:06.004 - 55 0A 31 00 00 00 01 91 55 0A 31 00 00 00 02 92 (厨房顶灯一关, 厨房顶灯二关)
2024-09-01 14:02:06.475 - AE BE CE DE 50 57 52 20 4F 4E 0D (投影仪电源开PWR ON)
2024-09-01 14:02:13.979 - 19 08 24 03 CC 00 D3 00 01 (调用厨房感应灯开的按键)
2024-09-01 14:02:14.015 - 55 0A 32 00 00 00 01 92 55 0A 32 00 00 00 02 93 (厨房顶灯一开, 厨房顶灯二开)
2024-09-01 14:02:23.776 - 19 08 24 03 CC 01 CD 00 01 (调用茶吧感应灯关的按键)
2024-09-01 14:02:23.809 - 1A AA AA AA 88 FF 00 01 FF 00 01 0F (调光器地址-茶吧灯带, 茶吧灯带关闭)
2024-09-01 14:02:43.320 - 19 08 24 03 CC 01 CC 00 01 (调用茶吧感应灯开的按键)
2024-09-01 14:02:43.352 - 1A AA AA AA 88 FF B0 01 FF B0 01 0F (调光器地址-茶吧灯带, 茶吧灯带明亮)
2024-09-01 14:02:56.842 - 19 08 24 03 CC 01 CD 00 01 (调用茶吧感应灯关的按键)
2024-09-01 14:02:56.876 - 1A AA AA AA 88 FF 00 01 FF 00 01 0F (调光器地址-茶吧灯带, 茶吧灯带关闭)
2024-09-01 14:03:18.631 - A1 11 11 11 49 (调用查询模块-自动关投影)
2024-09-01 14:03:18.854 - 1B 03 00 00 00 02 C6 31 (查询室外光线)
2024-09-01 14:03:18.871 - 1B 03 04 00 00 06 14 42 5D (室外光线返回)
2024-09-01 14:03:19.858 - 19 08 24 03 DD 00 16 00 01 (调用情景-白天关投影)
2024-09-01 14:03:20.385 - EE 00 00 B1 00 00 00 FF FC FF FF (情景执行提示)
2024-09-01 14:03:20.981 - 09 06 00 0F 02 01 78 21 (提示音叮)
2024-09-01 14:03:21.533 - FF FF FF FF 0E 00 01 00 (继电器地址-西阳小窗帘, 西阳小窗帘开)
2024-09-01 14:03:22.076 - 1A BE B0 DC 04 00 01 00 (继电器地址-西阳窗帘, 西阳窗帘开)
2024-09-01 14:03:22.619 - 19 08 24 03 CC 00 D4 00 01 (调用厨房感应灯关的按键)
2024-09-01 14:03:22.651 - 55 0A 31 00 00 00 01 91 55 0A 31 00 00 00 02 92 (厨房顶灯一关, 厨房顶灯二关)
2024-09-01 14:03:24.131 - AE BE CE DE 50 57 52 20 4F 46 46 0D (投影仪电源关PWR OFF)
2024-09-01 14:03:26.210 - 50 F5 08 (关客厅影视)
2024-09-01 14:03:28.762 - 1A 22 33 62 30 00 02 01 0F (正反转地址-投影仪升降, 投影仪升)
2024-09-01 14:03:29.808 - 09 06 00 0F 02 02 38 20 (提示音咚)
2024-09-01 14:03:30.356 - EE 00 00 B1 00 00 02 FF FC FF FF (情景完成返回主页)
2024-09-01 14:04:34.245 - 19 08 24 03 CC 01 54 00 01 (调用内卫感应灯开的按键)
2024-09-01 14:04:34.279 - 1A 0C 02 08 01 FF 45 01 FF 45 01 FF 00 00 0F (调光器地址-内卫射灯, 内卫射灯微光)
2024-09-01 14:04:51.078 - 19 08 24 03 CC 01 CC 00 01 (调用茶吧感应灯开的按键)
2024-09-01 14:04:51.112 - 1A AA AA AA 88 FF B0 01 FF B0 01 0F (调光器地址-茶吧灯带, 茶吧灯带明亮)
2024-09-01 14:05:04.617 - 19 08 24 03 CC 01 CD 00 01 (调用茶吧感应灯关的按键)
2024-09-01 14:05:04.642 - 1A AA AA AA 88 FF 00 01 FF 00 01 0F (调光器地址-茶吧灯带, 茶吧灯带关闭)
2024-09-01 14:05:10.128 - 19 08 24 03 CC 01 CC 00 01 (调用茶吧感应灯开的按键)
2024-09-01 14:05:10.145 - 1A AA AA AA 88 FF B0 01 FF B0 01 0F (调光器地址-茶吧灯带, 茶吧灯带明亮)
2024-09-01 14:05:19.329 - 19 08 24 03 CC 01 55 00 01 (调用内卫感应灯关的按键)
2024-09-01 14:05:19.360 - 1A 0C 02 08 01 FF 00 01 FF 00 01 FF 00 00 0F (调光器地址-内卫射灯, 内卫感应灯关)
2024-09-01 14:05:22.644 - 19 08 24 03 CC 01 CD 00 01 (调用茶吧感应灯关的按键)
2024-09-01 14:05:22.677 - 1A AA AA AA 88 FF 00 01 FF 00 01 0F (调光器地址-茶吧灯带, 茶吧灯带关闭)
2024-09-01 14:05:23.842 - 19 08 24 03 CC 01 54 00 01 (调用内卫感应灯开的按键)
2024-09-01 14:05:23.874 - 1A 0C 02 08 01 FF 45 01 FF 45 01 FF 00 00 0F (调光器地址-内卫射灯, 内卫射灯微光)
2024-09-01 14:05:46.196 - 19 08 24 03 CC 01 CC 00 01 (调用茶吧感应灯开的按键)
2024-09-01 14:05:46.230 - 1A AA AA AA 88 FF B0 01 FF B0 01 0F (调光器地址-茶吧灯带, 茶吧灯带明亮)
2024-09-01 14:06:02.418 - 19 08 24 03 CC 01 55 00 01 (调用内卫感应灯关的按键)
2024-09-01 14:06:02.450 - 1A 0C 02 08 01 FF 00 01 FF 00 01 FF 00 00 0F (调光器地址-内卫射灯, 内卫感应灯关)
2024-09-01 14:07:00.048 - 19 08 24 03 CC 00 D3 00 01 (调用厨房感应灯开的按键)
2024-09-01 14:07:00.086 - 55 0A 32 00 00 00 01 92 55 0A 32 00 00 00 02 93 (厨房顶灯一开, 厨房顶灯二开)
2024-09-01 14:07:37.603 - 19 08 24 03 CC 01 54 00 01 (调用内卫感应灯开的按键)
2024-09-01 14:07:37.635 - 1A 0C 02 08 01 FF 45 01 FF 45 01 FF 00 00 0F (调光器地址-内卫射灯, 内卫射灯微光)
2024-09-01 14:07:54.263 - 19 08 24 03 DD 00 3A 00 01 (调用情景-离开书房)
2024-09-01 14:07:54.815 - EE 00 00 B1 00 00 00 FF FC FF FF (情景执行提示)
2024-09-01 14:07:55.405 - 09 06 00 0F 02 01 78 21 (提示音叮)
2024-09-01 14:07:55.950 - 01 06 07 DC FF 60 08 9C (书房空调关)
2024-09-01 14:07:55.982 - 01 06 07 DC FF 60 08 9C (书房空调关)
2024-09-01 14:07:56.543 - 50 F5 07 (关书房影视)
2024-09-01 14:07:57.104 - A5 00 D2 FE 01 AA 22 0D (书房窗帘开)
2024-09-01 14:07:57.155 - 55 00 D2 02 00 E5 00 F2 AA 55 00 D2 02 00 E5 00 F2 AA (书房窗帘电机状态返回)
2024-09-01 14:07:58.197 - A5 00 B7 FF 00 AA 22 0D (书房纱帘关)
2024-09-01 14:07:59.247 - 55 0D 31 00 00 00 01 94 (书房顶灯只关)
2024-09-01 14:08:00.287 - 1A 0A 04 06 01 FF 00 01 FF 00 01 FF 00 00 0F (调光器地址-书房射灯, 书房射灯关闭)
2024-09-01 14:08:03.652 - 19 08 24 03 CC 01 55 00 01 (调用内卫感应灯关的按键)
2024-09-01 14:08:03.703 - 1A 0C 02 08 01 FF 00 01 FF 00 01 FF 00 00 0F (调光器地址-内卫射灯, 内卫感应灯关)
2024-09-01 14:08:03.941 - 55 00 D2 00 00 0E 00 F2 AA 55 00 D2 00 00 0E 00 F2 AA (书房窗帘电机状态返回)
2024-09-01 14:08:04.370 - 09 06 00 0F 02 02 38 20 (提示音咚)
2024-09-01 14:08:04.928 - EE 00 00 B1 00 00 02 FF FC FF FF (情景完成返回主页)
2024-09-01 14:08:27.517 - 19 08 24 03 CC 01 CD 00 01 (调用茶吧感应灯关的按键)
2024-09-01 14:08:27.533 - 1A AA AA
2024-09-01 14:08:27.549 - AA 88 FF 00 01 FF 00 01 0F
2024-09-01 14:08:35.240 - 19 08 24 03 CC 00 D4 00 01 (调用厨房感应灯关的按键)
2024-09-01 14:08:35.257 - 55 0A 31 00 00
2024-09-01 14:08:35.273 - 00 01 91 55 0A 31 00 00 00 02 92 (厨房顶灯二关)
2024-09-01 14:21:15.032 - 19 08 24 03 CC 01 CC 00 01 (调用茶吧感应灯开的按键)
2024-09-01 14:21:15.064 - 1A AA AA AA 88 FF B0 01 FF B0 01 0F (调光器地址-茶吧灯带, 茶吧灯带明亮)
2024-09-01 14:21:19.241 - 19 08 24 03 CC 00 D3 00 01 (调用厨房感应灯开的按键)
2024-09-01 14:21:19.273 - 55 0A 32 00 00 00 01 92 55 0A 32 00 00 00 02 93 (厨房顶灯一开, 厨房顶灯二开)
2024-09-01 14:21:23.010 - 1A BE B0 DC 04 (继电器地址-西阳窗帘)
2024-09-01 14:21:23.146 - FF
2024-09-01 14:21:38.575 - 19 08 24 03 CC 01 CD 00 01 (调用茶吧感应灯关的按键)
2024-09-01 14:21:38.624 - 1A AA AA AA 88 FF 00 01 FF 00 01 0F (调光器地址-茶吧灯带, 茶吧灯带关闭)
2024-09-01 14:22:06.331 - 19 08 24 03 CC 00 D4 00 01 (调用厨房感应灯关的按键)
2024-09-01 14:22:06.387 - 55 0A 31 00 00 00 01 91 55 0A 31 00 00 00 02 92 (厨房顶灯一关, 厨房顶灯二关)
2024-09-01 14:22:22.193 - FF FF FF FF 0E (继电器地址-西阳小窗帘)
2024-09-01 14:22:22.321 - FF
2024-09-01 14:24:23.562 - 1A BE B0 DC 09 FC (继电器地址-客厅窗帘)
2024-09-01 14:24:23.690 - FE
2024-09-01 14:24:30.914 - 19 08 24 03 CC 01 CC 00 01 (调用茶吧感应灯开的按键)
2024-09-01 14:24:30.965 - 1A AA AA AA 88 FF B0 01 FF B0 01 0F (调光器地址-茶吧灯带, 茶吧灯带明亮)
2024-09-01 14:24:34.120 - 19 08 24 03 CC 00 D3 00 01 (调用厨房感应灯开的按键)
2024-09-01 14:24:34.179 - 55 0A 32 00 00 00 01 92 55 0A 32 00 00 00 02 93 (厨房顶灯一开, 厨房顶灯二开)
2024-09-01 14:24:42.113 - FF
2024-09-01 14:24:44.443 - 19 08 24 03 CC 01 CD 00 01 (调用茶吧感应灯关的按键)
2024-09-01 14:24:44.491 - 1A AA AA AA 88 FF 00 01 FF 00 01 0F (调光器地址-茶吧灯带, 茶吧灯带关闭)
2024-09-01 14:25:00.970 - 19 08 24 03 CC 01 CC 00 01 (调用茶吧感应灯开的按键)
2024-09-01 14:25:01.019 - 1A AA AA AA 88 FF B0 01 FF B0 01 0F (调光器地址-茶吧灯带, 茶吧灯带明亮)
2024-09-01 14:25:13.504 - 19 08 24 03 CC 01 CD 00 01 (调用茶吧感应灯关的按键)
2024-09-01 14:25:13.526 - 1A AA AA AA 88 FF 00 01 FF 00 01 0F (调光器地址-茶吧灯带, 茶吧灯带关闭)
2024-09-01 14:25:24.512 - 1A BE B0 DC 02 (正反转地址-外卫卷帘)
2024-09-01 14:25:24.648 - FF
2024-09-01 14:25:24.996 - 1A BE B0 DC 0A (继电器地址-客厅纱帘)
2024-09-01 14:25:25.125 - FF
2024-09-01 14:25:30.024 - 19 08 24 03 CC 01 CC 00 01 (调用茶吧感应灯开的按键)
2024-09-01 14:25:30.091 - 1A AA AA AA 88 FF B0 01 FF B0 01 0F (调光器地址-茶吧灯带, 茶吧灯带明亮)
2024-09-01 14:25:41.757 - 19 08 24 03 CC 00 D4 00 01 (调用厨房感应灯关的按键)
2024-09-01 14:25:41.808 - 55 0A 31 00 00 00 01 91 55 0A 31 00 00 00 02 92 (厨房顶灯一关, 厨房顶灯二关)
2024-09-01 14:25:44.562 - 19 08 24 03 CC 01 CD 00 01 (调用茶吧感应灯关的按键)
2024-09-01 14:25:44.596 - 1A AA AA AA 88 FF 00 01 FF 00 01 0F (调光器地址-茶吧灯带, 茶吧灯带关闭)
2024-09-01 14:25:45.889 - 1A BE B0 DC 03 FC (继电器地址-西阳天幕)
2024-09-01 14:26:27.105 - 1A BE B0 DC 01 FC (继电器地址-回水泵点动)
2024-09-01 14:28:22.877 - FF FF FF FF 0A FE (继电器地址-东阳窗帘)
2024-09-01 14:28:23.005 - FF
2024-09-01 15:34:03.283 - 55 0C 32 00 00 00 01 94 (餐厅顶灯开)
2024-09-01 15:34:06.794 - 55 0C 31 00 00 00 01 93 (餐厅顶灯关)
2024-09-01 15:34:28.866 - 19 08 24 03 CC 01 54 00 01 (调用内卫感应灯开的按键)
2024-09-01 15:34:28.919 - 1A 0C 02 08 01 FF 45 01 FF 45 01 FF 00 00 0F (调光器地址-内卫射灯, 内卫射灯微光)
2024-09-01 15:36:04.553 - 19 08 24 03 CC 01 55 00 01 (调用内卫感应灯关的按键)
2024-09-01 15:36:04.607 - 1A 0C 02 08 01 FF 00 01 FF 00 01 FF 00 00 0F (调光器地址-内卫射灯, 内卫感应灯关)
2024-09-01 15:37:15.687 - 19 08 24 03 CC 01 54 00 01 (调用内卫感应灯开的按键)
2024-09-01 15:37:15.719 - 1A 0C 02 08 01 FF 45 01 FF 45 01 FF 00 00 0F (调光器地址-内卫射灯, 内卫射灯微光)
2024-09-01 15:37:41.740 - 19 08 24 03 CC 01 55 00 01 (调用内卫感应灯关的按键)
2024-09-01 15:37:41.772 - 1A 0C 02 08 01 FF 00 01 FF 00 01 FF 00 00 0F (调光器地址-内卫射灯, 内卫感应灯关)
2024-09-01 15:37:51.199 - 19 08 24 03 CC 01 52 00 01 (调用外卫感应灯开的按键)
2024-09-01 15:37:51.231 - 1A 0D 01 07 01 FF 45 01 FF 45 01 FF 00 00 0F (调光器地址-外卫射灯, 外卫感应灯开)
2024-09-01 15:38:23.273 - 19 08 24 03 CC 01 53 00 01 (调用外卫感应灯关的按键)
2024-09-01 15:38:23.305 - 1A 0D 01 07 01 FF 00 01 FF 00 01 FF 00 00 0F (调光器地址-外卫射灯, 外卫感应灯关)
2024-09-01 15:39:28.396 - 19 08 24 03 CC 01 52 00 01 (调用外卫感应灯开的按键)
2024-09-01 15:39:28.430 - 1A 0D 01 07 01 FF 45 01 FF 45 01 FF 00 00 0F (调光器地址-外卫射灯, 外卫感应灯开)
2024-09-01 15:39:46.432 - 19 08 24 03 CC 01 53 00 01 (调用外卫感应灯关的按键)
2024-09-01 15:39:46.464 - 1A 0D 01 07 01 FF 00 01 FF 00 01 FF 00 00 0F (调光器地址-外卫射灯, 外卫感应灯关)
2024-09-01 15:39:50.440 - 19 08 24 03 CC 01 52 00 01 (调用外卫感应灯开的按键)
2024-09-01 15:39:50.474 - 1A 0D 01 07 01 FF 45 01 FF 45 01 FF 00 00 0F (调光器地址-外卫射灯, 外卫感应灯开)
2024-09-01 15:40:11.987 - 19 08 24 03 CC 01 53 00 01 (调用外卫感应灯关的按键)
2024-09-01 15:40:12.051 - 1A 0D 01 07 01 FF 00 01 FF 00 01 FF 00 00 0F (调光器地址-外卫射灯, 外卫感应灯关)
2024-09-01 15:49:18.460 - 19 08 24 03 CC 01 CC 00 01 (调用茶吧感应灯开的按键)
2024-09-01 15:49:18.494 - 1A AA AA AA 88 FF B0 01 FF B0 01 0F (调光器地址-茶吧灯带, 茶吧灯带明亮)
2024-09-01 15:49:33.494 - 19 08 24 03 CC 01 CD 00 01 (调用茶吧感应灯关的按键)
2024-09-01 15:49:33.528 - 1A AA AA AA 88 FF 00 01 FF 00 01 0F (调光器地址-茶吧灯带, 茶吧灯带关闭)
2024-09-01 15:50:16.233 - 19 08 24 03 CC 01 54 00 01 (调用内卫感应灯开的按键)
2024-09-01 15:50:16.265 - 1A 0C 02 08 01 FF 45 01 FF 45 01 FF 00 00 0F (调光器地址-内卫射灯, 内卫射灯微光)
2024-09-01 15:50:38.214 - 19 08 24 03 CC 01 52 00 01 (调用外卫感应灯开的按键)
2024-09-01 15:50:38.246 - 1A 0D 01 07 01 FF 45 01 FF 45 01 FF 00 00 0F (调光器地址-外卫射灯, 外卫感应灯开)
2024-09-01 15:50:47.292 - 19 08 24 03 CC 01 55 00 01 (调用内卫感应灯关的按键)
2024-09-01 15:50:47.325 - 1A 0C 02 08 01 FF 00 01 FF 00 01 FF 00 00 0F (调光器地址-内卫射灯, 内卫感应灯关)
2024-09-01 15:50:54.247 - 19 08 24 03 CC 01 53 00 01 (调用外卫感应灯关的按键)
2024-09-01 15:50:54.281 - 1A 0D 01 07 01 FF 00 01 FF 00 01 FF 00 00 0F (调光器地址-外卫射灯, 外卫感应灯关)
2024-09-01 15:52:38.861 - 19 08 24 03 CC 01 CC 00 01 (调用茶吧感应灯开的按键)
2024-09-01 15:52:38.895 - 1A AA AA AA 88 FF B0 01 FF B0 01 0F (调光器地址-茶吧灯带, 茶吧灯带明亮)
2024-09-01 15:52:46.379 - 19 08 24 03 CC 01 CD 00 01 (调用茶吧感应灯关的按键)
2024-09-01 15:52:46.410 - 1A AA AA AA 88 FF 00 01 FF 00 01 0F (调光器地址-茶吧灯带, 茶吧灯带关闭)
2024-09-01 15:54:37.098 - 19 08 24 03 CC 01 CC 00 01 (调用茶吧感应灯开的按键)
2024-09-01 15:54:37.132 - 1A AA AA AA 88 FF B0 01 FF B0 01 0F (调光器地址-茶吧灯带, 茶吧灯带明亮)
2024-09-01 15:55:04.646 - 19 08 24 03 CC 01 CD 00 01 (调用茶吧感应灯关的按键)
2024-09-01 15:55:04.680 - 1A AA AA AA 88 FF 00 01 FF 00 01 0F (调光器地址-茶吧灯带, 茶吧灯带关闭)
2024-09-01 15:57:56.086 - 19 08 24 03 CC 01 52 00 01 (调用外卫感应灯开的按键)
2024-09-01 15:57:56.117 - 1A 0D 01 07 01 FF 45 01 FF 45 01 FF 00 00 0F (调光器地址-外卫射灯, 外卫感应灯开)
2024-09-01 15:59:03.775 - 1A FF 03 00 00 86 86 86 0F (调用查询模块-主卧空调开关查询, 主卧空调虚拟地址)
2024-09-01 15:59:03.997 - 01 04 07 DC 00 01 F1 44 (查询主卧空调开关状态)
2024-09-01 15:59:04.021 - 01 04 02 70 01 5D 30
2024-09-01 15:59:05.002 - 1A FF 03 00 00 01 00 0F (主卧空调虚拟地址)
2024-09-01 15:59:05.162 - 1A FF 04 00 00 86 86 86 0F (调用查询模块-次卧空调开关查询, 次卧空调虚拟地址)
2024-09-01 15:59:05.386 - 01 04 07 E2 00 01 90 88 (查询次卧空调开关状态)
2024-09-01 15:59:05.418 - 01 04 02 70 00 9C F0
2024-09-01 15:59:06.390 - 1A FF 04 00 00 00 00 0F (次卧空调虚拟地址)
2024-09-01 15:59:06.597 - 1A FF 05 00 00 86 86 86 0F (调用查询模块-书房空调开关查询, 书房空调虚拟地址)
2024-09-01 15:59:06.821 - 01 04 07 E8 00 01 B0 8A (查询书房空调开关状态)
2024-09-01 15:59:06.853 - 01 04 02 70 00 9C F0
2024-09-01 15:59:07.831 - 1A FF 05 00 00 00 00 0F (书房空调虚拟地址)
2024-09-01 15:59:08.035 - 1A FF 02 00 00 86 86 86 0F (调用查询模块-餐厅空调开关查询, 餐厅空调虚拟地址)
2024-09-01 15:59:08.257 - 01 04 07 D6 00 01 D1 46 (查询餐厅空调开关状态)
2024-09-01 15:59:08.273 - 01 04 02 70 01 5D 30
2024-09-01 15:59:09.262 - 1A FF 02 00 00 01 00 0F (餐厅空调虚拟地址)
2024-09-01 15:59:09.469 - 1A FF 01 00 00 86 86 86 0F (调用查询模块-客厅空调开关查询, 客厅空调虚拟地址)
2024-09-01 15:59:09.692 - 01 04 07 D0 00 01 31 47 (查询客厅空调开关状态)
2024-09-01 15:59:09.719 - 01 04 02 70 01 5D 30
2024-09-01 15:59:10.697 - 1A FF 01 00 00 01 00 0F (客厅空调虚拟地址)
2024-09-01 15:59:10.905 - 1A 10 00 00 00 86 86 86 0F (调用查询模块-主卧测温转换, 主卧温湿度虚拟地址)
2024-09-01 15:59:11.114 - 1D 03 00 00 00 02 C6 57 (查询主卧温湿度)
2024-09-01 15:59:11.148 - 1D 03 04 01 B3 00 FB 96 6A (主卧温湿度返回)
2024-09-01 15:59:12.148 - 1A 10 00 00 00 00 00 01 00 00 01 00 00 01 00 FB 01 01 B3 01 00 00 01 00 00 01 0F (主卧温湿度虚拟地址)
2024-09-01 15:59:12.338 - 1A 11 00 00 00 86 86 86 0F (调用查询模块-次卧测温转换, 次卧温湿度虚拟地址)
2024-09-01 15:59:12.559 - 11 03 00 00 00 02 C6 9B (查询次卧温湿度)
2024-09-01 15:59:12.580 - 11 03 04 01 DC 01 27 6A 7E (次卧温湿度返回)
2024-09-01 15:59:13.580 - 1A 11 00 00 00 00 00 01 00 00 01 00 00 01 01 27 01 01 DC 01 00 00 01 00 00 01 0F (次卧温湿度虚拟地址)
2024-09-01 15:59:13.768 - 1A 12 00 00 00 86 86 86 0F (调用查询模块-书房测温转换, 书房温湿度虚拟地址)
2024-09-01 15:59:13.989 - 12 03 00 00 00 02 C6 A8 (查询书房温湿度)
2024-09-01 15:59:14.006 - 12 03 04 01 A8 01 1A D8 B5 (书房温湿度返回)
2024-09-01 15:59:15.009 - 1A 12 00 00 00 00 00 01 00 00 01 00 00 01 01 1A 01 01 A8 01 00 00 01 00 00 01 0F (书房温湿度虚拟地址)
2024-09-01 15:59:15.230 - 1A 13 00 00 00 86 86 86 0F (调用查询模块-外卫测温转换, 外卫温湿度虚拟地址)
2024-09-01 15:59:15.451 - 13 03 00 00 00 02 C7 79 (查询外卫温湿度)
2024-09-01 15:59:15.468 - 13 03 04 01 D8 01 06 C8 67 (外卫温湿度返回)
2024-09-01 15:59:16.472 - 1A 13 00 00 00 00 00 01 00 00 01 00 00 01 01 06 01 01 D8 01 00 00 01 00 00 01 0F (外卫温湿度虚拟地址)
2024-09-01 15:59:16.630 - 1A 14 00 00 00 86 86 86 0F (调用查询模块-内卫测温转换, 内卫温湿度虚拟地址)
2024-09-01 15:59:16.853 - 14 03 00 00 00 02 C6 CE (查询内卫温湿度)
2024-09-01 15:59:16.879 - 14 03 04 01 D5 01 02 2E A7 (内卫温湿度返回)
2024-09-01 15:59:17.882 - 1A 14 00 00 00 00 00 01 00 00 01 00 00 01 01 02 01 01 D5 01 00 00 01 00 00 01 0F (内卫温湿度虚拟地址)
2024-09-01 15:59:18.069 - 1A 15 00 00 00 86 86 86 0F (调用查询模块-客厅测温转换, 客厅温湿度虚拟地址)
2024-09-01 15:59:18.290 - 15 03 00 00 00 02 C7 1F (查询客厅温湿度)
2024-09-01 15:59:18.312 - 15 03 04 01 F8 00 E8 2E 71 (客厅温湿度返回)
2024-09-01 15:59:19.310 - 1A 15 00 00 00 00 00 01 00 00 01 00 00 01 00 E8 01 01 F8 01 00 00 01 00 00 01 0F (客厅温湿度虚拟地址)
2024-09-01 15:59:19.500 - 1A 16 00 00 00 86 86 86 0F (调用查询模块-机柜测温转换, 机柜温湿度虚拟地址)
2024-09-01 15:59:19.724 - 16 03 00 00 00 02 C7 2C (查询机柜温湿度)
2024-09-01 15:59:19.740 - 16 03 04 01 D4 00 FD 1D 77 (机柜温湿度返回)
2024-09-01 15:59:20.744 - 1A 16 00 00 00 00 00 01 00 00 01 00 00 01 00 FD 01 01 D4 01 00 00 01 00 00 01 0F (机柜温湿度虚拟地址)
2024-09-01 15:59:20.936 - 1A 0E 00 00 00 86 86 86 0F (调用查询模块-厨房测温转换, 厨房温湿度虚拟地址)
2024-09-01 15:59:21.160 - 0E 03 00 00 00 02 C4 F4 (查询厨房温湿度)
2024-09-01 15:59:21.181 - 0E 03 04 01 8A 01 24 24 AE (厨房温湿度返回)
2024-09-01 15:59:22.185 - 1A 0E 00 00 00 00 00 01 00 00 01 00 00 01 01 24 01 01 8A 01 00 00 01 00 00 01 0F (厨房温湿度虚拟地址)
2024-09-01 15:59:22.340 - 1A 0F 00 00 00 86 86 86 0F (调用查询模块-餐厅测温转换, 餐厅温湿度虚拟地址)
2024-09-01 15:59:22.563 - 1C 03 00 00 00 02 C7 86 (查询餐厅温湿度)
2024-09-01 15:59:22.579 - 1C 03 04 01 BD 01 0D 66 BF (餐厅温湿度返回)
2024-09-01 15:59:23.585 - 1A 0F 00 00 00 00 00 01 00 00 01 00 00 01 01 0D 01 01 BD 01 00 00 01 00 00 01 0F (餐厅温湿度虚拟地址)
2024-09-01 15:59:23.681 - 1A 20 00 00 00 86 86 86 0F (调用查询模块-阳台测温湿气压转换, 阳台温湿气压虚拟地址)
2024-09-01 15:59:23.904 - 20 03 00 00 00 03 03 7A (查询阳台温湿度气压)
2024-09-01 15:59:23.936 - 20 03 06 01 7F 00 E1 26 ED 2B 24 (阳台温湿度返回)
2024-09-01 15:59:24.431 - 1A 20 00 00 00 00 00 01 00 00 01 00 00 01 01 7F 01 00 E1 01 26 ED 01 00 00 01 0F (阳台温湿气压虚拟地址)
2024-09-01 15:59:24.651 - 1A 21 00 00 00 86 86 86 0F (调用查询模块-储藏室测温湿气压转换, 储藏室温湿气压虚拟地址)
2024-09-01 15:59:24.878 - 21 03 00 00 00 03 02 AB (查询储藏室温湿度气压)
2024-09-01 15:59:24.894 - 21 03 06 01 4C 02 5A 26 F0 93 24 (储藏室温湿度返回)
2024-09-01 15:59:25.400 - 1A 21 00 00 00 00 00 01 00 00 01 00 00 01 01 4C 01 02 5A 01 26 F0 01 00 00 01 0F (储藏室温湿气压虚拟地址)
2024-09-01 15:59:25.548 - 1A 22 00 00 00 86 86 86 0F (调用查询模块-室外测温湿气压转换, 室外温湿气压虚拟地址)
2024-09-01 15:59:25.756 - 22 03 00 00 00 03 02 98 (查询室外温湿度气压)
2024-09-01 15:59:25.790 - 22 03 06 01 65 02 22 26 EF 1B C3 (阳台温湿度返回)
2024-09-01 15:59:26.284 - 1A 22 00 00 00 00 00 01 00 00 01 00 00 01 01 65 01 02 22 01 26 EF 01 00 00 01 0F (室外温湿气压虚拟地址)
2024-09-01 15:59:32.885 - 1A 20 00 00 00 86 86 86 0F (调用查询模块-阳台测温湿气压转换, 阳台温湿气压虚拟地址)
2024-09-01 15:59:33.103 - 20 03 00 00 00 03 03 7A (查询阳台温湿度气压)
2024-09-01 15:59:33.125 - 20 03 06 01 7E 00 E1 26 ED 16 E4 (阳台温湿度返回)
2024-09-01 15:59:33.618 - 1A 20 00 00 00 00 00 01 00 00 01 00 00 01 01 7E 01 00 E1 01 26 ED 01 00 00 01 0F (阳台温湿气压虚拟地址)
2024-09-01 15:59:36.618 - 1A 21 00 00 00 86 86 86 0F (调用查询模块-储藏室测温湿气压转换, 储藏室温湿气压虚拟地址)
2024-09-01 15:59:36.845 - 21 03 00 00 00 03 02 AB (查询储藏室温湿度气压)
2024-09-01 15:59:36.862 - 21 03 06 01 4C 02 5A 26 F0 93 24 (储藏室温湿度返回)
2024-09-01 15:59:37.368 - 1A 21 00 00 00 00 00 01 00 00 01 00 00 01 01 4C 01 02 5A 01 26 F0 01 00 00 01 0F (储藏室温湿气压虚拟地址)
2024-09-01 15:59:37.735 - 19 08 24 03 CC 01 CC 00 01 (调用茶吧感应灯开的按键)
2024-09-01 15:59:37.783 - 1A AA AA AA 88 FF B0 01 FF B0 01 0F (调光器地址-茶吧灯带, 茶吧灯带明亮)
2024-09-01 15:59:38.213 - 1A 22 00 00 00 86 86 86 0F (调用查询模块-室外测温湿气压转换, 室外温湿气压虚拟地址)
2024-09-01 15:59:38.436 - 22 03 00 00 00 03 02 98 (查询室外温湿度气压)
2024-09-01 15:59:38.452 - 22 03 06 01 65 02 1E 26 EE 1A 0F (阳台温湿度返回)
2024-09-01 15:59:38.954 - 1A 22 00 00 00 00 00 01 00 00 01 00 00 01 01 65 01 02 1E 01 26 EE 01 00 00 01 0F (室外温湿气压虚拟地址)
2024-09-01 15:59:39.379 - 19 08 24 03 CC 00 D3 00 01 (调用厨房感应灯开的按键)
2024-09-01 15:59:39.442 - 55 0A 32 00 00 00 01 92 55 0A 32 00 00 00 02 93 (厨房顶灯一开, 厨房顶灯二开)
2024-09-01 15:59:42.389 - 1A 22 00 00 00 86 86 86 0F (调用查询模块-室外测温湿气压转换, 室外温湿气压虚拟地址)
2024-09-01 15:59:42.617 - 22 03 00 00 00 03 02 98 (查询室外温湿度气压)
2024-09-01 15:59:42.638 - 22 03 06 01 65 02 1F 26 EF 8A 0F (阳台温湿度返回)
2024-09-01 15:59:43.138 - 1A 22 00 00 00 00 00 01 00 00 01 00 00 01 01 65 01 02 1F 01 26 EF 01 00 00 01 0F (室外温湿气压虚拟地址)
2024-09-01 15:59:44.583 - 1A 20 00 00 00 86 86 86 0F (调用查询模块-阳台测温湿气压转换, 阳台温湿气压虚拟地址)
2024-09-01 15:59:44.821 - 20 03 00 00 00 03 03 7A (查询阳台温湿度气压)
2024-09-01 15:59:44.838 - 20 03 06 01 7D 00 E1 26 ED 52 E4 (阳台温湿度返回)
2024-09-01 15:59:45.345 - 1A 20 00 00 00 00 00 01 00 00 01 00 00 01 01 7D 01 00 E1 01 26 ED 01 00 00 01 0F (阳台温湿气压虚拟地址)
2024-09-01 15:59:46.143 - 1A 21 00 00 00 86 86 86 0F (调用查询模块-储藏室测温湿气压转换, 储藏室温湿气压虚拟地址)
2024-09-01 15:59:46.366 - 21 03 00 00 00 03 02 AB (查询储藏室温湿度气压)
2024-09-01 15:59:46.386 - 21 03 06 01 4C 02 5A 26 EF D2 EC (储藏室温湿度返回)
2024-09-01 15:59:46.878 - 1A 21 00 00 00 00 00 01 00 00 01 00 00 01 01 4C 01 02 5A 01 26 EF 01 00 00 01 0F (储藏室温湿气压虚拟地址)
2024-09-01 15:59:49.254 - 19 08 24 03 CC 01 CD 00 01 (调用茶吧感应灯关的按键)
2024-09-01 15:59:49.303 - 1A AA AA AA 88 FF 00 01 FF 00 01 0F (调光器地址-茶吧灯带, 茶吧灯带关闭)
2024-09-01 15:59:53.374 - 19 08 24 03 CC 01 53 00 01 (调用外卫感应灯关的按键)
2024-09-01 15:59:53.408 - 1A 0D 01 07 01 FF 00 01 FF 00 01 FF 00 00 0F (调光器地址-外卫射灯, 外卫感应灯关)
2024-09-01 16:00:37.198 - 1A 20 00 00 00 86 86 86 0F (调用查询模块-阳台测温湿气压转换, 阳台温湿气压虚拟地址)
2024-09-01 16:00:37.419 - 20 03 00 00 00 03 03 7A (查询阳台温湿度气压)
2024-09-01 16:00:37.436 - 20 03 06 01 7A 00 E6 26 ED 56 E5 (阳台温湿度返回)
2024-09-01 16:00:37.943 - 1A 20 00 00 00 00 00 01 00 00 01 00 00 01 01 7A 01 00 E6 01 26 ED 01 00 00 01 0F (阳台温湿气压虚拟地址)
2024-09-01 16:00:40.974 - 1A 20 00 00 00 86 86 86 0F (调用查询模块-阳台测温湿气压转换, 阳台温湿气压虚拟地址)
2024-09-01 16:00:41.198 - 20 03 00 00 00 03 03 7A (查询阳台温湿度气压)
2024-09-01 16:00:41.229 - 20 03 06 01 79 00 E6 26 EC D3 25 (阳台温湿度返回)
2024-09-01 16:00:41.724 - 1A 20 00 00 00 00 00 01 00 00 01 00 00 01 01 79 01 00 E6 01 26 EC 01 00 00 01 0F (阳台温湿气压虚拟地址)
2024-09-01 16:00:44.865 - 19 08 24 03 CC 01 CC 00 01 (调用茶吧感应灯开的按键)
2024-09-01 16:00:44.913 - 1A AA AA AA 88 FF B0 01 FF B0 01 0F (调光器地址-茶吧灯带, 茶吧灯带明亮)
2024-09-01 16:00:46.381 - 1A 20 00 00 00 86 86 86 0F (调用查询模块-阳台测温湿气压转换, 阳台温湿气压虚拟地址)
2024-09-01 16:00:46.589 - 20 03 00 00 00 03 03 7A (查询阳台温湿度气压)
2024-09-01 16:00:46.622 - 20 03 06 01 79 00 E6 26 ED 12 E5 (阳台温湿度返回)
2024-09-01 16:00:47.116 - 1A 20 00 00 00 00 00 01 00 00 01 00 00 01 01 79 01 00 E6 01 26 ED 01 00 00 01 0F (阳台温湿气压虚拟地址)
2024-09-01 16:00:56.877 - 19 08 24 03 CC 01 CD 00 01 (调用茶吧感应灯关的按键)
2024-09-01 16:00:56.941 - 1A AA AA AA 88 FF 00 01 FF 00 01 0F (调光器地址-茶吧灯带, 茶吧灯带关闭)
2024-09-01 16:01:01.402 - 19 08 24 03 CC 01 CC 00 01 (调用茶吧感应灯开的按键)
2024-09-01 16:01:01.426 - 1A AA AA AA 88 FF B0 01 FF B0 01 0F (调光器地址-茶吧灯带, 茶吧灯带明亮)
2024-09-01 16:01:10.024 - 1A 20 00 00 00 86 86 86 0F (调用查询模块-阳台测温湿气压转换, 阳台温湿气压虚拟地址)
2024-09-01 16:01:10.248 - 20 03 00 00 00 03 03 7A (查询阳台温湿度气压)
2024-09-01 16:01:10.279 - 20 03 06 01 77 00 E8 26 ED 1A E7 (阳台温湿度返回)
2024-09-01 16:01:10.774 - 1A 20 00 00 00 00 00 01 00 00 01 00 00 01 01 77 01 00 E8 01 26 ED 01 00 00 01 0F (阳台温湿气压虚拟地址)
2024-09-01 16:01:14.889 - 1A 20 00 00 00 86 86 86 0F (调用查询模块-阳台测温湿气压转换, 阳台温湿气压虚拟地址)
2024-09-01 16:01:14.921 - 19 08 24 03 CC 01 CD 00 01 (调用茶吧感应灯关的按键)
2024-09-01 16:01:14.971 - 1A AA AA AA 88 FF 00 01 FF 00 01 0F (调光器地址-茶吧灯带, 茶吧灯带关闭)
2024-09-01 16:01:15.112 - 20 03 00 00 00 03 03 7A (查询阳台温湿度气压)
2024-09-01 16:01:15.129 - 20 03 06 01 77 00 E8 26 ED 1A E7 (阳台温湿度返回)
2024-09-01 16:01:15.639 - 1A 20 00 00 00 00 00 01 00 00 01 00 00 01 01 77 01 00 E8 01 26 ED 01 00 00 01 0F (阳台温湿气压虚拟地址)
2024-09-01 16:01:18.447 - 1A 20 00 00 00 86 86 86 0F (调用查询模块-阳台测温湿气压转换, 阳台温湿气压虚拟地址)
2024-09-01 16:01:18.673 - 20 03 00 00 00 03 03 7A (查询阳台温湿度气压)
2024-09-01 16:01:18.696 - 20 03 06 01 77 00 E8 26 ED 1A E7 (阳台温湿度返回)
2024-09-01 16:01:19.197 - 1A 20 00 00 00 00 00 01 00 00 01 00 00 01 01 77 01 00 E8 01 26 ED 01 00 00 01 0F (阳台温湿气压虚拟地址)
2024-09-01 16:01:19.819 - 1A AA AA AA 88 00 00 00 00 64 01 0F (调光器地址-茶吧灯带)
2024-09-01 16:01:21.113 - 1A AA AA AA 88 01 0F (调光器地址-茶吧灯带)
2024-09-01 16:01:25.278 - 1A 20 00 00 00 86 86 86 0F (调用查询模块-阳台测温湿气压转换, 阳台温湿气压虚拟地址)
2024-09-01 16:01:25.500 - 20 03 00 00 00 03 03 7A (查询阳台温湿度气压)
2024-09-01 16:01:25.533 - 20 03 06 01 76 00 E9 26 ED 76 E7 (阳台温湿度返回)
2024-09-01 16:01:26.026 - 1A 20 00 00 00 00 00 01 00 00 01 00 00 01 01 76 01 00 E9 01 26 ED 01 00 00 01 0F (阳台温湿气压虚拟地址)
2024-09-01 16:01:41.757 - 1A 20 00 00 00 86 86 86 0F (调用查询模块-阳台测温湿气压转换, 阳台温湿气压虚拟地址)
2024-09-01 16:01:41.980 - 20 03 00 00 00 03 03 7A (查询阳台温湿度气压)
2024-09-01 16:01:41.997 - 20 03 06 01 75 00 EA 26 ED C2 E7 (阳台温湿度返回)
2024-09-01 16:01:42.491 - 1A 20 00 00 00 00 00 01 00 00 01 00 00 01 01 75 01 00 EA 01 26 ED 01 00 00 01 0F (阳台温湿气压虚拟地址)
2024-09-01 16:02:36.700 - 1A 20 00 00 00 86 86 86 0F (调用查询模块-阳台测温湿气压转换, 阳台温湿气压虚拟地址)
2024-09-01 16:02:36.923 - 20 03 00 00 00 03 03 7A (查询阳台温湿度气压)
2024-09-01 16:02:36.945 - 20 03 06 01 73 00 EE 26 ED 0B 26 (阳台温湿度返回)
2024-09-01 16:02:37.450 - 1A 20 00 00 00 00 00 01 00 00 01 00 00 01 01 73 01 00 EE 01 26 ED 01 00 00 01 0F (阳台温湿气压虚拟地址)
2024-09-01 16:02:39.110 - 1A 20 00 00 00 86 86 86 0F (调用查询模块-阳台测温湿气压转换, 阳台温湿气压虚拟地址)
2024-09-01 16:02:39.333 - 20 03 00 00 00 03 03 7A (查询阳台温湿度气压)
2024-09-01 16:02:39.360 - 20 03 06 01 73 00 EE 26 EC CA E6 (阳台温湿度返回)
2024-09-01 16:02:39.859 - 1A 20 00 00 00 00 00 01 00 00 01 00 00 01 01 73 01 00 EE 01 26 EC 01 00 00 01 0F (阳台温湿气压虚拟地址)
2024-09-01 16:02:40.657 - 1A 21 00 00 00 86 86 86 0F (调用查询模块-储藏室测温湿气压转换, 储藏室温湿气压虚拟地址)
2024-09-01 16:02:40.896 - 21 03 00 00 00 03 02 AB (查询储藏室温湿度气压)
2024-09-01 16:02:40.916 - 21 03 06 01 4C 02 5A 26 EF D2 EC (储藏室温湿度返回)
2024-09-01 16:02:41.406 - 1A 21 00 00 00 00 00 01 00 00 01 00 00 01 01 4C 01 02 5A 01 26 EF 01 00 00 01 0F (储藏室温湿气压虚拟地址)
2024-09-01 16:02:43.752 - 1A 22 00 00 00 86 86 86 0F (调用查询模块-室外测温湿气压转换, 室外温湿气压虚拟地址)
2024-09-01 16:02:43.975 - 22 03 00 00 00 03 02 98 (查询室外温湿度气压)
2024-09-01 16:02:44.002 - 22 03 06 01 66 02 23 26 EF 0E 03 (阳台温湿度返回)
2024-09-01 16:02:44.501 - 1A 22 00 00 00 00 00 01 00 00 01 00 00 01 01 66 01 02 23 01 26 EF 01 00 00 01 0F (室外温湿气压虚拟地址)
2024-09-01 16:02:46.734 - 1A 20 00 00 00 86 86 86 0F (调用查询模块-阳台测温湿气压转换, 阳台温湿气压虚拟地址)
2024-09-01 16:02:46.957 - 20 03 00 00 00 03 03 7A (查询阳台温湿度气压)
2024-09-01 16:02:46.978 - 20 03 06 01 73 00 EE 26 EC CA E6 (阳台温湿度返回)
2024-09-01 16:02:47.471 - 1A 20 00 00 00 00 00 01 00 00 01 00 00 01 01 73 01 00 EE 01 26 EC 01 00 00 01 0F (阳台温湿气压虚拟地址)
2024-09-01 16:02:50.278 - 1A 20 00 00 00 86 86 86 0F (调用查询模块-阳台测温湿气压转换, 阳台温湿气压虚拟地址)
2024-09-01 16:02:50.500 - 20 03 00 00 00 03 03 7A (查询阳台温湿度气压)
2024-09-01 16:02:50.516 - 20 03 06 01 73 00 EE 26 ED 0B 26 (阳台温湿度返回)
2024-09-01 16:02:51.026 - 1A 20 00 00 00 00 00 01 00 00 01 00 00 01 01 73 01 00 EE 01 26 ED 01 00 00 01 0F (阳台温湿气压虚拟地址)
2024-09-01 16:03:06.824 - 19 08 24 03 CC 01 54 00 01 (调用内卫感应灯开的按键)
2024-09-01 16:03:06.876 - 1A 0C 02 08 01 FF 45 01 FF 45 01 FF 00 00 0F (调光器地址-内卫射灯, 内卫射灯微光)
2024-09-01 16:03:22.898 - 1A 20 00 00 00 86 86 86 0F (调用查询模块-阳台测温湿气压转换, 阳台温湿气压虚拟地址)
2024-09-01 16:03:23.132 - 20 03 00 00 00 03 03 7A (查询阳台温湿度气压)
2024-09-01 16:03:23.153 - 20 03 06 01 71 00 EF 26 ED 23 26 (阳台温湿度返回)
2024-09-01 16:03:23.647 - 1A 20 00 00 00 00 00 01 00 00 01 00 00 01 01 71 01 00 EF 01 26 ED 01 00 00 01 0F (阳台温湿气压虚拟地址)
2024-09-01 16:03:30.275 - 1A 20 00 00 00 86 86 86 0F (调用查询模块-阳台测温湿气压转换, 阳台温湿气压虚拟地址)
2024-09-01 16:03:30.495 - 20 03 00 00 00 03 03 7A (查询阳台温湿度气压)
2024-09-01 16:03:30.512 - 20 03 06 01 71 00 EF 26 EC E2 E6 (阳台温湿度返回)
2024-09-01 16:03:31.023 - 1A 20 00 00 00 00 00 01 00 00 01 00 00 01 01 71 01 00 EF 01 26 EC 01 00 00 01 0F (阳台温湿气压虚拟地址)
2024-09-01 16:03:32.452 - 1A 20 00 00 00 86 86 86 0F (调用查询模块-阳台测温湿气压转换, 阳台温湿气压虚拟地址)
2024-09-01 16:03:32.675 - 20 03 00 00 00 03 03 7A (查询阳台温湿度气压)
2024-09-01 16:03:32.707 - 20 03 06 01 71 00 EF 26 ED 23 26 (阳台温湿度返回)
2024-09-01 16:03:33.202 - 1A 20 00 00 00 00 00 01 00 00 01 00 00 01 01 71 01 00 EF 01 26 ED 01 00 00 01 0F (阳台温湿气压虚拟地址)
2024-09-01 16:03:35.388 - 19 08 24 03 CC 01 55 00 01 (调用内卫感应灯关的按键)
2024-09-01 16:03:35.437 - 1A 0C 02 08 01 FF 00 01 FF 00 01 FF 00 00 0F (调光器地址-内卫射灯, 内卫感应灯关)
2024-09-01 16:03:43.335 - 19 08 24 03 CC 01 52 00 01 (调用外卫感应灯开的按键)
2024-09-01 16:03:43.364 - 1A 0D 01 07 01 FF 45 01 FF 45 01 FF 00 00 0F (调光器地址-外卫射灯, 外卫感应灯开)
2024-09-01 16:03:49.584 - 19 08 24 03 CC 01 4A 00 01
2024-09-01 16:03:50.562 - 19 08 24 03 CC 01 4A 00 01
2024-09-01 16:04:24.377 - 1A FF 03 00 00 86 86 86 0F (调用查询模块-主卧空调开关查询, 主卧空调虚拟地址)
2024-09-01 16:04:24.592 - 01 04 07 DC 00 01 F1 44 (查询主卧空调开关状态)
2024-09-01 16:04:24.617 - 01 04 02 70 01 5D 30
2024-09-01 16:04:25.085 - 1A 20 00 00 00 86 86 86 0F (调用查询模块-阳台测温湿气压转换, 阳台温湿气压虚拟地址)
2024-09-01 16:04:25.596 - 1A FF 03 00 00 00 00 0F (主卧空调虚拟地址)
2024-09-01 16:04:25.780 - 1A FF 04 00 00 86 86 86 0F (调用查询模块-次卧空调开关查询, 次卧空调虚拟地址)
2024-09-01 16:04:25.988 - 01 04 07 E2 00 01 90 88 (查询次卧空调开关状态)
2024-09-01 16:04:26.020 - 01 04 02 70 00 9C F0
2024-09-01 16:04:26.993 - 1A FF 04 00 00 00 00 0F (次卧空调虚拟地址)
2024-09-01 16:04:27.210 - 1A FF 05 00 00 86 86 86 0F (调用查询模块-书房空调开关查询, 书房空调虚拟地址)
2024-09-01 16:04:27.431 - 01 04 07 E8 00 01 B0 8A (查询书房空调开关状态)
2024-09-01 16:04:27.448 - 01 04 02 70 00 9C F0
2024-09-01 16:04:28.434 - 1A FF 05 00 00 00 00 0F (书房空调虚拟地址)
2024-09-01 16:04:28.639 - 1A FF 02 00 00 86 86 86 0F (调用查询模块-餐厅空调开关查询, 餐厅空调虚拟地址)
2024-09-01 16:04:28.860 - 01 04 07 D6 00 01 D1 46 (查询餐厅空调开关状态)
2024-09-01 16:04:28.876 - 01 04 02 70 01 5D 30
2024-09-01 16:04:29.867 - 1A FF 02 00 00 01 00 0F (餐厅空调虚拟地址)
2024-09-01 16:04:30.170 - 1A FF 01 00 00 86 86 86 0F (调用查询模块-客厅空调开关查询, 客厅空调虚拟地址)
2024-09-01 16:04:30.393 - 01 04 07 D0 00 01 31 47 (查询客厅空调开关状态)
2024-09-01 16:04:30.410 - 01 04 02 70 01 5D 30
2024-09-01 16:04:31.400 - 1A FF 01 00 00 01 00 0F (客厅空调虚拟地址)
2024-09-01 16:04:31.616 - 1A 10 00 00 00 86 86 86 0F (调用查询模块-主卧测温转换, 主卧温湿度虚拟地址)
2024-09-01 16:04:31.846 - 1D 03 00 00 00 02 C6 57 (查询主卧温湿度)
2024-09-01 16:04:31.862 - 1D 03 04 01 B1 00 FA F6 6A (主卧温湿度返回)
2024-09-01 16:04:32.866 - 1A 10 00 00 00 00 00 01 00 00 01 00 00 01 00 FA 01 01 B1 01 00 00 01 00 00 01 0F (主卧温湿度虚拟地址)
2024-09-01 16:04:33.044 - 1A 11 00 00 00 86 86 86 0F (调用查询模块-次卧测温转换, 次卧温湿度虚拟地址)
2024-09-01 16:04:33.265 - 11 03 00 00 00 02 C6 9B (查询次卧温湿度)
2024-09-01 16:04:33.282 - 11 03 04 01 F5 01 26 7A 76 (次卧温湿度返回)
2024-09-01 16:04:34.286 - 1A 11 00 00 00 00 00 01 00 00 01 00 00 01 01 26 01 01 F5 01 00 00 01 00 00 01 0F (次卧温湿度虚拟地址)
2024-09-01 16:04:34.476 - 1A 12 00 00 00 86 86 86 0F (调用查询模块-书房测温转换, 书房温湿度虚拟地址)
2024-09-01 16:04:34.700 - 12 03 00 00 00 02 C6 A8 (查询书房温湿度)
2024-09-01 16:04:34.717 - 12 03 04 01 AF 01 1A 69 74 (书房温湿度返回)
2024-09-01 16:04:35.726 - 1A 12 00 00 00 00 00 01 00 00 01 00 00 01 01 1A 01 01 AF 01 00 00 01 00 00 01 0F (书房温湿度虚拟地址)
2024-09-01 16:04:35.912 - 1A 13 00 00 00 86 86 86 0F (调用查询模块-外卫测温转换, 外卫温湿度虚拟地址)
2024-09-01 16:04:35.936 - 19 08 24 03 CC 01 53 00 01 (调用外卫感应灯关的按键)
2024-09-01 16:04:35.992 - 1A 0D 01 07 01 FF 00 01 FF 00 01 FF 00 00 0F (调光器地址-外卫射灯, 外卫感应灯关)
2024-09-01 16:04:36.136 - 13 03 00 00 00 02 C7 79 (查询外卫温湿度)
2024-09-01 16:04:36.157 - 13 03 04 01 BD 01 08 59 BC (外卫温湿度返回)
2024-09-01 16:04:37.156 - 1A 13 00 00 00 00 00 01 00 00 01 00 00 01 01 08 01 01 BD 01 00 00 01 00 00 01 0F (外卫温湿度虚拟地址)
2024-09-01 16:04:37.348 - 1A 14 00 00 00 86 86 86 0F (调用查询模块-内卫测温转换, 内卫温湿度虚拟地址)
2024-09-01 16:04:37.569 - 14 03 00 00 00 02 C6 CE (查询内卫温湿度)
2024-09-01 16:04:37.589 - 14 03 04 01 CC 01 01 BF 61 (内卫温湿度返回)
2024-09-01 16:04:38.592 - 1A 14 00 00 00 00 00 01 00 00 01 00 00 01 01 01 01 01 CC 01 00 00 01 00 00 01 0F (内卫温湿度虚拟地址)
2024-09-01 16:04:38.783 - 1A 15 00 00 00 86 86 86 0F (调用查询模块-客厅测温转换, 客厅温湿度虚拟地址)
2024-09-01 16:04:39.007 - 15 03 00 00 00 02 C7 1F (查询客厅温湿度)
2024-09-01 16:04:39.032 - 15 03 04 01 E2 00 EC 0E 75 (客厅温湿度返回)
2024-09-01 16:04:40.035 - 1A 15 00 00 00 00 00 01 00 00 01 00 00 01 00 EC 01 01 E2 01 00 00 01 00 00 01 0F (客厅温湿度虚拟地址)
2024-09-01 16:04:40.138 - 1A 16 00 00 00 86 86 86 0F (调用查询模块-机柜测温转换, 机柜温湿度虚拟地址)
2024-09-01 16:04:40.362 - 16 03 00 00 00 02 C7 2C (查询机柜温湿度)
2024-09-01 16:04:40.378 - 16 03 04 01 CE 01 03 BC A0 (机柜温湿度返回)
2024-09-01 16:04:41.382 - 1A 16 00 00 00 00 00 01 00 00 01 00 00 01 01 03 01 01 CE 01 00 00 01 00 00 01 0F (机柜温湿度虚拟地址)
