2025-09-08 22:12:46.958 - 01 04 07 D0 00 06 70 85
2025-09-08 22:12:46.994 - 01 04 0C 00 00 00 00 00 00 00 00 00 00 00 00 95 B7
2025-09-08 22:12:47.464 - 01 04 07 D6 00 06 90 84
2025-09-08 22:12:47.500 - 01 04 0C 00 00 00 00 00 00 00 00 00 00 00 00 95 B7
2025-09-08 22:12:47.969 - 01 04 07 DC 00 06 B0 86
2025-09-08 22:12:48.005 - 01 04 0C 00 00 00 00 00 00 00 00 00 00 00 00 95 B7
2025-09-08 22:12:48.482 - 01 04 07 E2 00 06 D1 4A
2025-09-08 22:12:48.519 - 01 04 0C 00 00 00 00 00 00 00 00 00 00 00 00 95 B7
2025-09-08 22:12:49.000 - 01 04 07 E8 00 06 F1 48
2025-09-08 22:12:49.036 - 01 04 0C 00 00 00 00 00 00 00 00 00 00 00 00 95 B7
2025-09-08 22:13:08.888 - 19 08 24 03 CC 01 54 00 01 (调用内卫感应灯开的按键)
2025-09-08 22:13:08.941 - 1A 0C 02 08 01 FF 45 01 FF 45 01 FF 00 00 0F (调光器地址-内卫射灯, 内卫射灯微光)
2025-09-08 22:13:09.193 - 01 04 07 D0 00 06 70 85
2025-09-08 22:13:09.222 - 01 04 0C 00 00 00 00 00 00 00 00 00 00 00 00 95 B7
2025-09-08 22:13:24.713 - 01 04 07 D0 00 06 70 85
2025-09-08 22:13:24.746 - 01 04 0C 70 01 42 02 00 FA 00 00 01 04 00 00 70 78
2025-09-08 22:13:25.766 - 01 04 07 D6 00 06 90 84
2025-09-08 22:13:25.794 - 01 04 0C 70 01 42 02 00 FA 00 00 01 22 00 00 91 B3
2025-09-08 22:13:26.814 - 01 04 07 DC 00 06 B0 86
2025-09-08 22:13:26.846 - 01 04 0C 70 01 42 02 00 F0 00 00 01 18 00 00 1B BE
2025-09-08 22:13:27.869 - 01 04 07 E2 00 06 D1 4A
2025-09-08 22:13:27.896 - 01 04 0C 70 00 42 02 00 FA 00 00 01 0E 00 00 54 86
2025-09-08 22:13:28.912 - 01 04 07 E8 00 06 F1 48
2025-09-08 22:13:28.946 - 01 04 0C 70 00 42 02 00 DC 00 00 01 22 00 00 D2 8D
2025-09-08 22:13:29.432 - 19 08 24 03 CC 01 55 00 01 (调用内卫感应灯关的按键)
2025-09-08 22:13:29.488 - 1A 0C 02 08 01 FF 00 01 FF 00 01 FF 00 00 0F (调光器地址-内卫射灯, 内卫感应灯关)
2025-09-08 22:13:29.959 - 01 06 07 D8 00 E6 89 0F
2025-09-08 22:13:29.988 - 01 06 07 D8 00 E6 89 0F
2025-09-08 22:13:31.176 - 01 04 07 DC 00 06 B0 86
2025-09-08 22:13:31.209 - 01 04 0C 70 01 42 02 00 E6 00 00 01 18 00 00 6C 7F
2025-09-08 22:14:07.519 - 01 04 07 D0 00 06 70 85
2025-09-08 22:14:07.554 - 01 04 0C 70 01 42 02 00 FA 00 00 01 04 00 00 70 78
2025-09-08 22:14:08.577 - 01 04 07 D6 00 06 90 84
2025-09-08 22:14:08.615 - 01 04 0C 70 01 42 02 00 FA 00 00 01 22 00 00 91 B3
2025-09-08 22:14:09.638 - 01 04 07 DC 00 06 B0 86
2025-09-08 22:14:09.665 - 01 04 0C 70 01 42 02 00 E6 00 00 01 18 00 00 6C 7F
2025-09-08 22:14:10.691 - 01 04 07 E2 00 06 D1 4A
2025-09-08 22:14:10.725 - 01 04 0C 70 00 42 02 00 FA 00 00 01 0E 00 00 54 86
2025-09-08 22:14:11.751 - 01 04 07 E8 00 06 F1 48
2025-09-08 22:14:11.786 - 01 04 0C 70 00 42 02 00 DC 00 00 01 22 00 00 D2 8D
2025-09-08 22:14:12.798 - 01 06 07 D8 00 E6 89 0F
2025-09-08 22:14:12.830 - 01 06 07 D8 00 E6 89 0F
2025-09-08 22:14:13.967 - 01 04 07 DC 00 06 B0 86
2025-09-08 22:14:13.997 - 01 04 0C 70 01 42 02 00 E6 00 00 01 18 00 00 6C 7F
2025-09-08 22:14:24.277 - 01 04 07 D0 00 06 70 85
2025-09-08 22:14:24.308 - 01 04 0C 70 01 42 02 00 FA 00 00 01 04 00 00 70 78
2025-09-08 22:14:24.790 - 01 04 07 D6 00 06 90 84
2025-09-08 22:14:24.823 - 01 04 0C 70 01 42 02 00 FA 00 00 01 22 00 00 91 B3
2025-09-08 22:14:25.302 - 01 04 07 DC 00 06 B0 86
2025-09-08 22:14:25.339 - 01 04 0C 70 01 42 02 00 E6 00 00 01 18 00 00 6C 7F
2025-09-08 22:14:25.816 - 01 04 07 E2 00 06 D1 4A
2025-09-08 22:14:25.854 - 01 04 0C 70 00 42 02 00 FA 00 00 01 0E 00 00 54 86
2025-09-08 22:14:26.318 - 01 04 07 E8 00 06 F1 48
2025-09-08 22:14:26.349 - 01 04 0C 70 00 42 02 00 DC 00 00 01 22 00 00 D2 8D
2025-09-08 22:14:38.628 - 01 06 07 D6 50 FF 15 06
2025-09-08 22:14:38.659 - 01 06 07 D6 50 FF 15 06
2025-09-08 22:14:40.145 - 01 04 07 DC 00 06 B0 86
2025-09-08 22:14:40.183 - 01 04 0C 50 01 42 02 00 E6 00 00 01 18 00 00 ED C0
2025-09-08 22:14:56.229 - 01 06 07 D8 00 DC 09 1C
2025-09-08 22:14:56.262 - 01 06 07 D8 00 DC 09 1C
2025-09-08 22:15:04.008 - 01 06 07 D8 00 A0 08 FD
2025-09-08 22:15:04.038 - 01 06 07 D8 00 A0 08 FD
2025-09-08 22:15:10.024 - 01 04 07 DC 00 06 B0 86
2025-09-08 22:15:10.056 - 01 04 0C 50 01 42 02 00 A0 00 00 01 18 00 00 CA 04
2025-09-08 22:15:21.076 - 01 06 07 D8 00 DC 09 1C
2025-09-08 22:15:21.106 - 01 06 07 D8 00 DC 09 1C
2025-09-08 22:15:35.226 - 01 06 07 D7 00 07 79 44
2025-09-08 22:15:35.254 - 01 06 07 D7 00 07 79 44
2025-09-08 22:15:45.026 - 01 06 07 D7 00 02 B9 47
2025-09-08 22:15:45.061 - 01 06 07 D7 00 02 B9 47
2025-09-08 22:15:46.141 - 01 04 07 DC 00 06 B0 86
2025-09-08 22:15:46.170 - 01 04 0C 50 01 42 02 00 DC 00 00 01 18 00 00 77 C3
2025-09-08 22:16:11.484 - 01 10 07 D6 00 03 06 50 60 00 02 00 DC 34 43
2025-09-08 22:16:11.528 - 01 10 07 D6 00 03 06 50 60 00 02 00 DC 34 43
2025-09-08 22:16:13.623 - 01 04 07 DC 00 06 B0 86
2025-09-08 22:16:13.660 - 01 04 0C 50 00 42 02 00 DC 00 00 01 18 00 00 73 3F
2025-09-08 22:16:18.922 - 01 10 07 D6 00 03 06 50 61 00 02 00 DC 09 83
2025-09-08 22:16:18.962 - 01 10 07 D6 00 03 06 50 61 00 02 00 DC 09 83
2025-09-08 22:17:03.665 - 01 04 07 DC 00 06 B0 86
2025-09-08 22:17:03.700 - 01 04 0C 50 01 42 02 00 DC 00 00 01 18 00 00 77 C3
2025-09-08 22:18:27.566 - 19 08 24 03 CC 01 52 00 01 (调用外卫感应灯开的按键)
2025-09-08 22:18:27.619 - 1A 0D 01 07 01 FF 45 01 FF 45 01 FF 00 00 0F (调光器地址-外卫射灯, 外卫感应灯开)
2025-09-08 22:19:15.065 - 01 04 07 D0 00 06 70 85
2025-09-08 22:19:15.097 - 01 04 0C 70 01 42 02 00 FA 00 00 01 04 00 00 70 78
2025-09-08 22:19:15.568 - 01 04 07 D6 00 06 90 84
2025-09-08 22:19:15.603 - 01 04 0C 70 01 42 02 00 FA 00 00 01 22 00 00 91 B3
2025-09-08 22:19:16.084 - 01 04 07 DC 00 06 B0 86
2025-09-08 22:19:16.118 - 01 04 0C 50 01 42 02 00 DC 00 00 01 18 00 00 77 C3
2025-09-08 22:19:16.596 - 01 04 07 E2 00 06 D1 4A
2025-09-08 22:19:16.633 - 01 04 0C 70 00 42 02 00 FA 00 00 01 0E 00 00 54 86
2025-09-08 22:19:17.111 - 01 04 07 E8 00 06 F1 48
2025-09-08 22:19:17.147 - 01 04 0C 70 00 42 02 00 DC 00 00 01 22 00 00 D2 8D
2025-09-08 22:23:11.498 - 1A BE B0 DC 02 (正反转地址-外卫卷帘)
2025-09-08 22:23:11.637 - FC
2025-09-08 22:23:33.169 - 19 08 24 03 CC 01 53 00 01 (调用外卫感应灯关的按键)
2025-09-08 22:23:33.219 - 1A 0D 01 07 01 FF 00 01 FF 00 01 FF 00 00 0F (调光器地址-外卫射灯, 外卫感应灯关)
2025-09-08 22:23:38.680 - 19 08 24 03 CC 01 52 00 01 (调用外卫感应灯开的按键)
2025-09-08 22:23:38.733 - 1A 0D 01 07 01 FF 45 01 FF 45 01 FF 00 00 0F (调光器地址-外卫射灯, 外卫感应灯开)
2025-09-08 22:24:04.861 - 19 08 24 03 CC 01 CC 00 01 (调用茶吧感应灯开的按键)
2025-09-08 22:24:04.892 - 1A AA AA AA 88 FF B0 01 FF B0 01 0F (调光器地址-茶吧灯带, 茶吧灯带明亮)
2025-09-08 22:24:10.244 - 19 08 24 03 CC 01 53 00 01 (调用外卫感应灯关的按键)
2025-09-08 22:24:10.274 - 1A 0D 01 07 01 FF 00 01 FF 00 01 FF 00 00 0F (调光器地址-外卫射灯, 外卫感应灯关)
2025-09-08 22:25:13.496 - 19 08 24 03 CC 01 CD 00 01 (调用茶吧感应灯关的按键)
2025-09-08 22:25:13.527 - 1A AA AA AA 88 FF 00 01 FF 00 01 0F (调光器地址-茶吧灯带, 茶吧灯带关闭)
2025-09-08 22:25:13.867 - 19 08 24 03 CC 01 52 00 01 (调用外卫感应灯开的按键)
2025-09-08 22:25:24.370 - 19 08 24 03 DD 00 3E 00 01 (调用情景-外卫照明关帘)
2025-09-08 22:25:24.901 - EE 00 00 B1 00 00 00 FF FC FF FF (情景执行提示)
2025-09-08 22:25:25.498 - 09 06 00 0F 02 01 78 21 (提示音叮)
2025-09-08 22:25:26.047 - 1A FF FF FF 55 00 00 00 0F (人体感应地址-外卫, 关闭外卫感应)
2025-09-08 22:25:26.151 - BF BF
2025-09-08 22:25:27.148 - 1A 0D 01 07 01 FF F0 01 FF F0 01 FF 00 00 0F (调光器地址-外卫射灯, 外卫射灯明亮)
2025-09-08 22:25:27.740 - 09 06 00 0F 02 02 38 20 (提示音咚)
2025-09-08 22:25:28.291 - EE 00 00 B1 00 00 02 FF FC FF FF (情景完成返回主页)
2025-09-08 22:26:26.623 - 01 04 07 D0 00 06 70 85
2025-09-08 22:26:26.656 - 01 04 0C 70 01 42 02 00 FA 00 00 01 04 00 00 70 78
2025-09-08 22:26:27.131 - 01 04 07 D6 00 06 90 84
2025-09-08 22:26:27.161 - 01 04 0C 70 01 42 02 00 FA 00 00 01 22 00 00 91 B3
2025-09-08 22:26:27.641 - 01 04 07 DC 00 06 B0 86
2025-09-08 22:26:27.675 - 01 04 0C 50 01 42 02 00 DC 00 00 01 18 00 00 77 C3
2025-09-08 22:26:28.220 - 01 04 07 E2 00 06 D1 4A
2025-09-08 22:26:28.252 - 01 04 0C 70 00 42 02 00 FA 00 00 01 0E 00 00 54 86
2025-09-08 22:26:28.658 - 01 04 07 E8 00 06 F1 48
2025-09-08 22:26:28.696 - 01 04 0C 70 00 42 02 00 DC 00 00 01 22 00 00 D2 8D
2025-09-08 22:27:10.192 - 1A BE B0 DC 09 FC (继电器地址-客厅窗帘)
2025-09-08 22:27:10.326 - FF
2025-09-08 22:27:19.738 - 19 08 24 03 DD 00 1C 00 01 (调用情景-外卫使用完毕)
2025-09-08 22:27:20.272 - EE 00 00 B1 00 00 00 FF FC FF FF (情景执行提示)
2025-09-08 22:27:20.866 - 09 06 00 0F 02 01 78 21 (提示音叮)
2025-09-08 22:27:21.448 - 1A 0D 01 07 01 FF 00 01 FF 00 01 FF 00 00 0F (调光器地址-外卫射灯, 外卫感应灯关)
2025-09-08 22:27:22.006 - 50 F5 03 (关外卫影视)
2025-09-08 22:27:22.561 - 1A 20 07 00 42 00 01 00 0F (自保持开关地址-外卫顶灯, 外卫顶灯关)
2025-09-08 22:27:23.108 - 1A FF FF FF 55 00 00 01 0F (人体感应地址-外卫, 打开外卫感应)
2025-09-08 22:27:23.218 - BC BC
2025-09-08 22:27:25.653 - 09 06 00 0F 02 02 38 20 (提示音咚)
2025-09-08 22:27:26.204 - EE 00 00 B1 00 00 02 FF FC FF FF (情景完成返回主页)
2025-09-08 22:27:31.740 - 19 08 24 03 CC 01 53 00 01 (调用外卫感应灯关的按键)
2025-09-08 22:27:31.792 - 1A 0D 01 07 01 FF 00 01 FF 00 01 FF 00 00 0F (调光器地址-外卫射灯, 外卫感应灯关)
2025-09-08 22:27:33.769 - 19 08 24 03 DD 00 33 00 01 (调用情景-次卧睡觉)
2025-09-08 22:27:34.326 - EE 00 00 B1 00 00 00 FF FC FF FF (情景执行提示)
2025-09-08 22:27:34.921 - 09 06 00 0F 02 01 78 21 (提示音叮)
2025-09-08 22:27:35.472 - 1A 20 07 00 70 00 01 00 0F (自保持开关地址-次卧顶灯, 次卧顶灯只关)
2025-09-08 22:27:36.016 - A5 00 21 FF 00 AA (次卧纱帘关)
2025-09-08 22:27:37.062 - A5 00 76 FF 00 AA (次卧窗帘关)
2025-09-08 22:27:38.106 - 50 F5 06 (关次卧影视)
2025-09-08 22:27:38.666 - 1A 0E 03 05 03 FF 00 01 FF 00 01 FF 00 00 0F (调光器地址-次卧阅读灯, 次卧阅读关闭)
2025-09-08 22:27:39.264 - 1A 0E 03 05 02 FF 00 01 FF 00 01 FF 00 00 0F (调光器地址-次卧灯带, 次卧灯带关闭)
2025-09-08 22:27:39.863 - 1A 0E 03 05 04 FF 00 01 FF 00 01 FF 00 00 0F (调光器地址-次卧北筒灯, 次卧北筒灯关闭)
2025-09-08 22:27:40.461 - 1A 0E 03 05 05 FF 00 01 FF 00 01 FF 00 00 0F (调光器地址-次卧南筒灯, 次卧南筒灯关闭)
2025-09-08 22:27:41.058 - 1A 0E 03 05 01 FF 00 01 FF 00 01 FF 00 00 0F (调光器地址-次卧射灯, 次卧射灯关闭)
2025-09-08 22:27:41.648 - 09 06 00 0F 02 02 38 20 (提示音咚)
2025-09-08 22:27:42.200 - EE 00 00 B1 00 00 02 FF FC FF FF (情景完成返回主页)
2025-09-08 22:28:15.149 - 19 08 24 03 DD 00 13 00 01 (调用情景-公共区域关)
2025-09-08 22:28:15.691 - EE 00 00 B1 00 00 00 FF FC FF FF (情景执行提示)
2025-09-08 22:28:16.284 - 09 06 00 0F 02 01 78 21 (提示音叮)
2025-09-08 22:28:16.860 - 55 0B 31 00 00 00 01 92 (厨房风扇只关)
2025-09-08 22:28:17.928 - 01 06 07 D3 FF 60 38 9F (餐厅空调关)
2025-09-08 22:28:17.956 - 01 06 07 D3 FF 60 38 9F (餐厅空调关)
2025-09-08 22:28:19.026 - 01 06 07 D0 FF 60 C8 9F (客厅空调关)
2025-09-08 22:28:19.059 - 01 06 07 D0 FF 60 C8 9F (客厅空调关)
2025-09-08 22:28:23.110 - 50 F5 02 (关厨房影视)
2025-09-08 22:28:24.156 - 50 F5 01 (关餐厅影视)
2025-09-08 22:28:25.201 - 50 F5 08 (关客厅影视)
2025-09-08 22:28:26.248 - 50 F5 03 (关外卫影视)
2025-09-08 22:28:27.301 - 55 0A 31 00 00 00 01 91 (厨房顶灯一关)
2025-09-08 22:28:28.347 - 55 0A 31 00 00 00 02 92 (厨房顶灯二关)
2025-09-08 22:28:29.394 - 55 0C 31 00 00 00 01 93 (餐厅顶灯关)
2025-09-08 22:28:30.442 - 1A 18 05 10 31 00 01 00 0F (自保持开关地址-门厅顶灯, 门厅顶灯关)
2025-09-08 22:28:31.538 - 1A 20 07 00 42 00 01 00 0F (自保持开关地址-外卫顶灯, 外卫顶灯关)
2025-09-08 22:28:32.586 - 1A 18 05 21 89 00 01 00 0F (自保持开关地址-客厅顶灯, 客厅顶灯一关)
2025-09-08 22:28:33.631 - 1A 18 05 01 94 00 01 00 0F (自保持开关地址-客厅顶灯, 客厅顶灯二关)
2025-09-08 22:28:34.677 - 1A 20 07 01 30 00 01 00 0F (自保持开关地址-西阳顶灯, 西阳顶灯关)
2025-09-08 22:28:35.731 - 1A FF 01 FF FF FF 00 01 FF 00 01 FF 00 00 0F (调光器地址-公共区域统配地址, 公共区域灯光全关)
2025-09-08 22:28:36.820 - 09 06 00 0F 02 02 38 20 (提示音咚)
2025-09-08 22:28:38.867 - EE 00 00 B1 00 00 02 FF FC FF FF (情景完成返回主页)
2025-09-08 22:31:24.743 - 01 04 07 D0 00 06 70 85
2025-09-08 22:31:24.777 - 01 04 0C 70 00 42 02 00 FA 00 00 01 04 00 00 74 84
2025-09-08 22:31:25.258 - 01 04 07 D6 00 06 90 84
2025-09-08 22:31:25.290 - 01 04 0C 70 00 42 02 00 FA 00 00 01 22 00 00 95 4F
2025-09-08 22:31:25.769 - 01 04 07 DC 00 06 B0 86
2025-09-08 22:31:25.797 - 01 04 0C 50 01 42 02 00 DC 00 00 01 18 00 00 77 C3
2025-09-08 22:31:26.276 - 01 04 07 E2 00 06 D1 4A
2025-09-08 22:31:26.312 - 01 04 0C 70 01 42 02 00 FA 00 00 01 0E 00 00 50 7A
2025-09-08 22:31:26.785 - 01 04 07 E8 00 06 F1 48
2025-09-08 22:31:26.816 - 01 04 0C 70 00 42 02 00 DC 00 00 01 22 00 00 D2 8D
2025-09-08 22:31:38.665 - 01 10 07 D6 00 03 06 70 60 00 02 00 DC 33 23
2025-09-08 22:31:38.700 - 01 10 07 D6 00 03 06 70 60 00 02 00 DC 33 23
2025-09-08 22:31:50.429 - 01 10 07 D6 00 03 06 70 61 00 02 00 DC 0E E3
2025-09-08 22:31:50.466 - 01 10 07 D6 00 03 06 70 61 00 02 00 DC 0E E3
2025-09-08 22:31:50.536 - 01 04 07 DC 00 06 B0 86
2025-09-08 22:31:50.569 - 01 04 0C 70 00 42 02 00 DC 00 00 01 18 00 00 F2 80
2025-09-08 22:31:59.530 - 01 10 07 D6 00 03 06 70 61 00 02 00 DC 0E E3
2025-09-08 22:31:59.566 - 01 10 07 D6 00 03 06 70 61 00 02 00 DC 0E E3
2025-09-08 22:32:03.154 - 01 06 07 D6 FF 61 E9 5E
2025-09-08 22:32:03.195 - 01 06 07 D6 FF 61 E9 5E
2025-09-08 22:32:05.286 - 01 04 07 DC 00 06 B0 86
2025-09-08 22:32:05.323 - 01 04 0C 70 01 42 02 00 DC 00 00 01 18 00 00 F6 7C
2025-09-08 22:32:13.971 - 01 06 07 D6 50 FF 15 06
2025-09-08 22:32:13.999 - 01 06 07 D6 50 FF 15 06
2025-09-08 22:32:15.318 - 01 04 07 DC 00 06 B0 86
2025-09-08 22:32:15.352 - 01 04 0C 50 01 42 02 00 DC 00 00 01 18 00 00 77 C3
2025-09-08 22:38:40.427 - 01 04 07 D0 00 06 70 85
2025-09-08 22:38:40.465 - 01 04 0C 70 00 42 02 00 FA 00 00 01 04 00 00 74 84
2025-09-08 22:38:40.944 - 01 04 07 D6 00 06 90 84
2025-09-08 22:38:40.980 - 01 04 0C 70 00 42 02 00 FA 00 00 01 22 00 00 95 4F
2025-09-08 22:38:41.459 - 01 04 07 DC 00 06 B0 86
2025-09-08 22:38:41.495 - 01 04 0C 50 01 42 02 00 DC 00 00 01 18 00 00 77 C3
2025-09-08 22:38:41.988 - 01 04 07 E2 00 06 D1 4A
2025-09-08 22:38:42.019 - 01 04 0C 70 01 42 02 00 FA 00 00 01 04 00 00 70 78
2025-09-08 22:38:42.487 - 01 04 07 E8 00 06 F1 48
2025-09-08 22:38:42.525 - 01 04 0C 70 00 42 02 00 DC 00 00 01 22 00 00 D2 8D
2025-09-08 22:38:49.415 - 01 10 07 D6 00 03 06 70 60 00 02 00 DC 33 23
2025-09-08 22:38:49.451 - 01 10 07 D6 00 03 06 70 60 00 02 00 DC 33 23
2025-09-08 22:39:08.409 - 01 10 07 D6 00 03 06 50 61 00 02 00 DC 09 83
2025-09-08 22:39:08.449 - 01 10 07 D6 00 03 06 50 61 00 02 00 DC 09 83
2025-09-08 22:39:08.519 - 01 04 07 DC 00 06 B0 86
2025-09-08 22:39:08.550 - 01 04 0C 70 00 42 02 00 DC 00 00 01 18 00 00 F2 80
2025-09-08 22:39:19.351 - 01 06 07 D6 50 FF 15 06
2025-09-08 22:39:19.388 - 01 06 07 D6 50 FF 15 06
2025-09-08 22:39:21.800 - 01 04 07 DC 00 06 B0 86
2025-09-08 22:39:21.831 - 01 04 0C 50 01 42 02 00 DC 00 00 01 18 00 00 77 C3
2025-09-08 22:41:36.922 - 01 04 07 D0 00 06 70 85
2025-09-08 22:41:36.954 - 01 04 0C 70 00 42 02 00 FA 00 00 01 0E 00 00 54 86
2025-09-08 22:41:37.492 - 01 04 07 D6 00 06 90 84
2025-09-08 22:41:37.530 - 01 04 0C 70 00 42 02 00 FA 00 00 01 22 00 00 95 4F
2025-09-08 22:41:37.939 - 01 04 07 DC 00 06 B0 86
2025-09-08 22:41:37.975 - 01 04 0C 50 01 42 02 00 DC 00 00 01 18 00 00 77 C3
2025-09-08 22:41:38.445 - 01 04 07 E2 00 06 D1 4A
2025-09-08 22:41:38.479 - 01 04 0C 70 01 42 02 00 FA 00 00 01 04 00 00 70 78
2025-09-08 22:41:38.954 - 01 04 07 E8 00 06 F1 48
2025-09-08 22:41:38.984 - 01 04 0C 70 00 42 02 00 DC 00 00 01 22 00 00 D2 8D
2025-09-08 22:41:43.639 - 01 10 07 D6 00 03 06 70 60 00 02 00 DC 33 23
2025-09-08 22:41:43.677 - 01 10 07 D6 00 03 06 70 60 00 02 00 DC 33 23
2025-09-08 22:41:44.760 - 01 04 07 DC 00 06 B0 86
2025-09-08 22:41:44.791 - 01 04 0C 70 00 42 02 00 DC 00 00 01 18 00 00 F2 80
2025-09-08 22:41:54.771 - 01 10 07 D6 00 03 06 50 61 00 02 00 DC 09 83
2025-09-08 22:41:54.809 - 01 10 07 D6 00 03 06 50 61 00 02 00 DC 09 83
2025-09-08 22:41:55.884 - 01 04 07 DC 00 06 B0 86
2025-09-08 22:41:55.920 - 01 04 0C 50 01 42 02 00 DC 00 00 01 18 00 00 77 C3
2025-09-08 22:42:04.112 - 01 04 07 DC 00 06 B0 86
2025-09-08 22:42:04.141 - 01 04 0C 50 01 42 02 00 DC 00 00 01 18 00 00 77 C3
2025-09-08 22:43:57.166 - 01 04 07 D0 00 06 70 85
2025-09-08 22:43:57.198 - 01 04 0C 00 00 00 00 00 00 00 00 00 00 00 00 95 B7
2025-09-08 22:43:57.749 - 01 04 07 D6 00 06 90 84
2025-09-08 22:43:57.784 - 01 04 0C 00 00 00 00 00 00 00 00 00 00 00 00 95 B7
2025-09-08 22:43:58.194 - 01 04 07 DC 00 06 B0 86
2025-09-08 22:43:58.228 - 01 04 0C 50 01 42 02 00 DC 00 00 01 18 00 00 77 C3
2025-09-08 22:43:58.706 - 01 04 07 E2 00 06 D1 4A
2025-09-08 22:43:58.743 - 01 04 0C 00 00 00 00 00 00 00 00 00 00 00 00 95 B7
2025-09-08 22:43:59.220 - 01 04 07 E8 00 06 F1 48
2025-09-08 22:43:59.248 - 01 04 0C 00 00 00 00 00 00 00 00 00 00 00 00 95 B7
2025-09-08 22:44:05.043 - 01 04 07 E2 00 06 D1 4A
2025-09-08 22:44:05.076 - 01 04 0C 00 00 00 00 00 00 00 00 00 00 00 00 95 B7
2025-09-08 22:44:07.675 - 01 04 07 E2 00 06 D1 4A
2025-09-08 22:44:07.711 - 01 04 0C 00 00 00 00 00 00 00 00 00 00 00 00 95 B7
2025-09-08 22:44:09.661 - 01 04 07 E2 00 06 D1 4A
2025-09-08 22:44:09.691 - 01 04 0C 00 00 00 00 00 00 00 00 00 00 00 00 95 B7
2025-09-08 22:44:16.956 - 01 04 07 E2 00 06 D1 4A
2025-09-08 22:44:16.992 - 01 04 0C 00 00 00 00 00 00 00 00 00 00 00 00 95 B7
2025-09-08 22:44:19.640 - 01 04 07 DC 00 06 B0 86
2025-09-08 22:44:19.679 - 01 04 0C 50 01 42 02 00 DC 00 00 01 18 00 00 77 C3
2025-09-08 22:44:21.660 - 01 04 07 D6 00 06 90 84
2025-09-08 22:44:21.688 - 01 04 0C 00 00 00 00 00 00 00 00 00 00 00 00 95 B7
2025-09-08 22:44:23.174 - 01 04 07 D6 00 06 90 84
2025-09-08 22:44:23.204 - 01 04 0C 00 00 00 00 00 00 00 00 00 00 00 00 95 B7
2025-09-08 22:44:24.206 - 01 04 07 D0 00 06 70 85
2025-09-08 22:44:24.243 - 01 04 0C 00 00 00 00 00 00 00 00 00 00 00 00 95 B7
2025-09-08 22:44:26.042 - 01 04 07 D0 00 06 70 85
2025-09-08 22:44:26.070 - 01 04 0C 00 00 00 00 00 00 00 00 00 00 00 00 95 B7
2025-09-08 22:44:27.925 - 01 04 07 E8 00 06 F1 48
2025-09-08 22:44:27.959 - 01 04 0C 00 00 00 00 00 00 00 00 00 00 00 00 95 B7
2025-09-08 22:44:36.840 - 01 04 07 E8 00 06 F1 48
2025-09-08 22:44:36.877 - 01 04 0C 00 00 00 00 00 00 00 00 00 00 00 00 95 B7
2025-09-08 22:44:39.506 - 01 04 07 E2 00 06 D1 4A
2025-09-08 22:44:39.543 - 01 04 0C 00 00 00 00 00 00 00 00 00 00 00 00 95 B7
2025-09-08 22:44:41.976 - 01 04 07 DC 00 06 B0 86
2025-09-08 22:44:42.008 - 01 04 0C 50 01 42 02 00 DC 00 00 01 18 00 00 77 C3
2025-09-08 22:44:46.773 - 01 04 07 E2 00 06 D1 4A
2025-09-08 22:44:46.804 - 01 04 0C 00 00 00 00 00 00 00 00 00 00 00 00 95 B7
2025-09-08 22:44:50.123 - 01 04 07 E2 00 06 D1 4A
2025-09-08 22:44:50.157 - 01 04 0C 00 00 00 00 00 00 00 00 00 00 00 00 95 B7
2025-09-08 22:45:17.023 - 01 04 07 DC 00 06 B0 86
2025-09-08 22:45:17.060 - 01 04 0C 50 01 42 02 00 DC 00 00 01 18 00 00 77 C3
2025-09-08 22:45:20.786 - 01 04 07 E2 00 06 D1 4A
2025-09-08 22:45:20.817 - 01 04 0C 70 01 42 02 00 FA 00 00 01 04 00 00 70 78
2025-09-08 22:45:25.133 - 01 04 07 E2 00 06 D1 4A
2025-09-08 22:45:25.170 - 01 04 0C 70 01 42 02 00 FA 00 00 01 04 00 00 70 78
2025-09-08 22:45:27.786 - 01 04 07 E8 00 06 F1 48
2025-09-08 22:45:27.816 - 01 04 0C 70 00 42 02 00 DC 00 00 01 22 00 00 D2 8D
2025-09-08 22:45:30.753 - 01 04 07 D0 00 06 70 85
2025-09-08 22:45:30.785 - 01 04 0C 70 00 42 02 00 FA 00 00 01 0E 00 00 54 86
2025-09-08 22:45:32.718 - 01 04 07 D6 00 06 90 84
2025-09-08 22:45:32.755 - 01 04 0C 70 00 42 02 00 FA 00 00 01 22 00 00 95 4F
2025-09-08 22:45:40.269 - 01 06 07 D6 FF 61 E9 5E
2025-09-08 22:45:40.299 - 01 06 07 D6 FF 61 E9 5E
2025-09-08 22:45:41.476 - 01 04 07 DC 00 06 B0 86
2025-09-08 22:45:41.509 - 01 04 0C 50 01 42 02 00 DC 00 00 01 18 00 00 77 C3
2025-09-08 22:45:49.716 - 01 06 07 D6 50 FF 15 06
2025-09-08 22:45:49.753 - 01 06 07 D6 50 FF 15 06
2025-09-08 22:45:50.928 - 01 04 07 DC 00 06 B0 86
2025-09-08 22:45:50.963 - 01 04 0C 50 01 42 02 00 DC 00 00 01 18 00 00 77 C3
2025-09-08 22:45:55.548 - 01 06 07 D8 00 D2 88 D8
2025-09-08 22:45:55.578 - 01 06 07 D8 00 D2 88 D8
2025-09-08 22:45:56.752 - 01 04 07 DC 00 06 B0 86
2025-09-08 22:45:56.790 - 01 04 0C 50 01 42 02 00 D2 00 00 01 18 00 00 98 03
2025-09-08 22:46:02.283 - 01 06 07 D8 00 DC 09 1C
2025-09-08 22:46:02.314 - 01 06 07 D8 00 DC 09 1C
2025-09-08 22:46:03.490 - 01 04 07 DC 00 06 B0 86
2025-09-08 22:46:03.525 - 01 04 0C 50 01 42 02 00 DC 00 00 01 18 00 00 77 C3
2025-09-08 22:46:12.413 - 01 04 07 D0 00 06 70 85
2025-09-08 22:46:12.443 - 01 04 0C 70 00 42 02 00 FA 00 00 01 0E 00 00 54 86
2025-09-08 22:46:12.916 - 01 04 07 D6 00 06 90 84
2025-09-08 22:46:12.947 - 01 04 0C 70 00 42 02 00 FA 00 00 01 22 00 00 95 4F
2025-09-08 22:46:13.419 - 01 04 07 DC 00 06 B0 86
2025-09-08 22:46:13.453 - 01 04 0C 50 01 42 02 00 DC 00 00 01 18 00 00 77 C3
2025-09-08 22:46:13.936 - 01 04 07 E2 00 06 D1 4A
2025-09-08 22:46:13.968 - 01 04 0C 70 01 42 02 00 FA 00 00 01 04 00 00 70 78
2025-09-08 22:46:14.451 - 01 04 07 E8 00 06 F1 48
2025-09-08 22:46:14.484 - 01 04 0C 70 00 42 02 00 DC 00 00 01 22 00 00 D2 8D
2025-09-08 22:46:20.531 - 01 04 07 D0 00 06 70 85
2025-09-08 22:46:20.563 - 01 04 0C 70 00 42 02 00 FA 00 00 01 0E 00 00 54 86
2025-09-08 22:46:21.045 - 01 04 07 D6 00 06 90 84
2025-09-08 22:46:21.077 - 01 04 0C 70 00 42 02 00 FA 00 00 01 22 00 00 95 4F
2025-09-08 22:46:21.547 - 01 04 07 DC 00 06 B0 86
2025-09-08 22:46:21.584 - 01 04 0C 50 01 42 02 00 DC 00 00 01 18 00 00 77 C3
2025-09-08 22:46:22.063 - 01 04 07 E2 00 06 D1 4A
2025-09-08 22:46:22.098 - 01 04 0C 70 01 42 02 00 FA 00 00 01 04 00 00 70 78
2025-09-08 22:46:22.577 - 01 04 07 E8 00 06 F1 48
2025-09-08 22:46:22.613 - 01 04 0C 70 00 42 02 00 DC 00 00 01 22 00 00 D2 8D
2025-09-08 22:47:00.948 - 01 06 07 D5 00 D2 19 1B
2025-09-08 22:47:00.979 - 01 06 07 D5 00 D2 19 1B
2025-09-08 22:47:02.161 - 01 04 07 D6 00 06 90 84
2025-09-08 22:47:02.191 - 01 04 0C 70 00 42 02 00 D2 00 00 01 22 00 00 3D 4D
2025-09-08 22:47:06.495 - 01 06 07 D5 00 DC 98 DF
2025-09-08 22:47:06.524 - 01 06 07 D5 00 DC 98 DF
2025-09-08 22:47:07.707 - 01 04 07 D6 00 06 90 84
2025-09-08 22:47:07.746 - 01 04 0C 70 00 42 02 00 DC 00 00 01 22 00 00 D2 8D
2025-09-08 22:47:55.040 - 01 04 07 D0 00 06 70 85
2025-09-08 22:47:55.080 - 01 04 0C 70 00 42 02 00 FA 00 00 01 0E 00 00 54 86
2025-09-08 22:47:55.545 - 01 04 07 D6 00 06 90 84
2025-09-08 22:47:55.583 - 01 04 0C 70 00 42 02 00 DC 00 00 01 22 00 00 D2 8D
2025-09-08 22:47:56.061 - 01 04 07 DC 00 06 B0 86
2025-09-08 22:47:56.099 - 01 04 0C 50 01 42 02 00 DC 00 00 01 18 00 00 77 C3
2025-09-08 22:47:56.577 - 01 04 07 E2 00 06 D1 4A
2025-09-08 22:47:56.614 - 01 04 0C 70 01 42 02 00 FA 00 00 01 04 00 00 70 78
2025-09-08 22:47:57.091 - 01 04 07 E8 00 06 F1 48
2025-09-08 22:47:57.130 - 01 04 0C 70 00 42 02 00 DC 00 00 01 22 00 00 D2 8D
2025-09-08 22:48:08.111 - 01 04 07 D6 00 06 90 84
2025-09-08 22:48:08.150 - 01 04 0C 70 00 42 02 00 DC 00 00 01 22 00 00 D2 8D
2025-09-08 22:56:59.301 - 01 04 07 D0 00 06 70 85
2025-09-08 22:56:59.331 - 01 04 0C 70 00 42 02 00 FA 00 00 01 0E 00 00 54 86
2025-09-08 22:56:59.818 - 01 04 07 D6 00 06 90 84
2025-09-08 22:56:59.848 - 01 04 0C 70 00 42 02 00 DC 00 00 01 22 00 00 D2 8D
2025-09-08 22:57:00.317 - 01 04 07 DC 00 06 B0 86
2025-09-08 22:57:00.351 - 01 04 0C 50 01 42 02 00 DC 00 00 01 18 00 00 77 C3
2025-09-08 22:57:00.822 - 01 04 07 E2 00 06 D1 4A
2025-09-08 22:57:00.857 - 01 04 0C 70 01 42 02 00 FA 00 00 00 FA 00 00 10 74
2025-09-08 22:57:01.332 - 01 04 07 E8 00 06 F1 48
2025-09-08 22:57:01.363 - 01 04 0C 70 00 42 02 00 DC 00 00 01 22 00 00 D2 8D
2025-09-08 22:59:30.564 - 01 04 07 D0 00 06 70 85
2025-09-08 22:59:30.595 - 01 04 0C 70 00 42 02 00 FA 00 00 01 0E 00 00 54 86
2025-09-08 22:59:31.067 - 01 04 07 D6 00 06 90 84
2025-09-08 22:59:31.100 - 01 04 0C 70 00 42 02 00 DC 00 00 01 22 00 00 D2 8D
2025-09-08 22:59:31.581 - 01 04 07 DC 00 06 B0 86
2025-09-08 22:59:31.614 - 01 04 0C 50 01 42 02 00 DC 00 00 01 18 00 00 77 C3
2025-09-08 22:59:32.082 - 01 04 07 E2 00 06 D1 4A
2025-09-08 22:59:32.119 - 01 04 0C 70 01 42 02 00 FA 00 00 00 FA 00 00 10 74
2025-09-08 22:59:32.599 - 01 04 07 E8 00 06 F1 48
2025-09-08 22:59:32.633 - 01 04 0C 70 00 42 02 00 DC 00 00 01 22 00 00 D2 8D
2025-09-08 23:00:04.763 - 01 04 07 D0 00 06 70 85
2025-09-08 23:00:04.798 - 01 04 0C 70 00 42 02 00 FA 00 00 01 0E 00 00 54 86
2025-09-08 23:00:05.269 - 01 04 07 D6 00 06 90 84
2025-09-08 23:00:05.304 - 01 04 0C 70 00 42 02 00 DC 00 00 01 22 00 00 D2 8D
2025-09-08 23:00:05.786 - 01 04 07 DC 00 06 B0 86
2025-09-08 23:00:05.820 - 01 04 0C 50 01 42 02 00 DC 00 00 01 18 00 00 77 C3
2025-09-08 23:00:06.287 - 01 04 07 E2 00 06 D1 4A
2025-09-08 23:00:06.325 - 01 04 0C 70 01 42 02 00 FA 00 00 00 FA 00 00 10 74
2025-09-08 23:00:06.804 - 01 04 07 E8 00 06 F1 48
2025-09-08 23:00:06.839 - 01 04 0C 70 00 42 02 00 DC 00 00 01 22 00 00 D2 8D
2025-09-08 23:01:17.207 - 1A BE B0 DC 0A (继电器地址-客厅纱帘)
2025-09-08 23:01:17.343 - FF
2025-09-08 23:04:34.668 - 01 04 07 D0 00 06 70 85
2025-09-08 23:04:34.703 - 01 04 0C 70 00 42 02 00 FA 00 00 01 0E 00 00 54 86
2025-09-08 23:04:35.175 - 01 04 07 D6 00 06 90 84
2025-09-08 23:04:35.208 - 01 04 0C 70 00 42 02 00 DC 00 00 01 22 00 00 D2 8D
2025-09-08 23:04:35.676 - 01 04 07 DC 00 06 B0 86
2025-09-08 23:04:35.715 - 01 04 0C 50 01 42 02 00 DC 00 00 01 18 00 00 77 C3
2025-09-08 23:04:36.192 - 01 04 07 E2 00 06 D1 4A
2025-09-08 23:04:36.229 - 01 04 0C 70 01 42 02 00 FA 00 00 00 FA 00 00 10 74
2025-09-08 23:04:36.706 - 01 04 07 E8 00 06 F1 48
2025-09-08 23:04:36.744 - 01 04 0C 70 00 42 02 00 DC 00 00 01 22 00 00 D2 8D
2025-09-08 23:04:50.127 - 01 04 07 D0 00 06 70 85
2025-09-08 23:04:50.155 - 01 04 0C 70 00 42 02 00 FA 00 00 01 0E 00 00 54 86
2025-09-08 23:04:50.630 - 01 04 07 D6 00 06 90 84
2025-09-08 23:04:50.660 - 01 04 0C 70 00 42 02 00 DC 00 00 01 22 00 00 D2 8D
2025-09-08 23:04:51.146 - 01 04 07 DC 00 06 B0 86
2025-09-08 23:04:51.176 - 01 04 0C 50 01 42 02 00 DC 00 00 01 18 00 00 77 C3
2025-09-08 23:04:51.648 - 01 04 07 E2 00 06 D1 4A
2025-09-08 23:04:51.679 - 01 04 0C 70 01 42 02 00 FA 00 00 00 FA 00 00 10 74
2025-09-08 23:04:52.161 - 01 04 07 E8 00 06 F1 48
2025-09-08 23:04:52.196 - 01 04 0C 70 00 42 02 00 DC 00 00 01 22 00 00 D2 8D
2025-09-08 23:18:07.079 - FF FF FF FF 0E FE (继电器地址-西阳小窗帘)
2025-09-08 23:25:43.620 - 01 04 07 D0 00 06 70 85
2025-09-08 23:25:43.657 - 01 04 0C 70 00 42 02 00 FA 00 00 01 0E 00 00 54 86
2025-09-08 23:25:44.129 - 01 04 07 D6 00 06 90 84
2025-09-08 23:25:44.164 - 01 04 0C 70 00 42 02 00 DC 00 00 01 22 00 00 D2 8D
2025-09-08 23:25:44.645 - 01 04 07 DC 00 06 B0 86
2025-09-08 23:25:44.679 - 01 04 0C 50 01 42 02 00 DC 00 00 01 18 00 00 77 C3
2025-09-08 23:25:45.162 - 01 04 07 E2 00 06 D1 4A
2025-09-08 23:25:45.194 - 01 04 0C 70 01 42 02 00 FA 00 00 00 FA 00 00 10 74
2025-09-08 23:25:45.662 - 01 04 07 E8 00 06 F1 48
2025-09-08 23:25:45.697 - 01 04 0C 70 00 42 02 00 DC 00 00 01 22 00 00 D2 8D
2025-09-08 23:25:57.289 - 19 08 24 03 CC 01 52 00 01 (调用外卫感应灯开的按键)
2025-09-08 23:25:57.345 - 1A 0D 01 07 01 FF 45 01 FF 45 01 FF 00 00 0F (调光器地址-外卫射灯, 外卫感应灯开)
2025-09-08 23:27:41.998 - 19 08 24 03 CC 01 53 00 01 (调用外卫感应灯关的按键)
2025-09-08 23:27:42.030 - 1A 0D 01 07 01 FF 00 01 FF 00 01 FF 00 00 0F (调光器地址-外卫射灯, 外卫感应灯关)
2025-09-08 23:29:45.477 - 01 04 07 D0 00 06 70 85
2025-09-08 23:29:45.509 - 01 04 0C 70 00 42 02 00 FA 00 00 01 0E 00 00 54 86
2025-09-08 23:29:45.989 - 01 04 07 D6 00 06 90 84
2025-09-08 23:29:46.024 - 01 04 0C 70 00 42 02 00 DC 00 00 01 22 00 00 D2 8D
2025-09-08 23:29:46.492 - 01 04 07 DC 00 06 B0 86
2025-09-08 23:29:46.527 - 01 04 0C 50 01 42 02 00 DC 00 00 01 18 00 00 77 C3
2025-09-08 23:29:47.002 - 01 04 07 E2 00 06 D1 4A
2025-09-08 23:29:47.034 - 01 04 0C 70 01 42 02 00 FA 00 00 00 FA 00 00 10 74
2025-09-08 23:29:47.505 - 01 04 07 E8 00 06 F1 48
2025-09-08 23:29:47.539 - 01 04 0C 70 00 42 02 00 DC 00 00 01 22 00 00 D2 8D
2025-09-08 23:30:41.855 - 19 08 24 03 CC 01 52 00 01 (调用外卫感应灯开的按键)
2025-09-08 23:30:41.906 - 1A 0D 01 07 01 FF 45 01 FF 45 01 FF 00 00 0F (调光器地址-外卫射灯, 外卫感应灯开)
2025-09-08 23:34:07.232 - 01 04 07 D0 00 06 70 85
2025-09-08 23:34:07.263 - 01 04 0C 70 00 42 02 00 FA 00 00 01 18 00 00 B5 42
2025-09-08 23:34:07.739 - 01 04 07 D6 00 06 90 84
2025-09-08 23:34:07.769 - 01 04 0C 70 00 42 02 00 DC 00 00 01 22 00 00 D2 8D
2025-09-08 23:34:08.254 - 01 04 07 DC 00 06 B0 86
2025-09-08 23:34:08.285 - 01 04 0C 50 01 42 02 00 DC 00 00 01 18 00 00 77 C3
2025-09-08 23:34:08.755 - 01 04 07 E2 00 06 D1 4A
2025-09-08 23:34:08.789 - 01 04 0C 70 01 42 02 00 FA 00 00 00 F0 00 00 30 76
2025-09-08 23:34:09.271 - 01 04 07 E8 00 06 F1 48
2025-09-08 23:34:09.303 - 01 04 0C 70 00 42 02 00 DC 00 00 01 22 00 00 D2 8D
2025-09-08 23:34:18.809 - 19 08 24 03 CC 01 53 00 01 (调用外卫感应灯关的按键)
2025-09-08 23:34:18.861 - 1A 0D 01 07 01 FF 00 01 FF 00 01 FF 00 00 0F (调光器地址-外卫射灯, 外卫感应灯关)
2025-09-08 23:43:04.675 - FF FF FF FF 0A (继电器地址-东阳窗帘)
2025-09-08 23:43:04.812 - FF
2025-09-09 00:01:49.856 - 19 08 24 03 CC 01 54 00 01 (调用内卫感应灯开的按键)
2025-09-09 00:01:49.905 - 1A 0C 02 08 01 FF 45 01 FF 45 01 FF 00 00 0F (调光器地址-内卫射灯, 内卫射灯微光)
2025-09-09 00:02:30.433 - 19 08 24 03 CC 01 55 00 01 (调用内卫感应灯关的按键)
2025-09-09 00:02:30.505 - 1A 0C 02 08 01 FF 00 01 FF 00 01 FF 00 00 0F (调光器地址-内卫射灯, 内卫感应灯关)
2025-09-09 00:19:44.674 - 19 08 24 03 CC 00 D3 00 01 (调用厨房感应灯开的按键)
2025-09-09 00:19:44.706 - 55 0A 32 00 00 00 01 92 55 0A 32 00 00 00 02 93 (厨房顶灯一开, 厨房顶灯二开)
2025-09-09 00:20:19.739 - 19 08 24 03 CC 00 D4 00 01 (调用厨房感应灯关的按键)
2025-09-09 00:20:19.777 - 55 0A 31 00 00 00 01 91 55 0A 31 00 00 00 02 92 (厨房顶灯一关, 厨房顶灯二关)
2025-09-09 00:31:55.914 - 19 08 24 03 CC 01 54 00 01 (调用内卫感应灯开的按键)
2025-09-09 00:31:55.947 - 1A 0C 02 08 01 FF 45 01 FF 45 01 FF 00 00 0F (调光器地址-内卫射灯, 内卫射灯微光)
2025-09-09 00:33:21.582 - 19 08 24 03 CC 01 55 00 01 (调用内卫感应灯关的按键)
2025-09-09 00:33:21.618 - 1A 0C 02 08 01 FF 00 01 FF 00 01 FF 00 00 0F (调光器地址-内卫射灯, 内卫感应灯关)
2025-09-09 00:33:29.096 - 19 08 24 03 CC 01 54 00 01 (调用内卫感应灯开的按键)
2025-09-09 00:33:29.131 - 1A 0C 02 08 01 FF 45 01 FF 45 01 FF 00 00 0F (调光器地址-内卫射灯, 内卫射灯微光)
2025-09-09 00:34:05.668 - 19 08 24 03 CC 01 55 00 01 (调用内卫感应灯关的按键)
2025-09-09 00:34:05.702 - 1A 0C 02 08 01 FF 00 01 FF 00 01 FF 00 00 0F (调光器地址-内卫射灯, 内卫感应灯关)
2025-09-09 00:46:05.316 - 19 08 24 03 CC 01 52 00 01 (调用外卫感应灯开的按键)
2025-09-09 00:46:05.348 - 1A 0D 01 07 01 FF 45 01 FF 45 01 FF 00 00 0F (调光器地址-外卫射灯, 外卫感应灯开)
2025-09-09 00:51:17.831 - 1A BE B0 DC 03 (继电器地址-西阳天幕)
2025-09-09 00:51:17.968 - FF
2025-09-09 00:51:56.778 - 19 08 24 03 CC 01 54 00 01 (调用内卫感应灯开的按键)
2025-09-09 00:51:56.832 - 1A 0C 02 08 01 FF 45 01 FF 45 01 FF 00 00 0F (调光器地址-内卫射灯, 内卫射灯微光)
2025-09-09 00:52:19.322 - 19 08 24 03 CC 01 55 00 01 (调用内卫感应灯关的按键)
2025-09-09 00:52:19.373 - 1A 0C 02 08 01 FF 00 01 FF 00 01 FF 00 00 0F (调光器地址-内卫射灯, 内卫感应灯关)
2025-09-09 00:52:41.095 - 19 08 24 03 CC 01 53 00 01 (调用外卫感应灯关的按键)
2025-09-09 00:52:41.128 - 1A 0D 01 07 01 FF 00 01 FF 00 01 FF 00 00 0F (调光器地址-外卫射灯, 外卫感应灯关)
2025-09-09 00:54:00.019 - 19 08 24 03 CC 01 54 00 01 (调用内卫感应灯开的按键)
2025-09-09 00:54:00.054 - 1A 0C 02 08 01 FF 45 01 FF 45 01 FF 00 00 0F (调光器地址-内卫射灯, 内卫射灯微光)
2025-09-09 00:57:34.391 - 19 08 24 03 DD 00 4B 00 01 (调用情景-主卧睡觉)
2025-09-09 00:57:34.926 - EE 00 00 B1 00 00 00 FF FC FF FF (情景执行提示)
2025-09-09 00:57:35.523 - 09 06 00 0F 02 01 78 21 (提示音叮)
2025-09-09 00:57:36.065 - 50 F5 04 (关内卫影视)
2025-09-09 00:57:36.665 - 55 11 1D 03 01 7C 06 (主卧纱帘关)
2025-09-09 00:57:36.711 - 55 11 1D 03 01 7C 06 (主卧纱帘关)
2025-09-09 00:57:37.761 - 55 12 12 03 02 0C 40 (主卧窗帘关)
2025-09-09 00:57:37.802 - 55 12 12 03 02 0C 40 (主卧窗帘关)
2025-09-09 00:57:38.859 - 1A 22 33 62 0F 00 02 01 0F (正反转地址-内卫卷帘, 内卫卷帘降)
2025-09-09 00:57:39.906 - 1A 20 07 01 40 00 01 00 0F (自保持开关地址-内卫顶灯, 内卫顶灯关)
2025-09-09 00:57:40.952 - 1A 20 07 01 55 00 01 00 0F (自保持开关地址-主卧顶灯, 主卧顶灯只关)
2025-09-09 00:57:41.503 - 1A FF FF FF 56 00 00 01 0F (人体感应地址-内卫, 打开内卫感应)
2025-09-09 00:57:41.514 - BC BC
2025-09-09 00:57:45.099 - 1A 0C 02 08 01 FF 00 01 FF 00 01 FF 00 00 0F (调光器地址-内卫射灯, 内卫感应灯关)
2025-09-09 00:57:45.699 - 1A 0C 02 04 01 FF 00 01 FF 00 01 FF 00 00 0F (调光器地址-主卧筒灯, 主卧筒灯关闭)
2025-09-09 00:57:46.296 - 1A 0C 02 04 03 FF 00 01 FF 00 01 FF 00 00 0F (调光器地址-主卧灯带, 主卧灯带关闭)
2025-09-09 00:57:46.892 - 1A 0C 02 04 04 FF 00 01 FF 00 01 FF 00 00 0F (调光器地址-主卧南阅, 主卧南阅关闭)
2025-09-09 00:57:47.490 - 1A 0C 02 04 05 FF 00 01 FF 00 01 FF 00 00 0F (调光器地址-主卧北阅, 主卧北阅关闭)
2025-09-09 00:57:48.089 - 1A 0C 02 04 02 FF 00 01 FF 00 01 FF 00 00 0F (调光器地址-主卧过道, 主卧过道关闭)
2025-09-09 00:57:48.680 - 09 06 00 0F 02 02 38 20 (提示音咚)
2025-09-09 00:57:49.230 - EE 00 00 B1 00 00 02 FF FC FF FF (情景完成返回主页)
2025-09-09 00:57:54.999 - 19 08 24 03 CC 01 55 00 01 (调用内卫感应灯关的按键)
2025-09-09 00:57:55.053 - 1A 0C 02 08 01 FF 00 01 FF 00 01 FF 00 00 0F (调光器地址-内卫射灯, 内卫感应灯关)
2025-09-09 01:04:43.034 - 1A BE B0 DC 01 FD (继电器地址-回水泵点动)
2025-09-09 01:04:43.166 - FF
2025-09-09 01:14:37.363 - 1A BE B0 DC 04 (继电器地址-西阳窗帘)
2025-09-09 01:14:37.494 - FF
2025-09-09 01:34:43.169 - 1A FF FF FF 04 FE (继电器地址-东阳衣架)
2025-09-09 01:45:35.681 - 1A BE B0 DC 02 (正反转地址-外卫卷帘)
2025-09-09 01:45:35.815 - FF
2025-09-09 01:49:33.472 - 1A BE B0 DC 09 FC (继电器地址-客厅窗帘)
2025-09-09 01:49:33.605 - FF
2025-09-09 02:22:32.325 - 1A BE B0 DC 0A FC (继电器地址-客厅纱帘)
2025-09-09 02:22:32.459 - FF
2025-09-09 02:38:14.723 - FF FF FF FF 0E FC (继电器地址-西阳小窗帘)
2025-09-09 02:38:14.859 - FE
2025-09-09 02:54:00.727 - 19 08 24 03 CC 01 54 00 01 (调用内卫感应灯开的按键)
2025-09-09 02:54:00.776 - 1A 0C 02 08 01 FF 45 01 FF 45 01 FF 00 00 0F (调光器地址-内卫射灯, 内卫射灯微光)
2025-09-09 02:56:46.555 - 19 08 24 03 CC 01 55 00 01 (调用内卫感应灯关的按键)
2025-09-09 02:56:46.606 - 1A 0C 02 08 01 FF 00 01 FF 00 01 FF 00 00 0F (调光器地址-内卫射灯, 内卫感应灯关)
2025-09-09 02:59:39.066 - 50 F7 01 (全屋影音全关)
2025-09-09 03:04:15.202 - FF FF FF FF 0A (继电器地址-东阳窗帘)
2025-09-09 04:12:38.448 - 1A BE B0 DC 03 (继电器地址-西阳天幕)
2025-09-09 04:25:40.218 - 1A BE B0 DC 01 FD (继电器地址-回水泵点动)
2025-09-09 04:25:40.354 - FF
2025-09-09 04:29:38.118 - EE 00 00 B1 00 00 00 FF FC FF FF (情景执行提示)
2025-09-09 04:29:38.710 - A5 00 A2 FF 00 AA (餐厅纱帘关)
2025-09-09 04:29:39.806 - A5 00 A6 FF 00 AA (餐厅窗帘关)
2025-09-09 04:29:39.855 - 55 00 A6 01 00 0F 01 74 AA 55 00 A6 01 00 0F 01 74 AA (餐厅窗帘电机状态返回)
2025-09-09 04:29:40.905 - A5 00 B7 FF 00 AA 22 0D (书房纱帘关)
2025-09-09 04:29:42.031 - A5 00 D2 FF 00 AA 22 0C (书房窗帘关)
2025-09-09 04:29:42.078 - 55 00 D2 01 00 0E 01 0B AA 55 00 D2 01 00 0E 01 0B AA (书房窗帘电机状态返回)
2025-09-09 04:29:43.103 - EE 00 00 B1 00 00 02 FF FC FF FF (情景完成返回主页)
2025-09-09 04:29:48.488 - 55 00 A6 00 01 66 01 74 AA 55 00 A6 00 01 66 01 74 AA (餐厅窗帘电机状态返回)
2025-09-09 04:29:51.249 - 55 00 D2 00 00 FE 01 0B AA 55 00 D2 00 00 FE 01 0B AA (书房窗帘电机状态返回)
2025-09-09 04:34:29.636 - 1A BE B0 DC 04 FC (继电器地址-西阳窗帘)
2025-09-09 04:34:29.770 - FF
2025-09-09 04:55:43.365 - 1A FF FF FF 04 FC (继电器地址-东阳衣架)
2025-09-09 04:55:43.502 - FE
2025-09-09 05:06:04.388 - 1A BE B0 DC 02 (正反转地址-外卫卷帘)
2025-09-09 05:09:56.681 - 1A BE B0 DC 09 FC (继电器地址-客厅窗帘)
2025-09-09 05:09:56.818 - FE
2025-09-09 05:43:06.264 - 1A BE B0 DC 0A FC (继电器地址-客厅纱帘)
2025-09-09 05:58:17.706 - FF FF FF FF 0E (继电器地址-西阳小窗帘)
2025-09-09 05:58:17.840 - FF
2025-09-09 06:24:38.349 - FF FF FF FF 0A FD (继电器地址-东阳窗帘)
2025-09-09 06:44:38.342 - EE 00 00 B1 00 00 00 FF FC FF FF (情景执行提示)
2025-09-09 06:44:38.938 - 09 06 00 0F 02 01 78 21 (提示音叮)
2025-09-09 06:44:39.529 - 50 F0 04 (开内卫影视)
2025-09-09 06:44:40.079 - 50 F0 05 (开主卧影视)
2025-09-09 06:44:40.630 - 55 11 1D 03 01 7C 06 (主卧纱帘关)
2025-09-09 06:44:40.680 - 55 11 1D 03 01 7C 06 (主卧纱帘关)
2025-09-09 06:44:41.232 - 55 11 1D 03 01 7C 06 (主卧纱帘关)
2025-09-09 06:44:41.271 - 55 11 1D 03 01 7C 06 (主卧纱帘关)
2025-09-09 06:44:41.826 - 55 12 12 03 01 4C 41 (主卧窗帘开)
2025-09-09 06:44:41.864 - 55 12 12 03 01 4C 41 (主卧窗帘开)
2025-09-09 06:44:42.923 - 55 12 12 03 01 4C 41 (主卧窗帘开)
2025-09-09 06:44:42.972 - 55 12 12 03 01 4C 41 (主卧窗帘开)
2025-09-09 06:44:44.023 - 1A 22 33 62 0F 00 02 01 0F (正反转地址-内卫卷帘, 内卫卷帘降)
2025-09-09 06:44:44.570 - 1A FF FF FF 56 00 00 00 0F (人体感应地址-内卫, 关闭内卫感应)
2025-09-09 06:44:44.684 - BC BC
2025-09-09 06:44:45.117 - 1A 20 07 01 55 00 01 00 0F (自保持开关地址-主卧顶灯, 主卧顶灯只关)
2025-09-09 06:44:46.170 - 1A 0C 02 08 01 FF F0 01 FF F0 01 FF 00 00 0F (调光器地址-内卫射灯, 内卫射灯明亮)
2025-09-09 06:44:46.769 - 1A 0C 02 04 01 FF 00 01 FF 00 01 FF 00 00 0F (调光器地址-主卧筒灯, 主卧筒灯关闭)
2025-09-09 06:44:47.399 - 1A 0C 02 04 03 FF 45 01 FF 45 01 FF 00 00 0F (调光器地址-主卧灯带, 主卧灯带微光)
2025-09-09 06:44:47.967 - 1A 0C 02 04 02 FF F0 01 FF 00 01 FF 00 00 0F (调光器地址-主卧过道, 主卧过道暖光)
2025-09-09 06:44:48.566 - 1A 0C 02 04 05 FF 00 01 FF 00 01 FF 00 00 0F (调光器地址-主卧北阅, 主卧北阅关闭)
2025-09-09 06:44:49.161 - 1A 0C 02 04 04 FF 00 01 FF 00 01 FF 00 00 0F (调光器地址-主卧南阅, 主卧南阅关闭)
2025-09-09 06:44:50.247 - 50 F1 24 (内卫—有线2)
2025-09-09 06:44:51.292 - 50 F1 25 (主卧—有线2)
2025-09-09 06:44:52.343 - AF BF CF DF C2 21 (有线2/快捷-凤凰卫视)
2025-09-09 06:44:52.892 - 1A FF FF FF 60 0B 01 01 0F (红外总线地址-主卧发射设备, 主卧电视电源)
2025-09-09 06:44:53.411 - F0 0B 01 08
2025-09-09 06:44:53.940 - 1A BE B0 DC 01 00 01 00 (继电器地址-回水泵点动, 回水泵点动)
2025-09-09 06:44:57.980 - 09 06 00 0F 02 02 38 20 (提示音咚)
2025-09-09 06:44:58.533 - EE 00 00 B1 00 00 02 FF FC FF FF (情景完成返回主页)
2025-09-09 06:44:59.623 - A1 11 11 11 11 01 (内卫浴霸取暖判断)
2025-09-09 06:44:59.849 - 14 03 00 00 00 02 C6 CE (查询内卫温湿度)
2025-09-09 06:44:59.869 - 14 03 04 01 E5 01 0E 2E AD (区域高光指令（AD+区域+暖光+冷光+AE）, 内卫温湿度返回)
2025-09-09 07:12:48.345 - 19 08 24 03 DD 00 40 00 01 (调用情景-离开主卧)
2025-09-09 07:12:48.868 - EE 00 00 B1 00 00 00 FF FC FF FF (情景执行提示)
2025-09-09 07:12:49.467 - 09 06 00 0F 02 01 78 21 (提示音叮)
2025-09-09 07:12:50.007 - 50 F5 05 (关主卧影视)
2025-09-09 07:12:50.556 - 50 F5 04 (关内卫影视)
2025-09-09 07:12:51.111 - 01 06 07 D6 FF 60 28 9E (主卧空调关)
2025-09-09 07:12:51.141 - 01 06 07 D6 FF 60 28 9E (主卧空调关)
2025-09-09 07:12:51.707 - 55 12 12 03 01 4C 41 (主卧窗帘开)
2025-09-09 07:12:51.751 - 55 12 12 03 01 4C 41 (主卧窗帘开)
2025-09-09 07:12:52.805 - 55 12 12 03 01 4C 41 (主卧窗帘开)
2025-09-09 07:12:53.023 - 55 12 12 03 01 4C 41 (主卧窗帘开)
2025-09-09 07:12:53.850 - 55 11 1D 03 02 3C 07 (主卧纱帘开)
2025-09-09 07:12:53.893 - 55 11 1D 03 02 3C 07 (主卧纱帘开)
2025-09-09 07:12:54.449 - 55 11 1D 03 02 3C 07 (主卧纱帘开)
2025-09-09 07:12:54.489 - 55 11 1D 03 02 3C 07 (主卧纱帘开)
2025-09-09 07:12:55.048 - 1A 22 33 62 0F 00 00 01 0F (正反转地址-内卫卷帘, 内卫卷帘升)
2025-09-09 07:12:56.095 - 1A 20 07 01 40 00 01 00 0F (自保持开关地址-内卫顶灯, 内卫顶灯关)
2025-09-09 07:12:57.141 - 1A 20 07 01 55 00 01 00 0F (自保持开关地址-主卧顶灯, 主卧顶灯只关)
2025-09-09 07:12:57.697 - 1A 0C 02 08 01 FF 00 01 FF 00 01 FF 00 00 0F (调光器地址-内卫射灯, 内卫感应灯关)
2025-09-09 07:12:58.288 - 1A FF FF FF 56 00 00 01 0F (人体感应地址-内卫, 打开内卫感应)
2025-09-09 07:12:58.399 - BF BF
2025-09-09 07:12:58.709 - 19 08 24 03 CC 01 54 00 01 (调用内卫感应灯开的按键)
2025-09-09 07:12:58.760 - 1A 0C 02 08 01 FF 45 01 FF 45 01 FF 00 00 0F (调光器地址-内卫射灯, 内卫射灯微光)
2025-09-09 07:13:02.135 - 1A 0C 02 04 FF FF 00 01 FF 00 01 FF 00 00 0F (主卧调光全关)
2025-09-09 07:13:03.222 - 09 06 00 0F 02 02 38 20 (提示音咚)
2025-09-09 07:13:03.777 - EE 00 00 B1 00 00 02 FF FC FF FF (情景完成返回主页)
2025-09-09 07:13:35.765 - 19 08 24 03 CC 01 CC 00 01 (调用茶吧感应灯开的按键)
2025-09-09 07:13:35.797 - 1A AA AA AA 88 FF B0 01 FF B0 01 0F (调光器地址-茶吧灯带, 茶吧灯带明亮)
2025-09-09 07:13:36.483 - 19 08 24 03 CC 01 55 00 01 (调用内卫感应灯关的按键)
2025-09-09 07:13:36.517 - 1A 0C 02 08 01 FF 00 01 FF 00 01 FF 00 00 0F (调光器地址-内卫射灯, 内卫感应灯关)
2025-09-09 07:14:25.362 - 19 08 24 03 CC 01 CD 00 01 (调用茶吧感应灯关的按键)
2025-09-09 07:14:25.408 - 1A AA AA AA 88 FF 00 01 FF 00 01 0F (调光器地址-茶吧灯带, 茶吧灯带关闭)
2025-09-09 07:33:59.525 - 1A BE B0 DC 03 (继电器地址-西阳天幕)
2025-09-09 07:33:59.658 - FF
2025-09-09 07:46:59.501 - 1A BE B0 DC 01 (继电器地址-回水泵点动)
2025-09-09 07:46:59.636 - FF
2025-09-09 07:54:45.660 - 1A BE B0 DC 04 (继电器地址-西阳窗帘)
2025-09-09 07:54:45.796 - FF
2025-09-09 08:17:00.383 - 1A FF FF FF 04 (继电器地址-东阳衣架)
2025-09-09 08:17:00.519 - FF
2025-09-09 08:19:17.113 - 01 04 07 D0 00 06 70 85
2025-09-09 08:19:17.141 - 01 04 0C 70 00 42 02 00 FA 00 00 01 22 00 00 95 4F
2025-09-09 08:19:17.263 - 01 04 07 D6 00 06 90 84
2025-09-09 08:19:17.293 - 01 04 0C 70 00 42 02 00 DC 00 00 01 2C 00 00 B3 4E
2025-09-09 08:19:17.420 - 01 04 07 DC 00 06 B0 86
2025-09-09 08:19:17.454 - 01 04 0C 50 00 42 02 01 04 00 00 01 22 00 00 CA F3
2025-09-09 08:19:17.577 - 01 04 07 E2 00 06 D1 4A
2025-09-09 08:19:17.607 - 01 04 0C 70 01 42 02 00 FA 00 00 00 F0 00 00 30 76
2025-09-09 08:19:17.734 - 01 04 07 E8 00 06 F1 48
2025-09-09 08:19:17.769 - 01 04 0C 70 00 42 02 00 DC 00 00 01 36 00 00 92 89
2025-09-09 08:19:36.712 - 01 04 07 D0 00 06 70 85
2025-09-09 08:19:36.744 - 01 04 0C 70 00 42 02 00 FA 00 00 01 22 00 00 95 4F
2025-09-09 08:19:36.862 - 01 04 07 D6 00 06 90 84
2025-09-09 08:19:36.895 - 01 04 0C 70 00 42 02 00 DC 00 00 01 2C 00 00 B3 4E
2025-09-09 08:19:37.015 - 01 04 07 DC 00 06 B0 86
2025-09-09 08:19:37.048 - 01 04 0C 50 00 42 02 01 04 00 00 01 22 00 00 CA F3
2025-09-09 08:19:37.171 - 01 04 07 E2 00 06 D1 4A
2025-09-09 08:19:37.208 - 01 04 0C 70 01 42 02 00 FA 00 00 00 F0 00 00 30 76
2025-09-09 08:19:37.330 - 01 04 07 E8 00 06 F1 48
2025-09-09 08:19:37.360 - 01 04 0C 70 00 42 02 00 DC 00 00 01 36 00 00 92 89
2025-09-09 08:19:37.803 - 01 04 07 D0 00 06 70 85
2025-09-09 08:19:37.833 - 01 04 0C 70 00 42 02 00 FA 00 00 01 22 00 00 95 4F
2025-09-09 08:19:37.951 - 01 04 07 D6 00 06 90 84
2025-09-09 08:19:37.985 - 01 04 0C 70 00 42 02 00 DC 00 00 01 2C 00 00 B3 4E
2025-09-09 08:19:38.110 - 01 04 07 DC 00 06 B0 86
2025-09-09 08:19:38.137 - 01 04 0C 50 00 42 02 01 04 00 00 01 22 00 00 CA F3
2025-09-09 08:19:38.266 - 01 04 07 E2 00 06 D1 4A
2025-09-09 08:19:38.301 - 01 04 0C 70 01 42 02 00 FA 00 00 00 F0 00 00 30 76
2025-09-09 08:19:38.425 - 01 04 07 E8 00 06 F1 48
2025-09-09 08:19:38.461 - 01 04 0C 70 00 42 02 00 DC 00 00 01 36 00 00 92 89
2025-09-09 08:20:12.219 - 01 10 07 D0 00 03 06 70 61 00 02 00 FA 6F 26 (客厅空调冷25度)
2025-09-09 08:20:12.264 - 01 10 07 D0 00 03 06 70 61 00 02 00 FA 6F 26 (客厅空调冷25度)
2025-09-09 08:20:13.370 - 01 04 07 D0 00 06 70 85
2025-09-09 08:20:13.402 - 01 04 0C 70 01 42 02 00 FA 00 00 01 22 00 00 91 B3
2025-09-09 08:20:16.907 - 01 04 07 D0 00 06 70 85
2025-09-09 08:20:16.937 - 01 04 0C 70 01 42 02 00 FA 00 00 01 22 00 00 91 B3
2025-09-09 08:20:17.065 - 01 04 07 D6 00 06 90 84
2025-09-09 08:20:17.099 - 01 04 0C 70 00 42 02 00 DC 00 00 01 2C 00 00 B3 4E
2025-09-09 08:20:17.220 - 01 04 07 DC 00 06 B0 86
2025-09-09 08:20:17.251 - 01 04 0C 50 00 42 02 01 04 00 00 01 22 00 00 CA F3
2025-09-09 08:20:17.374 - 01 04 07 E2 00 06 D1 4A
2025-09-09 08:20:17.402 - 01 04 0C 70 01 42 02 00 FA 00 00 00 F0 00 00 30 76
2025-09-09 08:20:17.514 - 01 04 07 E8 00 06 F1 48
2025-09-09 08:20:17.554 - 01 04 0C 70 00 42 02 00 DC 00 00 01 36 00 00 92 89
2025-09-09 08:20:41.411 - 01 06 07 D2 00 F0 28 C3
2025-09-09 08:20:41.439 - 01 06 07 D2 00 F0 28 C3
2025-09-09 08:20:42.620 - 01 04 07 D0 00 06 70 85
2025-09-09 08:20:42.650 - 01 04 0C 70 01 42 02 00 F0 00 00 01 22 00 00 3B B3
2025-09-09 08:21:10.419 - 01 06 07 D2 00 FA A8 C4
2025-09-09 08:21:10.453 - 01 06 07 D2 00 FA A8 C4
2025-09-09 08:21:11.634 - 01 04 07 D0 00 06 70 85
2025-09-09 08:21:11.663 - 01 04 0C 70 01 42 02 00 FA 00 00 01 22 00 00 91 B3
2025-09-09 08:21:27.850 - 01 06 07 D0 FF 60 C8 9F (客厅空调关)
2025-09-09 08:21:27.882 - 01 06 07 D0 FF 60 C8 9F (客厅空调关)
2025-09-09 08:21:29.060 - 01 04 07 D0 00 06 70 85
2025-09-09 08:21:29.096 - 01 04 0C 70 00 42 02 00 FA 00 00 01 22 00 00 95 4F
2025-09-09 08:22:34.104 - 01 04 07 E2 00 06 D1 4A
2025-09-09 08:22:34.142 - 01 04 0C 70 01 42 02 00 FA 00 00 00 F0 00 00 30 76
2025-09-09 08:22:44.691 - 01 04 07 E8 00 06 F1 48
2025-09-09 08:22:44.725 - 01 04 0C 70 00 42 02 00 DC 00 00 01 36 00 00 92 89
2025-09-09 08:22:57.633 - 01 06 07 DE 00 FA 68 C7
2025-09-09 08:22:57.663 - 01 06 07 DE 00 FA 68 C7
2025-09-09 08:22:58.837 - 01 04 07 E8 00 06 F1 48
2025-09-09 08:22:58.874 - 01 04 0C 70 00 42 02 00 FA 00 00 01 36 00 00 D5 4B
2025-09-09 08:24:29.487 - 01 04 07 D0 00 06 70 85
2025-09-09 08:24:29.523 - 01 04 0C 70 00 42 02 00 FA 00 00 01 22 00 00 95 4F
2025-09-09 08:24:29.641 - 01 04 07 D6 00 06 90 84
2025-09-09 08:24:29.675 - 01 04 0C 70 00 42 02 00 DC 00 00 01 2C 00 00 B3 4E
2025-09-09 08:24:29.798 - 01 04 07 DC 00 06 B0 86
2025-09-09 08:24:29.827 - 01 04 0C 50 00 42 02 01 04 00 00 01 22 00 00 CA F3
2025-09-09 08:24:29.953 - 01 04 07 E2 00 06 D1 4A
2025-09-09 08:24:29.988 - 01 04 0C 70 01 42 02 00 FA 00 00 00 F0 00 00 30 76
2025-09-09 08:24:30.113 - 01 04 07 E8 00 06 F1 48
2025-09-09 08:24:30.140 - 01 04 0C 70 00 42 02 00 FA 00 00 01 36 00 00 D5 4B
2025-09-09 08:26:48.913 - 1A BE B0 DC 02 FC (正反转地址-外卫卷帘)
2025-09-09 08:26:49.047 - FF
2025-09-09 08:30:48.526 - 1A BE B0 DC 09 FE (继电器地址-客厅窗帘)
2025-09-09 08:30:48.658 - FE
2025-09-09 08:43:27.104 - 01 04 07 D0 00 06 70 85
2025-09-09 08:43:27.141 - 01 04 0C 70 00 42 02 00 FA 00 00 01 22 00 00 95 4F
2025-09-09 08:43:27.270 - 01 04 07 D6 00 06 90 84
2025-09-09 08:43:27.303 - 01 04 0C 70 00 42 02 00 DC 00 00 01 2C 00 00 B3 4E
2025-09-09 08:43:31.656 - 01 04 07 D0 00 06 70 85
2025-09-09 08:43:31.685 - 01 04 0C 70 00 42 02 00 FA 00 00 01 22 00 00 95 4F
2025-09-09 08:43:31.809 - 01 04 07 D6 00 06 90 84
2025-09-09 08:43:31.839 - 01 04 0C 70 00 42 02 00 DC 00 00 01 2C 00 00 B3 4E
2025-09-09 08:43:31.951 - 01 04 07 DC 00 06 B0 86
2025-09-09 08:43:31.988 - 01 04 0C 50 00 42 02 01 04 00 00 01 22 00 00 CA F3
2025-09-09 08:43:32.104 - 01 04 07 E2 00 06 D1 4A
2025-09-09 08:43:32.142 - 01 04 0C 70 01 42 02 00 FA 00 00 00 F0 00 00 30 76
2025-09-09 08:43:32.264 - 01 04 07 E8 00 06 F1 48
2025-09-09 08:43:32.292 - 01 04 0C 70 00 42 02 00 FA 00 00 01 36 00 00 D5 4B
2025-09-09 09:04:46.084 - 1A BE B0 DC 0A (继电器地址-客厅纱帘)
2025-09-09 09:04:46.221 - FF
2025-09-09 09:19:24.103 - FF FF FF FF 0E FE (继电器地址-西阳小窗帘)
2025-09-09 09:19:24.237 - FF
2025-09-09 09:47:33.170 - FF FF FF FF 0A FC (继电器地址-东阳窗帘)
2025-09-09 09:47:33.303 - FF
2025-09-09 10:22:42.664 - 19 08 24 03 CC 01 52 00 01 (调用外卫感应灯开的按键)
2025-09-09 10:22:42.716 - 1A 0D 01 07 01 FF 45 01 FF 45 01 FF 00 00 0F (调光器地址-外卫射灯, 外卫感应灯开)
2025-09-09 10:32:13.791 - 19 08 24 03 CC 01 53 00 01 (调用外卫感应灯关的按键)
2025-09-09 10:32:13.845 - 1A 0D 01 07 01 FF 00 01 FF 00 01 FF 00 00 0F (调光器地址-外卫射灯, 外卫感应灯关)
2025-09-09 10:54:54.582 - 1A BE B0 DC 03 (继电器地址-西阳天幕)
2025-09-09 10:54:54.721 - FF
2025-09-09 11:01:49.259 - 55 12 12 01 02 0D 20
2025-09-09 11:01:49.313 - 55 12 12 01 01 57 A0
2025-09-09 11:02:33.867 - 55 12 12 03 02 0C 40 (主卧窗帘关)
2025-09-09 11:02:33.909 - 55 12 12 03 02 0C 40 (主卧窗帘关)
2025-09-09 11:02:39.771 - 55 12 12 01 02 0D 20
2025-09-09 11:02:39.824 - 55 12 12 01 01 18 E1
2025-09-09 11:02:45.474 - 55 12 12 01 02 0D 20
2025-09-09 11:02:45.525 - 55 12 12 01 01 00 E1
2025-09-09 11:02:48.620 - 55 12 12 01 02 0D 20
2025-09-09 11:02:48.675 - 55 12 12 01 01 00 E1
2025-09-09 11:03:12.540 - 55 12 12 01 02 0D 20
2025-09-09 11:03:12.591 - 55 12 12 01 01 00 E1
2025-09-09 11:03:25.807 - 55 12 12 01 02 0D 20
2025-09-09 11:03:25.858 - 55 12 12 01 01 00 E1
2025-09-09 11:03:32.387 - 55 12 12 01 02 0D 20
2025-09-09 11:03:32.437 - 55 12 12 01 01 00 E1
2025-09-09 11:03:38.071 - 55 12 12 01 02 0D 20
2025-09-09 11:03:38.123 - 55 12 12 01 01 00 E1
2025-09-09 11:03:48.344 - 55 12 12 03 01 4C 41 (主卧窗帘开)
2025-09-09 11:03:48.386 - 55 12 12 03 01 4C 41 (主卧窗帘开)
2025-09-09 11:03:52.053 - 55 12 12 01 02 0D 20
2025-09-09 11:03:52.108 - 55 12 12 01 01 26 60
2025-09-09 11:03:57.204 - 55 12 12 01 02 0D 20
2025-09-09 11:03:57.258 - 55 12 12 01 01 5D 20
2025-09-09 11:04:03.654 - 55 12 12 01 02 0D 20
2025-09-09 11:04:03.705 - 55 12 12 01 01 58 E0
2025-09-09 11:04:06.537 - 55 12 12 01 02 0D 20
2025-09-09 11:04:06.588 - 55 12 12 01 01 58 E0
2025-09-09 11:04:07.887 - 55 12 12 01 02 0D 20
2025-09-09 11:04:07.938 - 55 12 12 01 01 58 E0
2025-09-09 11:04:09.573 - 55 12 12 01 02 0D 20
2025-09-09 11:04:09.622 - 55 12 12 01 01 58 E0
2025-09-09 11:04:10.420 - 55 12 12 01 02 0D 20
2025-09-09 11:04:10.471 - 55 12 12 01 01 58 E0
2025-09-09 11:04:41.854 - 55 12 12 01 04 8D 22
2025-09-09 11:04:41.904 - 55 12 12 01 04 8D 22
2025-09-09 11:04:45.720 - 55 12 12 01 04 8D 22
2025-09-09 11:04:45.769 - 55 12 12 01 04 8D 22
2025-09-09 11:05:11.941 - 55 12 12 03 01 4C 41 (主卧窗帘开)
2025-09-09 11:05:11.982 - 55 12 12 03 01 4C 41 (主卧窗帘开)
2025-09-09 11:07:56.041 - 1A BE B0 DC 01 (继电器地址-回水泵点动)
2025-09-09 11:07:56.175 - FF
2025-09-09 11:14:38.357 - 1A BE B0 DC 04 (继电器地址-西阳窗帘)
2025-09-09 11:28:54.531 - 19 08 24 03 CC 01 CC 00 01 (调用茶吧感应灯开的按键)
2025-09-09 11:28:54.580 - 1A AA AA AA 88 FF B0 01 FF B0 01 0F (调光器地址-茶吧灯带, 茶吧灯带明亮)
2025-09-09 11:29:01.544 - 19 08 24 03 CC 01 CD 00 01 (调用茶吧感应灯关的按键)
2025-09-09 11:29:01.596 - 1A AA AA AA 88 FF 00 01 FF 00 01 0F (调光器地址-茶吧灯带, 茶吧灯带关闭)
2025-09-09 11:38:03.646 - 1A FF FF FF 04 (继电器地址-东阳衣架)
2025-09-09 11:38:03.783 - 00
2025-09-09 11:41:58.006 - 19 08 24 03 DD 00 28 00 01 (调用情景-离开次卧)
2025-09-09 11:41:58.559 - EE 00 00 B1 00 00 00 FF FC FF FF (情景执行提示)
2025-09-09 11:41:59.154 - 09 06 00 0F 02 01 78 21 (提示音叮)
2025-09-09 11:41:59.696 - 50 F5 06 (关次卧影视)
2025-09-09 11:42:00.251 - 01 06 07 D9 FF 60 18 9D (次卧空调关)
2025-09-09 11:42:00.283 - 01 06 07 D9 FF 60 18 9D (次卧空调关)
2025-09-09 11:42:00.848 - A5 00 76 FE 01 AA (次卧窗帘开)
2025-09-09 11:42:00.900 - 55 00 76 02 01 0E 01 1B AA 55 00 76 02 01 0E 01 1B AA (次卧窗帘电机状态返回)
2025-09-09 11:42:01.942 - A5 00 21 FE 01 AA (次卧纱帘开)
2025-09-09 11:42:01.993 - 55 00 21 02 01 28 01 34 AA 55 00 21 02 01 28 01 34 AA (次卧纱帘电机状态返回)
2025-09-09 11:42:03.044 - 1A 20 07 00 70 00 01 00 0F (自保持开关地址-次卧顶灯, 次卧顶灯只关)
2025-09-09 11:42:03.647 - 1A 0E 03 05 FF FF 00 01 FF 00 01 FF 00 00 0F (调光器地址-次卧调光统配符, 次卧调光全关)
2025-09-09 11:42:04.236 - 09 06 00 0F 02 02 38 20 (提示音咚)
2025-09-09 11:42:06.285 - EE 00 00 B1 00 00 02 FF FC FF FF (情景完成返回主页)
2025-09-09 11:42:08.354 - 55 00 76 00 00 0E 01 1B AA 55 00 76 00 00 0E 01 1B AA (次卧窗帘电机状态返回)
2025-09-09 11:42:09.551 - 55 00 21 00 00 0D 01 34 AA 55 00 21 00 00 0D 01 34 AA (次卧纱帘电机状态返回)
2025-09-09 11:42:17.118 - 19 08 24 03 CC 01 CC 00 01 (调用茶吧感应灯开的按键)
2025-09-09 11:42:17.167 - 1A AA AA AA 88 FF B0 01 FF B0 01 0F (调光器地址-茶吧灯带, 茶吧灯带明亮)
2025-09-09 11:44:39.377 - 19 08 24 03 CC 01 52 00 01 (调用外卫感应灯开的按键)
2025-09-09 11:44:39.414 - 1A 0D 01 07 01 FF 45 01 FF 45 01 FF 00 00 0F (调光器地址-外卫射灯, 外卫感应灯开)
2025-09-09 11:44:44.409 - 19 08 24 03 CC 01 CD 00 01 (调用茶吧感应灯关的按键)
2025-09-09 11:44:44.467 - 1A AA AA AA 88 FF 00 01 FF 00 01 0F (调光器地址-茶吧灯带, 茶吧灯带关闭)
2025-09-09 11:45:41.999 - 19 08 24 03 CC 01 53 00 01 (调用外卫感应灯关的按键)
2025-09-09 11:45:42.034 - 1A 0D 01 07 01 FF 00 01 FF 00 01 FF 00 00 0F (调光器地址-外卫射灯, 外卫感应灯关)
2025-09-09 11:45:44.526 - 19 08 24 03 CC 01 CC 00 01 (调用茶吧感应灯开的按键)
2025-09-09 11:45:44.557 - 1A AA AA AA 88 FF B0 01 FF B0 01 0F (调光器地址-茶吧灯带, 茶吧灯带明亮)
2025-09-09 11:47:18.720 - 1A BE B0 DC 02 FE (正反转地址-外卫卷帘)
2025-09-09 11:47:43.762 - 19 08 24 03 CC 01 CD 00 01 (调用茶吧感应灯关的按键)
2025-09-09 11:47:43.810 - 1A AA AA AA 88 FF 00 01 FF 00 01 0F (调光器地址-茶吧灯带, 茶吧灯带关闭)
2025-09-09 11:51:12.036 - 1A BE B0 DC 09 (继电器地址-客厅窗帘)
2025-09-09 11:51:12.168 - FE
2025-09-09 12:00:07.071 - 01 04 07 D0 00 06 70 85
2025-09-09 12:00:07.103 - 01 04 0C 70 01 42 02 00 FA 00 00 01 22 00 00 91 B3
2025-09-09 12:00:07.218 - 01 04 07 D6 00 06 90 84
2025-09-09 12:00:07.255 - 01 04 0C 70 00 42 02 00 DC 00 00 01 36 00 00 92 89
2025-09-09 12:00:07.373 - 01 04 07 DC 00 06 B0 86
2025-09-09 12:00:07.406 - 01 04 0C 50 00 42 02 01 04 00 00 01 22 00 00 CA F3
2025-09-09 12:00:07.531 - 01 04 07 E2 00 06 D1 4A
2025-09-09 12:00:07.566 - 01 04 0C 70 00 42 02 00 FA 00 00 00 FA 00 00 14 88
2025-09-09 12:00:07.688 - 01 04 07 E8 00 06 F1 48
2025-09-09 12:00:07.719 - 01 04 0C 70 00 42 02 00 FA 00 00 01 36 00 00 D5 4B
2025-09-09 12:00:19.290 - 01 04 07 E2 00 06 D1 4A
2025-09-09 12:00:19.322 - 01 04 0C 70 00 42 02 00 FA 00 00 00 FA 00 00 14 88
2025-09-09 12:00:27.257 - 01 04 07 D6 00 06 90 84
2025-09-09 12:00:27.290 - 01 04 0C 70 00 42 02 00 DC 00 00 01 36 00 00 92 89
2025-09-09 12:25:19.868 - 1A BE B0 DC 0A (继电器地址-客厅纱帘)
2025-09-09 12:25:20.006 - FF
2025-09-09 12:39:28.043 - FF FF FF FF 0E FF (继电器地址-西阳小窗帘)
2025-09-09 12:39:28.177 - FF
2025-09-09 13:14:40.667 - 19 08 24 03 CC 00 D3 00 01 (调用厨房感应灯开的按键)
2025-09-09 13:14:40.717 - 55 0A 32 00 00 00 01 92 55 0A 32 00 00 00 02 93 (厨房顶灯一开, 厨房顶灯二开)
2025-09-09 13:16:17.352 - 19 08 24 03 CC 00 D4 00 01 (调用厨房感应灯关的按键)
2025-09-09 13:16:17.407 - 55 0A 31 00 00 00 01 91 55 0A 31 00 00 00 02 92 (厨房顶灯一关, 厨房顶灯二关)
2025-09-09 13:20:35.186 - FF FF FF FF 0A FE (继电器地址-东阳窗帘)
2025-09-09 13:20:35.322 - FF
2025-09-09 13:33:14.856 - 19 08 24 03 CC 00 D3 00 01 (调用厨房感应灯开的按键)
2025-09-09 13:33:14.908 - 55 0A 32 00 00 00 01 92 55 0A 32 00 00 00 02 93 (厨房顶灯一开, 厨房顶灯二开)
2025-09-09 13:33:56.440 - 19 08 24 03 CC 00 D4 00 01 (调用厨房感应灯关的按键)
2025-09-09 13:33:56.492 - 55 0A 31 00 00 00 01 91 55 0A 31 00 00 00 02 92 (厨房顶灯一关, 厨房顶灯二关)
2025-09-09 13:53:47.277 - 19 08 24 03 CC 00 D3 00 01 (调用厨房感应灯开的按键)
2025-09-09 13:53:47.313 - 55 0A 32 00 00 00 01 92 55 0A 32 00 00 00 02 93 (厨房顶灯一开, 厨房顶灯二开)
2025-09-09 13:54:35.875 - 19 08 24 03 CC 00 D4 00 01 (调用厨房感应灯关的按键)
2025-09-09 13:54:35.907 - 55 0A 31 00 00 00 01 91 55 0A 31 00 00 00 02 92 (厨房顶灯一关, 厨房顶灯二关)
2025-09-09 14:08:08.364 - 19 08 24 03 CC 01 52 00 01 (调用外卫感应灯开的按键)
2025-09-09 14:08:08.423 - 1A 0D 01 07 01 FF 45 01 FF 45 01 FF 00 00 0F (调光器地址-外卫射灯, 外卫感应灯开)
2025-09-09 14:08:10.352 - 19 08 24 03 DD 00 3E 00 01 (调用情景-外卫照明关帘)
2025-09-09 14:08:10.860 - EE 00 00 B1 00 00 00 FF FC FF FF (情景执行提示)
2025-09-09 14:08:11.455 - 09 06 00 0F 02 01 78 21 (提示音叮)
2025-09-09 14:08:12.056 - 1A FF FF FF 55 00 00 00 0F (人体感应地址-外卫, 关闭外卫感应)
2025-09-09 14:08:12.137 - BF BF
2025-09-09 14:08:13.112 - 1A 0D 01 07 01 FF F0 01 FF F0 01 FF 00 00 0F (调光器地址-外卫射灯, 外卫射灯明亮)
2025-09-09 14:08:13.699 - 09 06 00 0F 02 02 38 20 (提示音咚)
2025-09-09 14:08:14.250 - EE 00 00 B1 00 00 02 FF FC FF FF (情景完成返回主页)
2025-09-09 14:08:24.502 - 19 08 24 03 CC 00 D3 00 01 (调用厨房感应灯开的按键)
2025-09-09 14:08:24.556 - 55 0A 32 00 00 00 01 92 55 0A 32 00 00 00 02 93 (厨房顶灯一开, 厨房顶灯二开)
2025-09-09 14:09:44.158 - 19 08 24 03 CC 00 D4 00 01 (调用厨房感应灯关的按键)
2025-09-09 14:09:44.194 - 55 0A 31 00 00 00 01 91 55 0A 31 00 00 00 02 92 (厨房顶灯一关, 厨房顶灯二关)
2025-09-09 14:15:49.845 - 1A BE B0 DC 03 (继电器地址-西阳天幕)
2025-09-09 14:20:32.442 - 19 08 24 03 CC 00 D3 00 01 (调用厨房感应灯开的按键)
2025-09-09 14:20:32.508 - 55 0A 32 00 00 00 01 92 55 0A 32 00 00 00 02 93 (厨房顶灯一开, 厨房顶灯二开)
2025-09-09 14:22:16.641 - 19 08 24 03 CC 00 D4 00 01 (调用厨房感应灯关的按键)
2025-09-09 14:22:16.694 - 55 0A 31 00 00 00 01 91 55 0A 31 00 00 00 02 92 (厨房顶灯一关, 厨房顶灯二关)
2025-09-09 14:22:31.168 - 19 08 24 03 CC 00 D3 00 01 (调用厨房感应灯开的按键)
2025-09-09 14:22:31.204 - 55 0A 32 00 00 00 01 92 55 0A 32 00 00 00 02 93 (厨房顶灯一开, 厨房顶灯二开)
2025-09-09 14:25:05.473 - 19 08 24 03 CC 00 D4 00 01 (调用厨房感应灯关的按键)
2025-09-09 14:25:05.506 - 55 0A 31 00 00 00 01 91 55 0A 31 00 00 00 02 92 (厨房顶灯一关, 厨房顶灯二关)
2025-09-09 14:26:02.584 - 19 08 24 03 CC 00 D3 00 01 (调用厨房感应灯开的按键)
2025-09-09 14:26:02.618 - 55 0A 32 00 00 00 01 92 55 0A 32 00 00 00 02 93 (厨房顶灯一开, 厨房顶灯二开)
2025-09-09 14:27:10.717 - 19 08 24 03 CC 00 D4 00 01 (调用厨房感应灯关的按键)
2025-09-09 14:27:10.756 - 55 0A 31 00 00 00 01 91 55 0A 31 00 00 00 02 92 (厨房顶灯一关, 厨房顶灯二关)
2025-09-09 14:28:52.466 - 1A BE B0 DC 01 FC (继电器地址-回水泵点动)
2025-09-09 14:34:34.735 - 1A BE B0 DC 04 FC (继电器地址-西阳窗帘)
2025-09-09 14:34:34.870 - FE
2025-09-09 14:39:56.183 - 19 08 24 03 CC 01 CC 00 01 (调用茶吧感应灯开的按键)
2025-09-09 14:39:56.233 - 1A AA AA AA 88 FF B0 01 FF B0 01 0F (调光器地址-茶吧灯带, 茶吧灯带明亮)
2025-09-09 14:40:48.787 - 19 08 24 03 CC 01 CD 00 01 (调用茶吧感应灯关的按键)
2025-09-09 14:40:48.838 - 1A AA AA AA 88 FF 00 01 FF 00 01 0F (调光器地址-茶吧灯带, 茶吧灯带关闭)
2025-09-09 14:59:08.733 - 1A FF FF FF 04 FD (继电器地址-东阳衣架)
2025-09-09 14:59:08.866 - 00
2025-09-09 15:06:57.411 - 19 08 24 03 CC 00 D3 00 01 (调用厨房感应灯开的按键)
2025-09-09 15:06:57.468 - 55 0A 32 00 00 00 01 92 55 0A 32 00 00 00 02 93 (厨房顶灯一开, 厨房顶灯二开)
2025-09-09 15:07:48.011 - 19 08 24 03 CC 00 D4 00 01 (调用厨房感应灯关的按键)
2025-09-09 15:07:48.066 - 55 0A 31 00 00 00 01 91 55 0A 31 00 00 00 02 92 (厨房顶灯一关, 厨房顶灯二关)
2025-09-09 15:07:49.053 - 1A BE B0 DC 02 (正反转地址-外卫卷帘)
2025-09-09 15:09:27.708 - 19 08 24 03 CC 00 D3 00 01 (调用厨房感应灯开的按键)
2025-09-09 15:09:27.763 - 55 0A 32 00 00 00 01 92 55 0A 32 00 00 00 02 93 (厨房顶灯一开, 厨房顶灯二开)
2025-09-09 15:10:16.806 - 19 08 24 03 CC 00 D4 00 01 (调用厨房感应灯关的按键)
2025-09-09 15:10:16.860 - 55 0A 31 00 00 00 01 91 55 0A 31 00 00 00 02 92 (厨房顶灯一关, 厨房顶灯二关)
2025-09-09 15:11:32.757 - 1A BE B0 DC 09 FC (继电器地址-客厅窗帘)
2025-09-09 15:11:32.891 - FF
2025-09-09 15:11:46.480 - 19 08 24 03 CC 00 D3 00 01 (调用厨房感应灯开的按键)
2025-09-09 15:11:46.533 - 55 0A 32 00 00 00 01 92 55 0A 32 00 00 00 02 93 (厨房顶灯一开, 厨房顶灯二开)
2025-09-09 15:12:39.587 - 19 08 24 03 CC 00 D4 00 01 (调用厨房感应灯关的按键)
2025-09-09 15:12:39.640 - 55 0A 31 00 00 00 01 91 55 0A 31 00 00 00 02 92 (厨房顶灯一关, 厨房顶灯二关)
2025-09-09 15:31:12.614 - 19 08 24 03 DD 00 33 00 01 (调用情景-次卧睡觉)
2025-09-09 15:31:13.143 - EE 00 00 B1 00 00 00 FF FC FF FF (情景执行提示)
2025-09-09 15:31:13.739 - 09 06 00 0F 02 01 78 21 (提示音叮)
2025-09-09 15:31:14.286 - 1A 20 07 00 70 00 01 00 0F (自保持开关地址-次卧顶灯, 次卧顶灯只关)
2025-09-09 15:31:14.831 - A5 00 21 FF 00 AA (次卧纱帘关)
2025-09-09 15:31:14.883 - 55 00 21 01 00 0D 01 34 AA 55 00 21 01 00 0D 01 34 AA (次卧纱帘电机状态返回)
2025-09-09 15:31:15.930 - A5 00 76 FF 00 AA (次卧窗帘关)
2025-09-09 15:31:15.985 - 55 00 76 01 00 0E 01 1B AA 55 00 76 01 00 0E 01 DB (次卧窗帘电机状态返回)
2025-09-09 15:31:17.021 - 50 F5 06 (关次卧影视)
2025-09-09 15:31:17.585 - 1A 0E 03 05 03 FF 00 01 FF 00 01 FF 00 00 0F (调光器地址-次卧阅读灯, 次卧阅读关闭)
2025-09-09 15:31:18.179 - 1A 0E 03 05 02 FF 00 01 FF 00 01 FF 00 00 0F (调光器地址-次卧灯带, 次卧灯带关闭)
2025-09-09 15:31:18.809 - 1A 0E 03 05 04 FF 00 01 FF 00 01 FF 00 00 0F (调光器地址-次卧北筒灯, 次卧北筒灯关闭)
2025-09-09 15:31:19.376 - 1A 0E 03 05 05 FF 00 01 FF 00 01 FF 00 00 0F (调光器地址-次卧南筒灯, 次卧南筒灯关闭)
2025-09-09 15:31:19.975 - 1A 0E 03 05 01 FF 00 01 FF 00 01 FF 00 00 0F (调光器地址-次卧射灯, 次卧射灯关闭)
2025-09-09 15:31:20.566 - 09 06 00 0F 02 02 38 20 (提示音咚)
2025-09-09 15:31:21.116 - EE 00 00 B1 00 00 02 FF FC FF FF (情景完成返回主页)
2025-09-09 15:31:22.037 - 55 00 21 00 01 27 01 34 AA 55 00 21 00 01 27 01 34 AA (次卧纱帘电机状态返回)
2025-09-09 15:31:23.737 - 55 00 76 00 01 0F 01 1B AA 55 00 76 00 01 0F 01 1B AA (次卧窗帘电机状态返回)
2025-09-09 15:45:55.175 - 1A BE B0 DC 0A (继电器地址-客厅纱帘)
2025-09-09 15:45:55.308 - FE
2025-09-09 15:50:12.516 - 19 08 24 03 CC 00 D3 00 01 (调用厨房感应灯开的按键)
2025-09-09 15:50:12.567 - 55 0A 32 00 00 00 01 92 55 0A 32 00 00 00 02 93 (厨房顶灯一开, 厨房顶灯二开)
2025-09-09 15:51:00.611 - 19 08 24 03 CC 00 D4 00 01 (调用厨房感应灯关的按键)
2025-09-09 15:51:00.663 - 55 0A 31 00 00 00 01 91 55 0A 31 00 00 00 02 92 (厨房顶灯一关, 厨房顶灯二关)
2025-09-09 15:59:31.967 - FF FF FF FF 0E (继电器地址-西阳小窗帘)
2025-09-09 16:03:19.065 - 19 08 24 03 CC 00 D3 00 01 (调用厨房感应灯开的按键)
2025-09-09 16:03:19.117 - 55 0A 32 00 00 00 01 92 55 0A 32 00 00 00 02 93 (厨房顶灯一开, 厨房顶灯二开)
2025-09-09 16:05:34.833 - 19 08 24 03 CC 00 D4 00 01 (调用厨房感应灯关的按键)
2025-09-09 16:05:34.884 - 55 0A 31 00 00 00 01 91 55 0A 31 00 00 00 02 92 (厨房顶灯一关, 厨房顶灯二关)
2025-09-09 16:08:10.637 - 19 08 24 03 CC 00 D3 00 01 (调用厨房感应灯开的按键)
2025-09-09 16:08:10.672 - 55 0A 32 00 00 00 01 92 55 0A 32 00 00 00 02 93 (厨房顶灯一开, 厨房顶灯二开)
2025-09-09 16:09:49.834 - 19 08 24 03 CC 00 D4 00 01 (调用厨房感应灯关的按键)
2025-09-09 16:09:49.865 - 55 0A 31 00 00 00 01 91 55 0A 31 00 00 00 02 92 (厨房顶灯一关, 厨房顶灯二关)
2025-09-09 16:19:25.466 - 19 08 24 03 CC 00 D3 00 01 (调用厨房感应灯开的按键)
2025-09-09 16:19:25.500 - 55 0A 32 00 00 00 01 92 55 0A 32 00 00 00 02 93 (厨房顶灯一开, 厨房顶灯二开)
2025-09-09 16:20:20.073 - 19 08 24 03 CC 00 D4 00 01 (调用厨房感应灯关的按键)
2025-09-09 16:20:20.106 - 55 0A 31 00 00 00 01 91 55 0A 31 00 00 00 02 92 (厨房顶灯一关, 厨房顶灯二关)
2025-09-09 16:20:59.150 - 19 08 24 03 CC 00 D3 00 01 (调用厨房感应灯开的按键)
2025-09-09 16:20:59.181 - 55 0A 32 00 00 00 01 92 55 0A 32 00 00 00 02 93 (厨房顶灯一开, 厨房顶灯二开)
2025-09-09 16:22:02.773 - 19 08 24 03 CC 00 D4 00 01 (调用厨房感应灯关的按键)
2025-09-09 16:22:02.808 - 55 0A 31 00 00 00 01 91 55 0A 31 00 00 00 02 92 (厨房顶灯一关, 厨房顶灯二关)
2025-09-09 16:32:40.529 - 19 08 24 03 CC 00 D3 00 01 (调用厨房感应灯开的按键)
2025-09-09 16:32:40.562 - 55 0A 32 00 00 00 01 92 55 0A 32 00 00 00 02 93 (厨房顶灯一开, 厨房顶灯二开)
2025-09-09 16:33:29.625 - 19 08 24 03 CC 00 D4 00 01 (调用厨房感应灯关的按键)
2025-09-09 16:33:29.660 - 55 0A 31 00 00 00 01 91 55 0A 31 00 00 00 02 92 (厨房顶灯一关, 厨房顶灯二关)
2025-09-09 16:40:59.496 - FF FF FF FF 0A FF (继电器地址-东阳窗帘)
2025-09-09 16:40:59.630 - FF
2025-09-09 16:41:51.612 - 19 08 24 03 CC 00 D3 00 01 (调用厨房感应灯开的按键)
2025-09-09 16:41:51.670 - 55 0A 32 00 00 00 01 92 55 0A 32 00 00 00 02 93 (厨房顶灯一开, 厨房顶灯二开)
2025-09-09 16:42:39.207 - 19 08 24 03 CC 00 D4 00 01 (调用厨房感应灯关的按键)
2025-09-09 16:42:39.259 - 55 0A 31 00 00 00 01 91 55 0A 31 00 00 00 02 92 (厨房顶灯一关, 厨房顶灯二关)
2025-09-09 16:44:46.958 - 19 08 24 03 CC 00 D3 00 01 (调用厨房感应灯开的按键)
2025-09-09 16:44:46.994 - 55 0A 32 00 00 00 01 92 55 0A 32 00 00 00 02 93 (厨房顶灯一开, 厨房顶灯二开)
2025-09-09 16:45:44.074 - 19 08 24 03 CC 00 D4 00 01 (调用厨房感应灯关的按键)
2025-09-09 16:45:44.109 - 55 0A 31 00 00 00 01 91 55 0A 31 00 00 00 02 92 (厨房顶灯一关, 厨房顶灯二关)
2025-09-09 16:46:36.172 - 19 08 24 03 CC 00 D3 00 01 (调用厨房感应灯开的按键)
2025-09-09 16:46:36.206 - 55 0A 32 00 00 00 01 92 55 0A 32 00 00 00 02 93 (厨房顶灯一开, 厨房顶灯二开)
2025-09-09 16:48:33.401 - 19 08 24 03 CC 00 D4 00 01 (调用厨房感应灯关的按键)
2025-09-09 16:48:33.437 - 55 0A 31 00 00 00 01 91 55 0A 31 00 00 00 02 92 (厨房顶灯一关, 厨房顶灯二关)
2025-09-09 17:00:30.914 - 01 04 07 D0 00 06 70 85
2025-09-09 17:00:30.945 - 01 04 0C 70 00 42 02 00 FA 00 00 01 18 00 00 B5 42
2025-09-09 17:00:31.064 - 01 04 07 D6 00 06 90 84
2025-09-09 17:00:31.097 - 01 04 0C 70 00 42 02 00 DC 00 00 01 2C 00 00 B3 4E
2025-09-09 17:00:31.218 - 01 04 07 DC 00 06 B0 86
2025-09-09 17:00:31.248 - 01 04 0C 50 00 42 02 01 04 00 00 01 2C 00 00 AB 30
2025-09-09 17:00:31.376 - 01 04 07 E2 00 06 D1 4A
2025-09-09 17:00:31.410 - 01 04 0C 70 00 42 02 00 FA 00 00 01 04 00 00 74 84
2025-09-09 17:00:31.533 - 01 04 07 E8 00 06 F1 48
2025-09-09 17:00:31.562 - 01 04 0C 70 00 42 02 00 FA 00 00 01 2C 00 00 F4 8C
2025-09-09 17:30:56.308 - 19 08 24 03 DD 00 28 00 01 (调用情景-离开次卧)
2025-09-09 17:30:56.868 - EE 00 00 B1 00 00 00 FF FC FF FF (情景执行提示)
2025-09-09 17:30:57.468 - 09 06 00 0F 02 01 78 21 (提示音叮)
2025-09-09 17:30:58.010 - 50 F5 06 (关次卧影视)
2025-09-09 17:30:58.595 - 01 06 07 D9 FF 60 18 9D (次卧空调关)
2025-09-09 17:30:58.629 - 01 06 07 D9 FF 60 18 9D (次卧空调关)
2025-09-09 17:30:59.208 - A5 00 76 FE 01 AA (次卧窗帘开)
2025-09-09 17:30:59.257 - 55 00 76 02 01 0F 01 1B AA 55 00 76 02 01 0F 01 1B AA (次卧窗帘电机状态返回)
2025-09-09 17:31:00.304 - A5 00 21 FE 01 AA (次卧纱帘开)
2025-09-09 17:31:00.357 - 55 00 21 02 01 27 01 34 AA 55 00 21 02 01 27 01 34 AA (次卧纱帘电机状态返回)
2025-09-09 17:31:01.409 - 1A 20 07 00 70 00 01 00 0F (自保持开关地址-次卧顶灯, 次卧顶灯只关)
2025-09-09 17:31:01.960 - 1A 0E 03 05 FF FF 00 01 FF 00 01 FF 00 00 0F (调光器地址-次卧调光统配符, 次卧调光全关)
2025-09-09 17:31:02.548 - 09 06 00 0F 02 02 38 20 (提示音咚)
2025-09-09 17:31:04.595 - EE 00 00 B1 00 00 02 FF FC FF FF (情景完成返回主页)
2025-09-09 17:31:06.947 - 55 00 76 00 00 0D 01 1B AA 55 00 76 00 00 0D 01 1B AA (次卧窗帘电机状态返回)
2025-09-09 17:31:07.992 - 55 00 21 00 00 0D 01 34 AA 55 00 21 00 00 0D 01 34 AA (次卧纱帘电机状态返回)
2025-09-09 17:31:11.817 - 19 08 24 03 DD 00 00 00 01 (调用情景-离家（末）)
2025-09-09 17:31:12.371 - EE 00 00 B1 00 00 00 FF FC FF FF (情景执行提示)
2025-09-09 17:31:12.966 - 09 06 00 0F 02 02 38 20 (提示音咚)
2025-09-09 17:31:13.509 - 50 F7 01 (全屋影音全关)
2025-09-09 17:31:14.112 - 01 06 07 D0 FF 60 C8 9F (客厅空调关)
2025-09-09 17:31:14.141 - 01 06 07 D0 FF 60 C8 9F (客厅空调关)
2025-09-09 17:31:14.709 - 01 06 07 D0 FF 60 C8 9F (客厅空调关)
2025-09-09 17:31:14.735 - 01 06 07 D0 FF 60 C8 9F (客厅空调关)
2025-09-09 17:31:15.308 - 01 06 07 D3 FF 60 38 9F (餐厅空调关)
2025-09-09 17:31:15.342 - 01 06 07 D3 FF 60 38 9F (餐厅空调关)
2025-09-09 17:31:15.957 - 01 06 07 D3 FF 60 38 9F (餐厅空调关)
2025-09-09 17:31:15.996 - 01 06 07 D3 FF 60 38 9F (餐厅空调关)
2025-09-09 17:31:16.553 - 01 06 07 D6 FF 60 28 9E (主卧空调关)
2025-09-09 17:31:16.585 - 01 06 07 D6 FF 60 28 9E (主卧空调关)
2025-09-09 17:31:17.153 - 01 06 07 D6 FF 60 28 9E (主卧空调关)
2025-09-09 17:31:17.181 - 01 06 07 D6 FF 60 28 9E (主卧空调关)
2025-09-09 17:31:17.779 - 01 06 07 D9 FF 60 18 9D (次卧空调关)
2025-09-09 17:31:17.809 - 01 06 07 D9 FF 60 18 9D (次卧空调关)
2025-09-09 17:31:18.347 - 01 06 07 D9 FF 60 18 9D (次卧空调关)
2025-09-09 17:31:18.383 - 01 06 07 D9 FF 60 18 9D (次卧空调关)
2025-09-09 17:31:18.946 - 01 06 07 DC FF 60 08 9C (书房空调关)
2025-09-09 17:31:18.977 - 01 06 07 DC FF 60 08 9C (书房空调关)
2025-09-09 17:31:19.545 - 01 06 07 DC FF 60 08 9C (书房空调关)
2025-09-09 17:31:19.575 - 01 06 07 DC FF 60 08 9C (书房空调关)
2025-09-09 17:31:20.141 - 09 06 00 0F 02 02 38 20 (提示音咚)
2025-09-09 17:31:20.691 - 1A FF FF FF 56 00 00 00 0F (人体感应地址-内卫, 关闭内卫感应)
2025-09-09 17:31:20.779 - BF BF
2025-09-09 17:31:21.238 - 1A FF FF FF 55 00 00 00 0F (人体感应地址-外卫, 关闭外卫感应)
2025-09-09 17:31:21.253 - BC BC
2025-09-09 17:31:21.836 - 1A FF FF FF 57 00 00 00 0F (人体感应地址-厨房, 关闭厨房感应)
2025-09-09 17:31:21.942 - BF BF
2025-09-09 17:31:22.390 - 1A FF FF FF 58 00 00 00 0F (人体感应地址-茶吧, 关闭茶吧感应)
2025-09-09 17:31:22.437 - BC BC
2025-09-09 17:31:22.982 - 1A 20 07 00 93 00 01 00 0F (自保持开关地址-设备区顶, 设备区顶灯关)
2025-09-09 17:31:24.079 - 1A 20 07 01 40 00 01 00 0F (自保持开关地址-内卫顶灯, 内卫顶灯关)
2025-09-09 17:31:25.204 - 1A 20 07 01 55 00 01 00 0F (自保持开关地址-主卧顶灯, 主卧顶灯只关)
2025-09-09 17:31:26.272 - 1A 20 07 00 42 00 01 00 0F (自保持开关地址-外卫顶灯, 外卫顶灯关)
2025-09-09 17:31:27.318 - 55 0D 31 00 00 00 01 94 (书房顶灯只关)
2025-09-09 17:31:28.370 - 55 0A 31 00 00 00 01 91 (厨房顶灯一关)
2025-09-09 17:31:29.412 - 55 0A 31 00 00 00 02 92 (厨房顶灯二关)
2025-09-09 17:31:30.457 - 55 0B 31 00 00 00 01 92 (厨房风扇只关)
2025-09-09 17:31:31.506 - 55 0C 31 00 00 00 01 93 (餐厅顶灯关)
2025-09-09 17:31:32.555 - 1A 20 07 01 30 00 01 00 0F (自保持开关地址-西阳顶灯, 西阳顶灯关)
2025-09-09 17:31:33.597 - 1A 18 05 21 89 00 01 00 0F (自保持开关地址-客厅顶灯, 客厅顶灯一关)
2025-09-09 17:31:34.646 - 1A 18 05 01 94 00 01 00 0F (自保持开关地址-客厅顶灯, 客厅顶灯二关)
2025-09-09 17:31:35.691 - 1A 20 07 00 70 00 01 00 0F (自保持开关地址-次卧顶灯, 次卧顶灯只关)
2025-09-09 17:31:36.738 - 1A 18 05 10 31 00 01 00 0F (自保持开关地址-门厅顶灯, 门厅顶灯关)
2025-09-09 17:31:37.787 - 1A FF FF FF 04 00 03 02 (继电器地址-东阳衣架, 东阳衣架照明关)
2025-09-09 17:31:38.331 - 09 06 00 0F 02 02 38 20 (提示音咚)
2025-09-09 17:31:38.882 - A5 00 A6 FE 01 AA (餐厅窗帘开)
2025-09-09 17:31:38.933 - 55 00 A6 02 01 66 01 74 AA 55 00 A6 02 01 66 01 74 AA (餐厅窗帘电机状态返回)
2025-09-09 17:31:39.481 - FF FF FF FF 0A 00 01 00 (继电器地址-东阳窗帘, 东阳窗帘开)
2025-09-09 17:31:40.027 - 1A BE B0 DC 04 00 01 00 (继电器地址-西阳窗帘, 西阳窗帘开)
2025-09-09 17:31:40.576 - FF FF FF FF 0E 00 01 00 (继电器地址-西阳小窗帘, 西阳小窗帘开)
2025-09-09 17:31:41.129 - 1A 22 33 62 0F 00 00 01 0F (正反转地址-内卫卷帘, 内卫卷帘升)
2025-09-09 17:31:41.670 - 55 12 12 03 01 4C 41 (主卧窗帘开)
2025-09-09 17:31:41.712 - 55 12 12 03 01 4C 41 (主卧窗帘开)
2025-09-09 17:31:42.267 - 55 11 1D 03 02 3C 07 (主卧纱帘开)
2025-09-09 17:31:42.311 - 55 11 1D 03 02 3C 07 (主卧纱帘开)
2025-09-09 17:31:42.865 - A5 00 76 FE 01 AA (次卧窗帘开)
2025-09-09 17:31:43.412 - A5 00 21 FE 01 AA (次卧纱帘开)
2025-09-09 17:31:43.963 - A5 00 D2 FE 01 AA 22 0D (书房窗帘开)
2025-09-09 17:31:44.016 - 55 00 D2 02 00 FE 01 0B AA 55 00 D2 02 00 FE 01 0B AA (书房窗帘电机状态返回)
2025-09-09 17:31:44.563 - 1A BE B0 DC 09 00 01 00 (继电器地址-客厅窗帘, 客厅窗帘开)
2025-09-09 17:31:45.113 - 1A BE B0 DC 0A 00 02 00 (继电器地址-客厅纱帘, 客厅纱帘开)
2025-09-09 17:31:45.657 - 09 06 00 0F 02 02 38 20 (提示音咚)
2025-09-09 17:31:46.707 - 1A EC A0 DC 02 00 00 00 0F (自保持开关地址-天花12V供电, 天花12V 供电关)
2025-09-09 17:31:47.259 - 1A EC A0 DC 02 00 00 00 0F (自保持开关地址-天花12V供电, 天花12V 供电关)
2025-09-09 17:31:47.805 - 1A EC A0 DC 01 00 00 00 0F (自保持开关地址-电视、设备12V供电, 12V 电视供电关)
2025-09-09 17:31:47.889 - 55 00 A6 00 00 0E 01 74 AA 55 00 A6 00 00 0E 01 74 AA (餐厅窗帘电机状态返回)
2025-09-09 17:31:48.401 - 1A EC A0 DC 01 00 00 00 0F (自保持开关地址-电视、设备12V供电, 12V 电视供电关)
2025-09-09 17:31:48.949 - 1A EC A0 DC 04 00 01 00 0F (自保持开关地址-次卧西阳内外卫供电, 内卫外卫关)
2025-09-09 17:31:49.497 - 1A EC A0 DC 04 00 01 00 0F (自保持开关地址-次卧西阳内外卫供电, 内卫外卫关)
2025-09-09 17:31:51.039 - 1A BB BB BB 01 02 00 (开水器电源关)
2025-09-09 17:31:51.551 - 55 00 D2 00 00 0E 01 0B AA 55 00 D2 00 00 0E 01 0B AA (书房窗帘电机状态返回)
2025-09-09 17:32:04.042 - 09 06 00 0F 02 02 38 20 (提示音咚)
2025-09-09 17:32:04.590 - 1A 27 89 12 AA 00 00 00 0F (状态寄存器地址, 无人状态)
2025-09-09 17:32:05.139 - 1A 27 89 12 AA 00 00 00 0F (状态寄存器地址, 无人状态)
2025-09-09 17:32:05.683 - A1 11 11 11 4D (天花供电关闭确认)
2025-09-09 17:32:05.912 - 1A EC A0 DC 02 86 86 86 0F (查询天花供电状态, 自保持开关地址-天花12V供电)
2025-09-09 17:32:06.346 - 1A EC A0 DC 02 00 01 0F (自保持开关地址-天花12V供电)
2025-09-09 17:32:08.722 - A1 11 11 11 4E (卫生供电关闭确认)
2025-09-09 17:32:08.950 - 1A EC A0 DC 04 86 86 86 0F (查询卫生间供电状态, 自保持开关地址-次卧西阳内外卫供电)
2025-09-09 17:32:09.384 - 1A EC A0 DC 04 01 00 0F (自保持开关地址-次卧西阳内外卫供电)
2025-09-09 17:32:11.763 - A1 11 11 11 4F (电视供电关闭确认)
2025-09-09 17:32:11.993 - 1A EC A0 DC 01 86 86 86 0F (查询电视供电状态, 自保持开关地址-电视、设备12V供电)
2025-09-09 17:32:12.424 - 1A EC A0 DC 01 00 01 0F (自保持开关地址-电视、设备12V供电)
2025-09-09 17:32:14.808 - 09 06 00 0F 02 02 38 20 (提示音咚)
2025-09-09 17:32:15.401 - 09 06 00 0F 02 02 38 20 (提示音咚)
2025-09-09 17:32:15.954 - EE 00 00 B1 00 00 02 FF FC FF FF (情景完成返回主页)
2025-09-09 17:32:17.044 - BA BA EE EE BA BA (离家设置信科变量)
2025-09-09 17:32:18.093 - A1 11 11 11 46 (天热离家遮阳)
2025-09-09 17:32:18.316 - 1A 27 89 12 AA 86 86 86 0F (查询寄存器状态, 状态寄存器地址)
2025-09-09 17:32:18.702 - 1A 27 89 12 AA 00 00 00 00 00 00 00 00 00 00 00 01 00 00 00 00 0F (状态寄存器地址)
2025-09-09 17:32:19.322 - 19 08 24 03 DD 00 05 00 01 (调用情景-天热遮阳关帘)
2025-09-09 17:32:19.892 - EE 00 00 B1 00 00 00 FF FC FF FF (情景执行提示)
2025-09-09 17:32:20.488 - 09 06 00 0F 02 01 78 21 (提示音叮)
2025-09-09 17:32:21.032 - A5 00 A2 FF 00 AA (餐厅纱帘关)
2025-09-09 17:32:22.079 - A5 00 A6 FF 00 AA (餐厅窗帘关)
2025-09-09 17:32:22.130 - 55 00 A6 01 00 0E 01 74 AA 55 00 A6 01 00 0E 01 74 AA (餐厅窗帘电机状态返回)
2025-09-09 17:32:23.178 - 55 11 1D 03 01 7C 06 (主卧纱帘关)
2025-09-09 17:32:23.222 - 55 11 1D 03 01 7C 06 (主卧纱帘关)
2025-09-09 17:32:24.273 - 55 12 12 03 02 0C 40 (主卧窗帘关)
2025-09-09 17:32:24.316 - 55 12 12 03 02 0C 40 (主卧窗帘关)
2025-09-09 17:32:25.397 - A5 00 21 FF 00 AA (次卧纱帘关)
2025-09-09 17:32:25.446 - 55 00 21 01 00 0D 01 34 AA 55 00 21 01 00 0D 01 34 AA (次卧纱帘电机状态返回)
2025-09-09 17:32:26.465 - A5 00 76 FF 00 AA (次卧窗帘关)
2025-09-09 17:32:26.517 - 55 00 76 01 00 0E 01 1B AA 55 00 76 01 00 0E 01 1B AA (次卧窗帘电机状态返回)
2025-09-09 17:32:27.561 - A5 00 B7 FF 00 AA 22 0D (书房纱帘关)
2025-09-09 17:32:28.609 - A5 00 D2 FF 00 AA 22 0C (书房窗帘关)
2025-09-09 17:32:28.662 - 55 00 D2 01 00 0E 01 0B AA 55 00 D2 01 00 0E 01 0B AA (书房窗帘电机状态返回)
2025-09-09 17:32:30.204 - 1A 22 33 62 5E 00 02 01 0F (正反转地址-厨房卷帘三, 厨房卷帘一降)
2025-09-09 17:32:31.016 - 55 00 A6 00 01 66 01 74 AA 55 00 A6 00 01 66 01 74 AA (餐厅窗帘电机状态返回)
2025-09-09 17:32:31.253 - 1A 22 33 62 56 00 02 01 0F (正反转地址-厨房卷帘二, 厨房卷帘二降)
2025-09-09 17:32:32.298 - 1A 22 33 62 4F 00 00 01 0F (正反转地址-厨房卷帘一, 厨房卷帘三降)
2025-09-09 17:32:32.589 - 55 00 21 00 01 27 01 34 AA 55 00 21 00 01 27 01 34 AA (次卧纱帘电机状态返回)
2025-09-09 17:32:33.346 - 1A BE B0 DC 04 00 02 00 (继电器地址-西阳窗帘, 西阳窗帘关)
2025-09-09 17:32:33.760 - 55 00 76 00 01 0E 01 1B AA 55 00 76 00 01 0E 01 1B AA (次卧窗帘电机状态返回)
2025-09-09 17:32:34.389 - FF FF FF FF 0E 00 02 00 (继电器地址-西阳小窗帘, 西阳小窗帘关)
2025-09-09 17:32:35.439 - 1A BE B0 DC 03 00 03 00 (继电器地址-西阳天幕, 西阳天幕关)
2025-09-09 17:32:36.486 - 1A BE B0 DC 03 00 03 00 (继电器地址-西阳天幕, 西阳天幕关)
2025-09-09 17:32:37.533 - 09 06 00 0F 02 02 38 20 (提示音咚)
2025-09-09 17:32:37.797 - 55 00 D2 00 00 FE 01 0B AA 55 00 D2 00 00 FE 01 0B AA (书房窗帘电机状态返回)
2025-09-09 17:32:38.081 - EE 00 00 B1 00 00 02 FF FC FF FF (情景完成返回主页)
2025-09-09 17:36:59.617 - 1A BE B0 DC 03 (继电器地址-西阳天幕)
2025-09-09 17:36:59.750 - FF
2025-09-09 17:49:59.439 - 1A BE B0 DC 01 FC (继电器地址-回水泵点动)
2025-09-09 17:54:51.940 - 1A BE B0 DC 04 (继电器地址-西阳窗帘)
2025-09-09 17:54:52.076 - FF
2025-09-09 18:21:00.066 - 1A FF FF FF 04 (继电器地址-东阳衣架)
2025-09-09 18:21:00.203 - FF
2025-09-09 18:28:50.958 - 1A BE B0 DC 02 (正反转地址-外卫卷帘)
2025-09-09 18:28:51.096 - FF
2025-09-09 18:32:51.569 - 1A BE B0 DC 09 (继电器地址-客厅窗帘)
2025-09-09 18:32:51.705 - FF
2025-09-09 18:42:10.878 - 1B 03 00 00 00 02 C6 31 (查询室外光线)
2025-09-09 18:42:10.900 - 1B 03 04 00 00 00 00 41 F2 (室外光线返回)
2025-09-09 18:42:11.680 - 1A EC A0 DC 02 00 00 01 0F (自保持开关地址-天花12V供电, 天花12V 供电开)
2025-09-09 18:42:12.244 - 1A AA AA AA 88 (调光器地址-茶吧灯带)
2025-09-09 18:42:12.383 - 1A FF 01 FF FF FF 60 01 FF 60 01 FF 00 00 0F (调光器地址-公共区域统配地址)
2025-09-09 18:42:13.375 - 19 08 24 03 DD 00 0D 00 01 (调用情景-信科调用进门暗)
2025-09-09 18:42:15.426 - 1A FF 01 FF FF FF 60 01 FF 60 01 FF 00 00 0F (调光器地址-公共区域统配地址)
2025-09-09 18:42:17.512 - 1A EC A0 DC 01 00 00 01 0F (自保持开关地址-电视、设备12V供电, 12V 电视供电开)
2025-09-09 18:42:18.059 - 1A EC A0 DC 01 00 00 01 0F (自保持开关地址-电视、设备12V供电, 12V 电视供电开)
2025-09-09 18:42:18.607 - 1A EC A0 DC 04 00 01 01 0F (自保持开关地址-次卧西阳内外卫供电, 内卫外卫开)
2025-09-09 18:42:19.157 - 1A EC A0 DC 04 00 01 01 0F (自保持开关地址-次卧西阳内外卫供电, 内卫外卫开)
2025-09-09 18:42:19.701 - 1A BB BB BB 01 01 00 (开水器电源开)
2025-09-09 18:42:21.252 - 1A 27 89 12 AA 00 00 01 0F (状态寄存器地址, 有人状态)
2025-09-09 18:42:21.798 - 1A 27 89 12 AA 00 00 01 0F (状态寄存器地址, 有人状态)
2025-09-09 18:42:22.344 - 1A BE B0 DC 01 00 01 00 (继电器地址-回水泵点动, 回水泵点动)
2025-09-09 18:42:22.894 - 1A FF FF FF 56 00 00 01 0F (人体感应地址-内卫, 打开内卫感应)
2025-09-09 18:42:23.002 - BE BF
2025-09-09 18:42:23.443 - 1A FF FF FF 55 00 00 01 0F (人体感应地址-外卫, 打开外卫感应)
2025-09-09 18:42:23.545 - BC BC
2025-09-09 18:42:23.989 - 1A FF FF FF 57 00 00 01 0F (人体感应地址-厨房, 打开厨房感应)
2025-09-09 18:42:24.098 - BF BF
2025-09-09 18:42:24.588 - 1A FF FF FF 57 00 00 01 0F (人体感应地址-厨房, 打开厨房感应)
2025-09-09 18:42:24.602 - BC BC
2025-09-09 18:42:25.188 - 1A FF FF FF 58 00 00 01 0F (人体感应地址-茶吧, 打开茶吧感应)
2025-09-09 18:42:25.236 - BC BC
2025-09-09 18:42:25.558 - 19 08 24 03 CC 01 53 00 01 (调用外卫感应灯关的按键)
2025-09-09 18:42:25.610 - 1A 0D 01 07 01 FF 00 01 FF 00 01 FF 00 00 0F (调光器地址-外卫射灯, 外卫感应灯关)
2025-09-09 18:42:26.013 - 1A BE B0 DC 01 00 01 00 (继电器地址-回水泵点动, 回水泵点动)
2025-09-09 18:42:26.581 - A5 00 B7 FF 00 AA 22 0D (书房纱帘关)
2025-09-09 18:42:27.126 - A5 00 A2 FF 00 AA (餐厅纱帘关)
2025-09-09 18:42:27.727 - 09 06 00 0F 02 01 78 21 (提示音叮)
2025-09-09 18:42:28.273 - 09 06 00 0F 02 01 78 21 (提示音叮)
2025-09-09 18:42:28.825 - EE 00 00 B1 00 00 02 FF FC FF FF (情景完成返回主页)
2025-09-09 18:42:29.418 - A1 11 11 11 50 (天花供电打开确认)
2025-09-09 18:42:29.648 - 1A EC A0 DC 02 86 86 86 0F (查询天花供电状态, 自保持开关地址-天花12V供电)
2025-09-09 18:42:30.081 - 1A EC A0 DC 02 01 01 0F (自保持开关地址-天花12V供电)
2025-09-09 18:42:31.959 - A1 11 11 11 51 (卫生供电打开确认)
2025-09-09 18:42:32.184 - 1A EC A0 DC 04 86 86 86 0F (查询卫生间供电状态, 自保持开关地址-次卧西阳内外卫供电)
2025-09-09 18:42:32.621 - 1A EC A0 DC 04 01 01 0F (自保持开关地址-次卧西阳内外卫供电)
2025-09-09 18:42:34.529 - A1 11 11 11 52 (电视供电打开确认)
2025-09-09 18:42:34.753 - 1A EC A0 DC 01 86 86 86 0F (查询电视供电状态, 自保持开关地址-电视、设备12V供电)
2025-09-09 18:42:35.186 - 1A EC A0 DC 01 01 01 0F (自保持开关地址-电视、设备12V供电)
2025-09-09 18:42:39.584 - A1 11 11 11 47 (天热回家开帘)
2025-09-09 18:42:39.806 - 1A 27 89 12 AA 86 86 86 0F (查询寄存器状态, 状态寄存器地址)
2025-09-09 18:42:40.192 - 1A 27 89 12 AA 01 00 00 00 00 00 00 00 00 00 00 01 00 00 00 00 0F (状态寄存器地址)
2025-09-09 18:42:40.814 - 19 08 24 03 DD 00 06 00 01 (调用情景-天热遮阳开帘)
2025-09-09 18:42:41.334 - EE 00 00 B1 00 00 00 FF FC FF FF (情景执行提示)
2025-09-09 18:42:41.930 - 09 06 00 0F 02 01 78 21 (提示音叮)
2025-09-09 18:42:42.474 - A5 00 A6 FE 01 AA (餐厅窗帘开)
2025-09-09 18:42:42.535 - 55 00 A6 02 01 66 01 74 AA 55 00 A6 02 01 66 E1 77 AB (餐厅窗帘电机状态返回)
2025-09-09 18:42:43.574 - 55 12 12 03 01 4C 41 (主卧窗帘开)
2025-09-09 18:42:43.615 - 55 12 12 03 01 4C 41 (主卧窗帘开)
2025-09-09 18:42:44.668 - 55 11 1D 03 02 3C 07 (主卧纱帘开)
2025-09-09 18:42:44.713 - 55 11 1D 03 02 3C 07 (主卧纱帘开)
2025-09-09 18:42:45.763 - A5 00 76 FE 01 AA (次卧窗帘开)
2025-09-09 18:42:45.818 - 55 00 76 02 01 0E 01 1B AA 55 00 76 02 01 0E 01 1B AA (次卧窗帘电机状态返回)
2025-09-09 18:42:46.861 - A5 00 21 FE 01 AA (次卧纱帘开)
2025-09-09 18:42:46.917 - 55 00 21 02 01 27 01 34 AA 55 00 21 02 01 27 01 34 AA (次卧纱帘电机状态返回)
2025-09-09 18:42:47.957 - 1A BE B0 DC 04 00 01 00 (继电器地址-西阳窗帘, 西阳窗帘开)
2025-09-09 18:42:49.003 - FF FF FF FF 0E 00 01 00 (继电器地址-西阳小窗帘, 西阳小窗帘开)
2025-09-09 18:42:50.050 - A5 00 D2 FE 01 AA 22 0D (书房窗帘开)
2025-09-09 18:42:50.105 - 55 00 D2 02 00 FE 01 0B AA 55 00 D2 02 00 FE 01 EB F7 (书房窗帘电机状态返回)
2025-09-09 18:42:51.147 - 09 06 00 0F 02 02 38 20 (提示音咚)
2025-09-09 18:42:51.540 - 55 00 A6 00 00 0E 01 74 AA 55 00 A6 00 00 0E 01 74 AA (餐厅窗帘电机状态返回)
2025-09-09 18:42:51.699 - EE 00 00 B1 00 00 02 FF FC FF FF (情景完成返回主页)
2025-09-09 18:42:53.007 - 55 00 76 00 00 0E 01 1B AA 55 00 76 00 00 0E 01 1B AA (次卧窗帘电机状态返回)
2025-09-09 18:42:53.931 - 19 08 24 03 DD 00 29 00 01 (调用情景-次卧照明关帘)
2025-09-09 18:42:54.488 - EE 00 00 B1 00 00 00 FF FC FF FF (情景执行提示)
2025-09-09 18:42:54.543 - 55 00 21 00 00 0D 01 34 AA 55 00 21 00 00 0D 01 FF (次卧纱帘电机状态返回)
2025-09-09 18:42:55.085 - 09 06 00 0F 02 01 78 21 (提示音叮)
2025-09-09 18:42:55.643 - 1A 0E 03 05 01 FF F0 01 FF F0 01 FF 00 00 0F (调光器地址-次卧射灯, 次卧射灯明亮)
2025-09-09 18:42:56.237 - 1A 0E 03 05 02 FF F0 01 FF F0 01 FF 00 00 0F (调光器地址-次卧灯带, 次卧灯带明亮)
2025-09-09 18:42:56.830 - A5 00 21 FF 00 AA (次卧纱帘关)
2025-09-09 18:42:56.885 - 55 00 21 01 00 0D 01 34 AA 55 00 21 01 00 0D 01 BC FD (次卧纱帘电机状态返回)
2025-09-09 18:42:57.673 - 55 00 D2 00 00 0E 01 0B AA 55 00 D2 00 00 0E 01 0B AA (书房窗帘电机状态返回)
2025-09-09 18:42:57.923 - A5 00 76 FF 00 AA (次卧窗帘关)
2025-09-09 18:42:57.976 - 55 00 76 01 00 0E 01 1B AA 55 00 76 01 00 0E 01 1B AA (次卧窗帘电机状态返回)
2025-09-09 18:42:59.029 - 1A 0E 03 05 04 FF F0 01 FF F0 01 FF 00 00 0F (调光器地址-次卧北筒灯, 次卧北筒灯明亮)
2025-09-09 18:42:59.656 - 1A 0E 03 05 05 FF F0 01 FF F0 01 FF 00 00 0F (调光器地址-次卧南筒灯, 次卧南筒灯明亮)
2025-09-09 18:43:00.217 - 09 06 00 0F 02 02 38 20 (提示音咚)
2025-09-09 18:43:00.768 - EE 00 00 B1 00 00 02 FF FC FF FF (情景完成返回主页)
2025-09-09 18:43:04.613 - 55 00 21 00 01 27 01 34 AA 55 00 21 00 01 27 01 34 AA (次卧纱帘电机状态返回)
2025-09-09 18:43:05.644 - 55 00 76 00 01 0E 01 1B AA 55 00 76 00 01 0E 01 1B AA (次卧窗帘电机状态返回)
2025-09-09 19:02:20.258 - 19 08 24 03 DD 00 10 00 01 (调用情景-客餐厅空调开)
2025-09-09 19:02:20.817 - EE 00 00 B1 00 00 00 FF FC FF FF (情景执行提示)
2025-09-09 19:02:21.413 - 09 06 00 0F 02 01 78 21 (提示音叮)
2025-09-09 19:02:21.958 - A1 11 11 11 40 (客厅空调自动开)
2025-09-09 19:02:22.186 - 19 08 24 03 F0 BB 78 02 02 00
2025-09-09 19:02:22.238 - 23 AA 56 02 13 02 2F 19 09 09 02 73 65 6F 6B 65 6E 64
2025-09-09 19:02:23.198 - 01 10 07 D0 00 03 06 70 61 00 02 00 FA 6F 26 (客厅空调冷25度)
2025-09-09 19:02:23.233 - 01 10 07 D0 00 03 06 70 61 00 02 00 FA 6F 26 (客厅空调冷25度)
2025-09-09 19:02:25.995 - A1 11 11 11 41 (餐厅空调自动开)
2025-09-09 19:02:26.220 - 19 08 24 03 F0 BB 78 02 02 00
2025-09-09 19:02:26.268 - 23 AA 56 02 13 02 33 19 09 09 02 73 65 6F 6B 65 6E 64
2025-09-09 19:02:27.228 - 01 10 07 D3 00 03 06 70 61 00 02 00 FA 9F 29 (餐厅空调冷25度)
2025-09-09 19:02:27.261 - 01 10 07 D3 00 03 06 70 61 00 02 00 FA 9F 29 (餐厅空调冷25度)
2025-09-09 19:02:30.033 - 09 06 00 0F 02 02 38 20 (提示音咚)
2025-09-09 19:02:30.583 - EE 00 00 B1 00 00 02 FF FC FF FF (情景完成返回主页)
2025-09-09 19:02:45.484 - 19 08 24 03 CC 01 52 00 01 (调用外卫感应灯开的按键)
2025-09-09 19:02:45.532 - 1A 0D 01 07 01 FF 45 01 FF 45 01 FF 00 00 0F (调光器地址-外卫射灯, 外卫感应灯开)
2025-09-09 19:02:57.921 - 19 08 24 03 DD 00 3E 00 01 (调用情景-外卫照明关帘)
2025-09-09 19:02:58.442 - EE 00 00 B1 00 00 00 FF FC FF FF (情景执行提示)
2025-09-09 19:02:59.035 - 09 06 00 0F 02 01 78 21 (提示音叮)
2025-09-09 19:02:59.587 - 1A FF FF FF 55 00 00 00 0F (人体感应地址-外卫, 关闭外卫感应)
2025-09-09 19:02:59.689 - BF BF
2025-09-09 19:03:00.640 - 1A 0D 01 07 01 FF F0 01 FF F0 01 FF 00 00 0F (调光器地址-外卫射灯, 外卫射灯明亮)
2025-09-09 19:03:01.230 - 09 06 00 0F 02 02 38 20 (提示音咚)
2025-09-09 19:03:01.781 - EE 00 00 B1 00 00 02 FF FC FF FF (情景完成返回主页)
2025-09-09 19:06:50.570 - 1A BE B0 DC 0A (继电器地址-客厅纱帘)
2025-09-09 19:20:29.003 - FF FF FF FF 0E FC (继电器地址-西阳小窗帘)
2025-09-09 19:20:29.137 - FF
2025-09-09 19:47:34.073 - 19 08 24 03 DD 00 1C 00 01 (调用情景-外卫使用完毕)
2025-09-09 19:47:34.602 - EE 00 00 B1 00 00 00 FF FC FF FF (情景执行提示)
2025-09-09 19:47:35.195 - 09 06 00 0F 02 01 78 21 (提示音叮)
2025-09-09 19:47:35.749 - 1A 0D 01 07 01 FF 00 01 FF 00 01 FF 00 00 0F (调光器地址-外卫射灯, 外卫感应灯关)
2025-09-09 19:47:36.336 - 50 F5 03 (关外卫影视)
2025-09-09 19:47:36.894 - 1A 20 07 00 42 00 01 00 0F (自保持开关地址-外卫顶灯, 外卫顶灯关)
2025-09-09 19:47:37.440 - 1A FF FF FF 55 00 00 01 0F (人体感应地址-外卫, 打开外卫感应)
2025-09-09 19:47:37.544 - BC BC
2025-09-09 19:47:39.983 - 09 06 00 0F 02 02 38 20 (提示音咚)
2025-09-09 19:47:40.583 - EE 00 00 B1 00 00 02 FF FC FF FF (情景完成返回主页)
2025-09-09 19:47:50.580 - 19 08 24 03 CC 01 53 00 01 (调用外卫感应灯关的按键)
2025-09-09 19:47:50.632 - 1A 0D 01 07 01 FF 00 01 FF 00 01 FF 00 00 0F (调光器地址-外卫射灯, 外卫感应灯关)
2025-09-09 19:48:29.081 - 19 08 24 03 CC 01 CC 00 01 (调用茶吧感应灯开的按键)
2025-09-09 19:48:29.115 - 1A AA AA AA 88 FF B0 01 FF B0 01 0F (调光器地址-茶吧灯带, 茶吧灯带明亮)
2025-09-09 19:48:30.998 - 19 08 24 03 CC 00 D3 00 01 (调用厨房感应灯开的按键)
2025-09-09 19:48:31.031 - 55 0A 32 00 00 00 01 92 55 0A 32 00 00 00 02 93 (厨房顶灯一开, 厨房顶灯二开)
2025-09-09 19:49:13.579 - 19 08 24 03 CC 00 D4 00 01 (调用厨房感应灯关的按键)
2025-09-09 19:49:13.614 - 55 0A 31 00 00 00 01 91 55 0A 31 00 00 00 02 92 (厨房顶灯一关, 厨房顶灯二关)
2025-09-09 19:49:38.792 - 19 08 24 03 CC 01 52 00 01 (调用外卫感应灯开的按键)
2025-09-09 19:49:38.827 - 1A 0D 01 07 01 FF 45 01 FF 45 01 FF 00 00 0F (调光器地址-外卫射灯, 外卫感应灯开)
2025-09-09 19:49:42.726 - 19 08 24 03 CC 01 CD 00 01 (调用茶吧感应灯关的按键)
2025-09-09 19:49:42.775 - 1A AA AA AA 88 FF 00 01 FF 00 01 0F (调光器地址-茶吧灯带, 茶吧灯带关闭)
2025-09-09 19:49:54.325 - 19 08 24 03 CC 01 53 00 01 (调用外卫感应灯关的按键)
2025-09-09 19:49:54.356 - 1A 0D 01 07 01 FF 00 01 FF 00 01 FF 00 00 0F (调光器地址-外卫射灯, 外卫感应灯关)
2025-09-09 20:02:35.561 - FF FF FF FF 0A FC (继电器地址-东阳窗帘)
2025-09-09 20:51:51.208 - 01 04 07 D0 00 06 70 85
2025-09-09 20:51:51.244 - 01 04 0C 70 01 42 02 00 FA 00 00 01 04 00 00 70 78
2025-09-09 20:51:51.357 - 01 04 07 D6 00 06 90 84
2025-09-09 20:51:51.394 - 01 04 0C 70 01 42 02 00 FA 00 00 01 18 00 00 B1 BE
2025-09-09 20:51:51.515 - 01 04 07 DC 00 06 B0 86
2025-09-09 20:51:51.546 - 01 04 0C 50 00 42 02 01 04 00 00 01 2C 00 00 AB 30
2025-09-09 20:51:51.673 - 01 04 07 E2 00 06 D1 4A
2025-09-09 20:51:51.708 - 01 04 0C 70 01 42 02 00 FA 00 00 00 FA 00 00 10 74
2025-09-09 20:51:51.826 - 01 04 07 E8 00 06 F1 48
2025-09-09 20:51:51.859 - 01 04 0C 70 00 42 02 00 FA 00 00 01 22 00 00 95 4F
2025-09-09 20:54:24.773 - 19 08 24 03 CC 00 D3 00 01 (调用厨房感应灯开的按键)
2025-09-09 20:54:24.825 - 55 0A 32 00 00 00 01 92 55 0A 32 00 00 00 02 93 (厨房顶灯一开, 厨房顶灯二开)
2025-09-09 20:54:49.946 - 19 08 24 03 CC 01 CC 00 01 (调用茶吧感应灯开的按键)
2025-09-09 20:54:49.978 - 1A AA AA AA 88 FF B0 01 FF B0 01 0F (调光器地址-茶吧灯带, 茶吧灯带明亮)
2025-09-09 20:55:11.864 - 19 08 24 03 CC 00 D4 00 01 (调用厨房感应灯关的按键)
2025-09-09 20:55:11.897 - 55 0A 31 00 00 00 01 91 55 0A 31 00 00 00 02 92 (厨房顶灯一关, 厨房顶灯二关)
2025-09-09 20:55:13.059 - 19 08 24 03 CC 01 52 00 01 (调用外卫感应灯开的按键)
2025-09-09 20:55:13.093 - 1A 0D 01 07 01 FF 45 01 FF 45 01 FF 00 00 0F (调光器地址-外卫射灯, 外卫感应灯开)
2025-09-09 20:55:29.024 - 19 08 24 03 CC 01 CD 00 01 (调用茶吧感应灯关的按键)
2025-09-09 20:55:29.056 - 1A AA AA AA 88 FF 00 01 FF 00 01 0F (调光器地址-茶吧灯带, 茶吧灯带关闭)
2025-09-09 20:55:33.097 - 19 08 24 03 CC 01 53 00 01 (调用外卫感应灯关的按键)
2025-09-09 20:55:33.132 - 1A 0D 01 07 01 FF 00 01 FF 00 01 FF 00 00 0F (调光器地址-外卫射灯, 外卫感应灯关)
2025-09-09 20:55:41.549 - 19 08 24 03 CC 01 CC 00 01 (调用茶吧感应灯开的按键)
2025-09-09 20:55:41.581 - 1A AA AA AA 88 FF B0 01 FF B0 01 0F (调光器地址-茶吧灯带, 茶吧灯带明亮)
2025-09-09 20:55:44.429 - 19 08 24 03 CC 00 D3 00 01 (调用厨房感应灯开的按键)
2025-09-09 20:55:44.464 - 55 0A 32 00 00 00 01 92 55 0A 32 00 00 00 02 93 (厨房顶灯一开, 厨房顶灯二开)
2025-09-09 20:56:35.027 - 19 08 24 03 CC 00 D4 00 01 (调用厨房感应灯关的按键)
2025-09-09 20:56:35.064 - 55 0A 31 00 00 00 01 91 55 0A 31 00 00 00 02 92 (厨房顶灯一关, 厨房顶灯二关)
2025-09-09 20:56:59.703 - 19 08 24 03 CC 01 CD 00 01 (调用茶吧感应灯关的按键)
2025-09-09 20:56:59.736 - 1A AA AA AA 88 FF 00 01 FF 00 01 0F (调光器地址-茶吧灯带, 茶吧灯带关闭)
2025-09-09 20:57:01.908 - 19 08 24 03 DD 00 42 00 01 (调用情景-主卧电视空调)
2025-09-09 20:57:02.450 - EE 00 00 B1 00 00 00 FF FC FF FF (情景执行提示)
2025-09-09 20:57:03.044 - 09 06 00 0F 02 01 78 21 (提示音叮)
2025-09-09 20:57:03.587 - 50 F0 05 (开主卧影视)
2025-09-09 20:57:04.632 - 50 F0 04 (开内卫影视)
2025-09-09 20:57:05.187 - 1A FF FF FF 56 00 00 00 0F (人体感应地址-内卫, 关闭内卫感应)
2025-09-09 20:57:05.301 - BF BF
2025-09-09 20:57:05.738 - 1A 22 33 62 0F 00 02 01 0F (正反转地址-内卫卷帘, 内卫卷帘降)
2025-09-09 20:57:06.330 - 55 11 1D 03 01 7C 06 (主卧纱帘关)
2025-09-09 20:57:06.371 - 55 11 1D 03 01 7C 06 (主卧纱帘关)
2025-09-09 20:57:07.427 - 55 12 12 03 02 0C 40 (主卧窗帘关)
2025-09-09 20:57:07.472 - 55 12 12 03 02 0C 40 (主卧窗帘关)
2025-09-09 20:57:08.536 - 1A 0C 02 04 FF FF 45 01 FF 45 01 FF 00 00 0F (主卧调光微光)
2025-09-09 20:57:12.617 - 1A 0C 02 08 01 FF 45 01 FF 45 01 FF 00 00 0F (调光器地址-内卫射灯, 内卫射灯微光)
2025-09-09 20:57:13.207 - 50 F1 25 (主卧—有线2)
2025-09-09 20:57:13.756 - A1 11 11 11 42 (主卧空调自动开)
2025-09-09 20:57:13.985 - 19 08 24 03 F0 BB 78 02 02 00
2025-09-09 20:57:14.034 - 23 AA 56 02 14 39 27 19 09 09 02 73 65 6F 6B 65 6E 64
2025-09-09 20:57:14.301 - 50 F1 24 (内卫—有线2)
2025-09-09 20:57:14.994 - 01 10 07 D6 00 03 06 70 61 00 02 00 F0 0F 3E (主卧空调冷24度)
2025-09-09 20:57:15.036 - 01 10 07 D6 00 03 06 70 61 00 02 00 F0 0F 3E (主卧空调冷24度)
2025-09-09 20:57:16.348 - AF BF CF DF C2 21 (有线2/快捷-凤凰卫视)
2025-09-09 20:57:18.419 - 1A FF FF FF 60 0B 01 01 0F (红外总线地址-主卧发射设备, 主卧电视电源)
2025-09-09 20:57:18.932 - F0 0B 01 08
2025-09-09 20:57:26.469 - 09 06 00 0F 02 02 38 20 (提示音咚)
2025-09-09 20:57:27.069 - EE 00 00 B1 00 00 02 FF FC FF FF (情景完成返回主页)
2025-09-09 20:58:22.537 - 01 04 07 D0 00 06 70 85
2025-09-09 20:58:22.566 - 01 04 0C 70 01 42 02 00 FA 00 00 01 04 00 00 70 78
2025-09-09 20:58:22.683 - 01 04 07 D6 00 06 90 84
2025-09-09 20:58:22.719 - 01 04 0C 70 01 42 02 00 FA 00 00 01 18 00 00 B1 BE
2025-09-09 20:58:22.845 - 01 04 07 DC 00 06 B0 86
2025-09-09 20:58:22.880 - 01 04 0C 70 01 42 02 00 F0 00 00 01 2C 00 00 5A 70
2025-09-09 20:58:22.997 - 01 04 07 E2 00 06 D1 4A
2025-09-09 20:58:23.032 - 01 04 0C 70 01 42 02 00 FA 00 00 00 FA 00 00 10 74
2025-09-09 20:58:23.154 - 01 04 07 E8 00 06 F1 48
2025-09-09 20:58:23.184 - 01 04 0C 70 00 42 02 00 FA 00 00 01 22 00 00 95 4F
2025-09-09 20:58:37.473 - 01 10 07 D6 00 03 06 50 61 00 02 00 DC 09 83
2025-09-09 20:58:37.603 - 01 10 07 D6 00 03 06 50 61 00 02 00 DC 09 83
2025-09-09 20:58:38.649 - 01 04 07 DC 00 06 B0 86
2025-09-09 20:58:38.676 - 01 04 0C 50 01 42 02 00 DC 00 00 01 2C 00 00 36 0D
2025-09-09 20:59:25.439 - 1A BE B0 DC 03 FE (继电器地址-西阳天幕)
2025-09-09 20:59:25.575 - FE
2025-09-09 21:12:25.066 - 1A BE B0 DC 01 (继电器地址-回水泵点动)
2025-09-09 21:12:25.202 - FF
2025-09-09 21:15:19.158 - 1A BE B0 DC 04 FD (继电器地址-西阳窗帘)
2025-09-09 21:15:19.292 - FF
2025-09-09 21:15:19.698 - 19 08 24 03 DD 00 1B 00 01 (调用情景-外卫使用)
2025-09-09 21:15:20.275 - EE 00 00 B1 00 00 00 FF FC FF FF (情景执行提示)
2025-09-09 21:15:20.838 - 09 06 00 0F 02 01 78 21 (提示音叮)
2025-09-09 21:15:21.381 - 50 F0 03 (开外卫影视)
2025-09-09 21:15:21.936 - 1A FF FF FF 55 00 00 00 0F (人体感应地址-外卫, 关闭外卫感应)
2025-09-09 21:15:22.041 - BF BF
2025-09-09 21:15:22.489 - 1A 0D 01 07 01 FF 45 01 FF 45 01 FF 00 00 0F (调光器地址-外卫射灯, 外卫感应灯开)
2025-09-09 21:15:24.577 - 1A BE B0 DC 01 00 01 00 (继电器地址-回水泵点动, 回水泵点动)
2025-09-09 21:15:25.622 - 1A BE B0 DC 01 00 01 00 (继电器地址-回水泵点动, 回水泵点动)
2025-09-09 21:15:26.670 - 1A BE B0 DC 01 00 01 00 (继电器地址-回水泵点动, 回水泵点动)
2025-09-09 21:15:27.708 - 50 F1 43 (外卫—CH4)
2025-09-09 21:15:32.002 - A1 11 11 11 11 05 (外卫使用浴霸判断)
2025-09-09 21:15:32.225 - 13 03 00 00 00 02 C7 79 (查询外卫温湿度)
2025-09-09 21:15:32.251 - 13 03 04 01 C3 01 11 F8 6E (外卫温湿度返回)
2025-09-09 21:15:34.050 - 09 06 00 0F 02 02 38 20 (提示音咚)
2025-09-09 21:15:36.093 - EE 00 00 B1 00 00 02 FF FC FF FF (情景完成返回主页)
2025-09-09 21:15:44.790 - 19 08 24 03 CC 00 D3 00 01 (调用厨房感应灯开的按键)
2025-09-09 21:15:44.845 - 55 0A 32 00 00 00 01 92 55 0A 32 00 00 00 02 93 (厨房顶灯一开, 厨房顶灯二开)
2025-09-09 21:16:23.868 - 19 08 24 03 CC 00 D4 00 01 (调用厨房感应灯关的按键)
2025-09-09 21:16:23.901 - 55 0A 31 00 00 00 01 91 55 0A 31 00 00 00 02 92 (厨房顶灯一关, 厨房顶灯二关)
2025-09-09 21:28:11.897 - 19 08 24 03 DD 00 1C 00 01 (调用情景-外卫使用完毕)
2025-09-09 21:28:12.425 - EE 00 00 B1 00 00 00 FF FC FF FF (情景执行提示)
2025-09-09 21:28:13.018 - 09 06 00 0F 02 01 78 21 (提示音叮)
2025-09-09 21:28:13.574 - 1A 0D 01 07 01 FF 00 01 FF 00 01 FF 00 00 0F (调光器地址-外卫射灯, 外卫感应灯关)
2025-09-09 21:28:14.159 - 50 F5 03 (关外卫影视)
2025-09-09 21:28:14.721 - 1A 20 07 00 42 00 01 00 0F (自保持开关地址-外卫顶灯, 外卫顶灯关)
2025-09-09 21:28:15.260 - 1A FF FF FF 55 00 00 01 0F (人体感应地址-外卫, 打开外卫感应)
2025-09-09 21:28:15.365 - BC BC
2025-09-09 21:28:15.679 - 19 08 24 03 CC 01 52 00 01 (调用外卫感应灯开的按键)
2025-09-09 21:28:15.734 - 1A 0D 01 07 01 FF 45 01 FF 45 01 FF 00 00 0F (调光器地址-外卫射灯, 外卫感应灯开)
2025-09-09 21:28:18.155 - 09 06 00 0F 02 02 38 20 (提示音咚)
2025-09-09 21:28:18.754 - EE 00 00 B1 00 00 02 FF FC FF FF (情景完成返回主页)
2025-09-09 21:28:50.945 - 19 08 24 03 CC 01 53 00 01 (调用外卫感应灯关的按键)
2025-09-09 21:28:50.986 - 1A 0D 01 07 01 FF 00 01 FF 00 01 FF 00 00 0F (调光器地址-外卫射灯, 外卫感应灯关)
2025-09-09 21:29:42.101 - 19 08 24 03 CC 01 CC 00 01 (调用茶吧感应灯开的按键)
2025-09-09 21:29:42.134 - 1A AA AA AA 88 FF B0 01 FF B0 01 0F (调光器地址-茶吧灯带, 茶吧灯带明亮)
2025-09-09 21:29:44.957 - 19 08 24 03 CC 00 D3 00 01 (调用厨房感应灯开的按键)
2025-09-09 21:29:44.992 - 55 0A 32 00 00 00 01 92 55 0A 32 00 00 00 02 93 (厨房顶灯一开, 厨房顶灯二开)
2025-09-09 21:29:55.125 - 19 08 24 03 CC 01 CD 00 01 (调用茶吧感应灯关的按键)
2025-09-09 21:29:55.160 - 1A AA AA AA 88 FF 00 01 FF 00 01 0F (调光器地址-茶吧灯带, 茶吧灯带关闭)
2025-09-09 21:29:57.132 - 19 08 24 03 CC 01 CC 00 01 (调用茶吧感应灯开的按键)
2025-09-09 21:29:57.161 - 1A AA AA AA 88 FF B0 01 FF B0 01 0F (调光器地址-茶吧灯带, 茶吧灯带明亮)
2025-09-09 21:30:12.138 - 19 08 24 03 DD 00 3B 00 01 (调用情景-书房照明关帘)
2025-09-09 21:30:12.676 - EE 00 00 B1 00 00 00 FF FC FF FF (情景执行提示)
2025-09-09 21:30:13.270 - 09 06 00 0F 02 01 78 21 (提示音叮)
2025-09-09 21:30:13.827 - 1A 0A 04 06 01 FF F0 01 FF F0 01 FF 00 00 0F (调光器地址-书房射灯, 书房射灯明亮)
2025-09-09 21:30:17.164 - A1 11 11 11 44 (书房空调自动开)
2025-09-09 21:30:17.399 - 19 08 24 03 F0 BB 78 02 02 00
2025-09-09 21:30:17.454 - 23 AA 56 02 15 1E 2A 19 09 09 02 73 65 6F 6B 65 6E 64
2025-09-09 21:30:17.902 - A5 00 B7 FF 00 AA 22 0D (书房纱帘关)
2025-09-09 21:30:18.404 - 01 10 07 DC 00 03 06 70 61 00 02 00 FA AF 19 (书房空调热28度)
2025-09-09 21:30:18.452 - 01 10 07 DC 00 03 06 70 61 00 02 00 FA AF 19 (书房空调热28度)
2025-09-09 21:30:18.948 - A5 00 D2 FF 00 AA 22 0C (书房窗帘关)
2025-09-09 21:30:18.996 - 55 00 D2 01 00 0E 01 0B AA 55 00 D2 01 00 0E 01 0B AA (书房窗帘电机状态返回)
2025-09-09 21:30:20.046 - 09 06 00 0F 02 02 38 20 (提示音咚)
2025-09-09 21:30:20.601 - EE 00 00 B1 00 00 02 FF FC FF FF (情景完成返回主页)
2025-09-09 21:30:27.772 - 55 00 D2 00 00 FE 01 0B AA 55 00 D2 00 00 FE 01 0B AA (书房窗帘电机状态返回)
2025-09-09 21:30:38.565 - 19 08 24 03 CC 00 D4 00 01 (调用厨房感应灯关的按键)
2025-09-09 21:30:38.618 - 55 0A 31 00 00 00 01 91 55 0A 31 00 00 00 02 92 (厨房顶灯一关, 厨房顶灯二关)
2025-09-09 21:30:45.240 - 19 08 24 03 CC 01 CD 00 01 (调用茶吧感应灯关的按键)
2025-09-09 21:30:45.273 - 1A AA AA AA 88 FF 00 01 FF 00 01 0F (调光器地址-茶吧灯带, 茶吧灯带关闭)
2025-09-09 21:32:45.146 - 19 08 24 03 DD 00 3A 00 01 (调用情景-离开书房)
2025-09-09 21:32:45.659 - EE 00 00 B1 00 00 00 FF FC FF FF (情景执行提示)
2025-09-09 21:32:46.252 - 09 06 00 0F 02 01 78 21 (提示音叮)
2025-09-09 21:32:46.802 - 01 06 07 DC FF 60 08 9C (书房空调关)
2025-09-09 21:32:46.834 - 01 06 07 DC FF 60 08 9C (书房空调关)
2025-09-09 21:32:47.393 - 50 F5 07 (关书房影视)
2025-09-09 21:32:47.948 - A5 00 D2 FE 01 AA 22 0D (书房窗帘开)
2025-09-09 21:32:48.001 - 55 00 D2 02 00 FE 01 0B AA 55 00 D2 02 00 FE 01 0B FA (书房窗帘电机状态返回)
2025-09-09 21:32:49.043 - A5 00 B7 FF 00 AA 22 0D (书房纱帘关)
2025-09-09 21:32:50.090 - 55 0D 31 00 00 00 01 94 (书房顶灯只关)
2025-09-09 21:32:51.147 - 1A 0A 04 06 01 FF 00 01 FF 00 01 FF 00 00 0F (调光器地址-书房射灯, 书房射灯关闭)
2025-09-09 21:32:52.490 - 19 08 24 03 CC 01 CC 00 01 (调用茶吧感应灯开的按键)
2025-09-09 21:32:52.541 - 1A AA AA AA 88 FF B0 01 FF B0 01 0F (调光器地址-茶吧灯带, 茶吧灯带明亮)
2025-09-09 21:32:55.139 - 55 00 D2 00 00 0E 01 0B AA 55 00 D2 00 00 0E 01 0B AA (书房窗帘电机状态返回)
2025-09-09 21:32:55.220 - 09 06 00 0F 02 02 38 20 (提示音咚)
2025-09-09 21:32:55.772 - EE 00 00 B1 00 00 02 FF FC FF FF (情景完成返回主页)
2025-09-09 21:33:14.375 - 19 08 24 03 CC 00 D3 00 01 (调用厨房感应灯开的按键)
2025-09-09 21:33:14.429 - 55 0A 32 00 00 00 01 92 55 0A 32 00 00 00 02 93 (厨房顶灯一开, 厨房顶灯二开)
2025-09-09 21:33:26.561 - 19 08 24 03 CC 01 CD 00 01 (调用茶吧感应灯关的按键)
2025-09-09 21:33:26.589 - 1A AA AA AA 88 FF 00 01 FF 00 01 0F (调光器地址-茶吧灯带, 茶吧灯带关闭)
2025-09-09 21:33:27.559 - 19 08 24 03 CC 01 CC 00 01 (调用茶吧感应灯开的按键)
2025-09-09 21:33:27.591 - 1A AA AA AA 88 FF B0 01 FF B0 01 0F (调光器地址-茶吧灯带, 茶吧灯带明亮)
2025-09-09 21:34:07.981 - 19 08 24 03 CC 00 D4 00 01 (调用厨房感应灯关的按键)
2025-09-09 21:34:08.023 - 55 0A 31 00 00 00 01 91 55 0A 31 00 00 00 02 92 (厨房顶灯一关, 厨房顶灯二关)
2025-09-09 21:34:14.653 - 19 08 24 03 CC 01 CD 00 01 (调用茶吧感应灯关的按键)
2025-09-09 21:34:14.685 - 1A AA AA AA 88 FF 00 01 FF 00 01 0F (调光器地址-茶吧灯带, 茶吧灯带关闭)
2025-09-09 21:44:16.916 - 1A FF FF FF 04 (继电器地址-东阳衣架)
2025-09-09 21:44:17.054 - FF
2025-09-09 21:52:13.377 - 1A BE B0 DC 02 FF (正反转地址-外卫卷帘)
2025-09-09 21:52:13.509 - FF
2025-09-09 21:56:11.137 - 1A BE B0 DC 09 (继电器地址-客厅窗帘)
2025-09-09 21:56:11.274 - FF
2025-09-09 21:57:07.296 - 19 08 24 03 CC 01 52 00 01 (调用外卫感应灯开的按键)
2025-09-09 21:57:07.350 - 1A 0D 01 07 01 FF 45 01 FF 45 01 FF 00 00 0F (调光器地址-外卫射灯, 外卫感应灯开)
2025-09-09 22:00:42.223 - 19 08 24 03 CC 01 53 00 01 (调用外卫感应灯关的按键)
2025-09-09 22:00:42.278 - 1A 0D 01 07 01 FF 00 01 FF 00 01 FF 00 00 0F (调光器地址-外卫射灯, 外卫感应灯关)
2025-09-09 22:01:14.284 - 19 08 24 03 CC 01 52 00 01 (调用外卫感应灯开的按键)
2025-09-09 22:01:14.321 - 1A 0D 01 07 01 FF 45 01 FF 45 01 FF 00 00 0F (调光器地址-外卫射灯, 外卫感应灯开)
2025-09-09 22:02:32.660 - 19 08 24 03 DD 00 33 00 01 (调用情景-次卧睡觉)
2025-09-09 22:02:33.179 - EE 00 00 B1 00 00 00 FF FC FF FF (情景执行提示)
2025-09-09 22:02:33.772 - 09 06 00 0F 02 01 78 21 (提示音叮)
2025-09-09 22:02:34.322 - 1A 20 07 00 70 00 01 00 0F (自保持开关地址-次卧顶灯, 次卧顶灯只关)
2025-09-09 22:02:34.870 - A5 00 21 FF 00 AA (次卧纱帘关)
2025-09-09 22:02:35.911 - A5 00 76 FF 00 AA (次卧窗帘关)
2025-09-09 22:02:35.947 - 19 08 24 03 CC 01 53 00 01 (调用外卫感应灯关的按键)
2025-09-09 22:02:36.036 - 1A 0D 01 07 01 FF 00 01 FF 00 01 FF 00 00 0F (调光器地址-外卫射灯, 外卫感应灯关)
2025-09-09 22:02:37.406 - 50 F5 06 (关次卧影视)
2025-09-09 22:02:37.965 - 1A 0E 03 05 03 FF 00 01 FF 00 01 FF 00 00 0F (调光器地址-次卧阅读灯, 次卧阅读关闭)
2025-09-09 22:02:38.567 - 1A 0E 03 05 02 FF 00 01 FF 00 01 FF 00 00 0F (调光器地址-次卧灯带, 次卧灯带关闭)
2025-09-09 22:02:39.161 - 1A 0E 03 05 04 FF 00 01 FF 00 01 FF 00 00 0F (调光器地址-次卧北筒灯, 次卧北筒灯关闭)
2025-09-09 22:02:39.759 - 1A 0E 03 05 05 FF 00 01 FF 00 01 FF 00 00 0F (调光器地址-次卧南筒灯, 次卧南筒灯关闭)
2025-09-09 22:02:40.355 - 1A 0E 03 05 01 FF 00 01 FF 00 01 FF 00 00 0F (调光器地址-次卧射灯, 次卧射灯关闭)
2025-09-09 22:02:40.952 - 09 06 00 0F 02 02 38 20 (提示音咚)
2025-09-09 22:02:41.551 - EE 00 00 B1 00 00 02 FF FC FF FF (情景完成返回主页)
2025-09-09 22:03:05.016 - 19 08 24 03 CC 01 52 00 01 (调用外卫感应灯开的按键)
2025-09-09 22:03:05.047 - 1A 0D 01 07 01 FF 45 01 FF 45 01 FF 00 00 0F (调光器地址-外卫射灯, 外卫感应灯开)
2025-09-09 22:07:51.582 - 19 08 24 03 CC 01 53 00 01 (调用外卫感应灯关的按键)
2025-09-09 22:07:51.614 - 1A 0D 01 07 01 FF 00 01 FF 00 01 FF 00 00 0F (调光器地址-外卫射灯, 外卫感应灯关)
2025-09-09 22:08:38.672 - 19 08 24 03 CC 01 52 00 01 (调用外卫感应灯开的按键)
2025-09-09 22:08:38.712 - 1A 0D 01 07 01 FF 45 01 FF 45 01 FF 00 00 0F (调光器地址-外卫射灯, 外卫感应灯开)
2025-09-09 22:08:51.759 - 19 08 24 03 CC 01 CC 00 01 (调用茶吧感应灯开的按键)
2025-09-09 22:08:51.789 - 1A AA AA AA 88 FF B0 01 FF B0 01 0F (调光器地址-茶吧灯带, 茶吧灯带明亮)
2025-09-09 22:08:56.208 - 19 08 24 03 CC 01 53 00 01 (调用外卫感应灯关的按键)
2025-09-09 22:08:56.242 - 1A 0D 01 07 01 FF 00 01 FF 00 01 FF 00 00 0F (调光器地址-外卫射灯, 外卫感应灯关)
2025-09-09 22:10:38.471 - 19 08 24 03 CC 01 CD 00 01 (调用茶吧感应灯关的按键)
2025-09-09 22:10:38.502 - 1A AA AA AA 88 FF 00 01 FF 00 01 0F (调光器地址-茶吧灯带, 茶吧灯带关闭)
2025-09-09 22:10:43.921 - 19 08 24 03 CC 01 52 00 01 (调用外卫感应灯开的按键)
2025-09-09 22:10:43.953 - 1A 0D 01 07 01 FF 45 01 FF 45 01 FF 00 00 0F (调光器地址-外卫射灯, 外卫感应灯开)
2025-09-09 22:10:59.452 - 19 08 24 03 CC 01 53 00 01 (调用外卫感应灯关的按键)
2025-09-09 22:10:59.487 - 1A 0D 01 07 01 FF 00 01 FF 00 01 FF 00 00 0F (调光器地址-外卫射灯, 外卫感应灯关)
2025-09-09 22:11:44.542 - 19 08 24 03 CC 01 52 00 01 (调用外卫感应灯开的按键)
2025-09-09 22:11:44.574 - 1A 0D 01 07 01 FF 45 01 FF 45 01 FF 00 00 0F (调光器地址-外卫射灯, 外卫感应灯开)
2025-09-09 22:13:22.733 - 19 08 24 03 CC 01 53 00 01 (调用外卫感应灯关的按键)
2025-09-09 22:13:22.767 - 1A 0D 01 07 01 FF 00 01 FF 00 01 FF 00 00 0F (调光器地址-外卫射灯, 外卫感应灯关)
2025-09-09 22:13:32.753 - 19 08 24 03 CC 01 52 00 01 (调用外卫感应灯开的按键)
2025-09-09 22:13:32.792 - 1A 0D 01 07 01 FF 45 01 FF 45 01 FF 00 00 0F (调光器地址-外卫射灯, 外卫感应灯开)
2025-09-09 22:15:56.538 - 19 08 24 03 CC 01 53 00 01 (调用外卫感应灯关的按键)
2025-09-09 22:15:56.572 - 1A 0D 01 07 01 FF 00 01 FF 00 01 FF 00 00 0F (调光器地址-外卫射灯, 外卫感应灯关)
2025-09-09 22:15:57.540 - 19 08 24 03 CC 01 52 00 01 (调用外卫感应灯开的按键)
2025-09-09 22:15:57.573 - 1A 0D 01 07 01 FF 45 01 FF 45 01 FF 00 00 0F (调光器地址-外卫射灯, 外卫感应灯开)
2025-09-09 22:18:50.475 - 19 08 24 03 DD 00 3A 00 01 (调用情景-离开书房)
2025-09-09 22:18:51.026 - EE 00 00 B1 00 00 00 FF FC FF FF (情景执行提示)
2025-09-09 22:18:51.620 - 09 06 00 0F 02 01 78 21 (提示音叮)
2025-09-09 22:18:52.172 - 01 06 07 DC FF 60 08 9C (书房空调关)
2025-09-09 22:18:52.200 - 01 06 07 DC FF 60 08 9C (书房空调关)
2025-09-09 22:18:52.791 - 50 F5 07 (关书房影视)
2025-09-09 22:18:53.365 - A5 00 D2 FE 01 AA 22 0D (书房窗帘开)
2025-09-09 22:18:54.414 - A5 00 B7 FF 00 AA 22 0D (书房纱帘关)
2025-09-09 22:18:55.459 - 55 0D 31 00 00 00 01 94 (书房顶灯只关)
2025-09-09 22:18:56.511 - 1A 0A 04 06 01 FF 00 01 FF 00 01 FF 00 00 0F (调光器地址-书房射灯, 书房射灯关闭)
2025-09-09 22:18:58.959 - 19 08 24 03 CC 01 CC 00 01 (调用茶吧感应灯开的按键)
2025-09-09 22:18:59.012 - 1A AA AA AA 88 FF B0 01 FF B0 01 0F (调光器地址-茶吧灯带, 茶吧灯带明亮)
2025-09-09 22:19:00.592 - 09 06 00 0F 02 02 38 20 (提示音咚)
2025-09-09 22:19:01.146 - EE 00 00 B1 00 00 02 FF FC FF FF (情景完成返回主页)
2025-09-09 22:19:08.980 - 19 08 24 03 CC 01 CD 00 01 (调用茶吧感应灯关的按键)
2025-09-09 22:19:09.012 - 1A AA AA AA 88 FF 00 01 FF 00 01 0F (调光器地址-茶吧灯带, 茶吧灯带关闭)
2025-09-09 22:19:21.507 - 19 08 24 03 CC 01 CC 00 01 (调用茶吧感应灯开的按键)
2025-09-09 22:19:21.534 - 1A AA AA AA 88 FF B0 01 FF B0 01 0F (调光器地址-茶吧灯带, 茶吧灯带明亮)
2025-09-09 22:19:24.326 - 19 08 24 03 CC 00 D3 00 01 (调用厨房感应灯开的按键)
2025-09-09 22:19:24.364 - 55 0A 32 00 00 00 01 92 55 0A 32 00 00 00 02 93 (厨房顶灯一开, 厨房顶灯二开)
2025-09-09 22:19:34.531 - 19 08 24 03 CC 01 CD 00 01 (调用茶吧感应灯关的按键)
2025-09-09 22:19:34.561 - 1A AA AA AA 88 FF 00 01 FF 00 01 0F (调光器地址-茶吧灯带, 茶吧灯带关闭)
2025-09-09 22:19:36.034 - 19 08 24 03 CC 01 CC 00 01 (调用茶吧感应灯开的按键)
2025-09-09 22:19:36.066 - 1A AA AA AA 88 FF B0 01 FF B0 01 0F (调光器地址-茶吧灯带, 茶吧灯带明亮)
2025-09-09 22:20:15.052 - 19 08 24 03 DD 00 13 00 01 (调用情景-公共区域关)
2025-09-09 22:20:15.596 - EE 00 00 B1 00 00 00 FF FC FF FF (情景执行提示)
2025-09-09 22:20:16.218 - 09 06 00 0F 02 01 78 21 (提示音叮)
2025-09-09 22:20:16.790 - 55 0B 31 00 00 00 01 92 (厨房风扇只关)
2025-09-09 22:20:16.929 - 19 08 24 03 CC 00 D4 00 01 (调用厨房感应灯关的按键)
2025-09-09 22:20:16.967 - 55 0A 31 00 00 00 01 91 55 0A 31 00 00 00 02 92 (厨房顶灯一关, 厨房顶灯二关)
2025-09-09 22:20:17.839 - 01 06 07 D3 FF 60 38 9F (餐厅空调关)
2025-09-09 22:20:17.867 - 01 06 07 D3 FF 60 38 9F (餐厅空调关)
2025-09-09 22:20:18.931 - 01 06 07 D0 FF 60 C8 9F (客厅空调关)
2025-09-09 22:20:18.967 - 01 06 07 D0 FF 60 C8 9F (客厅空调关)
2025-09-09 22:20:22.633 - 19 08 24 03 CC 01 CD 00 01 (调用茶吧感应灯关的按键)
2025-09-09 22:20:22.681 - 1A AA AA AA 88 FF 00 01 FF 00 01 0F (调光器地址-茶吧灯带, 茶吧灯带关闭)
2025-09-09 22:20:23.073 - 50 F5 02 (关厨房影视)
2025-09-09 22:20:24.117 - 50 F5 01 (关餐厅影视)
2025-09-09 22:20:25.160 - 50 F5 08 (关客厅影视)
2025-09-09 22:20:26.206 - 50 F5 03 (关外卫影视)
2025-09-09 22:20:27.260 - 55 0A 31 00 00 00 01 91 (厨房顶灯一关)
2025-09-09 22:20:28.303 - 55 0A 31 00 00 00 02 92 (厨房顶灯二关)
2025-09-09 22:20:29.353 - 55 0C 31 00 00 00 01 93 (餐厅顶灯关)
2025-09-09 22:20:30.399 - 1A 18 05 10 31 00 01 00 0F (自保持开关地址-门厅顶灯, 门厅顶灯关)
2025-09-09 22:20:31.445 - 1A 20 07 00 42 00 01 00 0F (自保持开关地址-外卫顶灯, 外卫顶灯关)
2025-09-09 22:20:32.497 - 1A 18 05 21 89 00 01 00 0F (自保持开关地址-客厅顶灯, 客厅顶灯一关)
2025-09-09 22:20:33.541 - 1A 18 05 01 94 00 01 00 0F (自保持开关地址-客厅顶灯, 客厅顶灯二关)
2025-09-09 22:20:34.584 - 1A 20 07 01 30 00 01 00 0F (自保持开关地址-西阳顶灯, 西阳顶灯关)
2025-09-09 22:20:35.641 - 1A FF 01 FF FF FF 00 01 FF 00 01 FF 00 00 0F (调光器地址-公共区域统配地址, 公共区域灯光全关)
2025-09-09 22:20:36.728 - 09 06 00 0F 02 02 38 20 (提示音咚)
2025-09-09 22:20:38.775 - EE 00 00 B1 00 00 02 FF FC FF FF (情景完成返回主页)
2025-09-09 22:20:46.627 - 19 08 24 03 CC 01 53 00 01 (调用外卫感应灯关的按键)
2025-09-09 22:20:46.662 - 1A 0D 01 07 01 FF 00 01 FF 00 01 FF 00 00 0F (调光器地址-外卫射灯, 外卫感应灯关)
2025-09-09 22:25:32.087 - 19 08 24 03 DD 00 4F 00 01 (调用情景-内卫使用完毕)
2025-09-09 22:25:32.604 - EE 00 00 B1 00 00 00 FF FC FF FF (情景执行提示)
2025-09-09 22:25:33.205 - 09 06 00 0F 02 01 78 21 (提示音叮)
2025-09-09 22:25:33.807 - 1A 0C 02 08 01 FF 00 01 FF 00 01 FF 00 00 0F (调光器地址-内卫射灯, 内卫感应灯关)
2025-09-09 22:25:37.885 - 50 F5 04 (关内卫影视)
2025-09-09 22:25:38.436 - 1A 20 07 01 40 00 01 00 0F (自保持开关地址-内卫顶灯, 内卫顶灯关)
2025-09-09 22:25:39.033 - 1A FF FF FF 56 00 00 01 0F (人体感应地址-内卫, 打开内卫感应)
2025-09-09 22:25:39.143 - BC BC
2025-09-09 22:25:39.451 - 19 08 24 03 CC 01 54 00 01 (调用内卫感应灯开的按键)
2025-09-09 22:25:39.504 - 1A 0C 02 08 01 FF 45 01 FF 45 01 FF 00 00 0F (调光器地址-内卫射灯, 内卫射灯微光)
2025-09-09 22:25:41.956 - 09 06 00 0F 02 02 38 20 (提示音咚)
2025-09-09 22:25:42.525 - EE 00 00 B1 00 00 02 FF FC FF FF (情景完成返回主页)
2025-09-09 22:26:15.224 - 19 08 24 03 CC 01 55 00 01 (调用内卫感应灯关的按键)
2025-09-09 22:26:15.257 - 1A 0C 02 08 01 FF 00 01 FF 00 01 FF 00 00 0F (调光器地址-内卫射灯, 内卫感应灯关)
2025-09-09 22:30:40.362 - 1A BE B0 DC 0A FF (继电器地址-客厅纱帘)
2025-09-09 22:30:40.500 - FF
2025-09-09 22:42:36.042 - FF FF FF FF 0E FC (继电器地址-西阳小窗帘)
2025-09-09 22:42:36.180 - FF
2025-09-09 23:24:27.051 - FF FF FF FF 0A FD (继电器地址-东阳窗帘)
2025-09-09 23:24:27.179 - FF
2025-09-09 23:33:24.229 - 19 08 24 03 CC 01 52 00 01 (调用外卫感应灯开的按键)
2025-09-09 23:33:24.281 - 1A 0D 01 07 01 FF 45 01 FF 45 01 FF 00 00 0F (调光器地址-外卫射灯, 外卫感应灯开)
2025-09-09 23:37:23.205 - 19 08 24 03 CC 01 53 00 01 (调用外卫感应灯关的按键)
2025-09-09 23:37:23.252 - 1A 0D 01 07 01 FF 00 01 FF 00 01 FF 00 00 0F (调光器地址-外卫射灯, 外卫感应灯关)
2025-09-10 00:21:37.661 - 1A BE B0 DC 03 FD (继电器地址-西阳天幕)
2025-09-10 00:21:37.798 - FF
2025-09-10 00:31:19.091 - 19 08 24 03 CC 01 52 00 01 (调用外卫感应灯开的按键)
2025-09-10 00:31:19.144 - 1A 0D 01 07 01 FF 45 01 FF 45 01 FF 00 00 0F (调光器地址-外卫射灯, 外卫感应灯开)
2025-09-10 00:34:37.947 - 1A BE B0 DC 01 (继电器地址-回水泵点动)
