2025-09-07 23:42:52.307 - 01 04 07 D0 00 06 70 85
2025-09-07 23:42:52.336 - 01 04 0C 70 00 42 02 00 FA 00 00 01 0E 00 00 54 86
2025-09-07 23:42:53.397 - 01 04 07 D6 00 06 90 84
2025-09-07 23:42:53.427 - 01 04 0C 70 00 42 02 00 FA 00 00 01 18 00 00 B5 42
2025-09-07 23:42:54.455 - 01 04 07 DC 00 06 B0 86
2025-09-07 23:42:54.485 - 01 04 0C 70 01 42 02 00 F0 00 00 01 18 00 00 1B BE
2025-09-07 23:42:55.506 - 01 04 07 E2 00 06 D1 4A
2025-09-07 23:42:55.537 - 01 04 0C 70 01 42 02 00 FA 00 00 00 FA 00 00 10 74
2025-09-07 23:42:56.566 - 01 04 07 E8 00 06 F1 48
2025-09-07 23:42:56.598 - 01 04 0C 70 00 42 02 00 FA 00 00 01 22 00 00 95 4F
2025-09-07 23:42:57.633 - 01 10 07 D6 00 03 06 70 60 00 02 00 A8 33 04
2025-09-07 23:42:57.666 - 01 10 07 D6 00 03 06 70 60 00 02 00 A8 33 04
2025-09-07 23:43:37.770 - 01 04 07 D0 00 06 70 85
2025-09-07 23:43:37.802 - 01 04 0C 70 00 42 02 00 FA 00 00 01 0E 00 00 54 86
2025-09-07 23:43:38.822 - 01 04 07 D6 00 06 90 84
2025-09-07 23:43:38.851 - 01 04 0C 70 00 42 02 00 FA 00 00 01 18 00 00 B5 42
2025-09-07 23:43:39.876 - 01 04 07 DC 00 06 B0 86
2025-09-07 23:43:39.911 - 01 04 0C 70 00 42 02 00 A0 00 00 01 18 00 00 4F 47
2025-09-07 23:43:40.938 - 01 04 07 E2 00 06 D1 4A
2025-09-07 23:43:40.973 - 01 04 0C 70 01 42 02 00 FA 00 00 00 FA 00 00 10 74
2025-09-07 23:43:42.004 - 01 04 07 E8 00 06 F1 48
2025-09-07 23:43:42.033 - 01 04 0C 70 00 42 02 00 FA 00 00 01 22 00 00 95 4F
2025-09-07 23:43:43.057 - 01 10 07 D6 00 03 06 70 61 00 02 00 A6 8F 00
2025-09-07 23:43:43.091 - 01 10 07 D6 00 03 06 70 61 00 02 00 A6 8F 00
2025-09-07 23:46:01.907 - 01 04 07 D0 00 06 70 85
2025-09-07 23:46:01.934 - 01 04 0C 70 00 42 02 00 FA 00 00 01 0E 00 00 54 86
2025-09-07 23:46:02.958 - 01 04 07 D6 00 06 90 84
2025-09-07 23:46:02.995 - 01 04 0C 70 00 42 02 00 FA 00 00 01 18 00 00 B5 42
2025-09-07 23:46:04.020 - 01 04 07 DC 00 06 B0 86
2025-09-07 23:46:04.053 - 01 04 0C 70 01 42 02 00 F0 00 00 01 18 00 00 1B BE
2025-09-07 23:46:05.071 - 01 04 07 E2 00 06 D1 4A
2025-09-07 23:46:05.104 - 01 04 0C 70 01 42 02 00 FA 00 00 00 F0 00 00 30 76
2025-09-07 23:46:06.116 - 01 04 07 E8 00 06 F1 48
2025-09-07 23:46:06.145 - 01 04 0C 70 00 42 02 00 FA 00 00 01 22 00 00 95 4F
2025-09-07 23:50:28.109 - 01 04 07 D0 00 06 70 85
2025-09-07 23:50:28.142 - 01 04 0C 70 00 42 02 00 FA 00 00 01 0E 00 00 54 86
2025-09-07 23:50:29.160 - 01 04 07 D6 00 06 90 84
2025-09-07 23:50:29.192 - 01 04 0C 70 00 42 02 00 FA 00 00 01 18 00 00 B5 42
2025-09-07 23:50:30.224 - 01 04 07 DC 00 06 B0 86
2025-09-07 23:50:30.253 - 01 04 0C 70 01 42 02 00 F0 00 00 01 18 00 00 1B BE
2025-09-07 23:50:31.269 - 01 04 07 E2 00 06 D1 4A
2025-09-07 23:50:31.303 - 01 04 0C 70 01 42 02 00 FA 00 00 00 F0 00 00 30 76
2025-09-07 23:50:32.331 - 01 04 07 E8 00 06 F1 48
2025-09-07 23:50:32.365 - 01 04 0C 70 00 42 02 00 FA 00 00 01 22 00 00 95 4F
2025-09-07 23:50:52.811 - 01 04 07 D0 00 06 70 85
2025-09-07 23:50:52.845 - 01 04 0C 70 00 42 02 00 FA 00 00 01 0E 00 00 54 86
2025-09-07 23:50:53.862 - 01 04 07 D6 00 06 90 84
2025-09-07 23:50:53.895 - 01 04 0C 70 00 42 02 00 FA 00 00 01 18 00 00 B5 42
2025-09-07 23:50:54.923 - 01 04 07 DC 00 06 B0 86
2025-09-07 23:50:54.955 - 01 04 0C 70 01 42 02 00 F0 00 00 01 18 00 00 1B BE
2025-09-07 23:50:55.988 - 01 04 07 E2 00 06 D1 4A
2025-09-07 23:50:56.015 - 01 04 0C 70 01 42 02 00 FA 00 00 00 F0 00 00 30 76
2025-09-07 23:50:57.033 - 01 04 07 E8 00 06 F1 48
2025-09-07 23:50:57.065 - 01 04 0C 70 00 42 02 00 FA 00 00 01 22 00 00 95 4F
2025-09-07 23:50:59.082 - 01 04 07 E8 00 06 F1 48
2025-09-07 23:50:59.116 - 01 04 0C 70 00 42 02 00 FA 00 00 01 22 00 00 95 4F
2025-09-07 23:52:51.027 - FF FF FF FF 0E (继电器地址-西阳小窗帘)
2025-09-07 23:52:51.169 - FE
2025-09-07 23:53:12.156 - 01 04 07 D0 00 06 70 85
2025-09-07 23:53:12.190 - 01 04 0C 70 00 42 02 00 FA 00 00 01 0E 00 00 54 86
2025-09-07 23:53:13.202 - 01 04 07 D6 00 06 90 84
2025-09-07 23:53:13.230 - 01 04 0C 70 00 42 02 00 FA 00 00 01 18 00 00 B5 42
2025-09-07 23:53:14.260 - 01 04 07 DC 00 06 B0 86
2025-09-07 23:53:14.290 - 01 04 0C 70 01 42 02 00 F0 00 00 01 18 00 00 1B BE
2025-09-07 23:53:15.320 - 01 04 07 E2 00 06 D1 4A
2025-09-07 23:53:15.350 - 01 04 0C 70 01 42 02 00 FA 00 00 00 F0 00 00 30 76
2025-09-07 23:53:16.374 - 01 04 07 E8 00 06 F1 48
2025-09-07 23:53:16.411 - 01 04 0C 70 00 42 02 00 FA 00 00 01 22 00 00 95 4F
2025-09-07 23:53:18.443 - 01 04 07 DC 00 06 B0 86
2025-09-07 23:53:18.472 - 01 04 0C 70 01 42 02 00 F0 00 00 01 18 00 00 1B BE
2025-09-07 23:59:55.239 - FF FF FF FF 0A FD (继电器地址-东阳窗帘)
2025-09-07 23:59:55.372 - FE
