2024-09-08 16:36:16.227 - 1A FF FF FF 04 (继电器地址-东阳衣架)
2024-09-08 16:36:16.820 - 00
2024-09-08 16:36:20.448 - 19 08 24 03 CC 01 CC 00 01 (调用茶吧感应灯开的按键)
2024-09-08 16:36:20.498 - 1A AA AA AA 88 FF B0 01 FF B0 01 0F (调光器地址-茶吧灯带, 茶吧灯带明亮)
2024-09-08 16:36:22.924 - 19 08 24 03 CC 00 D3 00 01 (调用厨房感应灯开的按键)
2024-09-08 16:36:23.011 - 55 0A 32 00 00 00 01 92 55 0A 32 00 00 00 02 93 (厨房顶灯一开, 厨房顶灯二开)
2024-09-08 16:36:52.012 - 19 08 24 03 CC 01 CD 00 01 (调用茶吧感应灯关的按键)
2024-09-08 16:36:52.042 - 1A AA AA AA 88 FF 00 01 FF 00 01 0F (调光器地址-茶吧灯带, 茶吧灯带关闭)
2024-09-08 16:39:14.792 - 19 08 24 03 CC 01 CC 00 01 (调用茶吧感应灯开的按键)
2024-09-08 16:39:14.824 - 1A AA AA AA 88 FF B0 01 FF B0 01 0F (调光器地址-茶吧灯带, 茶吧灯带明亮)
2024-09-08 16:39:19.516 - 19 08 24 03 CC 01 3B 00 01
2024-09-08 16:39:20.488 - 19 08 24 03 CC 01 3B 00 01
2024-09-08 16:39:20.958 - 19 08 24 03 CC 01 3B 00 01
2024-09-08 16:39:21.299 - 19 08 24 03 CC 01 3B 00 01
2024-09-08 16:39:21.592 - 19 08 24 03 CC 01 3B 00 01
2024-09-08 16:39:21.830 - 19 08 24 03 CC 01 3B 00 01
2024-09-08 16:39:22.094 - 19 08 24 03 CC 01 3B 00 01
2024-09-08 16:39:22.571 - 19 08 24 03 CC 01 3B 00 01
2024-09-08 16:39:22.863 - 19 08 24 03 CC 01 3B 00 01
2024-09-08 16:39:23.322 - 19 08 24 03 CC 01 3B 00 01
2024-09-08 16:39:24.232 - 19 08 24 03 CC 01 39 00 01
2024-09-08 16:39:25.403 - 19 08 24 03 CC 01 3B 00 01
2024-09-08 16:39:25.893 - 19 08 24 03 CC 01 3B 00 01
2024-09-08 16:39:26.245 - 19 08 24 03 CC 01 3B 00 01
2024-09-08 16:39:26.594 - 19 08 24 03 CC 01 3B 00 01
2024-09-08 16:39:26.887 - 19 08 24 03 CC 01 3B 00 01
2024-09-08 16:39:27.148 - 19 08 24 03 CC 01 3B 00 01
2024-09-08 16:39:36.304 - 19 08 24 03 CC 00 D4 00 01 (调用厨房感应灯关的按键)
2024-09-08 16:39:36.340 - 55 0A 31 00 00 00 01 91 55 0A 31 00 00 00 02 92 (厨房顶灯一关, 厨房顶灯二关)
2024-09-08 16:39:39.867 - 19 08 24 03 CC 01 CD 00 01 (调用茶吧感应灯关的按键)
2024-09-08 16:39:39.897 - 1A AA AA AA 88 FF 00 01 FF 00 01 0F (调光器地址-茶吧灯带, 茶吧灯带关闭)
2024-09-08 16:39:59.905 - 19 08 24 03 CC 01 CC 00 01 (调用茶吧感应灯开的按键)
2024-09-08 16:39:59.936 - 1A AA AA AA 88 FF B0 01 FF B0 01 0F (调光器地址-茶吧灯带, 茶吧灯带明亮)
2024-09-08 16:40:01.854 - 19 08 24 03 CC 00 D3 00 01 (调用厨房感应灯开的按键)
2024-09-08 16:40:01.891 - 55 0A 32 00 00 00 01 92 55 0A 32 00 00 00 02 93 (厨房顶灯一开, 厨房顶灯二开)
2024-09-08 16:40:11.428 - 19 08 24 03 CC 01 CD 00 01 (调用茶吧感应灯关的按键)
2024-09-08 16:40:11.461 - 1A AA AA AA 88 FF 00 01 FF 00 01 0F (调光器地址-茶吧灯带, 茶吧灯带关闭)
2024-09-08 16:41:32.588 - 19 08 24 03 CC 01 CC 00 01 (调用茶吧感应灯开的按键)
2024-09-08 16:41:32.619 - 1A AA AA AA 88 FF B0 01 FF B0 01 0F (调光器地址-茶吧灯带, 茶吧灯带明亮)
2024-09-08 16:41:44.613 - 19 08 24 03 CC 01 CD 00 01 (调用茶吧感应灯关的按键)
2024-09-08 16:41:44.645 - 1A AA AA AA 88 FF 00 01 FF 00 01 0F (调光器地址-茶吧灯带, 茶吧灯带关闭)
2024-09-08 16:42:14.114 - 19 08 24 03 CC 00 D4 00 01 (调用厨房感应灯关的按键)
2024-09-08 16:42:14.150 - 55 0A 31 00 00 00 01 91 55 0A 31 00 00 00 02 92 (厨房顶灯一关, 厨房顶灯二关)
2024-09-08 16:46:29.173 - 19 08 24 03 CC 01 CC 00 01 (调用茶吧感应灯开的按键)
2024-09-08 16:46:29.204 - 1A AA AA AA 88 FF B0 01 FF B0 01 0F (调光器地址-茶吧灯带, 茶吧灯带明亮)
2024-09-08 16:46:36.187 - 19 08 24 03 CC 01 CD 00 01 (调用茶吧感应灯关的按键)
2024-09-08 16:46:36.219 - 1A AA AA AA 88 FF 00 01 FF 00 01 0F (调光器地址-茶吧灯带, 茶吧灯带关闭)
2024-09-08 16:48:04.862 - 19 08 24 03 CC 01 CC 00 01 (调用茶吧感应灯开的按键)
2024-09-08 16:48:04.893 - 1A AA AA AA 88 FF B0 01 FF B0 01 0F (调光器地址-茶吧灯带, 茶吧灯带明亮)
2024-09-08 16:48:06.809 - 19 08 24 03 CC 00 D3 00 01 (调用厨房感应灯开的按键)
2024-09-08 16:48:06.843 - 55 0A 32 00 00 00 01 92 55 0A 32 00 00 00 02 93 (厨房顶灯一开, 厨房顶灯二开)
2024-09-08 16:48:16.385 - 19 08 24 03 CC 01 CD 00 01 (调用茶吧感应灯关的按键)
2024-09-08 16:48:16.417 - 1A AA AA AA 88 FF 00 01 FF 00 01 0F (调光器地址-茶吧灯带, 茶吧灯带关闭)
2024-09-08 16:50:47.682 - 19 08 24 03 CC 01 CC 00 01 (调用茶吧感应灯开的按键)
2024-09-08 16:50:47.713 - 1A AA AA AA 88 FF B0 01 FF B0 01 0F (调光器地址-茶吧灯带, 茶吧灯带明亮)
2024-09-08 16:51:00.207 - 19 08 24 03 CC 01 CD 00 01 (调用茶吧感应灯关的按键)
2024-09-08 16:51:00.238 - 1A AA AA AA 88 FF 00 01 FF 00 01 0F (调光器地址-茶吧灯带, 茶吧灯带关闭)
2024-09-08 16:51:28.203 - 19 08 24 03 CC 00 D4 00 01 (调用厨房感应灯关的按键)
2024-09-08 16:51:28.239 - 55 0A 31 00 00 00 01 91 55 0A 31 00 00 00 02 92 (厨房顶灯一关, 厨房顶灯二关)
2024-09-08 16:53:26.496 - 19 08 24 03 CC 01 CC 00 01 (调用茶吧感应灯开的按键)
2024-09-08 16:53:26.527 - 1A AA AA AA 88 FF B0 01 FF B0 01 0F (调光器地址-茶吧灯带, 茶吧灯带明亮)
2024-09-08 16:53:39.523 - 19 08 24 03 CC 01 CD 00 01 (调用茶吧感应灯关的按键)
2024-09-08 16:53:39.554 - 1A AA AA AA 88 FF 00 01 FF 00 01 0F (调光器地址-茶吧灯带, 茶吧灯带关闭)
2024-09-08 16:58:43.122 - 19 08 24 03 CC 01 CC 00 01 (调用茶吧感应灯开的按键)
2024-09-08 16:58:43.153 - 1A AA AA AA 88 FF B0 01 FF B0 01 0F (调光器地址-茶吧灯带, 茶吧灯带明亮)
2024-09-08 16:58:44.561 - 19 08 24 03 CC 00 D3 00 01 (调用厨房感应灯开的按键)
2024-09-08 16:58:44.597 - 55 0A 32 00 00 00 01 92 55 0A 32 00 00 00 02 93 (厨房顶灯一开, 厨房顶灯二开)
2024-09-08 16:58:45.832 - FF
2024-09-08 16:59:10.676 - 19 08 24 03 CC 01 CD 00 01 (调用茶吧感应灯关的按键)
2024-09-08 16:59:10.724 - 1A AA AA AA 88 FF 00 01 FF 00 01 0F (调光器地址-茶吧灯带, 茶吧灯带关闭)
2024-09-08 17:03:23.825 - FF
2024-09-08 17:03:23.882 - FE
2024-09-08 17:03:24.149 - 68 86 FF
2024-09-08 17:03:24.204 - 68 86
2024-09-08 17:03:24.281 - EE
2024-09-08 17:03:24.285 - 68 86
2024-09-08 17:03:24.290 - 68 86 FE
2024-09-08 17:03:24.300 - 68 86 03
2024-09-08 17:03:24.424 - FF FF FF FF 0E FE (继电器地址-西阳小窗帘)
2024-09-08 17:03:24.557 - F7
2024-09-08 17:03:24.822 - 00
2024-09-08 17:03:25.173 - FF
2024-09-08 17:03:25.790 - 68 86
2024-09-08 17:03:31.764 - 19 08 24 03 CC 01 CC 00 01 (调用茶吧感应灯开的按键)
2024-09-08 17:03:31.813 - 1A AA AA AA 88 FF B0 01 FF B0 01 0F (调光器地址-茶吧灯带, 茶吧灯带明亮)
2024-09-08 17:03:46.781 - 19 08 24 03 CC 01 CD 00 01 (调用茶吧感应灯关的按键)
2024-09-08 17:03:46.812 - 1A AA AA AA 88 FF 00 01 FF 00 01 0F (调光器地址-茶吧灯带, 茶吧灯带关闭)
2024-09-08 17:03:58.304 - 19 08 24 03 CC 01 CC 00 01 (调用茶吧感应灯开的按键)
2024-09-08 17:03:58.334 - 1A AA AA AA 88 FF B0 01 FF B0 01 0F (调光器地址-茶吧灯带, 茶吧灯带明亮)
2024-09-08 17:04:03.314 - 19 08 24 03 CC 00 D3 00 01 (调用厨房感应灯开的按键)
2024-09-08 17:04:03.349 - 55 0A 32 00 00 00 01 92 55 0A 32 00 00 00 02 93 (厨房顶灯一开, 厨房顶灯二开)
2024-09-08 17:04:13.834 - 19 08 24 03 CC 01 CD 00 01 (调用茶吧感应灯关的按键)
2024-09-08 17:04:13.866 - 1A AA AA AA 88 FF 00 01 FF 00 01 0F (调光器地址-茶吧灯带, 茶吧灯带关闭)
2024-09-08 17:06:41.628 - 19 08 24 03 CC 01 CC 00 01 (调用茶吧感应灯开的按键)
2024-09-08 17:06:41.657 - 1A AA AA AA 88 FF B0 01 FF B0 01 0F (调光器地址-茶吧灯带, 茶吧灯带明亮)
2024-09-08 17:06:56.837 - 19 08 24 03 DD 00 10 00 01 (调用情景-客餐厅空调开)
2024-09-08 17:06:57.382 - EE 00 00 B1 00 00 00 FF FC FF FF (情景执行提示)
2024-09-08 17:06:57.978 - 09 06 00 0F 02 01 78 21 (提示音叮)
2024-09-08 17:06:58.522 - A1 11 11 11 40 (客厅空调自动开)
2024-09-08 17:06:58.747 - 19 08 24 03 F0 BB 78 02 02 00
2024-09-08 17:06:58.797 - 23 AA 56 02 11 07 02 18 09 08 07 73 65 6F 6B 65 6E 64
2024-09-08 17:06:59.756 - 01 10 07 D0 00 03 06 70 61 00 02 00 FA 6F 26 (客厅空调冷25度)
2024-09-08 17:06:59.796 - 01 10 07 D0 00 03 06 70 61 00 02 00 FA 6F 26 (客厅空调冷25度)
2024-09-08 17:07:00.665 - 19 08 24 03 CC 01 CD 00 01 (调用茶吧感应灯关的按键)
2024-09-08 17:07:00.715 - 1A AA AA AA 88 FF 00 01 FF 00 01 0F (调光器地址-茶吧灯带, 茶吧灯带关闭)
2024-09-08 17:07:02.559 - A1 11 11 11 41 (餐厅空调自动开)
2024-09-08 17:07:02.785 - 19 08 24 03 F0 BB 78 02 02 00
2024-09-08 17:07:02.837 - 23 AA 56 02 11 07 06 18 09 08 07 73 65 6F 6B 65 6E 64
2024-09-08 17:07:03.795 - 01 10 07 D3 00 03 06 70 61 00 02 00 FA 9F 29 (餐厅空调冷25度)
2024-09-08 17:07:03.836 - 01 10 07 D3 00 03 06 70 61 00 02 00 FA 9F 29 (餐厅空调冷25度)
2024-09-08 17:07:06.597 - 09 06 00 0F 02 02 38 20 (提示音咚)
2024-09-08 17:07:07.150 - EE 00 00 B1 00 00 02 FF FC FF FF (情景完成返回主页)
2024-09-08 17:07:27.215 - 19 08 24 03 CC 00 D4 00 01 (调用厨房感应灯关的按键)
2024-09-08 17:07:27.270 - 55 0A 31 00 00 00 01 91 55 0A 31 00 00 00 02 92 (厨房顶灯一关, 厨房顶灯二关)
2024-09-08 17:08:09.316 - 19 08 24 03 CC 01 CC 00 01 (调用茶吧感应灯开的按键)
2024-09-08 17:08:09.349 - 1A AA AA AA 88 FF B0 01 FF B0 01 0F (调光器地址-茶吧灯带, 茶吧灯带明亮)
2024-09-08 17:08:13.806 - 19 08 24 03 CC 00 D3 00 01 (调用厨房感应灯开的按键)
2024-09-08 17:08:13.842 - 55 0A 32 00 00 00 01 92 55 0A 32 00 00 00 02 93 (厨房顶灯一开, 厨房顶灯二开)
2024-09-08 17:08:33.865 - 19 08 24 03 CC 01 CD 00 01 (调用茶吧感应灯关的按键)
2024-09-08 17:08:33.896 - 1A AA AA AA 88 FF 00 01 FF 00 01 0F (调光器地址-茶吧灯带, 茶吧灯带关闭)
2024-09-08 17:09:01.400 - 19 08 24 03 CC 00 D4 00 01 (调用厨房感应灯关的按键)
2024-09-08 17:09:01.436 - 55 0A 31 00 00 00 01 91 55 0A 31 00 00 00 02 92 (厨房顶灯一关, 厨房顶灯二关)
2024-09-08 17:36:39.146 - 30 50 FA 01 01 01 01
2024-09-08 17:36:52.090 - 30 50 FA 01 02 01 02
2024-09-08 17:36:52.128 - 30
2024-09-08 17:36:52.129 - 50
2024-09-08 17:36:52.130 - FC
2024-09-08 17:36:52.136 - 01 00
2024-09-08 17:36:52.137 - 00
2024-09-08 17:36:52.139 - 01
2024-09-08 17:37:54.122 - 19 08 24 03 DD 00 00 00 01 (调用情景-离家（末）)
2024-09-08 17:37:54.678 - EE 00 00 B1 00 00 00 FF FC FF FF (情景执行提示)
2024-09-08 17:37:55.273 - 09 06 00 0F 02 02 38 20 (提示音咚)
2024-09-08 17:37:55.815 - 50 F7 01 (全屋影音全关)
2024-09-08 17:37:56.419 - 01 06 07 D0 FF 60 C8 9F (客厅空调关)
2024-09-08 17:37:56.448 - 01 06 07 D0 FF 60 C8 9F (客厅空调关)
2024-09-08 17:37:57.016 - 01 06 07 D0 FF 60 C8 9F (客厅空调关)
2024-09-08 17:37:57.044 - 01 06 07 D0 FF 60 C8 9F (客厅空调关)
2024-09-08 17:37:57.614 - 01 06 07 D3 FF 60 38 9F (餐厅空调关)
2024-09-08 17:37:57.650 - 01 06 07 D3 FF 60 38 9F (餐厅空调关)
2024-09-08 17:37:58.213 - 01 06 07 D3 FF 60 38 9F (餐厅空调关)
2024-09-08 17:37:58.246 - 01 06 07 D3 FF 60 38 9F (餐厅空调关)
2024-09-08 17:37:58.811 - 01 06 07 D6 FF 60 28 9E (主卧空调关)
2024-09-08 17:37:58.842 - 01 06 07 D6 FF 60 28 9E (主卧空调关)
2024-09-08 17:37:59.409 - 01 06 07 D6 FF 60 28 9E (主卧空调关)
2024-09-08 17:37:59.438 - 01 06 07 D6 FF 60 28 9E (主卧空调关)
2024-09-08 17:38:00.007 - 01 06 07 D9 FF 60 18 9D (次卧空调关)
2024-09-08 17:38:00.034 - 01 06 07 D9 FF 60 18 9D (次卧空调关)
2024-09-08 17:38:00.603 - 01 06 07 D9 FF 60 18 9D (次卧空调关)
2024-09-08 17:38:00.639 - 01 06 07 D9 FF 60 18 9D (次卧空调关)
2024-09-08 17:38:01.202 - 01 06 07 DC FF 60 08 9C (书房空调关)
2024-09-08 17:38:01.236 - 01 06 07 DC FF 60 08 9C (书房空调关)
2024-09-08 17:38:01.800 - 01 06 07 DC FF 60 08 9C (书房空调关)
2024-09-08 17:38:01.831 - 01 06 07 DC FF 60 08 9C (书房空调关)
2024-09-08 17:38:02.398 - 09 06 00 0F 02 02 38 20 (提示音咚)
2024-09-08 17:38:02.949 - 1A FF FF FF 56 00 00 00 0F (人体感应地址-内卫, 关闭内卫感应)
2024-09-08 17:38:02.962 - BC BC
2024-09-08 17:38:03.546 - 1A FF FF FF 55 00 00 00 0F (人体感应地址-外卫, 关闭外卫感应)
2024-09-08 17:38:03.559 - BC BC
2024-09-08 17:38:04.143 - 1A FF FF FF 57 00 00 00 0F (人体感应地址-厨房, 关闭厨房感应)
2024-09-08 17:38:04.691 - 1A FF FF FF 58 00 00 00 0F (人体感应地址-茶吧, 关闭茶吧感应)
2024-09-08 17:38:04.742 - BC BC
2024-09-08 17:38:05.318 - 1A 20 07 00 93 00 01 00 0F (自保持开关地址-设备区顶, 设备区顶灯关)
2024-09-08 17:38:06.386 - 1A 20 07 01 40 00 01 00 0F (自保持开关地址-内卫顶灯, 内卫顶灯关)
2024-09-08 17:38:07.431 - 1A 20 07 01 55 00 01 00 0F (自保持开关地址-主卧顶灯, 主卧顶灯只关)
2024-09-08 17:38:08.478 - 1A 20 07 00 42 00 01 00 0F (自保持开关地址-外卫顶灯, 外卫顶灯关)
2024-09-08 17:38:09.523 - 55 0D 31 00 00 00 01 94 (书房顶灯只关)
2024-09-08 17:38:10.570 - 55 0A 31 00 00 00 01 91 (厨房顶灯一关)
2024-09-08 17:38:11.616 - 55 0A 31 00 00 00 02 92 (厨房顶灯二关)
2024-09-08 17:38:12.663 - 55 0B 31 00 00 00 01 92 (厨房风扇只关)
2024-09-08 17:38:13.710 - 55 0C 31 00 00 00 01 93 (餐厅顶灯关)
2024-09-08 17:38:14.757 - 1A 20 07 01 30 00 01 00 0F (自保持开关地址-西阳顶灯, 西阳顶灯关)
2024-09-08 17:38:15.803 - 1A 18 05 21 89 00 01 00 0F (自保持开关地址-客厅顶灯, 客厅顶灯一关)
2024-09-08 17:38:16.850 - 1A 18 05 01 94 00 01 00 0F (自保持开关地址-客厅顶灯, 客厅顶灯二关)
2024-09-08 17:38:17.897 - 1A 20 07 00 70 00 01 00 0F (自保持开关地址-次卧顶灯, 次卧顶灯只关)
2024-09-08 17:38:18.942 - 1A 18 05 10 31 00 01 00 0F (自保持开关地址-门厅顶灯, 门厅顶灯关)
2024-09-08 17:38:19.987 - 1A FF FF FF 04 00 03 02 (继电器地址-东阳衣架, 东阳衣架照明关)
2024-09-08 17:38:20.536 - 09 06 00 0F 02 02 38 20 (提示音咚)
2024-09-08 17:38:21.082 - A5 00 A6 FE 01 AA (餐厅窗帘开)
2024-09-08 17:38:21.632 - FF FF FF FF 0A 00 01 00 (继电器地址-东阳窗帘, 东阳窗帘开)
2024-09-08 17:38:22.181 - 1A BE B0 DC 04 00 01 00 (继电器地址-西阳窗帘, 西阳窗帘开)
2024-09-08 17:38:22.728 - FF FF FF FF 0E 00 01 00 (继电器地址-西阳小窗帘, 西阳小窗帘开)
2024-09-08 17:38:23.278 - 1A 22 33 62 0F 00 00 01 0F (正反转地址-内卫卷帘, 内卫卷帘升)
2024-09-08 17:38:23.823 - A5 00 52 FE 01 AA (主卧窗帘开)
2024-09-08 17:38:24.371 - A5 00 53 FF 00 AA (主卧纱帘开)
2024-09-08 17:38:24.920 - A5 00 76 FE 01 AA (次卧窗帘开)
2024-09-08 17:38:25.468 - A5 00 21 FE 01 AA (次卧纱帘开)
2024-09-08 17:38:26.017 - A5 00 D2 FE 01 AA 22 0D (书房窗帘开)
2024-09-08 17:38:26.565 - 1A BE B0 DC 09 00 01 00 (继电器地址-客厅窗帘, 客厅窗帘开)
2024-09-08 17:38:27.114 - 1A BE B0 DC 0A 00 02 00 (继电器地址-客厅纱帘, 客厅纱帘开)
2024-09-08 17:38:27.661 - 09 06 00 0F 02 02 38 20 (提示音咚)
2024-09-08 17:38:28.710 - 1A EC A0 DC 02 00 00 00 0F (自保持开关地址-天花12V供电, 天花12V 供电关)
2024-09-08 17:38:29.257 - 1A EC A0 DC 02 00 00 00 0F (自保持开关地址-天花12V供电, 天花12V 供电关)
2024-09-08 17:38:29.806 - 1A EC A0 DC 01 00 00 00 0F (自保持开关地址-电视、设备12V供电, 12V 电视供电关)
2024-09-08 17:38:30.354 - 1A EC A0 DC 01 00 00 00 0F (自保持开关地址-电视、设备12V供电, 12V 电视供电关)
2024-09-08 17:38:30.953 - 1A EC A0 DC 04 00 01 00 0F (自保持开关地址-次卧西阳内外卫供电, 内卫外卫关)
2024-09-08 17:38:31.530 - 1A EC A0 DC 04 00 01 00 0F (自保持开关地址-次卧西阳内外卫供电, 内卫外卫关)
2024-09-08 17:38:49.608 - 09 06 00 0F 02 02 38 20 (提示音咚)
2024-09-08 17:38:50.157 - 1A 27 89 12 AA 00 00 00 0F (状态寄存器地址, 无人状态)
2024-09-08 17:38:50.706 - 1A 27 89 12 AA 00 00 00 0F (状态寄存器地址, 无人状态)
2024-09-08 17:38:51.250 - A1 11 11 11 4D (天花供电关闭确认)
2024-09-08 17:38:51.472 - 1A EC A0 DC 02 86 86 86 0F (查询天花供电状态, 自保持开关地址-天花12V供电)
2024-09-08 17:38:51.904 - 1A EC A0 DC 02 00 01 0F (自保持开关地址-天花12V供电)
2024-09-08 17:38:54.328 - A1 11 11 11 4E (卫生供电关闭确认)
2024-09-08 17:38:54.549 - 1A EC A0 DC 04 86 86 86 0F (查询卫生间供电状态, 自保持开关地址-次卧西阳内外卫供电)
2024-09-08 17:38:54.983 - 1A EC A0 DC 04 01 00 0F (自保持开关地址-次卧西阳内外卫供电)
2024-09-08 17:38:57.379 - A1 11 11 11 4F (电视供电关闭确认)
2024-09-08 17:38:57.607 - 1A EC A0 DC 01 86 86 86 0F (查询电视供电状态, 自保持开关地址-电视、设备12V供电)
2024-09-08 17:38:58.040 - 1A EC A0 DC 01 00 01 0F (自保持开关地址-电视、设备12V供电)
2024-09-08 17:39:00.421 - 09 06 00 0F 02 02 38 20 (提示音咚)
2024-09-08 17:39:00.998 - 09 06 00 0F 02 02 38 20 (提示音咚)
2024-09-08 17:39:01.570 - EE 00 00 B1 00 00 02 FF FC FF FF (情景完成返回主页)
2024-09-08 17:39:02.662 - BA BA EE EE BA BA (离家设置信科变量)
2024-09-08 17:39:03.757 - A1 11 11 11 46 (天热离家遮阳)
2024-09-08 17:39:03.984 - 1A 27 89 12 AA 86 86 86 0F (查询寄存器状态, 状态寄存器地址)
2024-09-08 17:39:04.367 - 1A 27 89 12 AA 00 00 00 00 00 00 00 00 00 00 00 01 00 00 00 00 0F (状态寄存器地址)
2024-09-08 17:39:04.987 - 19 08 24 03 DD 00 05 00 01 (调用情景-天热遮阳关帘)
2024-09-08 17:39:05.557 - EE 00 00 B1 00 00 00 FF FC FF FF (情景执行提示)
2024-09-08 17:39:06.152 - 09 06 00 0F 02 01 78 21 (提示音叮)
2024-09-08 17:39:06.747 - A5 00 A2 FF 00 AA (餐厅纱帘关)
2024-09-08 17:39:07.793 - A5 00 A6 FF 00 AA (餐厅窗帘关)
2024-09-08 17:39:08.839 - A5 00 53 FE 01 AA (主卧纱帘关)
2024-09-08 17:39:09.887 - A5 00 52 FF 00 AA (主卧窗帘关)
2024-09-08 17:39:10.933 - A5 00 21 FF 00 AA (次卧纱帘关)
2024-09-08 17:39:11.979 - A5 00 76 FF 00 AA (次卧窗帘关)
2024-09-08 17:39:13.027 - A5 00 B7 FF 00 AA 22 0D (书房纱帘关)
2024-09-08 17:39:14.074 - A5 00 D2 FF 00 AA 22 0C (书房窗帘关)
2024-09-08 17:39:15.620 - 1A 22 33 62 5E 00 02 01 0F (正反转地址-厨房卷帘三, 厨房卷帘一降)
2024-09-08 17:39:16.716 - 1A 22 33 62 56 00 02 01 0F (正反转地址-厨房卷帘二, 厨房卷帘二降)
2024-09-08 17:39:17.126 - 55 00 A6 00 01 71 01 74 AA 55 00 A6 00 01 71 01 74 AA (餐厅窗帘电机状态返回)
2024-09-08 17:39:17.813 - 1A 22 33 62 4F 00 00 01 0F (正反转地址-厨房卷帘一, 厨房卷帘三降)
2024-09-08 17:39:18.720 - 55 00 21 00 01 32 01 34 AA 55 00 21 00 01 32 01 34 AA (次卧纱帘电机状态返回)
2024-09-08 17:39:18.907 - 1A BE B0 DC 04 00 02 00 (继电器地址-西阳窗帘, 西阳窗帘关)
2024-09-08 17:39:19.147 - 55 00 76 00 01 18 01 1B AA 55 00 76 00 01 18 01 1B AA (次卧窗帘电机状态返回)
2024-09-08 17:39:20.005 - FF FF FF FF 0E 00 02 00 (继电器地址-西阳小窗帘, 西阳小窗帘关)
2024-09-08 17:39:21.099 - 1A BE B0 DC 03 00 03 00 (继电器地址-西阳天幕, 西阳天幕关)
2024-09-08 17:39:21.428 - 55 00 53 00 00 03 02 30 AA 55 00 53 00 00 03 02 30 AA (主卧纱帘电机状态返回)
2024-09-08 17:39:22.226 - 1A BE B0 DC 03 00 03 00 (继电器地址-西阳天幕, 西阳天幕关)
2024-09-08 17:39:22.616 - 55 00 D2 00 01 09 01 0B AA 55 00 D2 00 01 09 01 0B AA (书房窗帘电机状态返回)
2024-09-08 17:39:23.294 - 09 06 00 0F 02 02 38 20 (提示音咚)
2024-09-08 17:39:23.845 - EE 00 00 B1 00 00 02 FF FC FF FF (情景完成返回主页)
2024-09-08 17:42:18.353 - 1B 03 00 00 00 02 C6 31 (查询室外光线)
2024-09-08 17:42:18.372 - 1B 03 04 00 00 01 2F 01 BE (室外光线返回)
2024-09-08 17:42:19.151 - 1A EC A0 DC 02 00 00 01 0F (自保持开关地址-天花12V供电, 天花12V 供电开)
2024-09-08 17:42:19.451 - 19 08 24 03 DD 00 0C 00 01 (调用情景-信科调用进门亮)
2024-09-08 17:42:19.720 - 1A AA AA AA 88 (调光器地址-茶吧灯带)
2024-09-08 17:42:19.992 - EE 00 00 B1 00 00 00 FF FC FF FF (情景执行提示)
2024-09-08 17:42:20.587 - 09 06 00 0F 02 01 78 21 (提示音叮)
2024-09-08 17:42:21.169 - 1A EC A0 DC 02 00 00 01 0F (自保持开关地址-天花12V供电, 天花12V 供电开)
2024-09-08 17:42:21.734 - 1A EC A0 DC 04 00 01 01 0F (自保持开关地址-次卧西阳内外卫供电, 内卫外卫开)
2024-09-08 17:42:22.283 - 1A EC A0 DC 04 00 01 01 0F (自保持开关地址-次卧西阳内外卫供电, 内卫外卫开)
2024-09-08 17:42:22.831 - 1A EC A0 DC 01 00 00 01 0F (自保持开关地址-电视、设备12V供电, 12V 电视供电开)
2024-09-08 17:42:27.870 - 1A 27 89 12 AA 00 00 01 0F (状态寄存器地址, 有人状态)
2024-09-08 17:42:28.419 - 1A 27 89 12 AA 00 00 01 0F (状态寄存器地址, 有人状态)
2024-09-08 17:42:28.972 - 1A 0C 02 08 01 FF 45 01 FF 45 01 FF 00 00 0F (调光器地址-内卫射灯, 内卫射灯微光)
2024-09-08 17:42:29.570 - 1A 0D 01 07 01 FF 45 01 FF 45 01 FF 00 00 0F (调光器地址-外卫射灯, 外卫感应灯开)
2024-09-08 17:42:30.196 - 1A FF FF FF 57 00 00 01 0F (人体感应地址-厨房, 打开厨房感应)
2024-09-08 17:42:30.759 - 1A FF FF FF 58 00 00 01 0F (人体感应地址-茶吧, 打开茶吧感应)
2024-09-08 17:42:30.809 - BC BC
2024-09-08 17:42:31.357 - 1A BE B0 DC 01 00 01 00 (继电器地址-回水泵点动, 回水泵点动)
2024-09-08 17:42:31.905 - 1A BE B0 DC 01 00 01 00 (继电器地址-回水泵点动, 回水泵点动)
2024-09-08 17:42:32.453 - 09 06 00 0F 02 01 78 21 (提示音叮)
2024-09-08 17:42:33.002 - 09 06 00 0F 02 01 78 21 (提示音叮)
2024-09-08 17:42:33.553 - EE 00 00 B1 00 00 02 FF FC FF FF (情景完成返回主页)
2024-09-08 17:42:34.145 - A1 11 11 11 50 (天花供电打开确认)
2024-09-08 17:42:34.367 - 1A EC A0 DC 02 86 86 86 0F (查询天花供电状态, 自保持开关地址-天花12V供电)
2024-09-08 17:42:34.803 - 1A EC A0 DC 02 01 01 0F (自保持开关地址-天花12V供电)
2024-09-08 17:42:36.686 - A1 11 11 11 51 (卫生供电打开确认)
2024-09-08 17:42:36.913 - 1A EC A0 DC 04 86 86 86 0F (查询卫生间供电状态, 自保持开关地址-次卧西阳内外卫供电)
2024-09-08 17:42:37.346 - 1A EC A0 DC 04 01 01 0F (自保持开关地址-次卧西阳内外卫供电)
2024-09-08 17:42:39.228 - A1 11 11 11 52 (电视供电打开确认)
2024-09-08 17:42:39.449 - 1A EC A0 DC 01 86 86 86 0F (查询电视供电状态, 自保持开关地址-电视、设备12V供电)
2024-09-08 17:42:39.882 - 1A EC A0 DC 01 01 01 0F (自保持开关地址-电视、设备12V供电)
2024-09-08 17:42:44.260 - A1 11 11 11 47 (天热回家开帘)
2024-09-08 17:42:44.491 - 1A 27 89 12 AA 86 86 86 0F (查询寄存器状态, 状态寄存器地址)
2024-09-08 17:42:44.875 - 1A 27 89 12 AA 01 00 00 00 00 00 00 00 00 00 00 01 00 00 00 00 0F (状态寄存器地址)
2024-09-08 17:42:45.496 - 19 08 24 03 DD 00 06 00 01 (调用情景-天热遮阳开帘)
2024-09-08 17:42:46.061 - EE 00 00 B1 00 00 00 FF FC FF FF (情景执行提示)
2024-09-08 17:42:46.655 - 09 06 00 0F 02 01 78 21 (提示音叮)
2024-09-08 17:42:47.202 - A5 00 A6 FE 01 AA (餐厅窗帘开)
2024-09-08 17:42:47.251 - 55 00 A6 02 01 71 01 74 AA 55 00 A6 02 01 71 01 74 AA (餐厅窗帘电机状态返回)
2024-09-08 17:42:48.299 - A5 00 52 FE 01 AA (主卧窗帘开)
2024-09-08 17:42:49.344 - A5 00 53 FF 00 AA (主卧纱帘开)
2024-09-08 17:42:49.401 - 55 00 53 01 00 03 02 30 AA 55 00 53 01 00 03 E2 (主卧纱帘电机状态返回)
2024-09-08 17:42:50.440 - A5 00 76 FE 01 AA (次卧窗帘开)
2024-09-08 17:42:50.498 - 55 00 76 02 01 18 01 1B AA 55 00 76 02 01 18 F9 (次卧窗帘电机状态返回)
2024-09-08 17:42:51.588 - A5 00 21 FE 01 AA (次卧纱帘开)
2024-09-08 17:42:51.644 - 55 00 21 02 01 32 01 34 AA 55 00 21 02 01 32 F1 (次卧纱帘电机状态返回)
2024-09-08 17:42:52.686 - 1A BE B0 DC 04 00 01 00 (继电器地址-西阳窗帘, 西阳窗帘开)
2024-09-08 17:42:53.732 - FF FF FF FF 0E 00 01 00 (继电器地址-西阳小窗帘, 西阳小窗帘开)
2024-09-08 17:42:54.779 - A5 00 D2 FE 01 AA 22 0D (书房窗帘开)
2024-09-08 17:42:54.830 - 55 00 D2 02 01 09 01 0B AA 55 00 D2 02 01 09 01 0B AA (书房窗帘电机状态返回)
2024-09-08 17:42:55.874 - 09 06 00 0F 02 02 38 20 (提示音咚)
2024-09-08 17:42:56.096 - 55 00 A6 00 00 0E 01 74 AA 55 00 A6 00 00 0E 01 74 AA (餐厅窗帘电机状态返回)
2024-09-08 17:42:56.427 - EE 00 00 B1 00 00 02 FF FC FF FF (情景完成返回主页)
2024-09-08 17:42:57.416 - 55 00 76 00 00 0E 01 1B AA 55 00 76 00 00 0E 01 1B AA (次卧窗帘电机状态返回)
2024-09-08 17:42:58.799 - 19 08 24 03 DD 00 00 00 01 (调用情景-离家（末）)
2024-09-08 17:42:59.068 - 55 00 21 00 00 0D 01 34 AA 55 00 21 00 00 0D 01 34 AA (次卧纱帘电机状态返回)
2024-09-08 17:42:59.366 - EE 00 00 B1 00 00 00 FF FC FF FF (情景执行提示)
2024-09-08 17:42:59.961 - 09 06 00 0F 02 02 38 20 (提示音咚)
2024-09-08 17:43:00.278 - 55 00 53 00 02 23 02 30 AA 55 00 53 00 02 23 02 30 AA (主卧纱帘电机状态返回)
2024-09-08 17:43:00.504 - 50 F7 01 (全屋影音全关)
2024-09-08 17:43:01.106 - 01 06 07 D0 FF 60 C8 9F (客厅空调关)
2024-09-08 17:43:01.144 - 01 06 07 D0 FF 60 C8 9F (客厅空调关)
2024-09-08 17:43:01.705 - 01 06 07 D0 FF 60 C8 9F (客厅空调关)
2024-09-08 17:43:01.732 - 05
2024-09-08 17:43:01.749 - 00 00 00 06 20 10 AD 05 02 02 00 06 02 16 AA (区域高光指令（AD+区域+暖光+冷光+AE）)
2024-09-08 17:43:02.303 - 01 06 07 D3 FF 60 38 9F (餐厅空调关)
2024-09-08 17:43:02.851 - 01 06 07 D3 FF 60 38 9F (餐厅空调关)
2024-09-08 17:43:02.881 - 01 06 07 D3 FF 60 38 9F (餐厅空调关)
2024-09-08 17:43:03.004 - 55 00 D2 00 00 0D 01 0B AA 55 00 D2 00 00 0D 01 0B AA (书房窗帘电机状态返回)
2024-09-08 17:43:03.450 - 01 06 07 D6 FF 60 28 9E (主卧空调关)
2024-09-08 17:43:03.477 - 01 06 07 D6 FF 60 28 9E (主卧空调关)
2024-09-08 17:43:04.047 - 01 06 07 D6 FF 60 28 9E (主卧空调关)
2024-09-08 17:43:04.083 - 01 06 07 D6 FF 60 28 9E (主卧空调关)
2024-09-08 17:43:04.645 - 01 06 07 D9 FF 60 18 9D (次卧空调关)
2024-09-08 17:43:04.677 - 01 06 07 D9 FF 60 18 9D (次卧空调关)
2024-09-08 17:43:05.243 - 01 06 07 D9 FF 60 18 9D (次卧空调关)
2024-09-08 17:43:05.274 - 01 06 07 D9 FF 60 18 9D (次卧空调关)
2024-09-08 17:43:05.841 - 01 06 07 DC FF 60 08 9C (书房空调关)
2024-09-08 17:43:05.870 - 01 06 07 DC FF 60 08 9C (书房空调关)
2024-09-08 17:43:06.438 - 01 06 07 DC FF 60 08 9C (书房空调关)
2024-09-08 17:43:06.466 - 01 06 07 DC FF 60 08 9C (书房空调关)
2024-09-08 17:43:07.036 - 09 06 00 0F 02 02 38 20 (提示音咚)
2024-09-08 17:43:07.586 - 1A FF FF FF 56 00 00 00 0F (人体感应地址-内卫, 关闭内卫感应)
2024-09-08 17:43:07.598 - BC BC
2024-09-08 17:43:08.184 - 1A FF FF FF 55 00 00 00 0F (人体感应地址-外卫, 关闭外卫感应)
2024-09-08 17:43:08.196 - BC BC
2024-09-08 17:43:08.781 - 1A FF FF FF 57 00 00 00 0F (人体感应地址-厨房, 关闭厨房感应)
2024-09-08 17:43:09.330 - 1A FF FF FF 58 00 00 00 0F (人体感应地址-茶吧, 关闭茶吧感应)
2024-09-08 17:43:09.379 - BC BC
2024-09-08 17:43:09.929 - 1A 20 07 00 93 00 01 00 0F (自保持开关地址-设备区顶, 设备区顶灯关)
2024-09-08 17:43:11.024 - 1A 20 07 01 40 00 01 00 0F (自保持开关地址-内卫顶灯, 内卫顶灯关)
2024-09-08 17:43:12.151 - 1A 20 07 01 55 00 01 00 0F (自保持开关地址-主卧顶灯, 主卧顶灯只关)
2024-09-08 17:43:13.217 - 1A 20 07 00 42 00 01 00 0F (自保持开关地址-外卫顶灯, 外卫顶灯关)
2024-09-08 17:43:14.262 - 55 0D 31 00 00 00 01 94 (书房顶灯只关)
2024-09-08 17:43:15.309 - 55 0A 31 00 00 00 01 91 (厨房顶灯一关)
2024-09-08 17:43:16.355 - 55 0A 31 00 00 00 02 92 (厨房顶灯二关)
2024-09-08 17:43:17.402 - 55 0B 31 00 00 00 01 92 (厨房风扇只关)
2024-09-08 17:43:18.448 - 55 0C 31 00 00 00 01 93 (餐厅顶灯关)
2024-09-08 17:43:19.495 - 1A 20 07 01 30 00 01 00 0F (自保持开关地址-西阳顶灯, 西阳顶灯关)
2024-09-08 17:43:20.543 - 1A 18 05 21 89 00 01 00 0F (自保持开关地址-客厅顶灯, 客厅顶灯一关)
2024-09-08 17:43:21.588 - 1A 18 05 01 94 00 01 00 0F (自保持开关地址-客厅顶灯, 客厅顶灯二关)
2024-09-08 17:43:22.634 - 1A 20 07 00 70 00 01 00 0F (自保持开关地址-次卧顶灯, 次卧顶灯只关)
2024-09-08 17:43:23.682 - 1A 18 05 10 31 00 01 00 0F (自保持开关地址-门厅顶灯, 门厅顶灯关)
2024-09-08 17:43:24.726 - 1A FF FF FF 04 00 03 02 (继电器地址-东阳衣架, 东阳衣架照明关)
2024-09-08 17:43:25.274 - 09 06 00 0F 02 02 38 20 (提示音咚)
2024-09-08 17:43:25.822 - A5 00 A6 FE 01 AA (餐厅窗帘开)
2024-09-08 17:43:26.372 - FF FF FF FF 0A 00 01 00 (继电器地址-东阳窗帘, 东阳窗帘开)
2024-09-08 17:43:26.969 - 1A BE B0 DC 04 00 01 00 (继电器地址-西阳窗帘, 西阳窗帘开)
2024-09-08 17:43:27.517 - FF FF FF FF 0E 00 01 00 (继电器地址-西阳小窗帘, 西阳小窗帘开)
2024-09-08 17:43:28.067 - 1A 22 33 62 0F 00 00 01 0F (正反转地址-内卫卷帘, 内卫卷帘升)
2024-09-08 17:43:28.612 - A5 00 52 FE 01 AA (主卧窗帘开)
2024-09-08 17:43:29.161 - A5 00 53 FF 00 AA (主卧纱帘开)
2024-09-08 17:43:29.707 - A5 00 76 FE 01 AA (次卧窗帘开)
2024-09-08 17:43:30.256 - A5 00 21 FE 01 AA (次卧纱帘开)
2024-09-08 17:43:30.807 - A5 00 D2 FE 01 AA 22 0D (书房窗帘开)
2024-09-08 17:43:31.354 - 1A BE B0 DC 09 00 01 00 (继电器地址-客厅窗帘, 客厅窗帘开)
2024-09-08 17:43:31.902 - 1A BE B0 DC 0A 00 02 00 (继电器地址-客厅纱帘, 客厅纱帘开)
2024-09-08 17:43:32.450 - 09 06 00 0F 02 02 38 20 (提示音咚)
2024-09-08 17:43:33.498 - 1A EC A0 DC 02 00 00 00 0F (自保持开关地址-天花12V供电, 天花12V 供电关)
2024-09-08 17:43:34.046 - 1A EC A0 DC 02 00 00 00 0F (自保持开关地址-天花12V供电, 天花12V 供电关)
2024-09-08 17:43:34.644 - 1A EC A0 DC 01 00 00 00 0F (自保持开关地址-电视、设备12V供电, 12V 电视供电关)
2024-09-08 17:43:35.193 - 1A EC A0 DC 01 00 00 00 0F (自保持开关地址-电视、设备12V供电, 12V 电视供电关)
2024-09-08 17:43:35.790 - 1A EC A0 DC 04 00 01 00 0F (自保持开关地址-次卧西阳内外卫供电, 内卫外卫关)
2024-09-08 17:43:36.367 - 1A EC A0 DC 04 00 01 00 0F (自保持开关地址-次卧西阳内外卫供电, 内卫外卫关)
2024-09-08 17:43:54.598 - 09 06 00 0F 02 02 38 20 (提示音咚)
2024-09-08 17:43:55.146 - 1A 27 89 12 AA 00 00 00 0F (状态寄存器地址, 无人状态)
2024-09-08 17:43:55.695 - 1A 27 89 12 AA 00 00 00 0F (状态寄存器地址, 无人状态)
2024-09-08 17:43:56.239 - A1 11 11 11 4D (天花供电关闭确认)
2024-09-08 17:43:56.460 - 1A EC A0 DC 02 86 86 86 0F (查询天花供电状态, 自保持开关地址-天花12V供电)
2024-09-08 17:43:56.893 - 1A EC A0 DC 02 00 01 0F (自保持开关地址-天花12V供电)
2024-09-08 17:43:59.279 - A1 11 11 11 4E (卫生供电关闭确认)
2024-09-08 17:43:59.509 - 1A EC A0 DC 04 86 86 86 0F (查询卫生间供电状态, 自保持开关地址-次卧西阳内外卫供电)
2024-09-08 17:43:59.940 - 1A EC A0 DC 04 01 00 0F (自保持开关地址-次卧西阳内外卫供电)
2024-09-08 17:44:02.317 - A1 11 11 11 4F (电视供电关闭确认)
2024-09-08 17:44:02.546 - 1A EC A0 DC 01 86 86 86 0F (查询电视供电状态, 自保持开关地址-电视、设备12V供电)
2024-09-08 17:44:02.981 - 1A EC A0 DC 01 00 01 0F (自保持开关地址-电视、设备12V供电)
2024-09-08 17:44:05.361 - 09 06 00 0F 02 02 38 20 (提示音咚)
2024-09-08 17:44:05.908 - 09 06 00 0F 02 02 38 20 (提示音咚)
2024-09-08 17:44:06.510 - EE 00 00 B1 00 00 02 FF FC FF FF (情景完成返回主页)
2024-09-08 17:44:07.601 - BA BA EE EE BA BA (离家设置信科变量)
2024-09-08 17:44:08.647 - A1 11 11 11 46 (天热离家遮阳)
2024-09-08 17:44:08.873 - 1A 27 89 12 AA 86 86 86 0F (查询寄存器状态, 状态寄存器地址)
2024-09-08 17:44:09.256 - 1A 27 89 12 AA 00 00 00 00 00 00 00 00 00 00 00 01 00 00 00 00 0F (状态寄存器地址)
2024-09-08 17:44:09.876 - 19 08 24 03 DD 00 05 00 01 (调用情景-天热遮阳关帘)
2024-09-08 17:44:10.446 - EE 00 00 B1 00 00 00 FF FC FF FF (情景执行提示)
2024-09-08 17:44:11.040 - 09 06 00 0F 02 01 78 21 (提示音叮)
2024-09-08 17:44:11.587 - A5 00 A2 FF 00 AA (餐厅纱帘关)
2024-09-08 17:44:12.633 - A5 00 A6 FF 00 AA (餐厅窗帘关)
2024-09-08 17:44:12.685 - 55 00 A6 01 00 0E 01 74 AA 55 00 A6 01 00 0E 01 74 AA (餐厅窗帘电机状态返回)
2024-09-08 17:44:13.730 - A5 00 53 FE 01 AA (主卧纱帘关)
2024-09-08 17:44:13.785 - 55 00 53 02 02 23 02 30 AA 55 00 53 02 02 23 02 30 AA (主卧纱帘电机状态返回)
2024-09-08 17:44:14.826 - A5 00 52 FF 00 AA (主卧窗帘关)
2024-09-08 17:44:15.873 - A5 00 21 FF 00 AA (次卧纱帘关)
2024-09-08 17:44:15.924 - 55 00 21 01 00 0D 01 34 AA 55 00 21 01 00 0D 01 34 AA (次卧纱帘电机状态返回)
2024-09-08 17:44:16.968 - A5 00 76 FF 00 AA (次卧窗帘关)
2024-09-08 17:44:17.018 - 55 00 76 01 00 0E 01 1B AA 55 00 76 01 00 0E 01 1B AA (次卧窗帘电机状态返回)
2024-09-08 17:44:18.067 - A5 00 B7 FF 00 AA 22 0D (书房纱帘关)
2024-09-08 17:44:19.114 - A5 00 D2 FF 00 AA 22 0C (书房窗帘关)
2024-09-08 17:44:19.167 - 55 00 D2 01 00 0D 01 0B AA 55 00 D2 01 00 0D 01 0B AA (书房窗帘电机状态返回)
2024-09-08 17:44:20.709 - 1A 22 33 62 5E 00 02 01 0F (正反转地址-厨房卷帘三, 厨房卷帘一降)
2024-09-08 17:44:21.297 - 55 00 A6 00 01 66 01 74 AA 55 00 A6 00 01 66 01 74 AA (餐厅窗帘电机状态返回)
2024-09-08 17:44:21.755 - 1A 22 33 62 56 00 02 01 0F (正反转地址-厨房卷帘二, 厨房卷帘二降)
2024-09-08 17:44:22.803 - 1A 22 33 62 4F 00 00 01 0F (正反转地址-厨房卷帘一, 厨房卷帘三降)
2024-09-08 17:44:23.015 - 55 00 21 00 01 27 01 34 AA 55 00 21 00 01 27 01 34 AA (次卧纱帘电机状态返回)
2024-09-08 17:44:23.848 - 1A BE B0 DC 04 00 02 00 (继电器地址-西阳窗帘, 西阳窗帘关)
2024-09-08 17:44:24.089 - 55 00 76 00 01 0E 01 1B AA 55 00 76 00 01 0E 01 1B AA (次卧窗帘电机状态返回)
2024-09-08 17:44:24.535 - 55 00 53 00 00 0C 02 30 AA 55 00 53 00 00 0C 02 30 AA (主卧纱帘电机状态返回)
2024-09-08 17:44:24.893 - FF FF FF FF 0E 00 02 00 (继电器地址-西阳小窗帘, 西阳小窗帘关)
2024-09-08 17:44:25.941 - 1A BE B0 DC 03 00 03 00 (继电器地址-西阳天幕, 西阳天幕关)
2024-09-08 17:44:26.332 - 55 20 20 00 02 09 02 16 AA 55 20 20 00 02 09 02 16 AA (主卧窗帘电机状态返回)
2024-09-08 17:44:26.987 - 1A BE B0 DC 03 00 03 00 (继电器地址-西阳天幕, 西阳天幕关)
2024-09-08 17:44:28.033 - 09 06 00 0F 02 02 38 20 (提示音咚)
2024-09-08 17:44:28.583 - EE 00 00 B1 00 00 02 FF FC FF FF (情景完成返回主页)
2024-09-08 17:44:28.916 - 55 00 D2 00 00 FE 01 0B AA 55 00 D2 00 00 FE 01 0B AA (书房窗帘电机状态返回)
2024-09-08 19:07:07.961 - 03 00 00 2F 2A E0 00 00 00 00 00 43 6F 6F 6B 69 65 3A 20 6D 73 74 73 68 61 73 68 3D 41 64 6D 69
2024-09-08 19:07:07.978 - 6E 69 73 74 72 0D 0A 01 00 08 00 03 00 00 00
2024-09-08 19:20:48.942 - 03 00 00 2F 2A E0 00 00 00 00 00 43 6F 6F 6B 69 65 3A 20 6D 73 74 73 68 61 73 68 3D 41 64 6D 69
2024-09-08 19:20:48.963 - 6E 69 73 74 72 0D 0A 01 00 08 00 03 00 00 00
2024-09-08 20:00:27.289 - EE 00 00 B1 00 00 00 FF FC FF FF (情景执行提示)
2024-09-08 20:00:27.884 - 09 06 00 0F 02 01 78 21 (提示音叮)
2024-09-08 20:00:28.430 - A1 11 11 11 40 (客厅空调自动开)
2024-09-08 20:00:28.653 - 19 08 24 03 F0 BB 78 02 02 00
2024-09-08 20:00:28.703 - 23 AA 56 02 14 00 20 18 09 08 07 73 65 6F 6B 65 6E 64
2024-09-08 20:00:29.663 - 01 10 07 D0 00 03 06 70 61 00 02 00 FA 6F 26 (客厅空调冷25度)
2024-09-08 20:00:29.696 - 01 10 07 D0 00 03 06 70 61 00 02 00 FA 6F 26 (客厅空调冷25度)
2024-09-08 20:00:32.516 - A1 11 11 11 41 (餐厅空调自动开)
2024-09-08 20:00:32.744 - 19 08 24 03 F0 BB 78 02 02 00
2024-09-08 20:00:32.796 - 23 AA 56 02 14 00 24 18 09 08 07 73 65 6F 6B 65 6E 64
2024-09-08 20:00:33.754 - 01 10 07 D3 00 03 06 70 61 00 02 00 FA 9F 29 (餐厅空调冷25度)
2024-09-08 20:00:33.796 - 01 10 07 D3 00 03 06 70 61 00 02 00 FA 9F 29 (餐厅空调冷25度)
2024-09-08 20:00:36.552 - A1 11 11 11 42 (主卧空调自动开)
2024-09-08 20:00:36.777 - 19 08 24 03 F0 BB 78 02 02 00
2024-09-08 20:00:36.828 - 23 AA 56 02 14 00 28 18 09 08 07 73 65 6F 6B 65 6E 64
2024-09-08 20:00:37.786 - 01 10 07 D6 00 03 06 70 61 00 02 00 F0 0F 3E (主卧空调冷24度)
2024-09-08 20:00:38.598 - 09 06 00 0F 02 02 38 20 (提示音咚)
2024-09-08 20:00:39.150 - EE 00 00 B1 00 00 02 FF FC FF FF (情景完成返回主页)
2024-09-08 20:14:59.861 - 1B 03 00 00 00 02 C6 31 (查询室外光线)
2024-09-08 20:14:59.882 - 1B 03 04 00 00 00 00 41 F2 (室外光线返回)
2024-09-08 20:15:00.660 - 1A EC A0 DC 02 00 00 01 0F (自保持开关地址-天花12V供电, 天花12V 供电开)
2024-09-08 20:15:01.179 - 1A AA AA AA 88 (调光器地址-茶吧灯带)
2024-09-08 20:15:01.365 - 1A FF 01 FF FF FF 60 01 FF 60 01 FF 00 00 0F (调光器地址-公共区域统配地址)
2024-09-08 20:15:02.357 - 19 08 24 03 DD 00 0D 00 01 (调用情景-信科调用进门暗)
2024-09-08 20:15:04.397 - 1A FF 01 FF FF FF 60 01 FF 60 01 FF 00 00 0F (调光器地址-公共区域统配地址)
2024-09-08 20:15:06.482 - 1A EC A0 DC 01 00 00 01 0F (自保持开关地址-电视、设备12V供电, 12V 电视供电开)
2024-09-08 20:15:07.031 - 1A EC A0 DC 01 00 00 01 0F (自保持开关地址-电视、设备12V供电, 12V 电视供电开)
2024-09-08 20:15:07.580 - 1A EC A0 DC 04 00 01 01 0F (自保持开关地址-次卧西阳内外卫供电, 内卫外卫开)
2024-09-08 20:15:08.177 - 1A EC A0 DC 04 00 01 01 0F (自保持开关地址-次卧西阳内外卫供电, 内卫外卫开)
2024-09-08 20:15:13.216 - 1A 27 89 12 AA 00 00 01 0F (状态寄存器地址, 有人状态)
2024-09-08 20:15:13.764 - 1A 27 89 12 AA 00 00 01 0F (状态寄存器地址, 有人状态)
2024-09-08 20:15:14.361 - 1A BE B0 DC 01 00 01 00 (继电器地址-回水泵点动, 回水泵点动)
2024-09-08 20:15:14.910 - 1A FF FF FF 56 00 00 01 0F (人体感应地址-内卫, 打开内卫感应)
2024-09-08 20:15:15.459 - 1A FF FF FF 55 00 00 01 0F (人体感应地址-外卫, 打开外卫感应)
2024-09-08 20:15:15.553 - BC BC
2024-09-08 20:15:16.006 - 1A FF FF FF 57 00 00 01 0F (人体感应地址-厨房, 打开厨房感应)
2024-09-08 20:15:16.604 - 1A FF FF FF 58 00 00 01 0F (人体感应地址-茶吧, 打开茶吧感应)
2024-09-08 20:15:16.654 - BC BC
2024-09-08 20:15:17.202 - 1A BE B0 DC 01 00 01 00 (继电器地址-回水泵点动, 回水泵点动)
2024-09-08 20:15:17.750 - A5 00 B7 FF 00 AA 22 0D (书房纱帘关)
2024-09-08 20:15:18.297 - A5 00 A2 FF 00 AA (餐厅纱帘关)
2024-09-08 20:15:18.846 - 09 06 00 0F 02 01 78 21 (提示音叮)
2024-09-08 20:15:19.395 - 09 06 00 0F 02 01 78 21 (提示音叮)
2024-09-08 20:15:19.945 - EE 00 00 B1 00 00 02 FF FC FF FF (情景完成返回主页)
2024-09-08 20:15:20.537 - A1 11 11 11 50 (天花供电打开确认)
2024-09-08 20:15:20.767 - 1A EC A0 DC 02 86 86 86 0F (查询天花供电状态, 自保持开关地址-天花12V供电)
2024-09-08 20:15:21.200 - 1A EC A0 DC 02 01 01 0F (自保持开关地址-天花12V供电)
2024-09-08 20:15:22.038 - 19 08 24 03 CC 01 54 00 01 (调用内卫感应灯开的按键)
2024-09-08 20:15:22.091 - 1A 0C 02 08 01 FF 45 01 FF 45 01 FF 00 00 0F (调光器地址-内卫射灯, 内卫射灯微光)
2024-09-08 20:15:23.078 - A1 11 11 11 51 (卫生供电打开确认)
2024-09-08 20:15:23.303 - 1A EC A0 DC 04 86 86 86 0F (查询卫生间供电状态, 自保持开关地址-次卧西阳内外卫供电)
2024-09-08 20:15:23.735 - 1A EC A0 DC 04 01 01 0F (自保持开关地址-次卧西阳内外卫供电)
2024-09-08 20:15:25.651 - A1 11 11 11 52 (电视供电打开确认)
2024-09-08 20:15:25.880 - 1A EC A0 DC 01 86 86 86 0F (查询电视供电状态, 自保持开关地址-电视、设备12V供电)
2024-09-08 20:15:26.312 - 1A EC A0 DC 01 01 01 0F (自保持开关地址-电视、设备12V供电)
2024-09-08 20:15:30.702 - A1 11 11 11 47 (天热回家开帘)
2024-09-08 20:15:30.924 - 1A 27 89 12 AA 86 86 86 0F (查询寄存器状态, 状态寄存器地址)
2024-09-08 20:15:31.307 - 1A 27 89 12 AA 01 00 00 00 00 00 00 00 00 00 00 01 00 00 00 00 0F (状态寄存器地址)
2024-09-08 20:15:31.928 - 19 08 24 03 DD 00 06 00 01 (调用情景-天热遮阳开帘)
2024-09-08 20:15:32.452 - EE 00 00 B1 00 00 00 FF FC FF FF (情景执行提示)
2024-09-08 20:15:33.047 - 09 06 00 0F 02 01 78 21 (提示音叮)
2024-09-08 20:15:33.594 - A5 00 A6 FE 01 AA (餐厅窗帘开)
2024-09-08 20:15:33.649 - 55 00 A6 02 01 66 01 74 AA 55 00 A6 02 01 66 01 74 AA (餐厅窗帘电机状态返回)
2024-09-08 20:15:34.690 - A5 00 52 FE 01 AA (主卧窗帘开)
2024-09-08 20:15:35.737 - A5 00 53 FF 00 AA (主卧纱帘开)
2024-09-08 20:15:35.791 - 55 00 53 01 00 0C 02 30 AA 55 00 53 01 00 0C 02 30 AA (主卧纱帘电机状态返回)
2024-09-08 20:15:36.832 - A5 00 76 FE 01 AA (次卧窗帘开)
2024-09-08 20:15:36.884 - 55 00 76 02 01 0E 01 1B AA 55 00 76 02 01 0E 01 1B AA (次卧窗帘电机状态返回)
2024-09-08 20:15:37.928 - A5 00 21 FE 01 AA (次卧纱帘开)
2024-09-08 20:15:37.988 - 55 00 21 02 01 27 01 34 AA 55 00 21 02 01 27 01 FC (次卧纱帘电机状态返回)
2024-09-08 20:15:39.026 - 1A BE B0 DC 04 00 01 00 (继电器地址-西阳窗帘, 西阳窗帘开)
2024-09-08 20:15:40.073 - FF FF FF FF 0E 00 01 00 (继电器地址-西阳小窗帘, 西阳小窗帘开)
2024-09-08 20:15:41.119 - A5 00 D2 FE 01 AA 22 0D (书房窗帘开)
2024-09-08 20:15:41.167 - 55 00 D2 02 00 FE 01 0B AA 55 00 D2 02 00 FE 01 0B AA (书房窗帘电机状态返回)
2024-09-08 20:15:42.216 - 09 06 00 0F 02 02 38 20 (提示音咚)
2024-09-08 20:15:42.350 - 55 00 A6 00 00 0E 01 74 AA 55 00 A6 00 00 0E 01 74 AA (餐厅窗帘电机状态返回)
2024-09-08 20:15:42.766 - EE 00 00 B1 00 00 02 FF FC FF FF (情景完成返回主页)
2024-09-08 20:15:43.982 - 55 00 76 00 00 0E 01 1B AA 55 00 76 00 00 0E 01 1B AA (次卧窗帘电机状态返回)
2024-09-08 20:15:45.409 - 55 00 21 00 00 0D 01 34 AA 55 00 21 00 00 0D 01 34 AA (次卧纱帘电机状态返回)
2024-09-08 20:15:46.638 - 55 20 20 00 00 0E 02 16 AA 55 20 20 00 00 0E 02 16 AA (主卧窗帘电机状态返回)
2024-09-08 20:15:47.164 - 55 00 53 00 02 22 02 30 AA 55 00 53 00 02 22 02 30 AA (主卧纱帘电机状态返回)
2024-09-08 20:15:49.301 - 55 00 D2 00 00 0D 01 0B AA 55 00 D2 00 00 0D 01 0B AA (书房窗帘电机状态返回)
2024-09-08 20:16:01.134 - 19 08 24 03 CC 01 55 00 01 (调用内卫感应灯关的按键)
2024-09-08 20:16:01.187 - 1A 0C 02 08 01 FF 00 01 FF 00 01 FF 00 00 0F (调光器地址-内卫射灯, 内卫感应灯关)
2024-09-08 20:21:28.575 - EE 00 6E B1 01 00 03 FF FC FF FF
2024-09-08 20:21:29.120 - EE 00 6E B1 01 00 08 FF FC FF FF
2024-09-08 20:21:29.563 - 1A BE B0 DC 0A 00 01 00 (继电器地址-客厅纱帘, 客厅纱帘关)
2024-09-08 20:21:35.890 - 19 08 24 03 DD 00 42 00 01 (调用情景-主卧电视空调)
2024-09-08 20:21:36.458 - EE 00 00 B1 00 00 00 FF FC FF FF (情景执行提示)
2024-09-08 20:21:37.053 - 09 06 00 0F 02 01 78 21 (提示音叮)
2024-09-08 20:21:37.597 - 50 F0 05 (开主卧影视)
2024-09-08 20:21:38.144 - 50 F0 04 (开内卫影视)
2024-09-08 20:21:38.700 - 1A FF FF FF 56 00 00 00 0F (人体感应地址-内卫, 关闭内卫感应)
2024-09-08 20:21:39.246 - 1A 22 33 62 0F 00 02 01 0F (正反转地址-内卫卷帘, 内卫卷帘降)
2024-09-08 20:21:39.792 - A5 00 53 FE 01 AA (主卧纱帘关)
2024-09-08 20:21:39.842 - 55 00 53 02 02 22 02 30 AA 55 00 53 02 02 22 02 30 AA (主卧纱帘电机状态返回)
2024-09-08 20:21:40.889 - A5 00 52 FF 00 AA (主卧窗帘关)
2024-09-08 20:21:41.945 - 1A 0C 02 04 FF FF 45 01 FF 45 01 FF 00 00 0F (主卧调光微光)
2024-09-08 20:21:46.030 - 1A 0C 02 08 01 FF 45 01 FF 45 01 FF 00 00 0F (调光器地址-内卫射灯, 内卫射灯微光)
2024-09-08 20:21:46.090 - FF
2024-09-08 20:21:46.615 - 50 F1 25 (主卧—有线2)
2024-09-08 20:21:47.166 - A1 11 11 11 42 (主卧空调自动开)
2024-09-08 20:21:47.395 - 19 08 24 03 F0 BB 78 02 02 00
2024-09-08 20:21:47.445 - 23 AA 56 02 14 15 33 18 09 08 07 73 65 6F 6B 65 6E 64
2024-09-08 20:21:47.713 - 50 F1 24 (内卫—有线2)
2024-09-08 20:21:48.405 - 01 10 07 D6 00 03 06 70 61 00 02 00 F0 0F 3E (主卧空调冷24度)
2024-09-08 20:21:48.446 - 01 10 07 D6 00 03 06 70 61 00 02 00 F0 0F 3E (主卧空调冷24度)
2024-09-08 20:21:49.758 - AF BF CF DF C2 21 (有线2/快捷-凤凰卫视)
2024-09-08 20:21:50.623 - 55 00 53 00 00 0C 02 30 AA 55 00 53 00 00 0C 02 30 AA (主卧纱帘电机状态返回)
2024-09-08 20:21:51.804 - 1A FF FF FF 60 0B 01 01 0F (红外总线地址-主卧发射设备, 主卧电视电源)
2024-09-08 20:21:52.322 - F0 0B 01 08
2024-09-08 20:21:59.829 - 09 06 00 0F 02 02 38 20 (提示音咚)
2024-09-08 20:22:00.381 - EE 00 00 B1 00 00 02 FF FC FF FF (情景完成返回主页)
2024-09-08 20:25:03.064 - 1A FF FF FF 04 FE (继电器地址-东阳衣架)
2024-09-08 20:25:03.200 - 03
2024-09-08 20:25:57.765 - FF FF FF FF 0E FC (继电器地址-西阳小窗帘)
2024-09-08 20:25:57.901 - FF
2024-09-08 20:26:57.325 - 1A BE B0 DC 04 FC (继电器地址-西阳窗帘)
2024-09-08 20:26:57.459 - FF
2024-09-08 20:26:58.669 - 1A BE B0 DC 03 FC (继电器地址-西阳天幕)
2024-09-08 20:26:58.801 - FF
2024-09-08 20:27:57.987 - 1A BE B0 DC 02 (正反转地址-外卫卷帘)
2024-09-08 20:27:58.122 - FF
2024-09-08 20:28:58.666 - 1A BE B0 DC 01 (继电器地址-回水泵点动)
2024-09-08 20:28:58.802 - FF
2024-09-08 20:29:51.286 - 19 08 24 03 DD 00 1B 00 01 (调用情景-外卫使用)
2024-09-08 20:29:51.841 - EE 00 00 B1 00 00 00 FF FC FF FF (情景执行提示)
2024-09-08 20:29:52.436 - 09 06 00 0F 02 01 78 21 (提示音叮)
2024-09-08 20:29:52.983 - 1A BE B0 DC 02 00 01 00 (正反转地址-外卫卷帘, 外卫卷帘降)
2024-09-08 20:29:53.526 - 50 F0 03 (开外卫影视)
2024-09-08 20:29:54.081 - 1A FF FF FF 55 00 00 00 0F (人体感应地址-外卫, 关闭外卫感应)
2024-09-08 20:29:54.636 - 1A 0D 01 07 01 FF 45 01 FF 45 01 FF 00 00 0F (调光器地址-外卫射灯, 外卫感应灯开)
2024-09-08 20:29:56.722 - 1A BE B0 DC 01 00 01 00 (继电器地址-回水泵点动, 回水泵点动)
2024-09-08 20:29:57.370 - 1A BE B0 DC 09 (继电器地址-客厅窗帘)
2024-09-08 20:29:57.769 - 1A BE B0 DC 01 00 01 00 (继电器地址-回水泵点动, 回水泵点动)
2024-09-08 20:29:58.815 - 1A BE B0 DC 01 00 01 00 (继电器地址-回水泵点动, 回水泵点动)
2024-09-08 20:29:59.856 - 50 F1 43 (外卫—CH4)
2024-09-08 20:30:08.612 - FF FF FF FF 0A FC (继电器地址-东阳窗帘)
2024-09-08 20:30:16.856 - A1 11 11 11 11 05 (外卫使用浴霸判断)
2024-09-08 20:30:17.079 - 13 03 00 00 00 02 C7 79 (查询外卫温湿度)
2024-09-08 20:30:17.098 - 13 03 04 01 AB 01 0A 39 B9 (外卫温湿度返回)
2024-09-08 20:30:18.900 - 09 06 00 0F 02 02 38 20 (提示音咚)
2024-09-08 20:30:20.946 - EE 00 00 B1 00 00 02 FF FC FF FF (情景完成返回主页)
2024-09-08 20:39:19.158 - 19 08 24 03 DD 00 1C 00 01 (调用情景-外卫使用完毕)
2024-09-08 20:39:19.680 - EE 00 00 B1 00 00 00 FF FC FF FF (情景执行提示)
2024-09-08 20:39:20.276 - 09 06 00 0F 02 01 78 21 (提示音叮)
2024-09-08 20:39:20.881 - 1A 0D 01 07 01 FF 00 01 FF 00 01 FF 00 00 0F (调光器地址-外卫射灯, 外卫感应灯关)
2024-09-08 20:39:21.466 - 50 F5 03 (关外卫影视)
2024-09-08 20:39:22.021 - 1A 20 07 00 42 00 01 00 0F (自保持开关地址-外卫顶灯, 外卫顶灯关)
2024-09-08 20:39:22.569 - 1A FF FF FF 55 00 00 01 0F (人体感应地址-外卫, 打开外卫感应)
2024-09-08 20:39:22.662 - BC BC
2024-09-08 20:39:22.969 - 19 08 24 03 CC 01 52 00 01 (调用外卫感应灯开的按键)
2024-09-08 20:39:23.022 - 1A 0D 01 07 01 FF 45 01 FF 45 01 FF 00 00 0F (调光器地址-外卫射灯, 外卫感应灯开)
2024-09-08 20:39:25.411 - 09 06 00 0F 02 02 38 20 (提示音咚)
2024-09-08 20:39:26.012 - EE 00 00 B1 00 00 02 FF FC FF FF (情景完成返回主页)
2024-09-08 20:39:27.339 - 19 08 24 03 DD 00 13 00 01 (调用情景-公共区域关)
2024-09-08 20:39:27.855 - EE 00 00 B1 00 00 00 FF FC FF FF (情景执行提示)
2024-09-08 20:39:28.068 - 19 08 24 03 CC 01 CC 00 01 (调用茶吧感应灯开的按键)
2024-09-08 20:39:28.099 - 1A AA AA AA 88 FF B0 01 FF B0 01 0F (调光器地址-茶吧灯带, 茶吧灯带明亮)
2024-09-08 20:39:28.499 - 09 06 00 0F 02 01 78 21 (提示音叮)
2024-09-08 20:39:29.048 - 55 0B 31 00 00 00 01 92 (厨房风扇只关)
2024-09-08 20:39:30.095 - 01 06 07 D3 FF 60 38 9F (餐厅空调关)
2024-09-08 20:39:30.131 - 01 06 07 D3 FF 60 38 9F (餐厅空调关)
2024-09-08 20:39:31.191 - 01 06 07 D0 FF 60 C8 9F (客厅空调关)
2024-09-08 20:39:31.222 - 01 06 07 D0 FF 60 C8 9F (客厅空调关)
2024-09-08 20:39:34.694 - 19 08 24 03 CC 01 53 00 01 (调用外卫感应灯关的按键)
2024-09-08 20:39:34.756 - 1A 0D 01 07 01 FF 00 01 FF 00 01 FF 00 00 0F (调光器地址-外卫射灯, 外卫感应灯关)
2024-09-08 20:39:35.275 - 50 F5 02 (关厨房影视)
2024-09-08 20:39:36.321 - 50 F5 01 (关餐厅影视)
2024-09-08 20:39:37.369 - 50 F5 08 (关客厅影视)
2024-09-08 20:39:38.415 - 50 F5 03 (关外卫影视)
2024-09-08 20:39:39.466 - 55 0A 31 00 00 00 01 91 (厨房顶灯一关)
2024-09-08 20:39:40.512 - 55 0A 31 00 00 00 02 92 (厨房顶灯二关)
2024-09-08 20:39:41.559 - 55 0C 31 00 00 00 01 93 (餐厅顶灯关)
2024-09-08 20:39:42.607 - 1A 18 05 10 31 00 01 00 0F (自保持开关地址-门厅顶灯, 门厅顶灯关)
2024-09-08 20:39:43.652 - 1A 20 07 00 42 00 01 00 0F (自保持开关地址-外卫顶灯, 外卫顶灯关)
2024-09-08 20:39:44.699 - 1A 18 05 21 89 00 01 00 0F (自保持开关地址-客厅顶灯, 客厅顶灯一关)
2024-09-08 20:39:45.745 - 1A 18 05 01 94 00 01 00 0F (自保持开关地址-客厅顶灯, 客厅顶灯二关)
2024-09-08 20:39:46.792 - 1A 20 07 01 30 00 01 00 0F (自保持开关地址-西阳顶灯, 西阳顶灯关)
2024-09-08 20:39:47.846 - 1A FF 01 FF FF FF 00 01 FF 00 01 FF 00 00 0F (调光器地址-公共区域统配地址, 公共区域灯光全关)
2024-09-08 20:39:48.934 - 09 06 00 0F 02 02 38 20 (提示音咚)
2024-09-08 20:39:50.060 - 19 08 24 03 CC 00 D3 00 01 (调用厨房感应灯开的按键)
2024-09-08 20:39:50.095 - 55 0A 32 00 00 00 01 92 55 0A 32 00 00 00 02 93 (厨房顶灯一开, 厨房顶灯二开)
2024-09-08 20:39:50.980 - EE 00 00 B1 00 00 02 FF FC FF FF (情景完成返回主页)
2024-09-08 20:40:34.702 - 19 08 24 03 CC 01 CD 00 01 (调用茶吧感应灯关的按键)
2024-09-08 20:40:34.733 - 1A AA AA AA 88 FF 00 01 FF 00 01 0F (调光器地址-茶吧灯带, 茶吧灯带关闭)
2024-09-08 20:40:42.217 - 19 08 24 03 CC 01 CC 00 01 (调用茶吧感应灯开的按键)
2024-09-08 20:40:42.248 - 1A AA AA AA 88 FF B0 01 FF B0 01 0F (调光器地址-茶吧灯带, 茶吧灯带明亮)
2024-09-08 20:41:25.804 - 19 08 24 03 CC 01 CD 00 01 (调用茶吧感应灯关的按键)
2024-09-08 20:41:25.835 - 1A AA AA AA 88 FF 00 01 FF 00 01 0F (调光器地址-茶吧灯带, 茶吧灯带关闭)
2024-09-08 20:41:31.260 - 19 08 24 03 CC 00 D4 00 01 (调用厨房感应灯关的按键)
2024-09-08 20:41:31.294 - 55 0A 31 00 00 00 01 91 55 0A 31 00 00 00 02 92 (厨房顶灯一关, 厨房顶灯二关)
2024-09-08 20:44:37.291 - 19 08 24 03 DD 00 4F 00 01 (调用情景-内卫使用完毕)
2024-09-08 20:44:37.799 - EE 00 00 B1 00 00 00 FF FC FF FF (情景执行提示)
2024-09-08 20:44:38.393 - 09 06 00 0F 02 01 78 21 (提示音叮)
2024-09-08 20:44:38.947 - 1A 0C 02 08 01 FF 00 01 FF 00 01 FF 00 00 0F (调光器地址-内卫射灯, 内卫感应灯关)
2024-09-08 20:44:43.022 - 50 F5 04 (关内卫影视)
2024-09-08 20:44:43.576 - 1A 20 07 01 40 00 01 00 0F (自保持开关地址-内卫顶灯, 内卫顶灯关)
2024-09-08 20:44:44.125 - 1A FF FF FF 56 00 00 01 0F (人体感应地址-内卫, 打开内卫感应)
2024-09-08 20:44:44.231 - BC BC
2024-09-08 20:44:44.538 - 19 08 24 03 CC 01 54 00 01 (调用内卫感应灯开的按键)
2024-09-08 20:44:44.595 - 1A 0C 02 08 01 FF 45 01 FF 45 01 FF 00 00 0F (调光器地址-内卫射灯, 内卫射灯微光)
2024-09-08 20:44:46.966 - 09 06 00 0F 02 02 38 20 (提示音咚)
2024-09-08 20:44:47.518 - EE 00 00 B1 00 00 02 FF FC FF FF (情景完成返回主页)
2024-09-08 21:29:37.038 - 19 08 24 03 CC 01 55 00 01 (调用内卫感应灯关的按键)
2024-09-08 21:29:37.071 - 1A 0C 02 08 01 FF 00 01 FF 00 01 FF 00 00 0F (调光器地址-内卫射灯, 内卫感应灯关)
2024-09-08 21:29:59.581 - 19 08 24 03 CC 01 54 00 01 (调用内卫感应灯开的按键)
2024-09-08 21:29:59.616 - 1A 0C 02 08 01 FF 45 01 FF 45 01 FF 00 00 0F (调光器地址-内卫射灯, 内卫射灯微光)
2024-09-08 21:51:07.577 - 19 08 24 03 CC 01 55 00 01 (调用内卫感应灯关的按键)
2024-09-08 21:51:07.611 - 1A 0C 02 08 01 FF 00 01 FF 00 01 FF 00 00 0F (调光器地址-内卫射灯, 内卫感应灯关)
2024-09-08 21:52:12.706 - 19 08 24 03 CC 01 54 00 01 (调用内卫感应灯开的按键)
2024-09-08 21:52:12.740 - 1A 0C 02 08 01 FF 45 01 FF 45 01 FF 00 00 0F (调光器地址-内卫射灯, 内卫射灯微光)
2024-09-08 21:54:04.425 - 19 08 24 03 CC 01 55 00 01 (调用内卫感应灯关的按键)
2024-09-08 21:54:04.459 - 1A 0C 02 08 01 FF 00 01 FF 00 01 FF 00 00 0F (调光器地址-内卫射灯, 内卫感应灯关)
2024-09-08 21:58:13.916 - 19 08 24 03 CC 01 54 00 01 (调用内卫感应灯开的按键)
2024-09-08 21:58:13.949 - 1A 0C 02 08 01 FF 45 01 FF 45 01 FF 00 00 0F (调光器地址-内卫射灯, 内卫射灯微光)
2024-09-08 22:04:33.162 - 19 08 24 03 CC 01 55 00 01 (调用内卫感应灯关的按键)
2024-09-08 22:04:33.221 - 1A 0C 02 08 01 FF 00 01 FF 00 01 FF 00 00 0F (调光器地址-内卫射灯, 内卫感应灯关)
2024-09-08 22:05:55.324 - 19 08 24 03 CC 01 54 00 01 (调用内卫感应灯开的按键)
2024-09-08 22:05:55.358 - 1A 0C 02 08 01 FF 45 01 FF 45 01 FF 00 00 0F (调光器地址-内卫射灯, 内卫射灯微光)
2024-09-08 22:07:45.541 - 19 08 24 03 CC 01 55 00 01 (调用内卫感应灯关的按键)
2024-09-08 22:07:45.576 - 1A 0C 02 08 01 FF 00 01 FF 00 01 FF 00 00 0F (调光器地址-内卫射灯, 内卫感应灯关)
2024-09-08 22:08:27.122 - 19 08 24 03 CC 01 54 00 01 (调用内卫感应灯开的按键)
2024-09-08 22:08:27.157 - 1A 0C 02 08 01 FF 45 01 FF 45 01 FF 00 00 0F (调光器地址-内卫射灯, 内卫射灯微光)
2024-09-08 22:12:38.325 - FF
2024-09-08 22:13:43.245 - 19 08 24 03 CC 01 55 00 01 (调用内卫感应灯关的按键)
2024-09-08 22:13:43.296 - 1A 0C 02 08 01 FF 00 01 FF 00 01 FF 00 00 0F (调光器地址-内卫射灯, 内卫感应灯关)
2024-09-08 22:21:49.202 - 19 08 24 03 CC 01 54 00 01 (调用内卫感应灯开的按键)
2024-09-08 22:21:49.255 - 1A 0C 02 08 01 FF 45 01 FF 45 01 FF 00 00 0F (调光器地址-内卫射灯, 内卫射灯微光)
2024-09-08 22:26:36.253 - FF
2024-09-08 22:27:56.838 - FF
2024-09-08 22:33:37.761 - FF
2024-09-08 22:37:14.023 - 19 08 24 03 CC 01 55 00 01 (调用内卫感应灯关的按键)
2024-09-08 22:37:14.074 - 1A 0C 02 08 01 FF 00 01 FF 00 01 FF 00 00 0F (调光器地址-内卫射灯, 内卫感应灯关)
2024-09-08 23:46:38.986 - 1A FF FF FF 04 (继电器地址-东阳衣架)
2024-09-08 23:46:39.121 - 00
2024-09-08 23:46:55.569 - FF FF FF FF 0E FE (继电器地址-西阳小窗帘)
2024-09-08 23:48:44.401 - 1A BE B0 DC 03 (继电器地址-西阳天幕)
2024-09-08 23:48:44.537 - FF
2024-09-08 23:49:04.067 - 1A BE B0 DC 04 (继电器地址-西阳窗帘)
2024-09-08 23:49:04.201 - FF
2024-09-08 23:49:19.075 - 1A BE B0 DC 02 (正反转地址-外卫卷帘)
2024-09-08 23:49:19.211 - FF
2024-09-08 23:49:21.542 - 1A BE B0 DC 0A (继电器地址-客厅纱帘)
2024-09-08 23:49:21.677 - FF
2024-09-08 23:49:31.663 - FF
2024-09-08 23:50:38.748 - 1A BE B0 DC 01 (继电器地址-回水泵点动)
2024-09-08 23:50:38.885 - FF
2024-09-08 23:51:10.858 - 1A BE B0 DC 09 FE (继电器地址-客厅窗帘)
2024-09-08 23:51:10.990 - FF
2024-09-08 23:52:12.336 - FF FF FF FF 0A FC (继电器地址-东阳窗帘)
2024-09-08 23:54:46.914 - FF
2024-09-09 00:19:33.996 - FF
2024-09-09 00:21:00.014 - FF
2024-09-09 00:22:30.453 - 19 08 24 03 CC 01 54 00 01 (调用内卫感应灯开的按键)
2024-09-09 00:22:30.506 - 1A 0C 02 08 01 FF 45 01 FF 45 01 FF 00 00 0F (调光器地址-内卫射灯, 内卫射灯微光)
2024-09-09 00:24:24.103 - FF
2024-09-09 00:26:57.478 - 19 08 24 03 CC 01 55 00 01 (调用内卫感应灯关的按键)
2024-09-09 00:26:57.531 - 1A 0C 02 08 01 FF 00 01 FF 00 01 FF 00 00 0F (调光器地址-内卫射灯, 内卫感应灯关)
2024-09-09 00:27:12.509 - 19 08 24 03 CC 01 54 00 01 (调用内卫感应灯开的按键)
2024-09-09 00:27:12.596 - 1A 0C 02 08 01 FF 45 01 FF 45 01 FF 00 00 0F (调光器地址-内卫射灯, 内卫射灯微光)
2024-09-09 00:27:38.560 - 19 08 24 03 CC 01 55 00 01 (调用内卫感应灯关的按键)
2024-09-09 00:27:38.594 - 1A 0C 02 08 01 FF 00 01 FF 00 01 FF 00 00 0F (调光器地址-内卫射灯, 内卫感应灯关)
2024-09-09 01:00:04.890 - 19 08 24 03 CC 01 54 00 01 (调用内卫感应灯开的按键)
2024-09-09 01:00:04.924 - 1A 0C 02 08 01 FF 45 01 FF 45 01 FF 00 00 0F (调光器地址-内卫射灯, 内卫射灯微光)
2024-09-09 01:22:39.057 - 19 08 24 03 CC 01 55 00 01 (调用内卫感应灯关的按键)
2024-09-09 01:22:39.090 - 1A 0C 02 08 01 FF 00 01 FF 00 01 FF 00 00 0F (调光器地址-内卫射灯, 内卫感应灯关)
2024-09-09 01:38:51.974 - 19 08 24 03 CC 01 54 00 01 (调用内卫感应灯开的按键)
2024-09-09 01:38:52.008 - 1A 0C 02 08 01 FF 45 01 FF 45 01 FF 00 00 0F (调光器地址-内卫射灯, 内卫射灯微光)
2024-09-09 01:39:29.046 - 19 08 24 03 CC 01 55 00 01 (调用内卫感应灯关的按键)
2024-09-09 01:39:29.082 - 1A 0C 02 08 01 FF 00 01 FF 00 01 FF 00 00 0F (调光器地址-内卫射灯, 内卫感应灯关)
2024-09-09 01:45:09.535 - FF
2024-09-09 01:51:03.916 - 19 08 24 03 CC 01 54 00 01 (调用内卫感应灯开的按键)
2024-09-09 01:51:03.968 - 1A 0C 02 08 01 FF 45 01 FF 45 01 FF 00 00 0F (调光器地址-内卫射灯, 内卫射灯微光)
2024-09-09 01:52:34.973 - 19 08 24 03 DD 00 4B 00 01 (调用情景-主卧睡觉)
2024-09-09 01:52:35.507 - EE 00 00 B1 00 00 00 FF FC FF FF (情景执行提示)
2024-09-09 01:52:36.101 - 09 06 00 0F 02 01 78 21 (提示音叮)
2024-09-09 01:52:36.644 - 50 F5 04 (关内卫影视)
2024-09-09 01:52:37.195 - A5 00 53 FE 01 AA (主卧纱帘关)
2024-09-09 01:52:38.242 - A5 00 52 FF 00 AA (主卧窗帘关)
2024-09-09 01:52:39.292 - 1A 22 33 62 0F 00 02 01 0F (正反转地址-内卫卷帘, 内卫卷帘降)
2024-09-09 01:52:40.338 - 1A 20 07 01 40 00 01 00 0F (自保持开关地址-内卫顶灯, 内卫顶灯关)
2024-09-09 01:52:41.385 - 1A 20 07 01 55 00 01 00 0F (自保持开关地址-主卧顶灯, 主卧顶灯只关)
2024-09-09 01:52:41.933 - 1A FF FF FF 56 00 00 01 0F (人体感应地址-内卫, 打开内卫感应)
2024-09-09 01:52:41.947 - BC BC
2024-09-09 01:52:45.530 - 1A 0C 02 08 01 FF 00 01 FF 00 01 FF 00 00 0F (调光器地址-内卫射灯, 内卫感应灯关)
2024-09-09 01:52:46.128 - 1A 0C 02 04 01 FF 00 01 FF 00 01 FF 00 00 0F (调光器地址-主卧筒灯, 主卧筒灯关闭)
2024-09-09 01:52:46.726 - 1A 0C 02 04 03 FF 00 01 FF 00 01 FF 00 00 0F (调光器地址-主卧灯带, 主卧灯带关闭)
2024-09-09 01:52:47.325 - 1A 0C 02 04 04 FF 00 01 FF 00 01 FF 00 00 0F (调光器地址-主卧南阅, 主卧南阅关闭)
2024-09-09 01:52:47.923 - 1A 0C 02 04 05 FF 00 01 FF 00 01 FF 00 00 0F (调光器地址-主卧北阅, 主卧北阅关闭)
2024-09-09 01:52:48.521 - 1A 0C 02 04 02 FF 00 01 FF 00 01 FF 00 00 0F (调光器地址-主卧过道, 主卧过道关闭)
2024-09-09 01:52:49.111 - 09 06 00 0F 02 02 38 20 (提示音咚)
2024-09-09 01:52:49.662 - EE 00 00 B1 00 00 02 FF FC FF FF (情景完成返回主页)
2024-09-09 01:53:29.710 - 19 08 24 03 CC 01 55 00 01 (调用内卫感应灯关的按键)
2024-09-09 01:53:29.795 - 1A 0C 02 08 01 FF 00 01 FF 00 01 FF 00 00 0F (调光器地址-内卫射灯, 内卫感应灯关)
2024-09-09 01:54:10.792 - 19 08 24 03 CC 01 54 00 01 (调用内卫感应灯开的按键)
2024-09-09 01:54:10.825 - 1A 0C 02 08 01 FF 45 01 FF 45 01 FF 00 00 0F (调光器地址-内卫射灯, 内卫射灯微光)
2024-09-09 01:54:55.880 - 19 08 24 03 CC 01 55 00 01 (调用内卫感应灯关的按键)
2024-09-09 01:54:55.914 - 1A 0C 02 08 01 FF 00 01 FF 00 01 FF 00 00 0F (调光器地址-内卫射灯, 内卫感应灯关)
2024-09-09 01:58:02.247 - 19 08 24 03 CC 01 54 00 01 (调用内卫感应灯开的按键)
2024-09-09 01:58:02.280 - 1A 0C 02 08 01 FF 45 01 FF 45 01 FF 00 00 0F (调光器地址-内卫射灯, 内卫射灯微光)
2024-09-09 01:58:09.336 - 19 08 24 03 CC 01 CC 00 01 (调用茶吧感应灯开的按键)
2024-09-09 01:58:09.366 - 1A AA AA AA 88 FF B0 01 FF B0 01 0F (调光器地址-茶吧灯带, 茶吧灯带明亮)
2024-09-09 01:58:14.113 - 19 08 24 03 CC 00 D3 00 01 (调用厨房感应灯开的按键)
2024-09-09 01:58:14.148 - 55 0A 32 00 00 00 01 92 55 0A 32 00 00 00 02 93 (厨房顶灯一开, 厨房顶灯二开)
2024-09-09 01:58:22.863 - 19 08 24 03 CC 01 CD 00 01 (调用茶吧感应灯关的按键)
2024-09-09 01:58:22.893 - 1A AA AA AA 88 FF 00 01 FF 00 01 0F (调光器地址-茶吧灯带, 茶吧灯带关闭)
2024-09-09 01:59:06.448 - 19 08 24 03 CC 01 CC 00 01 (调用茶吧感应灯开的按键)
2024-09-09 01:59:06.479 - 1A AA AA AA 88 FF B0 01 FF B0 01 0F (调光器地址-茶吧灯带, 茶吧灯带明亮)
2024-09-09 01:59:08.377 - 19 08 24 03 CC 01 55 00 01 (调用内卫感应灯关的按键)
2024-09-09 01:59:08.411 - 1A 0C 02 08 01 FF 00 01 FF 00 01 FF 00 00 0F (调光器地址-内卫射灯, 内卫感应灯关)
2024-09-09 01:59:29.494 - 19 08 24 03 CC 01 CD 00 01 (调用茶吧感应灯关的按键)
2024-09-09 01:59:29.527 - 1A AA AA AA 88 FF 00 01 FF 00 01 0F (调光器地址-茶吧灯带, 茶吧灯带关闭)
2024-09-09 02:01:45.261 - 19 08 24 03 CC 01 CC 00 01 (调用茶吧感应灯开的按键)
2024-09-09 02:01:45.292 - 1A AA AA AA 88 FF B0 01 FF B0 01 0F (调光器地址-茶吧灯带, 茶吧灯带明亮)
2024-09-09 02:01:51.867 - 19 08 24 03 CC 01 52 00 01 (调用外卫感应灯开的按键)
2024-09-09 02:01:51.902 - 1A 0D 01 07 01 FF 45 01 FF 45 01 FF 00 00 0F (调光器地址-外卫射灯, 外卫感应灯开)
2024-09-09 02:01:56.785 - 19 08 24 03 CC 01 CD 00 01 (调用茶吧感应灯关的按键)
2024-09-09 02:01:56.817 - 1A AA AA AA 88 FF 00 01 FF 00 01 0F (调光器地址-茶吧灯带, 茶吧灯带关闭)
2024-09-09 02:02:21.256 - 19 08 24 03 CC 01 54 00 01 (调用内卫感应灯开的按键)
2024-09-09 02:02:21.291 - 1A 0C 02 08 01 FF 45 01 FF 45 01 FF 00 00 0F (调光器地址-内卫射灯, 内卫射灯微光)
2024-09-09 02:02:25.606 - 19 08 24 03 CC 00 D4 00 01 (调用厨房感应灯关的按键)
2024-09-09 02:02:25.642 - 55 0A 31 00 00 00 01 91 55 0A 31 00 00 00 02 92 (厨房顶灯一关, 厨房顶灯二关)
2024-09-09 02:02:31.947 - 19 08 24 03 CC 01 53 00 01 (调用外卫感应灯关的按键)
2024-09-09 02:02:31.981 - 1A 0D 01 07 01 FF 00 01 FF 00 01 FF 00 00 0F (调光器地址-外卫射灯, 外卫感应灯关)
2024-09-09 02:02:51.317 - 19 08 24 03 CC 01 55 00 01 (调用内卫感应灯关的按键)
2024-09-09 02:02:51.350 - 1A 0C 02 08 01 FF 00 01 FF 00 01 FF 00 00 0F (调光器地址-内卫射灯, 内卫感应灯关)
2024-09-09 02:40:31.354 - 19 08 24 03 CC 01 CC 00 01 (调用茶吧感应灯开的按键)
2024-09-09 02:40:31.385 - 1A AA AA AA 88 FF B0 01 FF B0 01 0F (调光器地址-茶吧灯带, 茶吧灯带明亮)
2024-09-09 02:40:38.870 - 19 08 24 03 CC 01 CD 00 01 (调用茶吧感应灯关的按键)
2024-09-09 02:40:38.900 - 1A AA AA AA 88 FF 00 01 FF 00 01 0F (调光器地址-茶吧灯带, 茶吧灯带关闭)
2024-09-09 02:59:56.566 - 50 F7 01 (全屋影音全关)
2024-09-09 03:07:45.282 - 1A FF FF FF 04 (继电器地址-东阳衣架)
2024-09-09 03:07:45.419 - 03
2024-09-09 03:08:33.240 - FF FF FF FF 0E FC (继电器地址-西阳小窗帘)
2024-09-09 03:08:33.374 - FE
2024-09-09 03:09:18.653 - 1A BE B0 DC 04 FD (继电器地址-西阳窗帘)
2024-09-09 03:09:18.787 - FF
2024-09-09 03:10:32.302 - 1A BE B0 DC 02 (正反转地址-外卫卷帘)
2024-09-09 03:10:32.438 - FE
2024-09-09 03:10:33.037 - 1A BE B0 DC 0A FC (继电器地址-客厅纱帘)
2024-09-09 03:10:33.171 - FF
2024-09-09 03:10:42.554 - 1A BE B0 DC 03 (继电器地址-西阳天幕)
2024-09-09 03:10:42.689 - FE
2024-09-09 03:11:39.903 - 1A BE B0 DC 01 FC (继电器地址-回水泵点动)
2024-09-09 03:12:28.378 - 1A BE B0 DC 09 FC (继电器地址-客厅窗帘)
2024-09-09 03:12:28.513 - FE
2024-09-09 03:13:25.800 - FF FF FF FF 0A FC (继电器地址-东阳窗帘)
2024-09-09 03:13:25.935 - FF
2024-09-09 03:23:03.301 - 19 08 24 03 CC 01 54 00 01 (调用内卫感应灯开的按键)
2024-09-09 03:23:03.352 - 1A 0C 02 08 01 FF 45 01 FF 45 01 FF 00 00 0F (调光器地址-内卫射灯, 内卫射灯微光)
2024-09-09 03:23:27.849 - 19 08 24 03 CC 01 55 00 01 (调用内卫感应灯关的按键)
2024-09-09 03:23:27.902 - 1A 0C 02 08 01 FF 00 01 FF 00 01 FF 00 00 0F (调光器地址-内卫射灯, 内卫感应灯关)
2024-09-09 04:18:30.588 - FF
2024-09-09 04:19:57.077 - 1A EC A0 DC 01 00 01 00 0F (自保持开关地址-电视、设备12V供电, 12V 设备供电关)
2024-09-09 04:19:57.624 - 1A EC A0 DC 01 00 01 00 0F (自保持开关地址-电视、设备12V供电, 12V 设备供电关)
2024-09-09 04:20:07.689 - 1A EC A0 DC 01 00 01 01 0F (自保持开关地址-电视、设备12V供电, 12V 设备供电开)
2024-09-09 04:20:07.921 - 0A 00
2024-09-09 04:20:07.926 - 00
2024-09-09 04:20:08.057 - FF
2024-09-09 04:20:08.080 - 1A 27
2024-09-09 04:20:08.092 - FF
2024-09-09 04:20:08.120 - EE 00 7E 07 FF FC FF
2024-09-09 04:20:08.279 - 6F
2024-09-09 04:20:08.280 - EB FB
2024-09-09 04:20:08.282 - 4A
2024-09-09 04:20:08.315 - EE 00 71 B1 01 00 02 FF FC FF FF
2024-09-09 04:20:08.338 - F7
2024-09-09 04:20:08.634 - FF
2024-09-09 04:20:08.737 - 1A EC A0 DC 01 00 01 01 0F (自保持开关地址-电视、设备12V供电, 12V 设备供电开)
2024-09-09 04:20:09.249 - F7
2024-09-09 04:20:09.269 - FF
2024-09-09 04:20:09.518 - FF
2024-09-09 04:20:09.520 - FF
2024-09-09 04:20:09.573 - 68 86 FF
2024-09-09 04:20:09.649 - FF EC
2024-09-09 04:20:09.652 - 6D 86
2024-09-09 04:20:10.771 - FE
2024-09-09 04:20:11.096 - 68 86 FE
2024-09-09 04:20:17.093 - 19 08 24 03 CC 01 CC 00 01 (调用茶吧感应灯开的按键)
2024-09-09 04:20:17.143 - 1A AA AA AA 88 FF B0 01 FF B0 01 0F (调光器地址-茶吧灯带, 茶吧灯带明亮)
2024-09-09 04:20:25.098 - 19 08 24 03 CC 01 CD 00 01 (调用茶吧感应灯关的按键)
2024-09-09 04:20:25.129 - 1A AA AA AA 88 FF 00 01 FF 00 01 0F (调光器地址-茶吧灯带, 茶吧灯带关闭)
2024-09-09 04:33:05.353 - FF
2024-09-09 04:44:54.550 - 19 08 24 03 CC 00 D3 00 01 (调用厨房感应灯开的按键)
2024-09-09 04:44:54.601 - 55 0A 32 00 00 00 01 92 55 0A 32 00 00 00 02 93 (厨房顶灯一开, 厨房顶灯二开)
2024-09-09 04:45:30.119 - 19 08 24 03 CC 00 D4 00 01 (调用厨房感应灯关的按键)
2024-09-09 04:45:30.174 - 55 0A 31 00 00 00 01 91 55 0A 31 00 00 00 02 92 (厨房顶灯一关, 厨房顶灯二关)
2024-09-09 04:49:57.911 - EE 00 00 B1 00 00 00 FF FC FF FF (情景执行提示)
2024-09-09 04:49:58.496 - A5 00 A2 FF 00 AA (餐厅纱帘关)
2024-09-09 04:49:59.592 - A5 00 A6 FF 00 AA (餐厅窗帘关)
2024-09-09 04:49:59.649 - 55 00 A6 01 00 0E 01 74 AA 55 00 A6 01 00 0E 01 FF (餐厅窗帘电机状态返回)
2024-09-09 04:50:00.720 - A5 00 B7 FF 00 AA 22 0D (书房纱帘关)
2024-09-09 04:50:01.786 - A5 00 D2 FF 00 AA 22 0C (书房窗帘关)
2024-09-09 04:50:01.841 - 55 00 D2 01 00 0D 01 0B AA 55 00 D2 01 00 0D F1 (书房窗帘电机状态返回)
2024-09-09 04:50:02.886 - EE 00 00 B1 00 00 02 FF FC FF FF (情景完成返回主页)
2024-09-09 04:50:08.293 - 55 00 A6 00 01 66 01 74 AA 55 00 A6 00 01 66 01 74 AA (餐厅窗帘电机状态返回)
2024-09-09 04:50:11.244 - FF
2024-09-09 04:50:11.380 - F2 01 0B AA 55 00 D2 00 00 FE 01 0B AA (书房窗帘电机状态返回)
2024-09-09 04:51:25.810 - 19 08 24 03 CC 01 54 00 01 (调用内卫感应灯开的按键)
2024-09-09 04:51:25.864 - 1A 0C 02 08 01 FF 45 01 FF 45 01 FF 00 00 0F (调光器地址-内卫射灯, 内卫射灯微光)
2024-09-09 04:54:09.633 - 19 08 24 03 CC 01 55 00 01 (调用内卫感应灯关的按键)
2024-09-09 04:54:09.669 - 1A 0C 02 08 01 FF 00 01 FF 00 01 FF 00 00 0F (调光器地址-内卫射灯, 内卫感应灯关)
2024-09-09 04:55:08.250 - 19 08 24 03 CC 01 54 00 01 (调用内卫感应灯开的按键)
2024-09-09 04:55:08.283 - 1A 0C 02 08 01 FF 45 01 FF 45 01 FF 00 00 0F (调光器地址-内卫射灯, 内卫射灯微光)
2024-09-09 04:55:34.301 - 19 08 24 03 CC 01 55 00 01 (调用内卫感应灯关的按键)
2024-09-09 04:55:34.333 - 1A 0C 02 08 01 FF 00 01 FF 00 01 FF 00 00 0F (调光器地址-内卫射灯, 内卫感应灯关)
2024-09-09 05:44:55.803 - FF
2024-09-09 05:45:19.784 - FF
2024-09-09 06:17:29.294 - FF
2024-09-09 06:22:26.569 - 19 08 24 03 CC 01 CC 00 01 (调用茶吧感应灯开的按键)
2024-09-09 06:22:26.617 - 1A AA AA AA 88 FF B0 01 FF B0 01 0F (调光器地址-茶吧灯带, 茶吧灯带明亮)
2024-09-09 06:22:34.083 - 19 08 24 03 CC 01 CD 00 01 (调用茶吧感应灯关的按键)
2024-09-09 06:22:34.134 - 1A AA AA AA 88 FF 00 01 FF 00 01 0F (调光器地址-茶吧灯带, 茶吧灯带关闭)
2024-09-09 06:28:49.646 - 1A FF FF FF 04 (继电器地址-东阳衣架)
2024-09-09 06:35:39.580 - FF
2024-09-09 06:44:57.473 - EE 00 00 B1 00 00 00 FF FC FF FF (情景执行提示)
2024-09-09 06:44:58.068 - 09 06 00 0F 02 01 78 21 (提示音叮)
2024-09-09 06:44:58.710 - 50 F0 04 (开内卫影视)
2024-09-09 06:44:59.257 - 50 F0 05 (开主卧影视)
2024-09-09 06:44:59.810 - A5 00 53 FE 01 AA (主卧纱帘关)
2024-09-09 06:45:00.358 - A5 00 53 FE 01 AA (主卧纱帘关)
2024-09-09 06:45:00.906 - A5 00 52 FE 01 AA (主卧窗帘开)
2024-09-09 06:45:01.951 - A5 00 52 FE 01 AA (主卧窗帘开)
2024-09-09 06:45:03.000 - 1A 22 33 62 0F 00 02 01 0F (正反转地址-内卫卷帘, 内卫卷帘降)
2024-09-09 06:45:03.548 - 1A FF FF FF 56 00 00 00 0F (人体感应地址-内卫, 关闭内卫感应)
2024-09-09 06:45:03.651 - BC BC
2024-09-09 06:45:04.097 - 1A 20 07 01 55 00 01 00 0F (自保持开关地址-主卧顶灯, 主卧顶灯只关)
2024-09-09 06:45:05.149 - 1A 0C 02 08 01 FF F0 01 FF F0 01 FF 00 00 0F (调光器地址-内卫射灯, 内卫射灯明亮)
2024-09-09 06:45:05.748 - 1A 0C 02 04 01 FF 00 01 FF 00 01 FF 00 00 0F (调光器地址-主卧筒灯, 主卧筒灯关闭)
2024-09-09 06:45:06.345 - 1A 0C 02 04 03 FF 45 01 FF 45 01 FF 00 00 0F (调光器地址-主卧灯带, 主卧灯带微光)
2024-09-09 06:45:06.944 - 1A 0C 02 04 02 FF F0 01 FF 00 01 FF 00 00 0F (调光器地址-主卧过道, 主卧过道暖光)
2024-09-09 06:45:07.541 - 1A 0C 02 04 05 FF 00 01 FF 00 01 FF 00 00 0F (调光器地址-主卧北阅, 主卧北阅关闭)
2024-09-09 06:45:08.139 - 1A 0C 02 04 04 FF 00 01 FF 00 01 FF 00 00 0F (调光器地址-主卧南阅, 主卧南阅关闭)
2024-09-09 06:45:09.222 - 50 F1 24 (内卫—有线2)
2024-09-09 06:45:10.269 - 50 F1 25 (主卧—有线2)
2024-09-09 06:45:11.318 - AF BF CF DF C2 21 (有线2/快捷-凤凰卫视)
2024-09-09 06:45:11.870 - 1A FF FF FF 60 0B 01 01 0F (红外总线地址-主卧发射设备, 主卧电视电源)
2024-09-09 06:45:12.384 - F0 0B 01 08
2024-09-09 06:45:12.914 - 1A BE B0 DC 01 00 01 00 (继电器地址-回水泵点动, 回水泵点动)
2024-09-09 06:45:14.184 - 55 20 20 00 00 0F 02 16 AA 55 20 20 00 00 0F 02 16 AA (主卧窗帘电机状态返回)
2024-09-09 06:45:17.003 - 09 06 00 0F 02 02 38 20 (提示音咚)
2024-09-09 06:45:17.555 - EE 00 00 B1 00 00 02 FF FC FF FF (情景完成返回主页)
2024-09-09 06:45:18.646 - A1 11 11 11 11 01 (内卫浴霸取暖判断)
2024-09-09 06:45:18.870 - 14 03 00 00 00 02 C6 CE (查询内卫温湿度)
2024-09-09 06:45:18.893 - 14 03 04 01 ED 00 FD EE BA (内卫温湿度返回)
2024-09-09 06:46:29.534 - FF
2024-09-09 07:01:10.670 - 19 08 24 03 CC 01 CC 00 01 (调用茶吧感应灯开的按键)
2024-09-09 07:01:10.719 - 1A AA AA AA 88 FF B0 01 FF B0 01 0F (调光器地址-茶吧灯带, 茶吧灯带明亮)
2024-09-09 07:01:17.685 - 19 08 24 03 CC 01 CD 00 01 (调用茶吧感应灯关的按键)
2024-09-09 07:01:17.734 - 1A AA AA AA 88 FF 00 01 FF 00 01 0F (调光器地址-茶吧灯带, 茶吧灯带关闭)
2024-09-09 07:13:12.695 - 19 08 24 03 DD 00 40 00 01 (调用情景-离开主卧)
2024-09-09 07:13:13.198 - EE 00 00 B1 00 00 00 FF FC FF FF (情景执行提示)
2024-09-09 07:13:13.792 - 09 06 00 0F 02 01 78 21 (提示音叮)
2024-09-09 07:13:14.336 - 50 F5 05 (关主卧影视)
2024-09-09 07:13:14.884 - 50 F5 04 (关内卫影视)
2024-09-09 07:13:15.436 - 01 06 07 D6 FF 60 28 9E (主卧空调关)
2024-09-09 07:13:15.469 - 01 06 07 D6 FF 60 28 9E (主卧空调关)
2024-09-09 07:13:16.033 - A5 00 52 FE 01 AA (主卧窗帘开)
2024-09-09 07:13:17.107 - A5 00 52 FE 01 AA (主卧窗帘开)
2024-09-09 07:13:18.176 - A5 00 53 FF 00 AA (主卧纱帘开)
2024-09-09 07:13:18.233 - 55 00 53 01 00 0C 02 30 AA 55 00 53 01 00 0C F2 (主卧纱帘电机状态返回)
2024-09-09 07:13:18.773 - A5 00 53 FF 00 AA (主卧纱帘开)
2024-09-09 07:13:19.324 - 1A 22 33 62 0F 00 00 01 0F (正反转地址-内卫卷帘, 内卫卷帘升)
2024-09-09 07:13:20.039 - 55 20 20 00 00 0F 02 16 AA 55 20 20 00 00 0F 02 16 AA (主卧窗帘电机状态返回)
2024-09-09 07:13:20.421 - 1A 20 07 01 40 00 01 00 0F (自保持开关地址-内卫顶灯, 内卫顶灯关)
2024-09-09 07:13:21.517 - 1A 20 07 01 55 00 01 00 0F (自保持开关地址-主卧顶灯, 主卧顶灯只关)
2024-09-09 07:13:22.121 - 1A 0C 02 08 01 FF 00 01 FF 00 01 FF 00 00 0F (调光器地址-内卫射灯, 内卫感应灯关)
2024-09-09 07:13:22.714 - 1A FF FF FF 56 00 00 01 0F (人体感应地址-内卫, 打开内卫感应)
2024-09-09 07:13:23.123 - 19 08 24 03 CC 01 54 00 01 (调用内卫感应灯开的按键)
2024-09-09 07:13:23.175 - 1A 0C 02 08 01 FF 45 01 FF 45 01 FF 00 00 0F (调光器地址-内卫射灯, 内卫射灯微光)
2024-09-09 07:13:26.560 - 1A 0C 02 04 FF FF 00 01 FF 00 01 FF 00 00 0F (主卧调光全关)
2024-09-09 07:13:27.648 - 09 06 00 0F 02 02 38 20 (提示音咚)
2024-09-09 07:13:28.250 - EE 00 00 B1 00 00 02 FF FC FF FF (情景完成返回主页)
2024-09-09 07:13:28.804 - 55 00 53 00 02 23 02 30 AA 55 00 53 00 02 23 02 30 AA (主卧纱帘电机状态返回)
2024-09-09 07:13:39.147 - 19 08 24 03 CC 01 CC 00 01 (调用茶吧感应灯开的按键)
2024-09-09 07:13:39.195 - 1A AA AA AA 88 FF B0 01 FF B0 01 0F (调光器地址-茶吧灯带, 茶吧灯带明亮)
2024-09-09 07:14:10.417 - 19 08 24 03 CC 01 55 00 01 (调用内卫感应灯关的按键)
2024-09-09 07:14:10.451 - 1A 0C 02 08 01 FF 00 01 FF 00 01 FF 00 00 0F (调光器地址-内卫射灯, 内卫感应灯关)
2024-09-09 07:15:08.307 - 19 08 24 03 CC 00 D3 00 01 (调用厨房感应灯开的按键)
2024-09-09 07:15:08.342 - 55 0A 32 00 00 00 01 92 55 0A 32 00 00 00 02 93 (厨房顶灯一开, 厨房顶灯二开)
2024-09-09 07:15:20.851 - 19 08 24 03 CC 01 CD 00 01 (调用茶吧感应灯关的按键)
2024-09-09 07:15:20.882 - 1A AA AA AA 88 FF 00 01 FF 00 01 0F (调光器地址-茶吧灯带, 茶吧灯带关闭)
2024-09-09 07:16:47.522 - 19 08 24 03 CC 01 CC 00 01 (调用茶吧感应灯开的按键)
2024-09-09 07:16:47.555 - 1A AA AA AA 88 FF B0 01 FF B0 01 0F (调光器地址-茶吧灯带, 茶吧灯带明亮)
2024-09-09 07:17:08.063 - 19 08 24 03 CC 01 CD 00 01 (调用茶吧感应灯关的按键)
2024-09-09 07:17:08.093 - 1A AA AA AA 88 FF 00 01 FF 00 01 0F (调光器地址-茶吧灯带, 茶吧灯带关闭)
2024-09-09 07:17:18.770 - 19 08 24 03 DD 00 00 00 01 (调用情景-离家（末）)
2024-09-09 07:17:19.307 - EE 00 00 B1 00 00 00 FF FC FF FF (情景执行提示)
2024-09-09 07:17:19.901 - 09 06 00 0F 02 02 38 20 (提示音咚)
2024-09-09 07:17:20.445 - 50 F7 01 (全屋影音全关)
2024-09-09 07:17:20.997 - 01 06 07 D0 FF 60 C8 9F (客厅空调关)
2024-09-09 07:17:21.026 - 01 06 07 D0 FF 60 C8 9F (客厅空调关)
2024-09-09 07:17:21.595 - 01 06 07 D0 FF 60 C8 9F (客厅空调关)
2024-09-09 07:17:21.632 - 01 06 07 D0 FF 60 C8 9F (客厅空调关)
2024-09-09 07:17:22.193 - 01 06 07 D3 FF 60 38 9F (餐厅空调关)
2024-09-09 07:17:22.227 - 01 06 07 D3 FF 60 38 9F (餐厅空调关)
2024-09-09 07:17:22.792 - 01 06 07 D3 FF 60 38 9F (餐厅空调关)
2024-09-09 07:17:22.823 - 01 06 07 D3 FF 60 38 9F (餐厅空调关)
2024-09-09 07:17:23.389 - 01 06 07 D6 FF 60 28 9E (主卧空调关)
2024-09-09 07:17:23.418 - 01 06 07 D6 FF 60 28 9E (主卧空调关)
2024-09-09 07:17:23.988 - 01 06 07 D6 FF 60 28 9E (主卧空调关)
2024-09-09 07:17:24.014 - 01 06 07 D6 FF 60 28 9E (主卧空调关)
2024-09-09 07:17:24.584 - 01 06 07 D9 FF 60 18 9D (次卧空调关)
2024-09-09 07:17:24.621 - 01 06 07 D9 FF 60 18 9D (次卧空调关)
2024-09-09 07:17:25.184 - 01 06 07 D9 FF 60 18 9D (次卧空调关)
2024-09-09 07:17:25.216 - 01 06 07 D9 FF 60 18 9D (次卧空调关)
2024-09-09 07:17:25.781 - 01 06 07 DC FF 60 08 9C (书房空调关)
2024-09-09 07:17:25.811 - 01 06 07 DC FF 60 08 9C (书房空调关)
2024-09-09 07:17:26.379 - 01 06 07 DC FF 60 08 9C (书房空调关)
2024-09-09 07:17:26.408 - 01 06 07 DC FF 60 08 9C (书房空调关)
2024-09-09 07:17:26.977 - 09 06 00 0F 02 02 38 20 (提示音咚)
2024-09-09 07:17:27.525 - 1A FF FF FF 56 00 00 00 0F (人体感应地址-内卫, 关闭内卫感应)
2024-09-09 07:17:28.073 - 1A FF FF FF 55 00 00 00 0F (人体感应地址-外卫, 关闭外卫感应)
2024-09-09 07:17:28.168 - BC BC
2024-09-09 07:17:28.622 - 1A FF FF FF 57 00 00 00 0F (人体感应地址-厨房, 关闭厨房感应)
2024-09-09 07:17:29.169 - 1A FF FF FF 58 00 00 00 0F (人体感应地址-茶吧, 关闭茶吧感应)
2024-09-09 07:17:29.221 - BC BC
2024-09-09 07:17:29.770 - 1A 20 07 00 93 00 01 00 0F (自保持开关地址-设备区顶, 设备区顶灯关)
2024-09-09 07:17:30.815 - 1A 20 07 01 40 00 01 00 0F (自保持开关地址-内卫顶灯, 内卫顶灯关)
2024-09-09 07:17:31.861 - 1A 20 07 01 55 00 01 00 0F (自保持开关地址-主卧顶灯, 主卧顶灯只关)
2024-09-09 07:17:32.907 - 1A 20 07 00 42 00 01 00 0F (自保持开关地址-外卫顶灯, 外卫顶灯关)
2024-09-09 07:17:33.953 - 55 0D 31 00 00 00 01 94 (书房顶灯只关)
2024-09-09 07:17:35.000 - 55 0A 31 00 00 00 01 91 (厨房顶灯一关)
2024-09-09 07:17:36.045 - 55 0A 31 00 00 00 02 92 (厨房顶灯二关)
2024-09-09 07:17:37.092 - 55 0B 31 00 00 00 01 92 (厨房风扇只关)
2024-09-09 07:17:38.140 - 55 0C 31 00 00 00 01 93 (餐厅顶灯关)
2024-09-09 07:17:39.186 - 1A 20 07 01 30 00 01 00 0F (自保持开关地址-西阳顶灯, 西阳顶灯关)
2024-09-09 07:17:40.232 - 1A 18 05 21 89 00 01 00 0F (自保持开关地址-客厅顶灯, 客厅顶灯一关)
2024-09-09 07:17:41.279 - 1A 18 05 01 94 00 01 00 0F (自保持开关地址-客厅顶灯, 客厅顶灯二关)
2024-09-09 07:17:42.324 - 1A 20 07 00 70 00 01 00 0F (自保持开关地址-次卧顶灯, 次卧顶灯只关)
2024-09-09 07:17:43.370 - 1A 18 05 10 31 00 01 00 0F (自保持开关地址-门厅顶灯, 门厅顶灯关)
2024-09-09 07:17:44.416 - 1A FF FF FF 04 00 03 02 (继电器地址-东阳衣架, 东阳衣架照明关)
2024-09-09 07:17:44.964 - 09 06 00 0F 02 02 38 20 (提示音咚)
2024-09-09 07:17:45.511 - A5 00 A6 FE 01 AA (餐厅窗帘开)
2024-09-09 07:17:45.560 - 55 00 A6 02 01 66 01 74 AA 55 00 A6 02 01 66 01 74 AA (餐厅窗帘电机状态返回)
2024-09-09 07:17:46.111 - FF FF FF FF 0A 00 01 00 (继电器地址-东阳窗帘, 东阳窗帘开)
2024-09-09 07:17:46.659 - 1A BE B0 DC 04 00 01 00 (继电器地址-西阳窗帘, 西阳窗帘开)
2024-09-09 07:17:47.207 - FF FF FF FF 0E 00 01 00 (继电器地址-西阳小窗帘, 西阳小窗帘开)
2024-09-09 07:17:47.755 - 1A 22 33 62 0F 00 00 01 0F (正反转地址-内卫卷帘, 内卫卷帘升)
2024-09-09 07:17:48.350 - A5 00 52 FE 01 AA (主卧窗帘开)
2024-09-09 07:17:48.899 - A5 00 53 FF 00 AA (主卧纱帘开)
2024-09-09 07:17:49.446 - A5 00 76 FE 01 AA (次卧窗帘开)
2024-09-09 07:17:49.994 - A5 00 21 FE 01 AA (次卧纱帘开)
2024-09-09 07:17:50.545 - A5 00 D2 FE 01 AA 22 0D (书房窗帘开)
2024-09-09 07:17:50.592 - 55 00 D2 02 00 FE 01 0B AA 55 00 D2 02 00 FE 01 0B AA (书房窗帘电机状态返回)
2024-09-09 07:17:51.142 - 1A BE B0 DC 09 00 01 00 (继电器地址-客厅窗帘, 客厅窗帘开)
2024-09-09 07:17:51.691 - 1A BE B0 DC 0A 00 02 00 (继电器地址-客厅纱帘, 客厅纱帘开)
2024-09-09 07:17:52.238 - 09 06 00 0F 02 02 38 20 (提示音咚)
2024-09-09 07:17:53.287 - 1A EC A0 DC 02 00 00 00 0F (自保持开关地址-天花12V供电, 天花12V 供电关)
2024-09-09 07:17:53.835 - 1A EC A0 DC 02 00 00 00 0F (自保持开关地址-天花12V供电, 天花12V 供电关)
2024-09-09 07:17:54.382 - 1A EC A0 DC 01 00 00 00 0F (自保持开关地址-电视、设备12V供电, 12V 电视供电关)
2024-09-09 07:17:54.536 - 55 00 A6 00 00 0E 01 74 AA 55 00 A6 00 00 0E 01 74 AA (餐厅窗帘电机状态返回)
2024-09-09 07:17:54.931 - 1A EC A0 DC 01 00 00 00 0F (自保持开关地址-电视、设备12V供电, 12V 电视供电关)
2024-09-09 07:17:55.479 - 1A EC A0 DC 04 00 01 00 0F (自保持开关地址-次卧西阳内外卫供电, 内卫外卫关)
2024-09-09 07:17:56.027 - 1A EC A0 DC 04 00 01 00 0F (自保持开关地址-次卧西阳内外卫供电, 内卫外卫关)
2024-09-09 07:17:58.696 - 55 00 D2 00 00 0D 01 0B AA 55 00 D2 00 00 0D 01 0B AA (书房窗帘电机状态返回)
2024-09-09 07:18:14.063 - 09 06 00 0F 02 02 38 20 (提示音咚)
2024-09-09 07:18:14.662 - 1A 27 89 12 AA 00 00 00 0F (状态寄存器地址, 无人状态)
2024-09-09 07:18:15.211 - 1A 27 89 12 AA 00 00 00 0F (状态寄存器地址, 无人状态)
2024-09-09 07:18:15.755 - A1 11 11 11 4D (天花供电关闭确认)
2024-09-09 07:18:15.984 - 1A EC A0 DC 02 86 86 86 0F (查询天花供电状态, 自保持开关地址-天花12V供电)
2024-09-09 07:18:16.417 - 1A EC A0 DC 02 00 01 0F (自保持开关地址-天花12V供电)
2024-09-09 07:18:18.794 - A1 11 11 11 4E (卫生供电关闭确认)
2024-09-09 07:18:19.022 - 1A EC A0 DC 04 86 86 86 0F (查询卫生间供电状态, 自保持开关地址-次卧西阳内外卫供电)
2024-09-09 07:18:19.453 - 1A EC A0 DC 04 01 00 0F (自保持开关地址-次卧西阳内外卫供电)
2024-09-09 07:18:21.834 - A1 11 11 11 4F (电视供电关闭确认)
2024-09-09 07:18:22.061 - 1A EC A0 DC 01 86 86 86 0F (查询电视供电状态, 自保持开关地址-电视、设备12V供电)
2024-09-09 07:18:22.492 - 1A EC A0 DC 01 00 01 0F (自保持开关地址-电视、设备12V供电)
2024-09-09 07:18:24.876 - 09 06 00 0F 02 02 38 20 (提示音咚)
2024-09-09 07:18:25.424 - 09 06 00 0F 02 02 38 20 (提示音咚)
2024-09-09 07:18:25.974 - EE 00 00 B1 00 00 02 FF FC FF FF (情景完成返回主页)
2024-09-09 07:18:27.066 - BA BA EE EE BA BA (离家设置信科变量)
2024-09-09 07:18:28.112 - A1 11 11 11 46 (天热离家遮阳)
2024-09-09 07:18:28.338 - 1A 27 89 12 AA 86 86 86 0F (查询寄存器状态, 状态寄存器地址)
2024-09-09 07:18:28.723 - 1A 27 89 12 AA 00 00 00 00 00 00 00 00 00 00 00 01 00 00 00 00 0F (状态寄存器地址)
2024-09-09 07:18:29.344 - 19 08 24 03 DD 00 05 00 01 (调用情景-天热遮阳关帘)
2024-09-09 07:18:29.910 - EE 00 00 B1 00 00 00 FF FC FF FF (情景执行提示)
2024-09-09 07:18:30.505 - 09 06 00 0F 02 01 78 21 (提示音叮)
2024-09-09 07:18:31.052 - A5 00 A2 FF 00 AA (餐厅纱帘关)
2024-09-09 07:18:32.099 - A5 00 A6 FF 00 AA (餐厅窗帘关)
2024-09-09 07:18:32.156 - 55 00 A6 01 00 0E 01 74 AA 55 00 A6 01 00 0E 01 FE (餐厅窗帘电机状态返回)
2024-09-09 07:18:33.244 - A5 00 53 FE 01 AA (主卧纱帘关)
2024-09-09 07:18:33.305 - 55 00 53 02 02 23 02 30 AA 55 00 53 02 02 23 02 30 (主卧纱帘电机状态返回)
2024-09-09 07:18:34.341 - A5 00 52 FF 00 AA (主卧窗帘关)
2024-09-09 07:18:35.390 - A5 00 21 FF 00 AA (次卧纱帘关)
2024-09-09 07:18:35.440 - 55 00 21 01 00 0D 01 34 AA 55 00 21 01 00 0D 01 34 AA (次卧纱帘电机状态返回)
2024-09-09 07:18:36.483 - A5 00 76 FF 00 AA (次卧窗帘关)
2024-09-09 07:18:36.540 - 55 00 76 01 00 0E 01 1B AA 55 00 76 01 00 0E 01 1B AA (次卧窗帘电机状态返回)
2024-09-09 07:18:37.582 - A5 00 B7 FF 00 AA 22 0D (书房纱帘关)
2024-09-09 07:18:38.627 - A5 00 D2 FF 00 AA 22 0C (书房窗帘关)
2024-09-09 07:18:38.680 - 55 00 D2 01 00 0D 01 0B AA 55 00 D2 01 00 0D 01 0B AA (书房窗帘电机状态返回)
2024-09-09 07:18:40.223 - 1A 22 33 62 5E 00 02 01 0F (正反转地址-厨房卷帘三, 厨房卷帘一降)
2024-09-09 07:18:40.800 - 55 00 A6 00 01 66 01 74 AA 55 00 A6 00 01 66 01 74 AA (餐厅窗帘电机状态返回)
2024-09-09 07:18:41.319 - 1A 22 33 62 56 00 02 01 0F (正反转地址-厨房卷帘二, 厨房卷帘二降)
2024-09-09 07:18:42.416 - 1A 22 33 62 4F 00 00 01 0F (正反转地址-厨房卷帘一, 厨房卷帘三降)
2024-09-09 07:18:42.682 - 55 00 21 00 01 27 01 34 AA 55 00 21 00 01 27 01 34 AA (次卧纱帘电机状态返回)
2024-09-09 07:18:43.511 - 1A BE B0 DC 04 00 02 00 (继电器地址-西阳窗帘, 西阳窗帘关)
2024-09-09 07:18:43.741 - 55 00 76 00 01 0E 01 1B AA 55 00 76 00 01 0E 01 1B AA (次卧窗帘电机状态返回)
2024-09-09 07:18:44.606 - FF FF FF FF 0E 00 02 00 (继电器地址-西阳小窗帘, 西阳小窗帘关)
2024-09-09 07:18:45.703 - 1A BE B0 DC 03 00 03 00 (继电器地址-西阳天幕, 西阳天幕关)
2024-09-09 07:18:45.959 - 55 20 20 00 02 09 02 16 AA 55 20 20 00 02 09 02 16 AA (主卧窗帘电机状态返回)
2024-09-09 07:18:46.828 - 1A BE B0 DC 03 00 03 00 (继电器地址-西阳天幕, 西阳天幕关)
2024-09-09 07:18:47.894 - 09 06 00 0F 02 02 38 20 (提示音咚)
2024-09-09 07:18:47.942 - 55 00 D2 00 00 FE 01 0B AA 55 00 D2 00 00 FE 01 0B AA (书房窗帘电机状态返回)
2024-09-09 07:18:48.496 - EE 00 00 B1 00 00 02 FF FC FF FF (情景完成返回主页)
2024-09-09 07:42:01.681 - 1A BE B0 DC 04 (继电器地址-西阳窗帘)
2024-09-09 07:42:03.011 - FF FF FF FF 0E (继电器地址-西阳小窗帘)
2024-09-09 07:42:03.146 - FF
2024-09-09 07:42:06.238 - 1A BE B0 DC 02 (正反转地址-外卫卷帘)
2024-09-09 07:42:06.374 - FE
2024-09-09 07:42:08.706 - 1A BE B0 DC 09 FC (继电器地址-客厅窗帘)
2024-09-09 07:42:09.656 - 1A BE B0 DC 0A FC (继电器地址-客厅纱帘)
2024-09-09 07:42:09.790 - FF
2024-09-09 07:43:07.761 - FF FF FF FF 0A (继电器地址-东阳窗帘)
2024-09-09 07:43:07.897 - FF
2024-09-09 07:53:29.413 - FF
2024-09-09 09:49:54.955 - 1A FF FF FF 04 FE (继电器地址-东阳衣架)
2024-09-09 09:49:55.091 - 03
2024-09-09 09:53:45.643 - FF
2024-09-09 11:01:56.161 - 1A BE B0 DC 04 (继电器地址-西阳窗帘)
2024-09-09 11:01:56.296 - FF
2024-09-09 11:02:07.193 - FF FF FF FF 0E FD (继电器地址-西阳小窗帘)
2024-09-09 11:02:07.329 - FF
2024-09-09 11:02:31.977 - 1A BE B0 DC 09 (继电器地址-客厅窗帘)
2024-09-09 11:02:32.112 - FF
2024-09-09 11:02:38.177 - 1A BE B0 DC 02 FC (正反转地址-外卫卷帘)
2024-09-09 11:02:41.686 - 1A BE B0 DC 0A FE (继电器地址-客厅纱帘)
2024-09-09 11:03:00.711 - 1A BE B0 DC 01 FC (继电器地址-回水泵点动)
2024-09-09 11:03:07.954 - 1A BE B0 DC 03 FD (继电器地址-西阳天幕)
2024-09-09 11:06:12.159 - FF FF FF FF 0A (继电器地址-东阳窗帘)
2024-09-09 11:06:12.293 - FF
2024-09-09 13:11:07.039 - 1A FF FF FF 04 FF (继电器地址-东阳衣架)
