2024-08-13 22:23:05.898 - 1A 13 00 00 00 86 86 86 0F (调用查询模块-外卫测温转换, 外卫温湿度虚拟地址)
2024-08-13 22:23:06.123 - 13 03 00 00 00 02 C7 79 (查询外卫温湿度)
2024-08-13 22:23:06.157 - 13 03 04 01 96 01 0C 28 77 (外卫温湿度返回)
2024-08-13 22:23:07.155 - 1A 13 00 00 00 00 00 01 00 00 01 00 00 01 01 0C 01 01 96 01 00 00 01 00 00 01 0F (外卫温湿度虚拟地址)
2024-08-13 22:23:20.302 - 1A 20 00 00 01 86 86 86 0F (调用查询模块-阳台大气压转换, 阳台大气压虚拟地址)
2024-08-13 22:23:20.552 - 20 03 00 10 00 01 83 7E (查询阳台大气压)
2024-08-13 22:23:21.571 - 1A 20 00 00 01 00 00 01 00 00 01 00 00 01 00 00 01 00 00 01 00 01 01 00 00 01 0F (阳台大气压虚拟地址)
2024-08-13 22:23:26.347 - 1A 20 00 00 01 86 86 86 0F (调用查询模块-阳台大气压转换, 阳台大气压虚拟地址)
2024-08-13 22:23:26.584 - 20 03 00 10 00 01 83 7E (查询阳台大气压)
2024-08-13 22:23:27.604 - 1A 20 00 00 01 00 00 01 00 00 01 00 00 01 00 00 01 00 00 01 00 01 01 00 00 01 0F (阳台大气压虚拟地址)
2024-08-13 22:23:32.664 - 1A 20 00 00 01 86 86 86 0F (调用查询模块-阳台大气压转换, 阳台大气压虚拟地址)
2024-08-13 22:23:32.898 - 20 03 00 10 00 01 83 7E (查询阳台大气压)
2024-08-13 22:23:33.913 - 1A 20 00 00 01 00 00 01 00 00 01 00 00 01 00 00 01 00 00 01 00 01 01 00 00 01 0F (阳台大气压虚拟地址)
2024-08-13 22:23:34.897 - 1A 20 00 00 01 86 86 86 0F (调用查询模块-阳台大气压转换, 阳台大气压虚拟地址)
2024-08-13 22:23:35.129 - 20 03 00 10 00 01 83 7E (查询阳台大气压)
2024-08-13 22:23:36.154 - 1A 20 00 00 01 00 00 01 00 00 01 00 00 01 00 00 01 00 00 01 00 01 01 00 00 01 0F (阳台大气压虚拟地址)
2024-08-13 22:23:37.014 - 1A 20 00 00 01 86 86 86 0F (调用查询模块-阳台大气压转换, 阳台大气压虚拟地址)
2024-08-13 22:23:37.246 - 20 03 00 10 00 01 83 7E (查询阳台大气压)
2024-08-13 22:23:37.359 - 4A DF AD (区域高光指令（AD+区域+暖光+冷光+AE）)
2024-08-13 22:23:38.266 - 1A 20 00 00 01 00 00 01 00 00 01 00 00 01 00 00 01 00 00 01 00 01 01 00 00 01 0F (阳台大气压虚拟地址)
2024-08-13 22:23:40.598 - 1A 20 00 00 01 86 86 86 0F (调用查询模块-阳台大气压转换, 阳台大气压虚拟地址)
2024-08-13 22:23:40.828 - 20 03 00 10 00 01 83 7E (查询阳台大气压)
2024-08-13 22:23:41.851 - 1A 20 00 00 01 00 00 01 00 00 01 00 00 01 00 00 01 00 00 01 00 01 01 00 00 01 0F (阳台大气压虚拟地址)
2024-08-13 22:23:42.297 - 1A 20 00 00 01 86 86 86 0F (调用查询模块-阳台大气压转换, 阳台大气压虚拟地址)
2024-08-13 22:23:42.535 - 20 03 00 10 00 01 83 7E (查询阳台大气压)
2024-08-13 22:23:43.551 - 1A 20 00 00 01 00 00 01 00 00 01 00 00 01 00 00 01 00 00 01 00 01 01 00 00 01 0F (阳台大气压虚拟地址)
2024-08-13 22:23:44.330 - 1A 20 00 00 01 86 86 86 0F (调用查询模块-阳台大气压转换, 阳台大气压虚拟地址)
2024-08-13 22:23:44.568 - 20 03 00 10 00 01 83 7E (查询阳台大气压)
2024-08-13 22:23:44.686 - 4A DF AD (区域高光指令（AD+区域+暖光+冷光+AE）)
2024-08-13 22:23:45.585 - 1A 20 00 00 01 00 00 01 00 00 01 00 00 01 00 00 01 00 00 01 00 01 01 00 00 01 0F (阳台大气压虚拟地址)
2024-08-13 22:23:47.747 - 1A 20 00 00 01 86 86 86 0F (调用查询模块-阳台大气压转换, 阳台大气压虚拟地址)
2024-08-13 22:23:47.986 - 20 03 00 10 00 01 83 7E (查询阳台大气压)
2024-08-13 22:23:49.009 - 1A 20 00 00 01 00 00 01 00 00 01 00 00 01 00 00 01 00 00 01 00 01 01 00 00 01 0F (阳台大气压虚拟地址)
2024-08-13 22:23:51.197 - 1A 20 00 00 01 86 86 86 0F (调用查询模块-阳台大气压转换, 阳台大气压虚拟地址)
2024-08-13 22:23:51.434 - 20 03 00 10 00 01 83 7E (查询阳台大气压)
2024-08-13 22:23:52.457 - 1A 20 00 00 01 00 00 01 00 00 01 00 00 01 00 00 01 00 00 01 00 01 01 00 00 01 0F (阳台大气压虚拟地址)
2024-08-13 22:23:53.655 - 1A 20 00 00 01 86 86 86 0F (调用查询模块-阳台大气压转换, 阳台大气压虚拟地址)
2024-08-13 22:23:53.892 - 20 03 00 10 00 01 83 7E (查询阳台大气压)
2024-08-13 22:23:54.922 - 1A 20 00 00 01 00 00 01 00 00 01 00 00 01 00 00 01 00 00 01 00 01 01 00 00 01 0F (阳台大气压虚拟地址)
2024-08-13 22:23:56.431 - 1A 20 00 00 01 86 86 86 0F (调用查询模块-阳台大气压转换, 阳台大气压虚拟地址)
2024-08-13 22:23:56.665 - 20 03 00 10 00 01 83 7E (查询阳台大气压)
2024-08-13 22:23:56.714 - 20 03 02 26 E9 DF ED (阳台大气压返回)
2024-08-13 22:23:57.682 - 1A 20 00 00 01 00 00 01 00 00 01 00 00 01 00 00 01 00 00 01 26 E9 01 00 00 01 0F (阳台大气压虚拟地址)
2024-08-13 22:24:05.246 - 1A 20 00 00 01 86 86 86 0F (调用查询模块-阳台大气压转换, 阳台大气压虚拟地址)
2024-08-13 22:24:05.482 - 20 03 00 10 00 01 83 7E (查询阳台大气压)
2024-08-13 22:24:06.499 - 1A 20 00 00 01 00 00 01 00 00 01 00 00 01 00 00 01 00 00 01 00 01 01 00 00 01 0F (阳台大气压虚拟地址)
2024-08-13 22:24:07.363 - 1A 20 00 00 01 86 86 86 0F (调用查询模块-阳台大气压转换, 阳台大气压虚拟地址)
2024-08-13 22:24:07.589 - 20 03 00 10 00 01 83 7E (查询阳台大气压)
2024-08-13 22:24:08.613 - 1A 20 00 00 01 00 00 01 00 00 01 00 00 01 00 00 01 00 00 01 00 01 01 00 00 01 0F (阳台大气压虚拟地址)
2024-08-13 22:24:09.996 - 1A 20 00 00 01 86 86 86 0F (调用查询模块-阳台大气压转换, 阳台大气压虚拟地址)
2024-08-13 22:24:10.220 - 20 03 00 10 00 01 83 7E (查询阳台大气压)
2024-08-13 22:24:11.253 - 1A 20 00 00 01 00 00 01 00 00 01 00 00 01 00 00 01 00 00 01 00 01 01 00 00 01 0F (阳台大气压虚拟地址)
2024-08-13 22:24:19.313 - 1A 20 00 00 01 86 86 86 0F (调用查询模块-阳台大气压转换, 阳台大气压虚拟地址)
2024-08-13 22:24:19.547 - 20 03 00 10 00 01 83 7E (查询阳台大气压)
2024-08-13 22:24:20.573 - 1A 20 00 00 01 00 00 01 00 00 01 00 00 01 00 00 01 00 00 01 00 01 01 00 00 01 0F (阳台大气压虚拟地址)
2024-08-13 22:25:04.979 - 1A 20 00 00 01 86 86 86 0F (调用查询模块-阳台大气压转换, 阳台大气压虚拟地址)
2024-08-13 22:25:05.505 - 20 03 00 10 00 01 83 7E (查询阳台大气压)
2024-08-13 22:25:06.535 - 1A 20 00 00 01 00 00 01 00 00 01 00 00 01 00 00 01 00 00 01 00 01 01 00 00 01 0F (阳台大气压虚拟地址)
2024-08-13 22:25:08.244 - 1A 20 00 00 01 86 86 86 0F (调用查询模块-阳台大气压转换, 阳台大气压虚拟地址)
2024-08-13 22:25:08.775 - 20 03 00 10 00 01 83 7E (查询阳台大气压)
2024-08-13 22:25:09.802 - 1A 20 00 00 01 00 00 01 00 00 01 00 00 01 00 00 01 00 00 01 00 01 01 00 00 01 0F (阳台大气压虚拟地址)
2024-08-13 22:25:49.940 - 1A 20 00 00 01 86 86 86 0F (调用查询模块-阳台大气压转换, 阳台大气压虚拟地址)
2024-08-13 22:25:50.173 - 20 03 00 10 00 01 83 7E (查询阳台大气压)
2024-08-13 22:25:51.195 - 1A 20 00 00 01 00 00 01 00 00 01 00 00 01 00 00 01 00 00 01 00 01 01 00 00 01 0F (阳台大气压虚拟地址)
2024-08-13 22:25:53.335 - 1A 20 00 00 01 86 86 86 0F (调用查询模块-阳台大气压转换, 阳台大气压虚拟地址)
2024-08-13 22:25:53.579 - 20 03 00 10 00 01 83 7E (查询阳台大气压)
2024-08-13 22:25:54.603 - 1A 20 00 00 01 00 00 01 00 00 01 00 00 01 00 00 01 00 00 01 00 01 01 00 00 01 0F (阳台大气压虚拟地址)
2024-08-13 22:25:57.367 - 1A 20 00 00 01 86 86 86 0F (调用查询模块-阳台大气压转换, 阳台大气压虚拟地址)
2024-08-13 22:25:57.610 - 20 03 00 10 00 01 83 7E (查询阳台大气压)
2024-08-13 22:25:57.723 - 20 92 DE 96 FF
2024-08-13 22:25:58.622 - 1A 20 00 00 01 00 00 01 00 00 01 00 00 01 00 00 01 00 00 01 96 FF 01 00 00 01 0F (阳台大气压虚拟地址)
2024-08-13 22:25:59.642 - 1A 20 00 00 01 86 86 86 0F (调用查询模块-阳台大气压转换, 阳台大气压虚拟地址)
2024-08-13 22:25:59.876 - 20 03 00 10 00 01 83 7E (查询阳台大气压)
2024-08-13 22:25:59.927 - 20
2024-08-13 22:26:00.891 - 1A 20 00 00 01 00 00 01 00 00 01 00 00 01 00 00 01 00 00 01 00 01 01 00 00 01 0F (阳台大气压虚拟地址)
2024-08-13 22:26:08.843 - 1A 20 00 00 01 86 86 86 0F (调用查询模块-阳台大气压转换, 阳台大气压虚拟地址)
2024-08-13 22:26:09.074 - 20 03 00 10 00 01 83 7E (查询阳台大气压)
2024-08-13 22:26:09.192 - FF
2024-08-13 22:26:10.090 - 1A 20 00 00 01 00 00 01 00 00 01 00 00 01 00 00 01 00 00 01 00 01 01 00 00 01 0F (阳台大气压虚拟地址)
2024-08-13 22:26:10.909 - 1A 20 00 00 01 86 86 86 0F (调用查询模块-阳台大气压转换, 阳台大气压虚拟地址)
2024-08-13 22:26:11.142 - 20 03 00 10 00 01 83 7E (查询阳台大气压)
2024-08-13 22:26:12.172 - 1A 20 00 00 01 00 00 01 00 00 01 00 00 01 00 00 01 00 00 01 00 01 01 00 00 01 0F (阳台大气压虚拟地址)
2024-08-13 22:26:12.958 - 1A 20 00 00 01 86 86 86 0F (调用查询模块-阳台大气压转换, 阳台大气压虚拟地址)
2024-08-13 22:26:13.191 - 20 03 00 10 00 01 83 7E (查询阳台大气压)
2024-08-13 22:26:14.217 - 1A 20 00 00 01 00 00 01 00 00 01 00 00 01 00 00 01 00 00 01 00 01 01 00 00 01 0F (阳台大气压虚拟地址)
2024-08-13 22:31:29.100 - FF
2024-08-13 22:31:30.719 - FF
2024-08-13 22:31:57.646 - 00
2024-08-13 22:32:13.310 - 1A 21 00 00 01 86 86 86 0F
2024-08-13 22:32:13.547 - 21 03 00 10 00 01 82 AF
2024-08-13 22:32:14.561 - 1A 21 00 00 01 00 00 01 00 00 01 00 00 01 00 00 01 00 00 01 00 01 01 00 00 01 0F
2024-08-13 22:32:15.776 - 1A 21 00 00 01 86 86 86 0F
2024-08-13 22:32:16.003 - 21 03 00 10 00 01 82 AF
2024-08-13 22:32:17.034 - 1A 21 00 00 01 00 00 01 00 00 01 00 00 01 00 00 01 00 00 01 00 01 01 00 00 01 0F
2024-08-13 22:32:19.176 - 1A 21 00 00 01 86 86 86 0F
2024-08-13 22:32:19.403 - 21 03 00 10 00 01 82 AF
2024-08-13 22:32:19.460 - 21 03 02 27 01 E3 B3
2024-08-13 22:32:20.422 - 1A 21 00 00 01 00 00 01 00 00 01 00 00 01 00 00 01 00 00 01 27 01 01 00 00 01 0F
2024-08-13 22:32:22.610 - 1A 21 00 00 01 86 86 86 0F
2024-08-13 22:32:22.834 - 21 03 00 10 00 01 82 AF
2024-08-13 22:32:23.866 - 1A 21 00 00 01 00 00 01 00 00 01 00 00 01 00 00 01 00 00 01 00 01 01 00 00 01 0F
2024-08-13 22:32:24.559 - 1A 21 00 00 01 86 86 86 0F
2024-08-13 22:32:24.787 - 21 03 00 10 00 01 82 AF
2024-08-13 22:32:25.805 - 1A 21 00 00 01 00 00 01 00 00 01 00 00 01 00 00 01 00 00 01 00 01 01 00 00 01 0F
2024-08-13 22:32:31.226 - 1A 21 00 00 00 86 86 86 0F
2024-08-13 22:32:31.456 - 21 03 00 00 00 02 C3 6B
2024-08-13 22:32:32.484 - 1A 21 00 00 00 00 00 01 00 00 01 00 00 01 86 86 01 00 00 01 00 00 01 00 00 01 0F
2024-08-13 22:32:33.391 - 1A 21 00 00 00 86 86 86 0F
2024-08-13 22:32:33.628 - 21 03 00 00 00 02 C3 6B
2024-08-13 22:32:34.642 - 1A 21 00 00 00 00 00 01 00 00 01 00 00 01 86 86 01 00 00 01 00 00 01 00 00 01 0F
2024-08-13 22:32:35.492 - 1A 21 00 00 00 86 86 86 0F
2024-08-13 22:32:35.726 - 21 03 00 00 00 02 C3 6B
2024-08-13 22:32:36.751 - 1A 21 00 00 00 00 00 01 00 00 01 00 00 01 86 86 01 00 00 01 00 00 01 00 00 01 0F
2024-08-13 22:32:37.776 - 1A 21 00 00 00 86 86 86 0F
2024-08-13 22:32:38.005 - 21 03 00 00 00 02 C3 6B
2024-08-13 22:32:39.030 - 1A 21 00 00 00 00 00 01 00 00 01 00 00 01 86 86 01 00 00 01 00 00 01 00 00 01 0F
2024-08-13 22:32:40.840 - 1A 21 00 00 00 86 86 86 0F
2024-08-13 22:32:41.083 - 21 03 00 00 00 02 C3 6B
2024-08-13 22:32:42.102 - 1A 21 00 00 00 00 00 01 00 00 01 00 00 01 86 86 01 00 00 01 00 00 01 00 00 01 0F
2024-08-13 22:32:56.230 - 1A 21 00 00 00 86 86 86 0F
2024-08-13 22:32:56.458 - 21 03 00 00 00 02 C3 6B
2024-08-13 22:32:56.518 - 21 03 04 01 7F 01 FF
2024-08-13 22:32:57.484 - 1A 21 00 00 00 00 00 01 00 00 01 00 00 01 01 FF 01 01 7F 01 00 00 01 00 00 01 0F
2024-08-13 22:33:02.816 - 1A 21 00 00 00 86 86 86 0F
2024-08-13 22:33:03.055 - 21 03 00 00 00 02 C3 6B
2024-08-13 22:33:03.104 - 21 03 04 01 7F 01 0F AA 41
2024-08-13 22:33:04.078 - 1A 21 00 00 00 00 00 01 00 00 01 00 00 01 01 0F 01 01 7F 01 00 00 01 00 00 01 0F
2024-08-13 22:35:08.224 - 1A 21 00 00 00 86 86 86 0F
2024-08-13 22:35:08.454 - 21 03 00 00 00 02 C3 6B
2024-08-13 22:35:09.468 - 1A 21 00 00 00 00 00 01 00 00 01 00 00 01 86 86 01 00 00 01 00 00 01 00 00 01 0F
2024-08-13 22:35:10.374 - 1A 21 00 00 00 86 86 86 0F
2024-08-13 22:35:10.604 - 21 03 00 00 00 02 C3 6B
2024-08-13 22:35:11.629 - 1A 21 00 00 00 00 00 01 00 00 01 00 00 01 86 86 01 00 00 01 00 00 01 00 00 01 0F
2024-08-13 22:35:12.392 - 1A 21 00 00 00 86 86 86 0F
2024-08-13 22:35:12.633 - 21 03 00 00 00 02 C3 6B
2024-08-13 22:35:13.657 - 1A 21 00 00 00 00 00 01 00 00 01 00 00 01 86 86 01 00 00 01 00 00 01 00 00 01 0F
2024-08-13 22:35:27.503 - 1A 20 07 01 30 00 01 02 0F (自保持开关地址-西阳顶灯, 西阳顶灯开关)
2024-08-13 22:35:30.775 - 1A BE B0 DC 0A 00 01 00 (继电器地址-客厅纱帘, 客厅纱帘关)
2024-08-13 22:42:47.159 - 1A FF 03 00 00 86 86 86 0F (调用查询模块-主卧空调开关查询, 主卧空调虚拟地址)
2024-08-13 22:42:47.383 - 01 04 07 DC 00 01 F1 44 (查询主卧空调开关状态)
2024-08-13 22:42:47.399 - 01 04 02 70 01 5D 30
2024-08-13 22:42:48.390 - 1A FF 03 00 00 01 00 0F (主卧空调虚拟地址)
2024-08-13 22:42:48.573 - 1A FF 04 00 00 86 86 86 0F (调用查询模块-次卧空调开关查询, 次卧空调虚拟地址)
2024-08-13 22:42:48.797 - 01 04 07 E2 00 01 90 88 (查询次卧空调开关状态)
2024-08-13 22:42:48.819 - 01 04 02 70 00 9C F0
2024-08-13 22:42:49.801 - 1A FF 04 00 00 00 00 0F (次卧空调虚拟地址)
2024-08-13 22:42:50.000 - 1A FF 05 00 00 86 86 86 0F (调用查询模块-书房空调开关查询, 书房空调虚拟地址)
2024-08-13 22:42:50.221 - 01 04 07 E8 00 01 B0 8A (查询书房空调开关状态)
2024-08-13 22:42:50.241 - 01 04 02 70 00 9C F0
2024-08-13 22:42:51.225 - 1A FF 05 00 00 00 00 0F (书房空调虚拟地址)
2024-08-13 22:42:51.428 - 1A FF 02 00 00 86 86 86 0F (调用查询模块-餐厅空调开关查询, 餐厅空调虚拟地址)
2024-08-13 22:42:51.650 - 01 04 07 D6 00 01 D1 46 (查询餐厅空调开关状态)
2024-08-13 22:42:51.682 - 01 04 02 70 01 5D 30
2024-08-13 22:42:52.652 - 1A FF 02 00 00 01 00 0F (餐厅空调虚拟地址)
2024-08-13 22:42:52.765 - 1A FF 01 00 00 86 86 86 0F (调用查询模块-客厅空调开关查询, 客厅空调虚拟地址)
2024-08-13 22:42:52.986 - 01 04 07 D0 00 01 31 47 (查询客厅空调开关状态)
2024-08-13 22:42:53.017 - 01 04 02 70 01 5D 30
2024-08-13 22:42:53.984 - 1A FF 01 00 00 01 00 0F (客厅空调虚拟地址)
2024-08-13 22:42:54.190 - 1A 10 00 00 00 86 86 86 0F (调用查询模块-主卧测温转换, 主卧温湿度虚拟地址)
2024-08-13 22:42:54.422 - 1D 03 00 00 00 02 C6 57 (查询主卧温湿度)
2024-08-13 22:42:54.443 - 1D 03 04 01 E3 00 FB 96 7B (主卧温湿度返回)
2024-08-13 22:42:55.443 - 1A 10 00 00 00 00 00 01 00 00 01 00 00 01 00 FB 01 01 E3 01 00 00 01 00 00 01 0F (主卧温湿度虚拟地址)
2024-08-13 22:42:55.632 - 1A 11 00 00 00 86 86 86 0F (调用查询模块-次卧测温转换, 次卧温湿度虚拟地址)
2024-08-13 22:42:55.854 - 11 03 00 00 00 02 C6 9B (查询次卧温湿度)
2024-08-13 22:42:55.870 - 11 03 04 02 18 01 27 2B C7 (次卧温湿度返回)
2024-08-13 22:42:56.869 - 1A 11 00 00 00 00 00 01 00 00 01 00 00 01 01 27 01 02 18 01 00 00 01 00 00 01 0F (次卧温湿度虚拟地址)
2024-08-13 22:42:57.067 - 1A 12 00 00 00 86 86 86 0F (调用查询模块-书房测温转换, 书房温湿度虚拟地址)
2024-08-13 22:42:57.288 - 12 03 00 00 00 02 C6 A8 (查询书房温湿度)
2024-08-13 22:42:57.313 - 12 03 04 01 8E 01 1B F8 BE (书房温湿度返回)
2024-08-13 22:42:58.312 - 1A 12 00 00 00 00 00 01 00 00 01 00 00 01 01 1B 01 01 8E 01 00 00 01 00 00 01 0F (书房温湿度虚拟地址)
2024-08-13 22:42:58.491 - 1A 13 00 00 00 86 86 86 0F (调用查询模块-外卫测温转换, 外卫温湿度虚拟地址)
2024-08-13 22:42:58.712 - 13 03 00 00 00 02 C7 79 (查询外卫温湿度)
2024-08-13 22:42:58.742 - 13 03 04 01 BE 01 0C A8 7F (外卫温湿度返回)
2024-08-13 22:42:59.744 - 1A 13 00 00 00 00 00 01 00 00 01 00 00 01 01 0C 01 01 BE 01 00 00 01 00 00 01 0F (外卫温湿度虚拟地址)
2024-08-13 22:42:59.850 - 1A 14 00 00 00 86 86 86 0F (调用查询模块-内卫测温转换, 内卫温湿度虚拟地址)
2024-08-13 22:43:00.074 - 14 03 00 00 00 02 C6 CE (查询内卫温湿度)
2024-08-13 22:43:00.094 - 14 03 04 01 AC 00 FF 3F 6F (内卫温湿度返回)
2024-08-13 22:43:01.095 - 1A 14 00 00 00 00 00 01 00 00 01 00 00 01 00 FF 01 01 AC 01 00 00 01 00 00 01 0F (内卫温湿度虚拟地址)
2024-08-13 22:43:01.256 - 1A 15 00 00 00 86 86 86 0F (调用查询模块-客厅测温转换, 客厅温湿度虚拟地址)
2024-08-13 22:43:01.485 - 15 03 00 00 00 02 C7 1F (查询客厅温湿度)
2024-08-13 22:43:01.510 - 15 03 04 02 10 00 EC AF C2 (客厅温湿度返回)
2024-08-13 22:43:02.510 - 1A 15 00 00 00 00 00 01 00 00 01 00 00 01 00 EC 01 02 10 01 00 00 01 00 00 01 0F (客厅温湿度虚拟地址)
2024-08-13 22:43:02.612 - 1A 16 00 00 00 86 86 86 0F (调用查询模块-机柜测温转换, 机柜温湿度虚拟地址)
2024-08-13 22:43:02.840 - 16 03 00 00 00 02 C7 2C (查询机柜温湿度)
2024-08-13 22:43:02.862 - 16 03 04 02 0D 00 F2 8C CC (机柜温湿度返回)
2024-08-13 22:43:03.859 - 1A 16 00 00 00 00 00 01 00 00 01 00 00 01 00 F2 01 02 0D 01 00 00 01 00 00 01 0F (机柜温湿度虚拟地址)
2024-08-13 22:43:04.029 - 1A 0E 00 00 00 86 86 86 0F (调用查询模块-厨房测温转换, 厨房温湿度虚拟地址)
2024-08-13 22:43:04.251 - 0E 03 00 00 00 02 C4 F4 (查询厨房温湿度)
2024-08-13 22:43:04.272 - 0E 03 04 01 74 01 26 C4 9F (厨房温湿度返回)
2024-08-13 22:43:05.272 - 1A 0E 00 00 00 00 00 01 00 00 01 00 00 01 01 26 01 01 74 01 00 00 01 00 00 01 0F (厨房温湿度虚拟地址)
2024-08-13 22:43:05.460 - 1A 0F 00 00 00 86 86 86 0F (调用查询模块-餐厅测温转换, 餐厅温湿度虚拟地址)
2024-08-13 22:43:05.679 - 1C 03 00 00 00 02 C7 86 (查询餐厅温湿度)
2024-08-13 22:43:05.706 - 1C 03 04 01 AC 01 09 37 79 (餐厅温湿度返回)
2024-08-13 22:43:06.707 - 1A 0F 00 00 00 00 00 01 00 00 01 00 00 01 01 09 01 01 AC 01 00 00 01 00 00 01 0F (餐厅温湿度虚拟地址)
2024-08-13 22:43:07.203 - 1A 20 00 00 00 86 86 86 0F (调用查询模块-阳台测温转换, 阳台温湿度虚拟地址)
2024-08-13 22:43:07.426 - 20 03 00 00 00 02 C2 BA (查询阳台温湿度)
2024-08-13 22:43:07.485 - 20 03 04 02 52 01 2C EB (阳台温湿度返回)
2024-08-13 22:43:08.453 - 1A 20 00 00 00 00 00 01 00 00 01 00 00 01 01 2C 01 02 52 01 00 00 01 00 00 01 0F (阳台温湿度虚拟地址)
2024-08-13 22:43:08.548 - 1A 20 00 00 01 86 86 86 0F (调用查询模块-阳台大气压转换, 阳台大气压虚拟地址)
2024-08-13 22:43:08.784 - 20 03 00 10 00 01 83 7E (查询阳台大气压)
2024-08-13 22:43:09.797 - 1A 20 00 00 01 00 00 01 00 00 01 00 00 01 00 00 01 00 00 01 00 01 01 00 00 01 0F (阳台大气压虚拟地址)
2024-08-13 22:44:07.172 - 1A 20 00 00 01 86 86 86 0F (调用查询模块-阳台大气压转换, 阳台大气压虚拟地址)
2024-08-13 22:44:07.391 - 20 03 00 10 00 01 83 7E (查询阳台大气压)
2024-08-13 22:44:08.423 - 1A 20 00 00 01 00 00 01 00 00 01 00 00 01 00 00 01 00 00 01 00 01 01 00 00 01 0F (阳台大气压虚拟地址)
2024-08-13 22:44:09.409 - 1A 20 00 00 01 86 86 86 0F (调用查询模块-阳台大气压转换, 阳台大气压虚拟地址)
2024-08-13 22:44:09.631 - 20 03 00 10 00 01 83 7E (查询阳台大气压)
2024-08-13 22:44:10.647 - 1A 20 00 00 01 00 00 01 00 00 01 00 00 01 00 00 01 00 00 01 00 01 01 00 00 01 0F (阳台大气压虚拟地址)
2024-08-13 22:44:12.394 - 1A 20 00 00 01 86 86 86 0F (调用查询模块-阳台大气压转换, 阳台大气压虚拟地址)
2024-08-13 22:44:12.620 - 20 03 00 10 00 01 83 7E (查询阳台大气压)
2024-08-13 22:44:12.749 - 20 03 02 26 E6 9F A9 (阳台大气压返回)
2024-08-13 22:44:13.641 - 1A 20 00 00 01 00 00 01 00 00 01 00 00 01 00 00 01 00 00 01 26 E6 01 00 00 01 0F (阳台大气压虚拟地址)
2024-08-13 22:44:15.395 - 1A 20 00 00 00 86 86 86 0F (调用查询模块-阳台测温转换, 阳台温湿度虚拟地址)
2024-08-13 22:44:15.615 - 20 03 00 00 00 02 C2 BA (查询阳台温湿度)
2024-08-13 22:44:16.640 - 1A 20 00 00 00 00 00 01 00 00 01 00 00 01 86 86 01 00 00 01 00 00 01 00 00 01 0F (阳台温湿度虚拟地址)
2024-08-13 22:44:17.818 - 1A 20 00 00 00 86 86 86 0F (调用查询模块-阳台测温转换, 阳台温湿度虚拟地址)
2024-08-13 22:44:18.038 - 20 03 00 00 00 02 C2 BA (查询阳台温湿度)
2024-08-13 22:44:18.157 - 69
2024-08-13 22:44:18.167 - 04 02 54 01 2C 8B 14
2024-08-13 22:44:19.056 - 1A 20 00 00 00 00 00 01 00 00 01 00 00 01 2C 8B 01 54 01 01 00 00 01 00 00 01 0F (阳台温湿度虚拟地址)
2024-08-13 22:44:20.242 - 1A 20 00 00 00 86 86 86 0F (调用查询模块-阳台测温转换, 阳台温湿度虚拟地址)
2024-08-13 22:44:20.470 - 20 03 00 00 00 02 C2 BA (查询阳台温湿度)
2024-08-13 22:44:21.486 - 1A 20 00 00 00 00 00 01 00 00 01 00 00 01 86 86 01 00 00 01 00 00 01 00 00 01 0F (阳台温湿度虚拟地址)
2024-08-13 22:44:22.580 - 1A 20 00 00 00 86 86 86 0F (调用查询模块-阳台测温转换, 阳台温湿度虚拟地址)
2024-08-13 22:44:22.801 - 20 03 00 00 00 02 C2 BA (查询阳台温湿度)
2024-08-13 22:44:23.828 - 1A 20 00 00 00 00 00 01 00 00 01 00 00 01 86 86 01 00 00 01 00 00 01 00 00 01 0F (阳台温湿度虚拟地址)
2024-08-13 22:44:25.036 - 1A 20 00 00 00 86 86 86 0F (调用查询模块-阳台测温转换, 阳台温湿度虚拟地址)
2024-08-13 22:44:25.256 - 20 03 00 00 00 02 C2 BA (查询阳台温湿度)
2024-08-13 22:44:26.278 - 1A 20 00 00 00 00 00 01 00 00 01 00 00 01 86 86 01 00 00 01 00 00 01 00 00 01 0F (阳台温湿度虚拟地址)
2024-08-13 22:44:27.244 - 1A 20 00 00 00 86 86 86 0F (调用查询模块-阳台测温转换, 阳台温湿度虚拟地址)
2024-08-13 22:44:27.466 - 20 03 00 00 00 02 C2 BA (查询阳台温湿度)
2024-08-13 22:44:28.498 - 1A 20 00 00 00 00 00 01 00 00 01 00 00 01 86 86 01 00 00 01 00 00 01 00 00 01 0F (阳台温湿度虚拟地址)
2024-08-13 22:44:31.023 - 1A 20 00 00 00 86 86 86 0F (调用查询模块-阳台测温转换, 阳台温湿度虚拟地址)
2024-08-13 22:44:31.244 - 20 03 00 00 00 02 C2 BA (查询阳台温湿度)
2024-08-13 22:44:32.277 - 1A 20 00 00 00 00 00 01 00 00 01 00 00 01 86 86 01 00 00 01 00 00 01 00 00 01 0F (阳台温湿度虚拟地址)
2024-08-13 22:44:36.677 - 1A 20 00 00 00 86 86 86 0F (调用查询模块-阳台测温转换, 阳台温湿度虚拟地址)
2024-08-13 22:44:36.898 - 20 03 00 00 00 02 C2 BA (查询阳台温湿度)
2024-08-13 22:44:37.926 - 1A 20 00 00 00 00 00 01 00 00 01 00 00 01 86 86 01 00 00 01 00 00 01 00 00 01 0F (阳台温湿度虚拟地址)
2024-08-13 22:44:40.876 - 1A 20 00 00 00 86 86 86 0F (调用查询模块-阳台测温转换, 阳台温湿度虚拟地址)
2024-08-13 22:44:41.097 - 20 03 00 00 00 02 C2 BA (查询阳台温湿度)
2024-08-13 22:44:41.220 - 52 40 49 4A FF
2024-08-13 22:44:42.126 - 1A 20 00 00 00 00 00 01 00 00 01 00 00 01 86 86 01 4A FF 01 00 00 01 00 00 01 0F (阳台温湿度虚拟地址)
2024-08-13 22:44:44.370 - 1A 20 00 00 00 86 86 86 0F (调用查询模块-阳台测温转换, 阳台温湿度虚拟地址)
2024-08-13 22:44:44.590 - 20 03 00 00 00 02 C2 BA (查询阳台温湿度)
2024-08-13 22:44:45.610 - 1A 20 00 00 00 00 00 01 00 00 01 00 00 01 86 86 01 00 00 01 00 00 01 00 00 01 0F (阳台温湿度虚拟地址)
2024-08-13 22:44:47.797 - 1A 20 00 00 00 86 86 86 0F (调用查询模块-阳台测温转换, 阳台温湿度虚拟地址)
2024-08-13 22:44:48.030 - 20 03 00 00 00 02 C2 BA (查询阳台温湿度)
2024-08-13 22:44:48.148 - 7A 05 2C FB 13
2024-08-13 22:44:49.048 - 1A 20 00 00 00 00 00 01 00 00 01 00 00 01 86 86 01 FB 13 01 00 00 01 00 00 01 0F (阳台温湿度虚拟地址)
2024-08-13 22:47:30.379 - 00
2024-08-13 22:48:38.554 - 17 03 00 00 00 02 C6 FD
2024-08-13 22:48:38.625 - 17 03 04 01 8E 01 1B AD BE (区域高光指令（AD+区域+暖光+冷光+AE）)
2024-08-13 22:48:42.435 - 17 03 00 00 00 02 C6 FD
2024-08-13 22:48:44.000 - 17 03 00 00 00 02 C6 FD
2024-08-13 22:48:44.114 - 17 03 04 01 8E 01 1B AD BE (区域高光指令（AD+区域+暖光+冷光+AE）)
2024-08-13 22:48:45.363 - 17 03 00 00 00 02 C6 FD
2024-08-13 22:48:47.878 - 17 03 00 00 00 02 C6 FD
2024-08-13 22:48:47.966 - 17 03 04 01 8E 01 1B AD BE (区域高光指令（AD+区域+暖光+冷光+AE）)
2024-08-13 22:48:59.438 - 17 03 00 00 00 02 C6 FD
2024-08-13 22:49:01.794 - 17 03 00 00 00 02 C6 FD
2024-08-13 22:49:01.901 - 17 03 04 01 94 01 1B 8C 79
2024-08-13 22:49:03.810 - 17 03 00 00 00 02 C6 FD
2024-08-13 22:49:03.934 - 28
2024-08-13 22:49:03.934 - 94 01 1B 8C 79
2024-08-13 22:49:05.177 - 17 03 00 00 00 02 C6 FD
2024-08-13 22:49:06.077 - 17 03 00 00 00 02 C6 FD
2024-08-13 22:49:06.141 - 17 83
2024-08-13 22:49:07.058 - 17 03 00 00 00 02 C6 FD
2024-08-13 22:49:07.960 - 17 03 00 00 00 02 C6 FD
2024-08-13 22:49:08.048 - 17 03 04 01 96 01 1B 2D B9
2024-08-13 22:49:08.877 - 17 03 00 00 00 02 C6 FD
2024-08-13 22:49:09.744 - 17 03 00 00 00 02 C6 FD
2024-08-13 22:49:09.861 - 17 03 04 01 98 01 1B 4C 7A
2024-08-13 22:49:17.128 - 17 03 00 00 00 02 C6 FD
2024-08-13 22:49:18.744 - 17 03 00 00 00 02 C6 FD
2024-08-13 22:49:18.859 - 17 03 04 01 99 01 1B 1D BA
2024-08-13 22:49:20.094 - 17 03 00 00 00 02 C6 FD
2024-08-13 22:49:21.124 - 17 03 00 00 00 02 C6 FD
2024-08-13 22:49:21.236 - 17 03 04 01 99 01 1B 1D BA
2024-08-13 22:49:23.053 - 17 03 00 00 00 02 C6 FD
2024-08-13 22:49:23.120 - 17 03 04 01 99 C1
2024-08-13 22:49:24.095 - 17 03 00 00 00 02 C6 FD
2024-08-13 22:49:24.160 - 17 03 04 01 99 01 18 FD
2024-08-13 22:49:25.361 - 17 03 00 00 00 02 C6 FD
2024-08-13 22:49:25.484 - B5 FF
2024-08-13 22:49:26.761 - 17 03 00 00 00 02 C6 FD
2024-08-13 22:49:26.818 - 17 03 04 01 99 01 18 FD
2024-08-13 22:49:27.794 - 17 03 00 00 00 02 C6 FD
2024-08-13 22:49:28.861 - 17 03 00 00 00 02 C6 FD
2024-08-13 22:49:28.954 - 17 03 04 01 99 01 18 5D BB
2024-08-13 22:51:16.633 - 00
2024-08-13 22:51:49.443 - 03 03 00 00 00 02 C5 E9
2024-08-13 22:51:49.568 - 20 B2
2024-08-13 22:51:49.568 - 1B 38 79
2024-08-13 22:51:50.722 - 03 03 00 00 00 02 C5 E9
2024-08-13 22:51:52.057 - 03 03 00 00 00 02 C5 E9
2024-08-13 22:51:52.174 - 03 03 04 01 92 01 1B 38 79
2024-08-13 22:51:55.307 - 03 03 00 00 00 02 C5 E9
2024-08-13 22:51:55.372 - F3
2024-08-13 22:51:56.206 - 03 03 00 00 00 02 C5 E9
2024-08-13 22:51:56.268 - 03 03 04 01 96 01 1B 79 B8
2024-08-13 22:51:57.707 - 03 03 00 00 00 02 C5 E9
2024-08-13 22:51:58.456 - 03 03 00 00 00 02 C5 E9
2024-08-13 22:51:58.548 - 03 03 04 01 97 01 1B 28 78
2024-08-13 22:51:59.490 - 03 03 00 00 00 02 C5 E9
2024-08-13 22:52:00.307 - 03 03 00 00 00 02 C5 E9
2024-08-13 22:52:00.372 - 03 03 04 01 98 01 1B FF
2024-08-13 22:52:01.474 - 03 03 00 00 00 02 C5 E9
2024-08-13 22:52:01.539 - 03 03 04 01 98 01 1B F8
2024-08-13 22:52:02.622 - 03 03 00 00 00 02 C5 E9
2024-08-13 22:52:03.705 - 03 03 00 00 00 02 C5 E9
2024-08-13 22:52:03.830 - 03 03 04 01 98 01 1B 18 7B
2024-08-13 22:52:05.323 - 03 03 00 00 00 02 C5 E9
2024-08-13 22:52:07.069 - 03 03 00 00 00 02 C5 E9
2024-08-13 22:52:07.138 - 03 03 04 01 98 01 1B D8
2024-08-13 22:52:10.722 - 03 03 00 00 00 02 C5 E9
2024-08-13 22:52:14.088 - 03 03 00 00 00 02 C5 E9
2024-08-13 22:52:14.193 - 03 03 04 01 98 01 1B 18 7B
2024-08-13 22:52:15.722 - 03 03 00 00 00 02 C5 E9
2024-08-13 22:52:16.573 - 03 03 00 00 00 02 C5 E9
2024-08-13 22:52:16.649 - 03 03 04 01 98 01 1B 18 7B
2024-08-13 22:52:41.696 - 03 03 00 10 00 01 84 2D
2024-08-13 22:52:44.462 - 03 03 00 10 00 01 84 2D
2024-08-13 22:52:44.547 - 03 03 02 27 04 DB B7
2024-08-13 22:52:46.212 - 03 03 00 10 00 01 84 2D
2024-08-13 22:52:46.274 - 03 03 02 27 04 DB B7
2024-08-13 22:52:48.062 - 03 03 00 10 00 01 84 2D
2024-08-13 22:52:49.427 - 03 03 00 10 00 01 84 2D
2024-08-13 22:52:49.500 - 03 03 02 27 04 DB B7
2024-08-13 22:52:50.579 - 03 03 00 10 00 01 84 2D
2024-08-13 22:52:51.462 - 03 03 00 10 00 01 84 2D
2024-08-13 22:52:51.547 - 03 03 02 27 04 DB B7
2024-08-13 22:52:52.645 - 03 03 00 10 00 01 84 2D
2024-08-13 22:52:53.478 - 03 03 00 10 00 01 84 2D
2024-08-13 22:52:53.591 - 03 03 02 27 04 DB B7
2024-08-13 22:53:55.372 - EE 00 6E B1 01 00 03 FF FC FF FF
2024-08-13 22:53:55.944 - EE 00 6E B1 01 00 08 FF FC FF FF
2024-08-13 22:53:56.614 - 1A BE B0 DC 0A 00 02 00 (继电器地址-客厅纱帘, 客厅纱帘开)
2024-08-13 22:53:57.803 - EE 00 6E B1 01 00 02 FF FC FF FF
2024-08-13 22:53:59.653 - EE 00 6E B1 01 00 03 FF FC FF FF
2024-08-13 22:54:01.297 - 1A 20 07 01 30 00 01 02 0F (自保持开关地址-西阳顶灯, 西阳顶灯开关)
2024-08-13 22:54:35.915 - 00
2024-08-13 22:55:33.454 - 1A 20 07 01 30 00 01 02 0F (自保持开关地址-西阳顶灯, 西阳顶灯开关)
2024-08-13 22:55:43.204 - 03 03 00 10 00 01 84 2D
2024-08-13 22:55:43.335 - 90
2024-08-13 22:55:43.340 - 27 03 9A 75
2024-08-13 22:55:44.459 - 03 03 00 10 00 01 84 2D
2024-08-13 22:55:44.524 - E3
2024-08-13 22:55:45.608 - 03 03 00 10 00 01 84 2D
2024-08-13 22:55:47.007 - 03 03 00 10 00 01 84 2D
2024-08-13 22:55:47.110 - 03 03 02 27 03 9A 75
2024-08-13 22:55:48.506 - 03 03 00 10 00 01 84 2D
2024-08-13 22:55:49.392 - 03 03 00 10 00 01 84 2D
2024-08-13 22:55:49.464 - 03 03 02 27 03 9A 75
2024-08-13 22:55:50.592 - 03 03 00 10 00 01 84 2D
2024-08-13 22:55:50.657 - 03 03
2024-08-13 22:55:51.641 - 03 03 00 10 00 01 84 2D
2024-08-13 22:55:52.586 - 03 03 00 10 00 01 84 2D
2024-08-13 22:55:52.707 - 03 03 02 27 03 9A 75
2024-08-13 22:55:59.558 - 03 03 00 00 00 02 C5 E9
2024-08-13 22:56:00.842 - 03 03 00 00 00 02 C5 E9
2024-08-13 22:56:00.926 - 03 03 04 02 06 01 26 B8 00
2024-08-13 22:56:01.842 - 03 03 00 00 00 02 C5 E9
2024-08-13 22:56:02.658 - 03 03 00 00 00 02 C5 E9
2024-08-13 22:56:02.742 - 03 03 04 02 04 01 26 19 C0
2024-08-13 22:59:12.708 - 1A 03 00 00 00 86 86 86 0F
2024-08-13 22:59:12.940 - 03 03 00 00 00 02 C5 E9
2024-08-13 22:59:13.958 - 1A 03 00 00 00 00 00 01 00 00 01 00 00 01 86 86 01 00 00 01 00 00 01 00 00 01 0F
2024-08-13 22:59:15.174 - 1A 03 00 00 00 86 86 86 0F
2024-08-13 22:59:15.396 - 03 03 00 00 00 02 C5 E9
2024-08-13 22:59:15.538 - 03 03 04 02 18 01 2A D8 03
2024-08-13 22:59:16.429 - 1A 03 00 00 00 00 00 01 00 00 01 00 00 01 01 2A 01 02 18 01 00 00 01 00 00 01 0F
2024-08-13 22:59:25.662 - 1A FF 03 00 00 86 86 86 0F (调用查询模块-主卧空调开关查询, 主卧空调虚拟地址)
2024-08-13 22:59:25.891 - 01 04 07 DC 00 01 F1 44 (查询主卧空调开关状态)
2024-08-13 22:59:25.924 - 01 04 02 70 01 5D 30
2024-08-13 22:59:26.901 - 1A FF 03 00 00 01 00 0F (主卧空调虚拟地址)
2024-08-13 22:59:27.132 - 1A FF 04 00 00 86 86 86 0F (调用查询模块-次卧空调开关查询, 次卧空调虚拟地址)
2024-08-13 22:59:27.361 - 01 04 07 E2 00 01 90 88 (查询次卧空调开关状态)
2024-08-13 22:59:27.388 - 01 04 02 70 00 9C F0
2024-08-13 22:59:28.363 - 1A FF 04 00 00 00 00 0F (次卧空调虚拟地址)
2024-08-13 22:59:28.484 - 1A FF 05 00 00 86 86 86 0F (调用查询模块-书房空调开关查询, 书房空调虚拟地址)
2024-08-13 22:59:28.712 - 01 04 07 E8 00 01 B0 8A (查询书房空调开关状态)
2024-08-13 22:59:28.728 - 01 04 02 70 00 9C F0
2024-08-13 22:59:29.713 - 1A FF 05 00 00 00 00 0F (书房空调虚拟地址)
2024-08-13 22:59:29.808 - 1A FF 02 00 00 86 86 86 0F (调用查询模块-餐厅空调开关查询, 餐厅空调虚拟地址)
2024-08-13 22:59:30.046 - 01 04 07 D6 00 01 D1 46 (查询餐厅空调开关状态)
2024-08-13 22:59:30.062 - 01 04 02 70 01 5D 30
2024-08-13 22:59:31.047 - 1A FF 02 00 00 01 00 0F (餐厅空调虚拟地址)
2024-08-13 22:59:31.247 - 1A FF 01 00 00 86 86 86 0F (调用查询模块-客厅空调开关查询, 客厅空调虚拟地址)
2024-08-13 22:59:31.469 - 01 04 07 D0 00 01 31 47 (查询客厅空调开关状态)
2024-08-13 22:59:31.485 - 01 04 02 70 01 5D 30
2024-08-13 22:59:32.467 - 1A FF 01 00 00 01 00 0F (客厅空调虚拟地址)
2024-08-13 22:59:32.674 - 1A 10 00 00 00 86 86 86 0F (调用查询模块-主卧测温转换, 主卧温湿度虚拟地址)
2024-08-13 22:59:32.896 - 1D 03 00 00 00 02 C6 57 (查询主卧温湿度)
2024-08-13 22:59:32.922 - 1D 03 04 01 E2 00 FB C7 BB (主卧温湿度返回)
2024-08-13 22:59:33.926 - 1A 10 00 00 00 00 00 01 00 00 01 00 00 01 00 FB 01 01 E2 01 00 00 01 00 00 01 0F (主卧温湿度虚拟地址)
2024-08-13 22:59:34.110 - 1A 11 00 00 00 86 86 86 0F (调用查询模块-次卧测温转换, 次卧温湿度虚拟地址)
2024-08-13 22:59:34.328 - 11 03 00 00 00 02 C6 9B (查询次卧温湿度)
2024-08-13 22:59:34.359 - 11 03 04 02 19 01 27 7A 07 (次卧温湿度返回)
2024-08-13 22:59:34.598 - 1A FF 03 00 00 86 86 86 0F (调用查询模块-主卧空调开关查询, 主卧空调虚拟地址)
2024-08-13 22:59:35.352 - 1A 11 00 00 00 00 00 01 00 00 01 00 00 01 86 86 01 00 00 01 00 00 01 00 00 01 0F (次卧温湿度虚拟地址)
2024-08-13 22:59:35.547 - 1A FF 04 00 00 86 86 86 0F (调用查询模块-次卧空调开关查询, 次卧空调虚拟地址)
2024-08-13 22:59:35.766 - 01 04 07 E2 00 01 90 88 (查询次卧空调开关状态)
2024-08-13 22:59:35.800 - 01 04 02 70 00 9C F0
2024-08-13 22:59:36.777 - 1A FF 04 00 00 00 00 0F (次卧空调虚拟地址)
2024-08-13 22:59:36.971 - 1A FF 05 00 00 86 86 86 0F (调用查询模块-书房空调开关查询, 书房空调虚拟地址)
2024-08-13 22:59:37.208 - 01 04 07 E8 00 01 B0 8A (查询书房空调开关状态)
2024-08-13 22:59:37.234 - 01 04 02 70 00 9C F0
2024-08-13 22:59:38.209 - 1A FF 05 00 00 00 00 0F (书房空调虚拟地址)
2024-08-13 22:59:38.413 - 1A FF 02 00 00 86 86 86 0F (调用查询模块-餐厅空调开关查询, 餐厅空调虚拟地址)
2024-08-13 22:59:38.641 - 01 04 07 D6 00 01 D1 46 (查询餐厅空调开关状态)
2024-08-13 22:59:38.667 - 01 04 02 70 01 5D 30
2024-08-13 22:59:39.648 - 1A FF 02 00 00 01 00 0F (餐厅空调虚拟地址)
2024-08-13 22:59:39.842 - 1A FF 01 00 00 86 86 86 0F (调用查询模块-客厅空调开关查询, 客厅空调虚拟地址)
2024-08-13 22:59:40.072 - 01 04 07 D0 00 01 31 47 (查询客厅空调开关状态)
2024-08-13 22:59:40.104 - 01 04 02 70 01 5D 30
2024-08-13 22:59:41.080 - 1A FF 01 00 00 01 00 0F (客厅空调虚拟地址)
2024-08-13 22:59:41.275 - 1A 10 00 00 00 86 86 86 0F (调用查询模块-主卧测温转换, 主卧温湿度虚拟地址)
2024-08-13 22:59:41.508 - 1D 03 00 00 00 02 C6 57 (查询主卧温湿度)
2024-08-13 22:59:41.529 - 1D 03 04 01 E2 00 FB C7 BB (主卧温湿度返回)
2024-08-13 22:59:42.529 - 1A 10 00 00 00 00 00 01 00 00 01 00 00 01 00 FB 01 01 E2 01 00 00 01 00 00 01 0F (主卧温湿度虚拟地址)
2024-08-13 22:59:42.759 - 1A 11 00 00 00 86 86 86 0F (调用查询模块-次卧测温转换, 次卧温湿度虚拟地址)
2024-08-13 22:59:42.981 - 11 03 00 00 00 02 C6 9B (查询次卧温湿度)
2024-08-13 22:59:43.004 - 11 03 04 02 19 01 27 7A 07 (次卧温湿度返回)
2024-08-13 22:59:44.002 - 1A 11 00 00 00 00 00 01 00 00 01 00 00 01 01 27 01 02 19 01 00 00 01 00 00 01 0F (次卧温湿度虚拟地址)
2024-08-13 22:59:44.141 - 1A 12 00 00 00 86 86 86 0F (调用查询模块-书房测温转换, 书房温湿度虚拟地址)
2024-08-13 22:59:44.375 - 12 03 00 00 00 02 C6 A8 (查询书房温湿度)
2024-08-13 22:59:44.392 - 12 03 04 01 9E 01 1B F9 7B (书房温湿度返回)
2024-08-13 22:59:45.391 - 1A 12 00 00 00 00 00 01 00 00 01 00 00 01 01 1B 01 01 9E 01 00 00 01 00 00 01 0F (书房温湿度虚拟地址)
2024-08-13 22:59:45.584 - 1A 13 00 00 00 86 86 86 0F (调用查询模块-外卫测温转换, 外卫温湿度虚拟地址)
2024-08-13 22:59:45.802 - 13 03 00 00 00 02 C7 79 (查询外卫温湿度)
2024-08-13 22:59:45.830 - 13 03 04 01 D2 01 0C 68 62 (外卫温湿度返回)
2024-08-13 22:59:46.110 - 1A FF 03 00 00 86 86 86 0F (调用查询模块-主卧空调开关查询, 主卧空调虚拟地址)
2024-08-13 22:59:46.832 - 1A 13 00 00 00 00 00 01 00 00 01 00 00 01 86 86 01 00 00 01 00 00 01 00 00 01 0F (外卫温湿度虚拟地址)
2024-08-13 22:59:47.016 - 1A FF 04 00 00 86 86 86 0F (调用查询模块-次卧空调开关查询, 次卧空调虚拟地址)
2024-08-13 22:59:47.234 - 01 04 07 E2 00 01 90 88 (查询次卧空调开关状态)
2024-08-13 22:59:47.259 - 01 04 02 70 00 9C F0
2024-08-13 22:59:48.241 - 1A FF 04 00 00 00 00 0F (次卧空调虚拟地址)
2024-08-13 22:59:48.449 - 1A FF 05 00 00 86 86 86 0F (调用查询模块-书房空调开关查询, 书房空调虚拟地址)
2024-08-13 22:59:48.672 - 01 04 07 E8 00 01 B0 8A (查询书房空调开关状态)
2024-08-13 22:59:48.689 - 01 04 02 70 00 9C F0
2024-08-13 22:59:49.672 - 1A FF 05 00 00 00 00 0F (书房空调虚拟地址)
2024-08-13 22:59:49.877 - 1A FF 02 00 00 86 86 86 0F (调用查询模块-餐厅空调开关查询, 餐厅空调虚拟地址)
2024-08-13 22:59:50.099 - 01 04 07 D6 00 01 D1 46 (查询餐厅空调开关状态)
2024-08-13 22:59:50.131 - 01 04 02 70 01 5D 30
2024-08-13 22:59:51.111 - 1A FF 02 00 00 01 00 0F (餐厅空调虚拟地址)
2024-08-13 22:59:51.329 - 1A FF 01 00 00 86 86 86 0F (调用查询模块-客厅空调开关查询, 客厅空调虚拟地址)
2024-08-13 22:59:51.549 - 01 04 07 D0 00 01 31 47 (查询客厅空调开关状态)
2024-08-13 22:59:51.573 - 01 04 02 70 01 5D 30
2024-08-13 22:59:52.550 - 1A FF 01 00 00 01 00 0F (客厅空调虚拟地址)
2024-08-13 22:59:53.096 - 1A 10 00 00 00 86 86 86 0F (调用查询模块-主卧测温转换, 主卧温湿度虚拟地址)
2024-08-13 22:59:53.319 - 1D 03 00 00 00 02 C6 57 (查询主卧温湿度)
2024-08-13 22:59:53.335 - 1D 03 04 01 E2 00 FB C7 BB (主卧温湿度返回)
2024-08-13 22:59:54.348 - 1A 10 00 00 00 00 00 01 00 00 01 00 00 01 00 FB 01 01 E2 01 00 00 01 00 00 01 0F (主卧温湿度虚拟地址)
2024-08-13 22:59:54.490 - 1A 11 00 00 00 86 86 86 0F (调用查询模块-次卧测温转换, 次卧温湿度虚拟地址)
2024-08-13 22:59:54.717 - 11 03 00 00 00 02 C6 9B (查询次卧温湿度)
2024-08-13 22:59:54.735 - 11 03 04 02 19 01 27 7A 07 (次卧温湿度返回)
2024-08-13 22:59:55.736 - 1A 11 00 00 00 00 00 01 00 00 01 00 00 01 01 27 01 02 19 01 00 00 01 00 00 01 0F (次卧温湿度虚拟地址)
2024-08-13 22:59:55.875 - 1A 12 00 00 00 86 86 86 0F (调用查询模块-书房测温转换, 书房温湿度虚拟地址)
2024-08-13 22:59:56.110 - 12 03 00 00 00 02 C6 A8 (查询书房温湿度)
2024-08-13 22:59:56.125 - 12 03 04 01 9E 01 1B F9 7B (书房温湿度返回)
2024-08-13 22:59:57.122 - 1A 12 00 00 00 00 00 01 00 00 01 00 00 01 01 1B 01 01 9E 01 00 00 01 00 00 01 0F (书房温湿度虚拟地址)
2024-08-13 22:59:57.254 - 1A 13 00 00 00 86 86 86 0F (调用查询模块-外卫测温转换, 外卫温湿度虚拟地址)
2024-08-13 22:59:57.473 - 13 03 00 00 00 02 C7 79 (查询外卫温湿度)
2024-08-13 22:59:57.503 - 13 03 04 01 D3 01 0C 39 A2 (外卫温湿度返回)
2024-08-13 22:59:58.503 - 1A 13 00 00 00 00 00 01 00 00 01 00 00 01 01 0C 01 01 D3 01 00 00 01 00 00 01 0F (外卫温湿度虚拟地址)
2024-08-13 22:59:58.692 - 1A 14 00 00 00 86 86 86 0F (调用查询模块-内卫测温转换, 内卫温湿度虚拟地址)
2024-08-13 22:59:58.916 - 14 03 00 00 00 02 C6 CE (查询内卫温湿度)
2024-08-13 22:59:58.932 - 14 03 04 01 BE 00 FF 9F 6A (内卫温湿度返回)
2024-08-13 22:59:59.933 - 1A 14 00 00 00 00 00 01 00 00 01 00 00 01 00 FF 01 01 BE 01 00 00 01 00 00 01 0F (内卫温湿度虚拟地址)
2024-08-13 23:00:00.122 - 1A 15 00 00 00 86 86 86 0F (调用查询模块-客厅测温转换, 客厅温湿度虚拟地址)
2024-08-13 23:00:00.346 - 15 03 00 00 00 02 C7 1F (查询客厅温湿度)
2024-08-13 23:00:00.362 - 15 03 04 02 26 00 F1 8F C5 (客厅温湿度返回)
2024-08-13 23:00:01.369 - 1A 15 00 00 00 00 00 01 00 00 01 00 00 01 00 F1 01 02 26 01 00 00 01 00 00 01 0F (客厅温湿度虚拟地址)
2024-08-13 23:00:01.470 - 1A 16 00 00 00 86 86 86 0F (调用查询模块-机柜测温转换, 机柜温湿度虚拟地址)
2024-08-13 23:00:01.703 - 16 03 00 00 00 02 C7 2C (查询机柜温湿度)
2024-08-13 23:00:01.723 - 16 03 04 02 1D 00 F5 CC CB (机柜温湿度返回)
2024-08-13 23:00:02.724 - 1A 16 00 00 00 00 00 01 00 00 01 00 00 01 00 F5 01 02 1D 01 00 00 01 00 00 01 0F (机柜温湿度虚拟地址)
2024-08-13 23:00:02.826 - 1A 0E 00 00 00 86 86 86 0F (调用查询模块-厨房测温转换, 厨房温湿度虚拟地址)
2024-08-13 23:00:03.048 - 0E 03 00 00 00 02 C4 F4 (查询厨房温湿度)
2024-08-13 23:00:03.076 - 0E 03 04 01 81 01 26 D4 AD (区域高光指令（AD+区域+暖光+冷光+AE）, 厨房温湿度返回)
2024-08-13 23:00:04.078 - 1A 0E 00 00 00 00 00 01 00 00 01 00 00 01 01 26 01 01 81 01 00 00 01 00 00 01 0F (厨房温湿度虚拟地址)
2024-08-13 23:00:04.218 - 1A 0F 00 00 00 86 86 86 0F (调用查询模块-餐厅测温转换, 餐厅温湿度虚拟地址)
2024-08-13 23:00:04.440 - 1C 03 00 00 00 02 C7 86 (查询餐厅温湿度)
2024-08-13 23:00:04.469 - 1C 03 04 01 AE 01 0A D6 B8 (餐厅温湿度返回)
2024-08-13 23:00:05.472 - 1A 0F 00 00 00 00 00 01 00 00 01 00 00 01 01 0A 01 01 AE 01 00 00 01 00 00 01 0F (餐厅温湿度虚拟地址)
2024-08-13 23:00:05.648 - 1A 03 00 00 00 86 86 86 0F
2024-08-13 23:00:05.876 - 03 03 00 00 00 02 C5 E9
2024-08-13 23:00:05.997 - 20 09 E5
2024-08-13 23:00:06.901 - 1A 03 00 00 00 00 00 01 00 00 01 00 00 01 86 86 01 00 00 01 00 00 01 00 00 01 0F
2024-08-13 23:00:07.047 - 1A FF 03 00 00 86 86 86 0F (调用查询模块-主卧空调开关查询, 主卧空调虚拟地址)
2024-08-13 23:00:07.268 - 01 04 07 DC 00 01 F1 44 (查询主卧空调开关状态)
2024-08-13 23:00:07.298 - 01 04 02 70 01 5D 30
2024-08-13 23:00:07.393 - 1A FF 04 00 00 86 86 86 0F (调用查询模块-次卧空调开关查询, 次卧空调虚拟地址)
2024-08-13 23:00:08.276 - 1A FF 03 00 00 00 00 0F (主卧空调虚拟地址)
2024-08-13 23:00:08.418 - 1A FF 05 00 00 86 86 86 0F (调用查询模块-书房空调开关查询, 书房空调虚拟地址)
2024-08-13 23:00:08.641 - 01 04 07 E8 00 01 B0 8A (查询书房空调开关状态)
2024-08-13 23:00:08.673 - 01 04 02 70 00 9C F0
2024-08-13 23:00:09.641 - 1A FF 05 00 00 00 00 0F (书房空调虚拟地址)
2024-08-13 23:00:09.844 - 1A FF 02 00 00 86 86 86 0F (调用查询模块-餐厅空调开关查询, 餐厅空调虚拟地址)
2024-08-13 23:00:10.078 - 01 04 07 D6 00 01 D1 46 (查询餐厅空调开关状态)
2024-08-13 23:00:10.097 - 01 04 02 70 01 5D 30
2024-08-13 23:00:11.080 - 1A FF 02 00 00 01 00 0F (餐厅空调虚拟地址)
2024-08-13 23:00:11.178 - 1A FF 01 00 00 86 86 86 0F (调用查询模块-客厅空调开关查询, 客厅空调虚拟地址)
2024-08-13 23:00:11.412 - 01 04 07 D0 00 01 31 47 (查询客厅空调开关状态)
2024-08-13 23:00:11.441 - 01 04 02 70 01 5D 30
2024-08-13 23:00:12.414 - 1A FF 01 00 00 01 00 0F (客厅空调虚拟地址)
2024-08-13 23:00:12.611 - 1A 10 00 00 00 86 86 86 0F (调用查询模块-主卧测温转换, 主卧温湿度虚拟地址)
2024-08-13 23:00:12.843 - 1D 03 00 00 00 02 C6 57 (查询主卧温湿度)
2024-08-13 23:00:12.860 - 1D 03 04 01 E2 00 FB C7 BB (主卧温湿度返回)
2024-08-13 23:00:13.860 - 1A 10 00 00 00 00 00 01 00 00 01 00 00 01 00 FB 01 01 E2 01 00 00 01 00 00 01 0F (主卧温湿度虚拟地址)
2024-08-13 23:00:14.051 - 1A 11 00 00 00 86 86 86 0F (调用查询模块-次卧测温转换, 次卧温湿度虚拟地址)
2024-08-13 23:00:14.275 - 11 03 00 00 00 02 C6 9B (查询次卧温湿度)
2024-08-13 23:00:14.297 - 11 03 04 02 1B 01 27 DB C7 (次卧温湿度返回)
2024-08-13 23:00:15.297 - 1A 11 00 00 00 00 00 01 00 00 01 00 00 01 01 27 01 02 1B 01 00 00 01 00 00 01 0F (次卧温湿度虚拟地址)
2024-08-13 23:00:15.484 - 1A 12 00 00 00 86 86 86 0F (调用查询模块-书房测温转换, 书房温湿度虚拟地址)
2024-08-13 23:00:15.703 - 12 03 00 00 00 02 C6 A8 (查询书房温湿度)
2024-08-13 23:00:15.720 - 12 03 04 01 9E 01 1B F9 7B (书房温湿度返回)
2024-08-13 23:00:16.735 - 1A 12 00 00 00 00 00 01 00 00 01 00 00 01 01 1B 01 01 9E 01 00 00 01 00 00 01 0F (书房温湿度虚拟地址)
2024-08-13 23:00:16.954 - 1A 13 00 00 00 86 86 86 0F (调用查询模块-外卫测温转换, 外卫温湿度虚拟地址)
2024-08-13 23:00:17.174 - 13 03 00 00 00 02 C7 79 (查询外卫温湿度)
2024-08-13 23:00:17.190 - 13 03 04 01 D2 01 0C 68 62 (外卫温湿度返回)
2024-08-13 23:00:18.189 - 1A 13 00 00 00 00 00 01 00 00 01 00 00 01 01 0C 01 01 D2 01 00 00 01 00 00 01 0F (外卫温湿度虚拟地址)
2024-08-13 23:00:18.347 - 1A 14 00 00 00 86 86 86 0F (调用查询模块-内卫测温转换, 内卫温湿度虚拟地址)
2024-08-13 23:00:18.567 - 14 03 00 00 00 02 C6 CE (查询内卫温湿度)
2024-08-13 23:00:18.596 - 14 03 04 01 C1 00 FF AE B2 (内卫温湿度返回)
2024-08-13 23:00:19.601 - 1A 14 00 00 00 00 00 01 00 00 01 00 00 01 00 FF 01 01 C1 01 00 00 01 00 00 01 0F (内卫温湿度虚拟地址)
2024-08-13 23:00:19.786 - 1A 15 00 00 00 86 86 86 0F (调用查询模块-客厅测温转换, 客厅温湿度虚拟地址)
2024-08-13 23:00:20.000 - 15 03 00 00 00 02 C7 1F (查询客厅温湿度)
2024-08-13 23:00:20.031 - 15 03 04 02 27 00 F1 DE 05 (客厅温湿度返回)
2024-08-13 23:00:21.034 - 1A 15 00 00 00 00 00 01 00 00 01 00 00 01 00 F1 01 02 27 01 00 00 01 00 00 01 0F (客厅温湿度虚拟地址)
2024-08-13 23:00:21.207 - 1A 16 00 00 00 86 86 86 0F (调用查询模块-机柜测温转换, 机柜温湿度虚拟地址)
2024-08-13 23:00:21.442 - 16 03 00 00 00 02 C7 2C (查询机柜温湿度)
2024-08-13 23:00:21.461 - 16 03 04 02 1B 00 F5 2C CA (机柜温湿度返回)
2024-08-13 23:00:22.459 - 1A 16 00 00 00 00 00 01 00 00 01 00 00 01 00 F5 01 02 1B 01 00 00 01 00 00 01 0F (机柜温湿度虚拟地址)
2024-08-13 23:00:22.650 - 1A 0E 00 00 00 86 86 86 0F (调用查询模块-厨房测温转换, 厨房温湿度虚拟地址)
2024-08-13 23:00:22.872 - 0E 03 00 00 00 02 C4 F4 (查询厨房温湿度)
2024-08-13 23:00:22.891 - 0E 03 04 01 81 01 26 D4 AD (区域高光指令（AD+区域+暖光+冷光+AE）, 厨房温湿度返回)
2024-08-13 23:00:23.898 - 1A 0E 00 00 00 00 00 01 00 00 01 00 00 01 01 26 01 01 81 01 00 00 01 00 00 01 0F (厨房温湿度虚拟地址)
2024-08-13 23:00:24.087 - 1A 0F 00 00 00 86 86 86 0F (调用查询模块-餐厅测温转换, 餐厅温湿度虚拟地址)
2024-08-13 23:00:24.304 - 1C 03 00 00 00 02 C7 86 (查询餐厅温湿度)
2024-08-13 23:00:24.328 - 1C 03 04 01 B0 01 0A B6 BE (餐厅温湿度返回)
2024-08-13 23:00:25.330 - 1A 0F 00 00 00 00 00 01 00 00 01 00 00 01 01 0A 01 01 B0 01 00 00 01 00 00 01 0F (餐厅温湿度虚拟地址)
2024-08-13 23:00:25.424 - 1A 03 00 00 00 86 86 86 0F
2024-08-13 23:00:25.661 - 03 03 00 00 00 02 C5 E9
2024-08-13 23:00:25.710 - 03 03 04 02 E1
2024-08-13 23:00:26.678 - 1A 03 00 00 00 00 00 01 00 00 01 00 00 01 86 86 01 02 E1 01 00 00 01 00 00 01 0F
2024-08-13 23:00:26.883 - 1A 03 00 00 01 86 86 86 0F
2024-08-13 23:00:27.115 - 03 03 00 10 00 01 84 2D
2024-08-13 23:00:28.137 - 1A 03 00 00 01 00 00 01 00 00 01 00 00 01 00 00 01 00 00 01 00 01 01 00 00 01 0F
2024-08-13 23:00:35.022 - 1A 03 00 00 01 86 86 86 0F
2024-08-13 23:00:35.234 - 03 03 00 10 00 01 84 2D
2024-08-13 23:00:35.360 - 81 12 D0 77 FF
2024-08-13 23:00:36.259 - 1A 03 00 00 01 00 00 01 00 00 01 00 00 01 00 00 01 00 00 01 77 FF 01 00 00 01 0F
2024-08-13 23:00:37.911 - 1A 03 00 00 01 86 86 86 0F
2024-08-13 23:00:38.134 - 03 03 00 10 00 01 84 2D
2024-08-13 23:00:39.163 - 1A 03 00 00 01 00 00 01 00 00 01 00 00 01 00 00 01 00 00 01 00 01 01 00 00 01 0F
2024-08-13 23:00:40.234 - 1A 03 00 00 01 86 86 86 0F
2024-08-13 23:00:40.454 - 03 03 00 10 00 01 84 2D
2024-08-13 23:00:41.486 - 1A 03 00 00 01 00 00 01 00 00 01 00 00 01 00 00 01 00 00 01 00 01 01 00 00 01 0F
2024-08-13 23:00:43.984 - 1A 03 00 00 01 86 86 86 0F
2024-08-13 23:00:44.211 - 03 03 00 10 00 01 84 2D
2024-08-13 23:00:45.230 - 1A 03 00 00 01 00 00 01 00 00 01 00 00 01 00 00 01 00 00 01 00 01 01 00 00 01 0F
2024-08-13 23:00:47.235 - 1A 03 00 00 01 86 86 86 0F
2024-08-13 23:00:47.455 - 03 03 00 10 00 01 84 2D
2024-08-13 23:00:47.587 - 03 03 02 27 04 DB B7
2024-08-13 23:00:48.485 - 1A 03 00 00 01 00 00 01 00 00 01 00 00 01 00 00 01 00 00 01 27 04 01 00 00 01 0F
2024-08-13 23:00:51.216 - 1A 03 00 00 00 86 86 86 0F
2024-08-13 23:00:51.453 - 03 03 00 00 00 02 C5 E9
2024-08-13 23:00:51.503 - 03 03 04 02
2024-08-13 23:00:52.469 - 1A 03 00 00 00 00 00 01 00 00 01 00 00 01 86 86 01 02 00 01 00 00 01 00 00 01 0F
2024-08-13 23:00:54.362 - 1A 03 00 00 00 86 86 86 0F
2024-08-13 23:00:54.583 - 03 03 00 00 00 02 C5 E9
2024-08-13 23:00:54.723 - 03 03 04 02 47 01 2C 68 13
2024-08-13 23:00:55.615 - 1A 03 00 00 00 00 00 01 00 00 01 00 00 01 01 2C 01 02 47 01 00 00 01 00 00 01 0F
2024-08-13 23:00:59.771 - 1A 03 00 00 00 86 86 86 0F
2024-08-13 23:00:59.993 - 03 03 00 00 00 02 C5 E9
2024-08-13 23:01:00.127 - 03 03 04 02 3D 01 2C 49 CA
2024-08-13 23:01:01.026 - 1A 03 00 00 00 00 00 01 00 00 01 00 00 01 01 2C 01 02 3D 01 00 00 01 00 00 01 0F
2024-08-13 23:01:09.033 - 1A 03 00 00 00 86 86 86 0F
2024-08-13 23:01:09.246 - 03 03 00 00 00 02 C5 E9
2024-08-13 23:01:10.272 - 1A 03 00 00 00 00 00 01 00 00 01 00 00 01 86 86 01 00 00 01 00 00 01 00 00 01 0F
2024-08-13 23:01:12.655 - 1A 03 00 00 00 86 86 86 0F
2024-08-13 23:01:12.876 - 03 03 00 00 00 02 C5 E9
2024-08-13 23:01:13.894 - 1A 03 00 00 00 00 00 01 00 00 01 00 00 01 86 86 01 00 00 01 00 00 01 00 00 01 0F
2024-08-13 23:01:15.258 - 1A 03 00 00 00 86 86 86 0F
2024-08-13 23:01:15.484 - 03 03 00 00 00 02 C5 E9
2024-08-13 23:01:16.509 - 1A 03 00 00 00 00 00 01 00 00 01 00 00 01 86 86 01 00 00 01 00 00 01 00 00 01 0F
2024-08-13 23:01:17.907 - 1A 03 00 00 00 86 86 86 0F
2024-08-13 23:01:18.126 - 03 03 00 00 00 02 C5 E9
2024-08-13 23:01:19.143 - 1A 03 00 00 00 00 00 01 00 00 01 00 00 01 86 86 01 00 00 01 00 00 01 00 00 01 0F
2024-08-13 23:01:20.652 - 1A 03 00 00 00 86 86 86 0F
2024-08-13 23:01:20.886 - 03 03 00 00 00 02 C5 E9
2024-08-13 23:01:21.908 - 1A 03 00 00 00 00 00 01 00 00 01 00 00 01 86 86 01 00 00 01 00 00 01 00 00 01 0F
2024-08-13 23:01:22.728 - 1A 03 00 00 00 86 86 86 0F
2024-08-13 23:01:22.951 - 03 03 00 00 00 02 C5 E9
2024-08-13 23:01:23.005 - 03 03 04 02 3A
2024-08-13 23:01:23.973 - 1A 03 00 00 00 00 00 01 00 00 01 00 00 01 86 86 01 02 3A 01 00 00 01 00 00 01 0F
2024-08-13 23:01:24.891 - 1A 03 00 00 00 86 86 86 0F
2024-08-13 23:01:25.126 - 03 03 00 00 00 02 C5 E9
2024-08-13 23:01:26.142 - 1A 03 00 00 00 00 00 01 00 00 01 00 00 01 86 86 01 00 00 01 00 00 01 00 00 01 0F
2024-08-13 23:01:27.057 - 1A 03 00 00 00 86 86 86 0F
2024-08-13 23:01:27.279 - 03 03 00 00 00 02 C5 E9
2024-08-13 23:01:27.407 - 88
2024-08-13 23:01:27.413 - 02 3C 01 2C 18 0A
2024-08-13 23:01:28.311 - 1A 03 00 00 00 00 00 01 00 00 01 00 00 01 18 0A 01 01 2C 01 00 00 01 00 00 01 0F
2024-08-13 23:01:28.565 - 1A 03 00 00 00 86 86 86 0F
2024-08-13 23:01:28.793 - 03 03 00 00 00 02 C5 E9
2024-08-13 23:01:29.811 - 1A 03 00 00 00 00 00 01 00 00 01 00 00 01 86 86 01 00 00 01 00 00 01 00 00 01 0F
2024-08-13 23:01:32.499 - 1A 03 00 00 00 86 86 86 0F
2024-08-13 23:01:32.731 - 03 03 00 00 00 02 C5 E9
2024-08-13 23:01:33.753 - 1A 03 00 00 00 00 00 01 00 00 01 00 00 01 86 86 01 00 00 01 00 00 01 00 00 01 0F
2024-08-13 23:01:34.635 - 1A 03 00 00 00 86 86 86 0F
2024-08-13 23:01:34.860 - 03 03 00 00 00 02 C5 E9
2024-08-13 23:01:35.888 - 1A 03 00 00 00 00 00 01 00 00 01 00 00 01 86 86 01 00 00 01 00 00 01 00 00 01 0F
2024-08-13 23:01:37.185 - 1A 03 00 00 00 86 86 86 0F
2024-08-13 23:01:37.408 - 03 03 00 00 00 02 C5 E9
2024-08-13 23:01:37.532 - 03 03 04 02 43 01 2C 29 D2
2024-08-13 23:01:38.428 - 1A 03 00 00 00 00 00 01 00 00 01 00 00 01 01 2C 01 02 43 01 00 00 01 00 00 01 0F
2024-08-13 23:01:59.134 - 1A 03 00 00 00 86 86 86 0F
2024-08-13 23:01:59.364 - 03 03 00 00 00 02 C5 E9
2024-08-13 23:02:00.391 - 1A 03 00 00 00 00 00 01 00 00 01 00 00 01 86 86 01 00 00 01 00 00 01 00 00 01 0F
2024-08-13 23:02:01.935 - 1A 03 00 00 00 86 86 86 0F
2024-08-13 23:02:02.165 - 03 03 00 00 00 02 C5 E9
2024-08-13 23:02:03.183 - 1A 03 00 00 00 00 00 01 00 00 01 00 00 01 86 86 01 00 00 01 00 00 01 00 00 01 0F
2024-08-13 23:02:06.038 - 1A 03 00 00 00 86 86 86 0F
2024-08-13 23:02:06.260 - 03 03 00 00 00 02 C5 E9
2024-08-13 23:02:07.280 - 1A 03 00 00 00 00 00 01 00 00 01 00 00 01 86 86 01 00 00 01 00 00 01 00 00 01 0F
2024-08-13 23:02:08.706 - 1A 03 00 00 00 86 86 86 0F
2024-08-13 23:02:08.929 - 03 03 00 00 00 02 C5 E9
2024-08-13 23:02:09.942 - 1A 03 00 00 00 00 00 01 00 00 01 00 00 01 86 86 01 00 00 01 00 00 01 00 00 01 0F
2024-08-13 23:02:11.310 - 1A 03 00 00 00 86 86 86 0F
2024-08-13 23:02:11.533 - 03 03 00 00 00 02 C5 E9
2024-08-13 23:02:12.550 - 1A 03 00 00 00 00 00 01 00 00 01 00 00 01 86 86 01 00 00 01 00 00 01 00 00 01 0F
2024-08-13 23:02:15.641 - 1A 03 00 00 00 86 86 86 0F
2024-08-13 23:02:15.873 - 03 03 00 00 00 02 C5 E9
2024-08-13 23:02:16.891 - 1A 03 00 00 00 00 00 01 00 00 01 00 00 01 86 86 01 00 00 01 00 00 01 00 00 01 0F
2024-08-13 23:02:17.678 - 1A 03 00 00 00 86 86 86 0F
2024-08-13 23:02:17.905 - 03 03 00 00 00 02 C5 E9
2024-08-13 23:02:18.922 - 1A 03 00 00 00 00 00 01 00 00 01 00 00 01 86 86 01 00 00 01 00 00 01 00 00 01 0F
2024-08-13 23:02:20.246 - 1A 03 00 00 00 86 86 86 0F
2024-08-13 23:02:20.467 - 03 03 00 00 00 02 C5 E9
2024-08-13 23:02:20.525 - FF
2024-08-13 23:02:21.496 - 1A 03 00 00 00 00 00 01 00 00 01 00 00 01 86 86 01 00 00 01 00 00 01 00 00 01 0F
2024-08-13 23:02:22.037 - 1A 03 00 00 00 86 86 86 0F
2024-08-13 23:02:22.257 - 03 03 00 00 00 02 C5 E9
2024-08-13 23:02:23.272 - 1A 03 00 00 00 00 00 01 00 00 01 00 00 01 86 86 01 00 00 01 00 00 01 00 00 01 0F
2024-08-13 23:02:24.319 - 1A 03 00 00 00 86 86 86 0F
2024-08-13 23:02:24.547 - 03 03 00 00 00 02 C5 E9
2024-08-13 23:02:25.571 - 1A 03 00 00 00 00 00 01 00 00 01 00 00 01 86 86 01 00 00 01 00 00 01 00 00 01 0F
2024-08-13 23:02:26.406 - 1A 03 00 00 00 86 86 86 0F
2024-08-13 23:02:26.636 - 03 03 00 00 00 02 C5 E9
2024-08-13 23:02:27.651 - 1A 03 00 00 00 00 00 01 00 00 01 00 00 01 86 86 01 00 00 01 00 00 01 00 00 01 0F
2024-08-13 23:02:28.984 - 1A 03 00 00 00 86 86 86 0F
2024-08-13 23:02:29.220 - 03 03 00 00 00 02 C5 E9
2024-08-13 23:02:30.237 - 1A 03 00 00 00 00 00 01 00 00 01 00 00 01 86 86 01 00 00 01 00 00 01 00 00 01 0F
2024-08-13 23:02:31.093 - 1A 03 00 00 00 86 86 86 0F
2024-08-13 23:02:31.313 - 03 03 00 00 00 02 C5 E9
2024-08-13 23:02:32.339 - 1A 03 00 00 00 00 00 01 00 00 01 00 00 01 86 86 01 00 00 01 00 00 01 00 00 01 0F
2024-08-13 23:02:35.372 - 1A FF 03 00 00 00 00 02 0F (主卧空调虚拟地址)
2024-08-13 23:02:36.382 - 1A FF 03 00 00 86 86 86 0F (调用查询模块-主卧空调开关查询, 主卧空调虚拟地址)
2024-08-13 23:02:36.604 - 01 04 07 DC 00 01 F1 44 (查询主卧空调开关状态)
2024-08-13 23:02:36.626 - 01 04 02 70 01 5D 30
2024-08-13 23:02:37.609 - 1A FF 03 00 00 01 00 0F (主卧空调虚拟地址)
2024-08-13 23:02:41.494 - 1A 03 00 00 00 86 86 86 0F
2024-08-13 23:02:41.715 - 03 03 00 00 00 02 C5 E9
2024-08-13 23:02:41.783 - 03 03 04 02 56 01 2E B9 FF
2024-08-13 23:02:42.747 - 1A 03 00 00 00 00 00 01 00 00 01 00 00 01 01 2E 01 02 56 01 00 00 01 00 00 01 0F
2024-08-13 23:02:46.985 - 1A 03 00 00 01 86 86 86 0F
2024-08-13 23:02:47.207 - 03 03 00 10 00 01 84 2D
2024-08-13 23:02:47.348 - 03 03 02 27 04 DB B7
2024-08-13 23:02:48.227 - 1A 03 00 00 01 00 00 01 00 00 01 00 00 01 00 00 01 00 00 01 27 04 01 00 00 01 0F
2024-08-13 23:02:50.414 - 1A 03 00 00 01 86 86 86 0F
2024-08-13 23:02:50.641 - 03 03 00 10 00 01 84 2D
2024-08-13 23:02:50.701 - 03 03 02 27 08 DB F2
2024-08-13 23:02:51.668 - 1A 03 00 00 01 00 00 01 00 00 01 00 00 01 00 00 01 00 00 01 27 08 01 00 00 01 0F
2024-08-13 23:02:53.585 - 1A 03 00 00 01 86 86 86 0F
2024-08-13 23:02:53.805 - 03 03 00 10 00 01 84 2D
2024-08-13 23:02:54.833 - 1A 03 00 00 01 00 00 01 00 00 01 00 00 01 00 00 01 00 00 01 00 01 01 00 00 01 0F
2024-08-13 23:02:55.770 - 1A 03 00 00 01 86 86 86 0F
2024-08-13 23:02:55.992 - 03 03 00 10 00 01 84 2D
2024-08-13 23:02:56.047 - 03 03 02 27 04 DB B7
2024-08-13 23:02:57.022 - 1A 03 00 00 01 00 00 01 00 00 01 00 00 01 00 00 01 00 00 01 27 04 01 00 00 01 0F
2024-08-13 23:02:58.453 - 1A 03 00 00 00 86 86 86 0F
2024-08-13 23:02:58.673 - 03 03 00 00 00 02 C5 E9
2024-08-13 23:02:59.706 - 1A 03 00 00 00 00 00 01 00 00 01 00 00 01 86 86 01 00 00 01 00 00 01 00 00 01 0F
2024-08-13 23:03:00.578 - 1A 03 00 00 00 86 86 86 0F
2024-08-13 23:03:00.803 - 03 03 00 00 00 02 C5 E9
2024-08-13 23:03:01.830 - 1A 03 00 00 00 00 00 01 00 00 01 00 00 01 86 86 01 00 00 01 00 00 01 00 00 01 0F
2024-08-13 23:03:02.687 - 1A 03 00 00 00 86 86 86 0F
2024-08-13 23:03:02.922 - 03 03 00 00 00 02 C5 E9
2024-08-13 23:03:03.943 - 1A 03 00 00 00 00 00 01 00 00 01 00 00 01 86 86 01 00 00 01 00 00 01 00 00 01 0F
2024-08-13 23:03:05.116 - 1A 03 00 00 00 86 86 86 0F
2024-08-13 23:03:05.338 - 03 03 00 00 00 02 C5 E9
2024-08-13 23:03:05.387 - 03 03 04 02 56 01 2E B9 D7
2024-08-13 23:03:06.360 - 1A 03 00 00 00 00 00 01 00 00 01 00 00 01 01 2E 01 02 56 01 00 00 01 00 00 01 0F
2024-08-13 23:03:09.876 - 1A FF 03 00 00 86 86 86 0F (调用查询模块-主卧空调开关查询, 主卧空调虚拟地址)
2024-08-13 23:03:10.103 - 01 04 07 DC 00 01 F1 44 (查询主卧空调开关状态)
2024-08-13 23:03:10.131 - 01 04 02 70 01 5D 30
2024-08-13 23:03:11.109 - 1A FF 03 00 00 01 00 0F (主卧空调虚拟地址)
2024-08-13 23:03:11.297 - 1A FF 04 00 00 86 86 86 0F (调用查询模块-次卧空调开关查询, 次卧空调虚拟地址)
2024-08-13 23:03:11.522 - 01 04 07 E2 00 01 90 88 (查询次卧空调开关状态)
2024-08-13 23:03:11.550 - 01 04 02 70 00 9C F0
2024-08-13 23:03:12.532 - 1A FF 04 00 00 00 00 0F (次卧空调虚拟地址)
2024-08-13 23:03:12.725 - 1A FF 05 00 00 86 86 86 0F (调用查询模块-书房空调开关查询, 书房空调虚拟地址)
2024-08-13 23:03:12.953 - 01 04 07 E8 00 01 B0 8A (查询书房空调开关状态)
2024-08-13 23:03:12.979 - 01 04 02 70 00 9C F0
2024-08-13 23:03:13.953 - 1A FF 05 00 00 00 00 0F (书房空调虚拟地址)
2024-08-13 23:03:14.067 - 1A FF 02 00 00 86 86 86 0F (调用查询模块-餐厅空调开关查询, 餐厅空调虚拟地址)
2024-08-13 23:03:14.284 - 01 04 07 D6 00 01 D1 46 (查询餐厅空调开关状态)
2024-08-13 23:03:14.318 - 01 04 02 70 01 5D 30
2024-08-13 23:03:15.300 - 1A FF 02 00 00 01 00 0F (餐厅空调虚拟地址)
2024-08-13 23:03:15.498 - 1A FF 01 00 00 86 86 86 0F (调用查询模块-客厅空调开关查询, 客厅空调虚拟地址)
2024-08-13 23:03:15.718 - 01 04 07 D0 00 01 31 47 (查询客厅空调开关状态)
2024-08-13 23:03:15.747 - 01 04 02 70 01 5D 30
2024-08-13 23:03:16.719 - 1A FF 01 00 00 01 00 0F (客厅空调虚拟地址)
2024-08-13 23:03:16.830 - 1A 10 00 00 00 86 86 86 0F (调用查询模块-主卧测温转换, 主卧温湿度虚拟地址)
2024-08-13 23:03:17.051 - 1D 03 00 00 00 02 C6 57 (查询主卧温湿度)
2024-08-13 23:03:17.071 - 1D 03 04 01 E3 00 FA 57 BB (主卧温湿度返回)
2024-08-13 23:03:18.070 - 1A 10 00 00 00 00 00 01 00 00 01 00 00 01 00 FA 01 01 E3 01 00 00 01 00 00 01 0F (主卧温湿度虚拟地址)
2024-08-13 23:03:18.257 - 1A 11 00 00 00 86 86 86 0F (调用查询模块-次卧测温转换, 次卧温湿度虚拟地址)
2024-08-13 23:03:18.484 - 11 03 00 00 00 02 C6 9B (查询次卧温湿度)
2024-08-13 23:03:18.505 - 11 03 04 02 1B 01 27 DB C7 (次卧温湿度返回)
2024-08-13 23:03:19.507 - 1A 11 00 00 00 00 00 01 00 00 01 00 00 01 01 27 01 02 1B 01 00 00 01 00 00 01 0F (次卧温湿度虚拟地址)
2024-08-13 23:03:19.697 - 1A 12 00 00 00 86 86 86 0F (调用查询模块-书房测温转换, 书房温湿度虚拟地址)
2024-08-13 23:03:19.913 - 12 03 00 00 00 02 C6 A8 (查询书房温湿度)
2024-08-13 23:03:19.935 - 12 03 04 01 9C 01 1B 58 BB (书房温湿度返回)
2024-08-13 23:03:20.936 - 1A 12 00 00 00 00 00 01 00 00 01 00 00 01 01 1B 01 01 9C 01 00 00 01 00 00 01 0F (书房温湿度虚拟地址)
2024-08-13 23:03:21.127 - 1A 13 00 00 00 86 86 86 0F (调用查询模块-外卫测温转换, 外卫温湿度虚拟地址)
2024-08-13 23:03:21.348 - 13 03 00 00 00 02 C7 79 (查询外卫温湿度)
2024-08-13 23:03:21.365 - 13 03 04 01 D1 01 0C 98 62 (外卫温湿度返回)
2024-08-13 23:03:22.372 - 1A 13 00 00 00 00 00 01 00 00 01 00 00 01 01 0C 01 01 D1 01 00 00 01 00 00 01 0F (外卫温湿度虚拟地址)
2024-08-13 23:03:22.558 - 1A 14 00 00 00 86 86 86 0F (调用查询模块-内卫测温转换, 内卫温湿度虚拟地址)
2024-08-13 23:03:22.792 - 14 03 00 00 00 02 C6 CE (查询内卫温湿度)
2024-08-13 23:03:22.812 - 14 03 04 01 C5 00 FF EF 73 (内卫温湿度返回)
2024-08-13 23:03:23.810 - 1A 14 00 00 00 00 00 01 00 00 01 00 00 01 00 FF 01 01 C5 01 00 00 01 00 00 01 0F (内卫温湿度虚拟地址)
2024-08-13 23:03:23.988 - 1A 15 00 00 00 86 86 86 0F (调用查询模块-客厅测温转换, 客厅温湿度虚拟地址)
2024-08-13 23:03:24.216 - 15 03 00 00 00 02 C7 1F (查询客厅温湿度)
2024-08-13 23:03:24.237 - 15 03 04 02 25 00 F1 7F C5 (客厅温湿度返回)
2024-08-13 23:03:25.240 - 1A 15 00 00 00 00 00 01 00 00 01 00 00 01 00 F1 01 02 25 01 00 00 01 00 00 01 0F (客厅温湿度虚拟地址)
2024-08-13 23:03:25.341 - 1A 16 00 00 00 86 86 86 0F (调用查询模块-机柜测温转换, 机柜温湿度虚拟地址)
2024-08-13 23:03:25.558 - 16 03 00 00 00 02 C7 2C (查询机柜温湿度)
2024-08-13 23:03:25.588 - 16 03 04 02 1D 00 F4 0D 0B (机柜温湿度返回)
2024-08-13 23:03:26.592 - 1A 16 00 00 00 00 00 01 00 00 01 00 00 01 00 F4 01 02 1D 01 00 00 01 00 00 01 0F (机柜温湿度虚拟地址)
2024-08-13 23:03:26.745 - 1A 0E 00 00 00 86 86 86 0F (调用查询模块-厨房测温转换, 厨房温湿度虚拟地址)
2024-08-13 23:03:26.982 - 0E 03 00 00 00 02 C4 F4 (查询厨房温湿度)
2024-08-13 23:03:26.999 - 0E 03 04 01 80 01 25 C5 6C (厨房温湿度返回)
2024-08-13 23:03:27.999 - 1A 0E 00 00 00 00 00 01 00 00 01 00 00 01 01 25 01 01 80 01 00 00 01 00 00 01 0F (厨房温湿度虚拟地址)
2024-08-13 23:03:28.188 - 1A 0F 00 00 00 86 86 86 0F (调用查询模块-餐厅测温转换, 餐厅温湿度虚拟地址)
2024-08-13 23:03:28.410 - 1C 03 00 00 00 02 C7 86 (查询餐厅温湿度)
2024-08-13 23:03:28.439 - 1C 03 04 01 AD 01 09 66 B9 (区域高光指令（AD+区域+暖光+冷光+AE）, 餐厅温湿度返回)
2024-08-13 23:03:29.429 - 1A 0F 00 00 00 00 00 01 00 00 01 00 00 01 01 09 01 01 AD 01 00 00 01 00 00 01 0F (区域高光指令（AD+区域+暖光+冷光+AE）, 餐厅温湿度虚拟地址)
2024-08-13 23:03:29.627 - 1A 03 00 00 00 86 86 86 0F
2024-08-13 23:03:29.848 - 03 03 00 00 00 02 C5 E9
2024-08-13 23:03:30.876 - 1A 03 00 00 00 00 00 01 00 00 01 00 00 01 86 86 01 00 00 01 00 00 01 00 00 01 0F
2024-08-13 23:03:31.052 - 1A 03 00 00 01 86 86 86 0F
2024-08-13 23:03:31.290 - 03 03 00 10 00 01 84 2D
2024-08-13 23:03:32.309 - 1A 03 00 00 01 00 00 01 00 00 01 00 00 01 00 00 01 00 00 01 00 01 01 00 00 01 0F
2024-08-13 23:03:35.766 - 1A 03 00 00 00 86 86 86 0F
2024-08-13 23:03:36.000 - 03 03 00 00 00 02 C5 E9
2024-08-13 23:03:37.019 - 1A 03 00 00 00 00 00 01 00 00 01 00 00 01 86 86 01 00 00 01 00 00 01 00 00 01 0F
2024-08-13 23:03:38.904 - 1A 03 00 00 00 86 86 86 0F
2024-08-13 23:03:39.127 - 03 03 00 00 00 02 C5 E9
2024-08-13 23:03:40.159 - 1A 03 00 00 00 00 00 01 00 00 01 00 00 01 86 86 01 00 00 01 00 00 01 00 00 01 0F
2024-08-13 23:03:41.938 - 1A 03 00 00 00 86 86 86 0F
2024-08-13 23:03:42.172 - 03 03 00 00 00 02 C5 E9
2024-08-13 23:03:43.191 - 1A 03 00 00 00 00 00 01 00 00 01 00 00 01 86 86 01 00 00 01 00 00 01 00 00 01 0F
2024-08-13 23:03:45.095 - 1A 03 00 00 00 86 86 86 0F
2024-08-13 23:03:45.314 - 03 03 00 00 00 02 C5 E9
2024-08-13 23:03:46.341 - 1A 03 00 00 00 00 00 01 00 00 01 00 00 01 86 86 01 00 00 01 00 00 01 00 00 01 0F
2024-08-13 23:03:47.891 - 1A 03 00 00 00 86 86 86 0F
2024-08-13 23:03:48.126 - 03 03 00 00 00 02 C5 E9
2024-08-13 23:03:48.239 - F1
2024-08-13 23:03:49.142 - 1A 03 00 00 00 00 00 01 00 00 01 00 00 01 86 86 01 00 00 01 00 00 01 00 00 01 0F
2024-08-13 23:03:50.200 - 1A 03 00 00 00 86 86 86 0F
2024-08-13 23:03:50.422 - 03 03 00 00 00 02 C5 E9
2024-08-13 23:03:50.534 - FC
2024-08-13 23:03:51.442 - 1A 03 00 00 00 00 00 01 00 00 01 00 00 01 86 86 01 00 00 01 00 00 01 00 00 01 0F
2024-08-13 23:03:53.579 - 1A 03 00 00 00 86 86 86 0F
2024-08-13 23:03:53.816 - 03 03 00 00 00 02 C5 E9
2024-08-13 23:03:54.832 - 1A 03 00 00 00 00 00 01 00 00 01 00 00 01 86 86 01 00 00 01 00 00 01 00 00 01 0F
2024-08-13 23:03:55.529 - 1A 03 00 00 00 86 86 86 0F
2024-08-13 23:03:55.751 - 03 03 00 00 00 02 C5 E9
2024-08-13 23:03:56.782 - 1A 03 00 00 00 00 00 01 00 00 01 00 00 01 86 86 01 00 00 01 00 00 01 00 00 01 0F
2024-08-13 23:03:57.493 - 1A 03 00 00 00 86 86 86 0F
2024-08-13 23:03:57.713 - 03 03 00 00 00 02 C5 E9
2024-08-13 23:03:58.734 - 1A 03 00 00 00 00 00 01 00 00 01 00 00 01 86 86 01 00 00 01 00 00 01 00 00 01 0F
2024-08-13 23:03:59.937 - 1A 03 00 00 00 86 86 86 0F
2024-08-13 23:04:00.160 - 03 03 00 00 00 02 C5 E9
2024-08-13 23:04:01.176 - 1A 03 00 00 00 00 00 01 00 00 01 00 00 01 86 86 01 00 00 01 00 00 01 00 00 01 0F
2024-08-13 23:04:02.307 - 1A 03 00 00 00 86 86 86 0F
2024-08-13 23:04:02.529 - 03 03 00 00 00 02 C5 E9
2024-08-13 23:04:03.560 - 1A 03 00 00 00 00 00 01 00 00 01 00 00 01 86 86 01 00 00 01 00 00 01 00 00 01 0F
2024-08-13 23:04:04.225 - 1A 03 00 00 00 86 86 86 0F
2024-08-13 23:04:04.447 - 03 03 00 00 00 02 C5 E9
2024-08-13 23:04:04.498 - 03 03 04 02 62 01 2E F8 19
2024-08-13 23:04:05.461 - 1A 03 00 00 00 00 00 01 00 00 01 00 00 01 01 2E 01 02 62 01 00 00 01 00 00 01 0F
2024-08-13 23:04:06.494 - 1A 03 00 00 01 86 86 86 0F
2024-08-13 23:04:06.715 - 03 03 00 10 00 01 84 2D
2024-08-13 23:04:07.734 - 1A 03 00 00 01 00 00 01 00 00 01 00 00 01 00 00 01 00 00 01 00 01 01 00 00 01 0F
2024-08-13 23:04:09.744 - 1A 03 00 00 01 86 86 86 0F
2024-08-13 23:04:09.968 - 03 03 00 10 00 01 84 2D
2024-08-13 23:04:10.986 - 1A 03 00 00 01 00 00 01 00 00 01 00 00 01 00 00 01 00 00 01 00 01 01 00 00 01 0F
2024-08-13 23:04:12.563 - 1A 03 00 00 01 86 86 86 0F
2024-08-13 23:04:12.789 - 03 03 00 10 00 01 84 2D
2024-08-13 23:04:13.805 - 1A 03 00 00 01 00 00 01 00 00 01 00 00 01 00 00 01 00 00 01 00 01 01 00 00 01 0F
2024-08-13 23:04:15.477 - 1A 03 00 00 01 86 86 86 0F
2024-08-13 23:04:15.703 - 03 03 00 10 00 01 84 2D
2024-08-13 23:04:16.715 - 1A 03 00 00 01 00 00 01 00 00 01 00 00 01 00 00 01 00 00 01 00 01 01 00 00 01 0F
2024-08-13 23:04:17.494 - 1A 03 00 00 01 86 86 86 0F
2024-08-13 23:04:17.716 - 03 03 00 10 00 01 84 2D
2024-08-13 23:04:17.843 - B7
2024-08-13 23:04:18.749 - 1A 03 00 00 01 00 00 01 00 00 01 00 00 01 00 00 01 00 00 01 00 01 01 00 00 01 0F
2024-08-13 23:04:18.934 - 1A 03 00 00 01 86 86 86 0F
2024-08-13 23:04:19.160 - 03 03 00 10 00 01 84 2D
2024-08-13 23:04:20.175 - 1A 03 00 00 01 00 00 01 00 00 01 00 00 01 00 00 01 00 00 01 00 01 01 00 00 01 0F
2024-08-13 23:04:20.884 - 1A 03 00 00 01 86 86 86 0F
2024-08-13 23:04:21.111 - 03 03 00 10 00 01 84 2D
2024-08-13 23:04:21.237 - A0 12 D0 77 FF
2024-08-13 23:04:22.137 - 1A 03 00 00 01 00 00 01 00 00 01 00 00 01 00 00 01 00 00 01 77 FF 01 00 00 01 0F
2024-08-13 23:04:22.316 - 1A 03 00 00 01 86 86 86 0F
2024-08-13 23:04:22.547 - 03 03 00 10 00 01 84 2D
2024-08-13 23:04:23.570 - 1A 03 00 00 01 00 00 01 00 00 01 00 00 01 00 00 01 00 00 01 00 01 01 00 00 01 0F
2024-08-13 23:04:24.453 - 1A 03 00 00 01 86 86 86 0F
2024-08-13 23:04:24.684 - 03 03 00 10 00 01 84 2D
2024-08-13 23:04:25.704 - 1A 03 00 00 01 00 00 01 00 00 01 00 00 01 00 00 01 00 00 01 00 01 01 00 00 01 0F
2024-08-13 23:04:26.415 - 1A 03 00 00 01 86 86 86 0F
2024-08-13 23:04:26.643 - 03 03 00 10 00 01 84 2D
2024-08-13 23:04:27.672 - 1A 03 00 00 01 00 00 01 00 00 01 00 00 01 00 00 01 00 00 01 00 01 01 00 00 01 0F
2024-08-13 23:04:29.463 - 1A 03 00 00 01 86 86 86 0F
2024-08-13 23:04:29.676 - 03 03 00 10 00 01 84 2D
2024-08-13 23:04:30.705 - 1A 03 00 00 01 00 00 01 00 00 01 00 00 01 00 00 01 00 00 01 00 01 01 00 00 01 0F
2024-08-13 23:04:31.661 - 1A 03 00 00 01 86 86 86 0F
2024-08-13 23:04:31.883 - 03 03 00 10 00 01 84 2D
2024-08-13 23:04:32.899 - 1A 03 00 00 01 00 00 01 00 00 01 00 00 01 00 00 01 00 00 01 00 01 01 00 00 01 0F
2024-08-13 23:04:33.532 - 1A 03 00 00 01 86 86 86 0F
2024-08-13 23:04:33.751 - 03 03 00 10 00 01 84 2D
2024-08-13 23:04:34.767 - 1A 03 00 00 01 00 00 01 00 00 01 00 00 01 00 00 01 00 00 01 00 01 01 00 00 01 0F
2024-08-13 23:04:35.728 - 1A 03 00 00 01 86 86 86 0F
2024-08-13 23:04:35.953 - 03 03 00 10 00 01 84 2D
2024-08-13 23:04:36.976 - 1A 03 00 00 01 00 00 01 00 00 01 00 00 01 00 00 01 00 00 01 00 01 01 00 00 01 0F
2024-08-13 23:04:38.578 - 1A 03 00 00 01 86 86 86 0F
2024-08-13 23:04:38.811 - 03 03 00 10 00 01 84 2D
2024-08-13 23:04:38.866 - 03 03 02 F7
2024-08-13 23:04:39.832 - 1A 03 00 00 01 00 00 01 00 00 01 00 00 01 00 00 01 00 00 01 F7 01 01 00 00 01 0F
2024-08-13 23:04:41.266 - 1A 03 00 00 01 86 86 86 0F
2024-08-13 23:04:41.487 - 03 03 00 10 00 01 84 2D
2024-08-13 23:04:41.558 - 03 03 02 27 04 DB B7
2024-08-13 23:04:42.520 - 1A 03 00 00 01 00 00 01 00 00 01 00 00 01 00 00 01 00 00 01 27 04 01 00 00 01 0F
2024-08-13 23:04:46.246 - 1A 03 00 00 00 86 86 86 0F
2024-08-13 23:04:46.472 - 03 03 00 00 00 02 C5 E9
2024-08-13 23:04:47.501 - 1A 03 00 00 00 00 00 01 00 00 01 00 00 01 86 86 01 00 00 01 00 00 01 00 00 01 0F
2024-08-13 23:04:52.357 - 1A BE B0 DC 0A 00 01 00 (继电器地址-客厅纱帘, 客厅纱帘关)
2024-08-13 23:08:02.188 - 19 08 24 03 DD 00 3A 00 01 (调用情景-离开书房)
2024-08-13 23:08:02.728 - EE 00 00 B1 00 00 00 FF FC FF FF (情景执行提示)
2024-08-13 23:08:03.330 - 09 06 00 0F 02 01 78 21 (提示音叮)
2024-08-13 23:08:03.875 - 01 06 07 DC FF 60 08 9C (书房空调关)
2024-08-13 23:08:03.908 - 01 06 07 DC FF 60 08 9C (书房空调关)
2024-08-13 23:08:04.473 - 50 F5 07 (关书房影视)
2024-08-13 23:08:05.027 - A5 00 D2 FE 01 AA 22 0D (书房窗帘开)
2024-08-13 23:08:05.078 - 55 00 D2 02 00 E5 00 F2 AA 55 00 D2 02 00 E5 00 F2 EA (书房窗帘电机状态返回)
2024-08-13 23:08:06.145 - A5 00 B7 FF 00 AA 22 0D (书房纱帘关)
2024-08-13 23:08:07.214 - 55 0D 31 00 00 00 01 94 (书房顶灯只关)
2024-08-13 23:08:08.274 - 1A 0A 04 06 01 FF 00 01 FF 00 01 FF 00 00 0F (调光器地址-书房射灯, 书房射灯关闭)
2024-08-13 23:08:11.993 - 55 00 D2 00 00 0D 00 F2 AA 55 00 D2 00 00 0D 00 F2 AA (书房窗帘电机状态返回)
2024-08-13 23:08:12.348 - 09 06 00 0F 02 02 38 20 (提示音咚)
2024-08-13 23:08:12.945 - EE 00 00 B1 00 00 02 FF FC FF FF (情景完成返回主页)
2024-08-13 23:08:33.537 - 19 08 24 03 DD 00 13 00 01 (调用情景-公共区域关)
2024-08-13 23:08:34.085 - EE 00 00 B1 00 00 00 FF FC FF FF (情景执行提示)
2024-08-13 23:08:34.675 - 09 06 00 0F 02 01 78 21 (提示音叮)
2024-08-13 23:08:35.218 - 55 0B 31 00 00 00 01 92 (厨房风扇只关)
2024-08-13 23:08:36.266 - 01 06 07 D3 FF 60 38 9F (餐厅空调关)
2024-08-13 23:08:36.300 - 01 06 07 D3 FF 60 38 9F (餐厅空调关)
2024-08-13 23:08:37.369 - 01 06 07 D0 FF 60 C8 9F (客厅空调关)
2024-08-13 23:08:37.408 - 01 06 07 D0 FF 60 C8 9F (客厅空调关)
2024-08-13 23:08:41.459 - 50 F5 02 (关厨房影视)
2024-08-13 23:08:42.494 - 50 F5 01 (关餐厅影视)
2024-08-13 23:08:43.544 - 50 F5 08 (关客厅影视)
2024-08-13 23:08:44.594 - 50 F5 03 (关外卫影视)
2024-08-13 23:08:45.645 - 55 0A 31 00 00 00 01 91 (厨房顶灯一关)
2024-08-13 23:08:46.696 - 55 0A 31 00 00 00 02 92 (厨房顶灯二关)
2024-08-13 23:08:47.744 - 55 0C 31 00 00 00 01 93 (餐厅顶灯关)
2024-08-13 23:08:48.792 - 1A 18 05 10 31 00 01 00 0F (自保持开关地址-门厅顶灯, 门厅顶灯关)
2024-08-13 23:08:49.836 - 1A 20 07 00 42 00 01 00 0F (自保持开关地址-外卫顶灯, 外卫顶灯关)
2024-08-13 23:08:50.874 - 1A 18 05 21 89 00 01 00 0F (自保持开关地址-客厅顶灯, 客厅顶灯一关)
2024-08-13 23:08:51.924 - 1A 18 05 01 94 00 01 00 0F (自保持开关地址-客厅顶灯, 客厅顶灯二关)
2024-08-13 23:08:52.973 - 1A 20 07 01 30 00 01 00 0F (自保持开关地址-西阳顶灯, 西阳顶灯关)
2024-08-13 23:08:54.025 - 1A FF 01 FF FF FF 00 01 FF 00 01 FF 00 00 0F (调光器地址-公共区域统配地址, 公共区域灯光全关)
2024-08-13 23:08:55.116 - 09 06 00 0F 02 02 38 20 (提示音咚)
2024-08-13 23:08:57.217 - EE 00 00 B1 00 00 02 FF FC FF FF (情景完成返回主页)
2024-08-13 23:09:08.088 - 1A 20 07 00 93 00 01 02 0F (自保持开关地址-设备区顶, 设备区顶灯开关)
2024-08-13 23:09:09.088 - 1A 22 33 62 0F 00 02 01 0F (正反转地址-内卫卷帘, 内卫卷帘降)
2024-08-13 23:17:28.096 - FF
2024-08-13 23:26:31.512 - 19 08 24 03 DD 00 4F 00 01 (调用情景-内卫使用完毕)
2024-08-13 23:26:32.055 - EE 00 00 B1 00 00 00 FF FC FF FF (情景执行提示)
2024-08-13 23:26:32.653 - 09 06 00 0F 02 01 78 21 (提示音叮)
2024-08-13 23:26:33.209 - 1A 0C 02 08 01 FF 00 01 FF 00 01 FF 00 00 0F (调光器地址-内卫射灯, 内卫感应灯关)
2024-08-13 23:26:37.282 - 50 F5 04 (关内卫影视)
2024-08-13 23:26:37.834 - 1A 20 07 01 40 00 01 00 0F (自保持开关地址-内卫顶灯, 内卫顶灯关)
2024-08-13 23:26:38.385 - 1A FF FF FF 56 00 00 01 0F (人体红外感应地址-内卫, 打开内卫感应)
2024-08-13 23:26:38.488 - BC BC
2024-08-13 23:26:40.929 - 09 06 00 0F 02 02 38 20 (提示音咚)
2024-08-13 23:26:41.467 - EE 00 00 B1 00 00 02 FF FC FF FF (情景完成返回主页)
2024-08-13 23:27:21.580 - 19 08 24 03 CC 01 55 00 01 (调用外卫感应灯关的按键)
2024-08-13 23:27:21.633 - 1A 0C 02 08 01 FF 00 01 FF 00 01 FF 00 00 0F (调光器地址-内卫射灯, 内卫感应灯关)
2024-08-13 23:28:35.726 - 19 08 24 03 CC 01 54 00 01 (调用内卫感应灯开的按键)
2024-08-13 23:28:35.762 - 1A 0C 02 08 01 FF 45 01 FF 45 01 FF 00 00 0F (调光器地址-内卫射灯, 内卫射灯微光)
2024-08-13 23:29:01.771 - 19 08 24 03 CC 01 55 00 01 (调用外卫感应灯关的按键)
2024-08-13 23:29:01.812 - 1A 0C 02 08 01 FF 00 01 FF 00 01 FF 00 00 0F (调光器地址-内卫射灯, 内卫感应灯关)
2024-08-13 23:52:24.648 - FF
2024-08-14 00:08:27.933 - 19 08 24 03 CC 01 54 00 01 (调用内卫感应灯开的按键)
2024-08-14 00:08:27.983 - 1A 0C 02 08 01 FF 45 01 FF 45 01 FF 00 00 0F (调光器地址-内卫射灯, 内卫射灯微光)
2024-08-14 00:10:21.663 - 19 08 24 03 CC 01 55 00 01 (调用外卫感应灯关的按键)
2024-08-14 00:10:21.716 - 1A 0C 02 08 01 FF 00 01 FF 00 01 FF 00 00 0F (调光器地址-内卫射灯, 内卫感应灯关)
2024-08-14 00:11:31.299 - 19 08 24 03 CC 01 54 00 01 (调用内卫感应灯开的按键)
2024-08-14 00:11:31.336 - 1A 0C 02 08 01 FF 45 01 FF 45 01 FF 00 00 0F (调光器地址-内卫射灯, 内卫射灯微光)
2024-08-14 00:11:59.857 - 19 08 24 03 CC 01 55 00 01 (调用外卫感应灯关的按键)
2024-08-14 00:11:59.890 - 1A 0C 02 08 01 FF 00 01 FF 00 01 FF 00 00 0F (调光器地址-内卫射灯, 内卫感应灯关)
2024-08-14 00:13:10.230 - 1A FF 03 00 00 86 86 86 0F (调用查询模块-主卧空调开关查询, 主卧空调虚拟地址)
2024-08-14 00:13:10.453 - 01 04 07 DC 00 01 F1 44 (查询主卧空调开关状态)
2024-08-14 00:13:10.470 - 01 04 02 70 01 5D 30
2024-08-14 00:13:11.455 - 1A FF 03 00 00 01 00 0F (主卧空调虚拟地址)
2024-08-14 00:13:11.517 - 1A 03 00 00 00 86 86 86 0F
2024-08-14 00:13:11.635 - 1A FF 04 00 00 86 86 86 0F (调用查询模块-次卧空调开关查询, 次卧空调虚拟地址)
2024-08-14 00:13:12.772 - 1A 03 00 00 00 00 00 01 00 00 01 00 00 01 86 86 01 00 00 01 00 00 01 00 00 01 0F
2024-08-14 00:13:12.958 - 1A FF 05 00 00 86 86 86 0F (调用查询模块-书房空调开关查询, 书房空调虚拟地址)
2024-08-14 00:13:13.185 - 01 04 07 E8 00 01 B0 8A (查询书房空调开关状态)
2024-08-14 00:13:13.202 - 01 04 02 70 00 9C F0
2024-08-14 00:13:13.807 - 1A 03 00 00 00 86 86 86 0F
2024-08-14 00:13:14.186 - 1A FF 05 00 00 00 00 0F (书房空调虚拟地址)
2024-08-14 00:13:14.391 - 1A FF 02 00 00 86 86 86 0F (调用查询模块-餐厅空调开关查询, 餐厅空调虚拟地址)
2024-08-14 00:13:14.612 - 01 04 07 D6 00 01 D1 46 (查询餐厅空调开关状态)
2024-08-14 00:13:14.638 - 01 04 02 70 00 9C F0
2024-08-14 00:13:15.622 - 1A FF 02 00 00 00 00 0F (餐厅空调虚拟地址)
2024-08-14 00:13:15.826 - 1A FF 01 00 00 86 86 86 0F (调用查询模块-客厅空调开关查询, 客厅空调虚拟地址)
2024-08-14 00:13:16.046 - 01 04 07 D0 00 01 31 47 (查询客厅空调开关状态)
2024-08-14 00:13:16.075 - 01 04 02 70 00 9C F0
2024-08-14 00:13:17.030 - 1A 03 00 00 00 86 86 86 0F
2024-08-14 00:13:17.047 - 1A FF 01 00 00 00 00 0F (客厅空调虚拟地址)
2024-08-14 00:13:17.252 - 1A 10 00 00 00 86 86 86 0F (调用查询模块-主卧测温转换, 主卧温湿度虚拟地址)
2024-08-14 00:13:17.278 - 03 03 00 00 00 02 C5 E9
2024-08-14 00:13:18.285 - 1A 03 00 00 00 00 00 01 00 00 01 00 00 01 86 86 01 00 00 01 00 00 01 00 00 01 0F
2024-08-14 00:13:18.491 - 1A 11 00 00 00 86 86 86 0F (调用查询模块-次卧测温转换, 次卧温湿度虚拟地址)
2024-08-14 00:13:18.707 - 11 03 00 00 00 02 C6 9B (查询次卧温湿度)
2024-08-14 00:13:18.730 - 11 03 04 02 28 01 28 6B CC (次卧温湿度返回)
2024-08-14 00:13:19.732 - 1A 11 00 00 00 00 00 01 00 00 01 00 00 01 01 28 01 02 28 01 00 00 01 00 00 01 0F (次卧温湿度虚拟地址)
2024-08-14 00:13:19.927 - 1A 12 00 00 00 86 86 86 0F (调用查询模块-书房测温转换, 书房温湿度虚拟地址)
2024-08-14 00:13:20.148 - 12 03 00 00 00 02 C6 A8 (查询书房温湿度)
2024-08-14 00:13:20.165 - 12 03 04 02 0E 01 28 B9 07 (书房温湿度返回)
2024-08-14 00:13:21.177 - 1A 12 00 00 00 00 00 01 00 00 01 00 00 01 01 28 01 02 0E 01 00 00 01 00 00 01 0F (书房温湿度虚拟地址)
2024-08-14 00:13:21.353 - 1A 13 00 00 00 86 86 86 0F (调用查询模块-外卫测温转换, 外卫温湿度虚拟地址)
2024-08-14 00:13:21.574 - 13 03 00 00 00 02 C7 79 (查询外卫温湿度)
2024-08-14 00:13:21.607 - 13 03 04 02 37 01 1F 38 1C (外卫温湿度返回)
2024-08-14 00:13:22.607 - 1A 13 00 00 00 00 00 01 00 00 01 00 00 01 01 1F 01 02 37 01 00 00 01 00 00 01 0F (外卫温湿度虚拟地址)
2024-08-14 00:13:22.780 - 1A 14 00 00 00 86 86 86 0F (调用查询模块-内卫测温转换, 内卫温湿度虚拟地址)
2024-08-14 00:13:23.001 - 14 03 00 00 00 02 C6 CE (查询内卫温湿度)
2024-08-14 00:13:23.030 - 14 03 04 01 D6 01 06 DF 64 (内卫温湿度返回)
2024-08-14 00:13:24.030 - 1A 14 00 00 00 00 00 01 00 00 01 00 00 01 01 06 01 01 D6 01 00 00 01 00 00 01 0F (内卫温湿度虚拟地址)
2024-08-14 00:13:24.217 - 1A 15 00 00 00 86 86 86 0F (调用查询模块-客厅测温转换, 客厅温湿度虚拟地址)
2024-08-14 00:13:24.437 - 15 03 00 00 00 02 C7 1F (查询客厅温湿度)
2024-08-14 00:13:24.454 - 15 03 04 02 55 01 13 FF C7 (客厅温湿度返回)
2024-08-14 00:13:25.150 - 1A 03 00 00 00 86 86 86 0F
2024-08-14 00:13:25.467 - 1A 15 00 00 00 00 00 01 00 00 01 00 00 01 86 86 01 00 00 01 00 00 01 00 00 01 0F (客厅温湿度虚拟地址)
2024-08-14 00:13:25.571 - 1A 16 00 00 00 86 86 86 0F (调用查询模块-机柜测温转换, 机柜温湿度虚拟地址)
2024-08-14 00:13:25.792 - 16 03 00 00 00 02 C7 2C (查询机柜温湿度)
2024-08-14 00:13:25.817 - 16 03 04 01 F6 01 41 BD 5C (机柜温湿度返回)
2024-08-14 00:13:26.817 - 1A 16 00 00 00 00 00 01 00 00 01 00 00 01 01 41 01 01 F6 01 00 00 01 00 00 01 0F (机柜温湿度虚拟地址)
2024-08-14 00:13:26.979 - 1A 0E 00 00 00 86 86 86 0F (调用查询模块-厨房测温转换, 厨房温湿度虚拟地址)
2024-08-14 00:13:27.199 - 0E 03 00 00 00 02 C4 F4 (查询厨房温湿度)
2024-08-14 00:13:27.233 - 0E 03 04 01 FF 01 34 34 B8 (厨房温湿度返回)
2024-08-14 00:13:28.233 - 1A 0E 00 00 00 00 00 01 00 00 01 00 00 01 01 34 01 01 FF 01 00 00 01 00 00 01 0F (厨房温湿度虚拟地址)
2024-08-14 00:13:28.419 - 1A 0F 00 00 00 86 86 86 0F (调用查询模块-餐厅测温转换, 餐厅温湿度虚拟地址)
2024-08-14 00:13:28.646 - 1C 03 00 00 00 02 C7 86 (查询餐厅温湿度)
2024-08-14 00:13:28.662 - 1C 03 04 02 1B 01 25 86 C6 (餐厅温湿度返回)
2024-08-14 00:13:29.201 - 1A 03 00 00 00 86 86 86 0F
2024-08-14 00:13:29.664 - 1A 0F 00 00 00 00 00 01 00 00 01 00 00 01 86 86 01 00 00 01 00 00 01 00 00 01 0F (餐厅温湿度虚拟地址)
2024-08-14 00:13:29.855 - 1A 03 00 00 00 86 86 86 0F
2024-08-14 00:13:30.077 - 03 03 00 00 00 02 C5 E9
2024-08-14 00:13:31.098 - 1A 03 00 00 00 00 00 01 00 00 01 00 00 01 86 86 01 00 00 01 00 00 01 00 00 01 0F
2024-08-14 00:13:31.286 - 1A 03 00 00 01 86 86 86 0F
2024-08-14 00:13:31.509 - 03 03 00 10 00 01 84 2D
2024-08-14 00:13:32.033 - 1A 03 00 00 00 86 86 86 0F
2024-08-14 00:13:32.527 - 1A 03 00 00 01 00 00 01 00 00 01 00 00 01 00 00 01 00 00 01 00 00 01 00 00 01 0F
2024-08-14 00:13:34.340 - 1A 03 00 00 00 86 86 86 0F
2024-08-14 00:13:34.578 - 03 03 00 00 00 02 C5 E9
2024-08-14 00:13:34.630 - 03 03 04 02 81 01 32 08 26
2024-08-14 00:13:35.595 - 1A 03 00 00 00 00 00 01 00 00 01 00 00 01 01 32 91 54 04 00 00 86 86 86 0F
2024-08-14 00:13:35.612 - 01 00 00 01 00 00 01 0F
2024-08-14 00:13:39.986 - 1A 15 00 00 00 86 86 86 0F (调用查询模块-客厅测温转换, 客厅温湿度虚拟地址)
2024-08-14 00:13:40.207 - 15 03 00 00 00 02 C7 1F (查询客厅温湿度)
2024-08-14 00:13:40.224 - 15 03 04 02 55 01 13 FF C7 (客厅温湿度返回)
2024-08-14 00:13:41.237 - 1A 15 00 00 00 00 00 01 00 00 01 00 00 01 01 13 01 02 55 01 00 00 01 00 00 01 0F (客厅温湿度虚拟地址)
2024-08-14 00:13:42.685 - 1A 0F 00 00 00 86 86 86 0F (调用查询模块-餐厅测温转换, 餐厅温湿度虚拟地址)
2024-08-14 00:13:42.905 - 1C 03 00 00 00 02 C7 86 (查询餐厅温湿度)
2024-08-14 00:13:42.922 - 1C 03 04 02 1A 01 25 D7 06 (餐厅温湿度返回)
2024-08-14 00:13:43.937 - 1A 0F 00 00 00 00 00 01 00 00 01 00 00 01 01 25 01 02 1A 01 00 00 01 00 00 01 0F (餐厅温湿度虚拟地址)
2024-08-14 00:13:45.210 - 1A 03 00 00 00 86 86 86 0F
2024-08-14 00:13:45.433 - 03 03 00 00 00 02 C5 E9
2024-08-14 00:13:46.450 - 1A 03 00 00 00 00 00 01 00 00 01 00 00 01 86 86 01 00 00 01 00 00 01 00 00 01 0F
2024-08-14 00:13:47.355 - 1A 03 00 00 00 86 86 86 0F
2024-08-14 00:13:47.584 - 03 03 00 00 00 02 C5 E9
2024-08-14 00:13:47.705 - 03 03 04 02 81 01 32 08 26
2024-08-14 00:13:48.601 - 1A 03 00 00 00 00 00 01 00 00 01 00 00 01 01 32 01 02 81 01 00 00 01 00 00 01 0F
2024-08-14 00:13:50.619 - 1A 03 00 00 01 86 86 86 0F
2024-08-14 00:13:50.840 - 03 03 00 10 00 01 84 2D
2024-08-14 00:13:51.871 - 1A 03 00 00 01 00 00 01 00 00 01 00 00 01 00 00 01 00 00 01 00 01 01 00 00 01 0F
2024-08-14 00:13:52.826 - 1A 03 00 00 01 86 86 86 0F
2024-08-14 00:13:53.048 - 03 03 00 10 00 01 84 2D
2024-08-14 00:13:54.067 - 1A 03 00 00 01 00 00 01 00 00 01 00 00 01 00 00 01 00 00 01 00 01 01 00 00 01 0F
2024-08-14 00:13:55.879 - 1A 03 00 00 01 86 86 86 0F
2024-08-14 00:13:56.101 - 03 03 00 10 00 01 84 2D
2024-08-14 00:13:57.121 - 1A 03 00 00 01 00 00 01 00 00 01 00 00 01 00 00 01 00 00 01 00 01 01 00 00 01 0F
2024-08-14 00:13:57.980 - 1A 03 00 00 01 86 86 86 0F
2024-08-14 00:13:58.189 - 03 03 00 10 00 01 84 2D
2024-08-14 00:13:59.221 - 1A 03 00 00 01 00 00 01 00 00 01 00 00 01 00 00 01 00 00 01 00 01 01 00 00 01 0F
2024-08-14 00:13:59.874 - 1A 03 00 00 01 86 86 86 0F
2024-08-14 00:14:00.105 - 03 03 00 10 00 01 84 2D
2024-08-14 00:14:01.130 - 1A 03 00 00 01 00 00 01 00 00 01 00 00 01 00 00 01 00 00 01 00 01 01 00 00 01 0F
2024-08-14 00:14:02.310 - 1A 03 00 00 01 86 86 86 0F
2024-08-14 00:14:02.545 - 03 03 00 10 00 01 84 2D
2024-08-14 00:14:03.565 - 1A 03 00 00 01 00 00 01 00 00 01 00 00 01 00 00 01 00 00 01 00 01 01 00 00 01 0F
2024-08-14 00:14:05.249 - 1A 03 00 00 01 86 86 86 0F
2024-08-14 00:14:05.471 - 03 03 00 10 00 01 84 2D
2024-08-14 00:14:05.520 - 03 03 02 27
2024-08-14 00:14:06.491 - 1A 03 00 00 01 00 00 01 00 00 01 00 00 01 00 00 01 00 00 01 27 01 01 00 00 01 0F
2024-08-14 00:15:14.426 - 19 08 24 03 DD 00 4B 00 01 (调用情景-主卧睡觉)
2024-08-14 00:15:14.972 - EE 00 00 B1 00 00 00 FF FC FF FF (情景执行提示)
2024-08-14 00:15:15.570 - 09 06 00 0F 02 01 78 21 (提示音叮)
2024-08-14 00:15:16.109 - 50 F5 04 (关内卫影视)
2024-08-14 00:15:16.652 - A5 00 53 FE 01 AA (主卧纱帘关)
2024-08-14 00:15:17.704 - A5 00 52 FF 00 AA (主卧窗帘关)
2024-08-14 00:15:18.754 - 1A 22 33 62 0F 00 02 01 0F (正反转地址-内卫卷帘, 内卫卷帘降)
2024-08-14 00:15:19.805 - 1A 20 07 01 40 00 01 00 0F (自保持开关地址-内卫顶灯, 内卫顶灯关)
2024-08-14 00:15:20.847 - 1A 20 07 01 55 00 01 00 0F (自保持开关地址-主卧顶灯, 主卧顶灯只关)
2024-08-14 00:15:21.403 - 1A FF FF FF 56 00 00 01 0F (人体红外感应地址-内卫, 打开内卫感应)
2024-08-14 00:15:21.403 - BC BC
2024-08-14 00:15:24.996 - 1A 0C 02 08 01 FF 00 01 FF 00 01 FF 00 00 0F (调光器地址-内卫射灯, 内卫感应灯关)
2024-08-14 00:15:25.597 - 1A 0C 02 04 01 FF 00 01 FF 00 01 FF 00 00 0F (调光器地址-主卧筒灯, 主卧筒灯关闭)
2024-08-14 00:15:26.186 - 1A 0C 02 04 03 FF 00 01 FF 00 01 FF 00 00 0F (调光器地址-主卧灯带, 主卧灯带关闭)
2024-08-14 00:15:26.793 - 1A 0C 02 04 04 FF 00 01 FF 00 01 FF 00 00 0F (调光器地址-主卧南阅, 主卧南阅关闭)
2024-08-14 00:15:27.393 - 1A 0C 02 04 05 FF 00 01 FF 00 01 FF 00 00 0F (调光器地址-主卧北阅, 主卧北阅关闭)
2024-08-14 00:15:27.981 - 1A 0C 02 04 02 FF 00 01 FF 00 01 FF 00 00 0F (调光器地址-主卧过道, 主卧过道关闭)
2024-08-14 00:15:28.571 - 09 06 00 0F 02 02 38 20 (提示音咚)
2024-08-14 00:15:29.180 - EE 00 00 B1 00 00 02 FF FC FF FF (情景完成返回主页)
2024-08-14 00:23:00.889 - 16 03 03 01 02 01 00 00 FE 03 03 86 9A 81 85 73 56 6B 11 49 0D E4 0A AA B5 26 39 63 97 8C 12 DA
2024-08-14 00:23:00.922 - 94 B7 75 B8 AF 26 8A 01 41 AD 12 00 00 56 C0 2C C0 2B C0 30 00 9D C0 2E C0 32 00 9F 00 (区域高光指令（AD+区域+暖光+冷光+AE）)
2024-08-14 00:23:01.048 - A1 10 C8
2024-08-14 00:23:01.080 - 08 09 08 0A 08 0B 04 01 05 01 06 01 04 02 03 03 03 01 03 02 02 03 02 01 02 02 00 32 00 28 00 26
2024-08-14 00:23:01.099 - 04 03 05 03 06 03 08 04 08 05 08 06 08 09 08 0A 08 0B 04 01 05 01 06 01 04
2024-08-14 00:23:01.861 - 15 03 03 00 02 02 0A
2024-08-14 00:23:01.911 - 47 45 54 20 2F 20 48 54 54 50 2F 31 2E 31 0D 0A 55 73 65 72 2D 41 67 65 6E 74 3A 20 4D 6F 7A 69
2024-08-14 00:23:01.922 - 6C 6C 61 2F 35 2E 30 20 28 FF
2024-08-14 00:23:01.984 - 59
2024-08-14 00:23:02.016 - 3A 95 8D AD BD A5 20 43 68 72 6F 6D 65 2F 39 39 2E 30 2E 34 38 34 34 2E 35 31 20 53 61 66 61 72 (区域高光指令（AD+区域+暖光+冷光+AE）)
2024-08-14 00:23:02.046 - 69 2F 35 33 37 2E 33 36 0D 0A 48 6F 73 74 3A 20 31 31 35 2E 32 33 39 2E 32 33 F3
2024-08-14 00:27:19.383 - FF FF FF FF 0E FE (继电器地址-西阳小窗帘)
2024-08-14 00:27:19.510 - FC
2024-08-14 00:27:19.569 - 00 80 03 50 01
2024-08-14 00:28:18.629 - 1A BE B0 DC 04 FC (继电器地址-西阳窗帘)
2024-08-14 00:28:18.763 - FF
2024-08-14 00:30:21.010 - 1A BE B0 DC 02 (正反转地址-外卫卷帘)
2024-08-14 00:30:21.349 - 00 80 03 50 01
2024-08-14 00:32:22.737 - 1A BE B0 DC 01 (继电器地址-回水泵点动)
2024-08-14 00:32:22.866 - FF
2024-08-14 00:37:19.091 - 1A BE B0 DC 09 FD (继电器地址-客厅窗帘)
2024-08-14 00:52:14.607 - FF FF FF FF 0A (继电器地址-东阳窗帘)
2024-08-14 00:52:14.747 - FF
2024-08-14 01:04:36.176 - FF
2024-08-14 01:08:21.851 - 1A BE B0 DC 03 FC (继电器地址-西阳天幕)
2024-08-14 01:24:39.825 - 1A FF FF FF 04 FE (继电器地址-东阳衣架)
2024-08-14 01:24:39.969 - 00
2024-08-14 02:25:08.156 - 19 08 24 03 CC 01 54 00 01 (调用内卫感应灯开的按键)
2024-08-14 02:25:08.212 - 1A 0C 02 08 01 FF 45 01 FF 45 01 FF 00 00 0F (调光器地址-内卫射灯, 内卫射灯微光)
2024-08-14 02:27:31.432 - 19 08 24 03 CC 01 55 00 01 (调用外卫感应灯关的按键)
2024-08-14 02:27:31.495 - 1A 0C 02 08 01 FF 00 01 FF 00 01 FF 00 00 0F (调光器地址-内卫射灯, 内卫感应灯关)
2024-08-14 02:29:03.118 - 19 08 24 03 CC 01 54 00 01 (调用内卫感应灯开的按键)
2024-08-14 02:29:03.151 - 1A 0C 02 08 01 FF 45 01 FF 45 01 FF 00 00 0F (调光器地址-内卫射灯, 内卫射灯微光)
2024-08-14 02:29:28.668 - 19 08 24 03 CC 01 55 00 01 (调用外卫感应灯关的按键)
2024-08-14 02:29:28.714 - 1A 0C 02 08 01 FF 00 01 FF 00 01 FF 00 00 0F (调光器地址-内卫射灯, 内卫感应灯关)
2024-08-14 02:59:35.131 - 50 F7 01 (全屋影音全关)
2024-08-14 03:47:16.983 - FF FF FF FF 0E (继电器地址-西阳小窗帘)
2024-08-14 03:47:17.109 - FF
2024-08-14 03:47:17.177 - 00 80 FF
2024-08-14 03:48:09.224 - 1A BE B0 DC 04 (继电器地址-西阳窗帘)
2024-08-14 03:48:09.362 - FE
2024-08-14 03:50:54.584 - 1A BE B0 DC 0A (继电器地址-客厅纱帘)
2024-08-14 03:50:54.774 - FC
2024-08-14 03:53:20.405 - 1A BE B0 DC 01 FC (继电器地址-回水泵点动)
2024-08-14 03:57:44.021 - 1A BE B0 DC 09 FE (继电器地址-客厅窗帘)
2024-08-14 04:13:18.413 - FF FF FF FF 0A FC (继电器地址-东阳窗帘)
2024-08-14 04:13:18.556 - FE
2024-08-14 04:19:35.882 - 1A EC A0 DC 01 00 01 00 0F (自保持开关地址-电视、设备12V供电, 12V 设备供电关)
2024-08-14 04:19:36.408 - F8
2024-08-14 04:19:36.442 - 1A EC A0 DC 01 00 01 00 0F (自保持开关地址-电视、设备12V供电, 12V 设备供电关)
2024-08-14 04:19:46.551 - 1A EC A0 DC 01 00 01 01 0F (自保持开关地址-电视、设备12V供电, 12V 设备供电开)
2024-08-14 04:19:46.689 - 00
2024-08-14 04:19:46.823 - 00
2024-08-14 04:19:46.959 - 1A 27 89 12
2024-08-14 04:19:46.959 - DF
2024-08-14 04:19:46.977 - FF
2024-08-14 04:19:46.990 - FF
2024-08-14 04:19:46.996 - EE 00 7E 07 FF FC FF FF
2024-08-14 04:19:47.022 - EE 00 74 FF
2024-08-14 04:19:47.175 - 1A BE B0 DC 02 (正反转地址-外卫卷帘)
2024-08-14 04:19:47.195 - EE 00 71 B1 01 00 02 FF FC FF FF
2024-08-14 04:19:47.213 - F7
2024-08-14 04:19:47.306 - F7
2024-08-14 04:19:47.512 - FF
2024-08-14 04:19:47.603 - 1A EC A0 DC 01 00 01 01 0F (自保持开关地址-电视、设备12V供电, 12V 设备供电开)
2024-08-14 04:19:47.829 - FF
2024-08-14 04:19:48.132 - FD
2024-08-14 04:19:48.402 - 68 86
2024-08-14 04:19:48.450 - 68 86
2024-08-14 04:19:48.450 - E9
2024-08-14 04:19:48.546 - 68 86 FF
2024-08-14 04:19:48.586 - 68 86
2024-08-14 04:19:48.593 - 1A BE B0 DC 03 (继电器地址-西阳天幕)
2024-08-14 04:19:48.721 - F7
2024-08-14 04:19:49.026 - FF
2024-08-14 04:19:49.133 - F8
2024-08-14 04:19:49.639 - FF
2024-08-14 04:19:49.958 - 68 86 FF
2024-08-14 04:44:46.931 - 1A FF FF FF 60 (红外总线地址-主卧发射设备)
2024-08-14 04:45:05.509 - 19 08 24 03 CC 01 54 00 01 (调用内卫感应灯开的按键)
2024-08-14 04:45:05.556 - 1A 0C 02 08 01 FF 45 01 FF 45 01 FF 00 00 0F (调光器地址-内卫射灯, 内卫射灯微光)
2024-08-14 04:45:40.123 - 1A FF FF FF 04 (继电器地址-东阳衣架)
2024-08-14 04:45:40.253 - 03
2024-08-14 04:47:19.270 - 19 08 24 03 CC 01 55 00 01 (调用外卫感应灯关的按键)
2024-08-14 04:47:19.317 - 1A 0C 02 08 01 FF 00 01 FF 00 01 FF 00 00 0F (调光器地址-内卫射灯, 内卫感应灯关)
2024-08-14 04:48:25.896 - 19 08 24 03 CC 01 54 00 01 (调用内卫感应灯开的按键)
2024-08-14 04:48:25.956 - 1A 0C 02 08 01 FF 45 01 FF 45 01 FF 00 00 0F (调光器地址-内卫射灯, 内卫射灯微光)
2024-08-14 04:48:51.454 - 19 08 24 03 CC 01 55 00 01 (调用外卫感应灯关的按键)
2024-08-14 04:48:51.488 - 1A 0C 02 08 01 FF 00 01 FF 00 01 FF 00 00 0F (调光器地址-内卫射灯, 内卫感应灯关)
2024-08-14 04:49:35.395 - EE 00 00 B1 00 00 00 FF FC FF FF (情景执行提示)
2024-08-14 04:49:36.023 - A5 00 A2 FF 00 AA (餐厅纱帘关)
2024-08-14 04:49:37.088 - A5 00 A6 FF 00 AA (餐厅窗帘关)
2024-08-14 04:49:37.135 - 55 00 A6 01 00 0E 01 75 AA 55 00 A6 01 00 0E 01 75 AA (餐厅窗帘电机状态返回)
2024-08-14 04:49:38.187 - A5 00 B7 FF 00 AA 22 0D (书房纱帘关)
2024-08-14 04:49:39.233 - A5 00 D2 FF 00 AA 22 0C (书房窗帘关)
2024-08-14 04:49:39.283 - 55 00 D2 01 00 0D 00 F2 AA 55 00 D2 01 00 0D C0 (书房窗帘电机状态返回)
2024-08-14 04:49:40.333 - EE 00 00 B1 00 00 02 FF FC FF FF (情景完成返回主页)
2024-08-14 04:49:45.586 - 55 00 A6 00 01 67 01 75 AA 55 00 A6 00 01 67 01 75 AA (餐厅窗帘电机状态返回)
2024-08-14 04:49:47.250 - 55 00 D2 00 00 E5 00 F2 AA 55 00 D2 00 00 E5 00 F2 AA (书房窗帘电机状态返回)
2024-08-14 06:08:35.383 - FF
2024-08-14 06:44:34.834 - EE 00 00 B1 00 00 00 FF FC FF FF (情景执行提示)
2024-08-14 06:44:35.423 - 09 06 00 0F 02 01 78 21 (提示音叮)
2024-08-14 06:44:36.015 - 50 F0 04 (开内卫影视)
2024-08-14 06:44:36.567 - 50 F0 05 (开主卧影视)
2024-08-14 06:44:37.121 - A5 00 53 FE 01 AA (主卧纱帘关)
2024-08-14 06:44:37.661 - A5 00 53 FE 01 AA (主卧纱帘关)
2024-08-14 06:44:38.219 - A5 00 52 FE 01 AA (主卧窗帘开)
2024-08-14 06:44:39.254 - A5 00 52 FE 01 AA (主卧窗帘开)
2024-08-14 06:44:40.307 - 1A 22 33 62 0F 00 02 01 0F (正反转地址-内卫卷帘, 内卫卷帘降)
2024-08-14 06:44:40.860 - 1A FF FF FF 56 00 00 00 0F (人体红外感应地址-内卫, 关闭内卫感应)
2024-08-14 06:44:40.957 - BC BC
2024-08-14 06:44:41.408 - 1A 20 07 01 55 00 01 00 0F (自保持开关地址-主卧顶灯, 主卧顶灯只关)
2024-08-14 06:44:42.464 - 1A 0C 02 08 01 FF F0 01 FF F0 01 FF 00 00 0F (调光器地址-内卫射灯, 内卫射灯明亮)
2024-08-14 06:44:43.054 - 1A 0C 02 04 01 FF 00 01 FF 00 01 FF 00 00 0F (调光器地址-主卧筒灯, 主卧筒灯关闭)
2024-08-14 06:44:43.655 - 1A 0C 02 04 03 FF 45 01 FF 45 01 FF 00 00 0F (调光器地址-主卧灯带, 主卧灯带微光)
2024-08-14 06:44:44.258 - 1A 0C 02 04 02 FF F0 01 FF 00 01 FF 00 00 0F (调光器地址-主卧过道, 主卧过道暖光)
2024-08-14 06:44:44.853 - 1A 0C 02 04 05 FF 00 01 FF 00 01 FF 00 00 0F (调光器地址-主卧北阅, 主卧北阅关闭)
2024-08-14 06:44:45.449 - 1A 0C 02 04 04 FF 00 01 FF 00 01 FF 00 00 0F (调光器地址-主卧南阅, 主卧南阅关闭)
2024-08-14 06:44:46.533 - 50 F1 24 (内卫—有线2)
2024-08-14 06:44:47.583 - 50 F1 25 (主卧—有线2)
2024-08-14 06:44:48.132 - FF
2024-08-14 06:44:48.634 - AF BF CF DF C2 21 (有线2/快捷-凤凰卫视)
2024-08-14 06:44:49.180 - 1A FF FF FF 60 0B 01 01 0F (红外总线地址-主卧发射设备, 主卧电视电源)
2024-08-14 06:44:49.705 - F0 0B 01 08
2024-08-14 06:44:50.231 - 1A BE B0 DC 01 00 01 00 (继电器地址-回水泵点动, 回水泵点动)
2024-08-14 06:44:51.940 - 55 20 20 00 00 10 02 16 AA 55 20 20 00 00 10 02 16 AA (主卧窗帘电机状态返回)
2024-08-14 06:44:54.281 - 09 06 00 0F 02 02 38 20 (提示音咚)
2024-08-14 06:44:54.837 - EE 00 00 B1 00 00 02 FF FC FF FF (情景完成返回主页)
2024-08-14 06:44:55.934 - A1 11 11 11 11 01 (内卫浴霸取暖判断)
2024-08-14 06:44:56.160 - 14 03 00 00 00 02 C6 CE (查询内卫温湿度)
2024-08-14 06:44:56.177 - 14 03 04 01 C9 00 FE EE B0 (内卫温湿度返回)
2024-08-14 06:50:11.594 - FF
2024-08-14 06:50:13.480 - FF
2024-08-14 06:50:55.076 - FF
2024-08-14 06:51:13.228 - FF
2024-08-14 06:51:35.555 - FF
2024-08-14 07:14:38.348 - 19 08 24 03 DD 00 40 00 01 (调用情景-离开主卧)
2024-08-14 07:14:38.890 - EE 00 00 B1 00 00 00 FF FC FF FF (情景执行提示)
2024-08-14 07:14:39.484 - 09 06 00 0F 02 01 78 21 (提示音叮)
2024-08-14 07:14:40.028 - 50 F5 05 (关主卧影视)
2024-08-14 07:14:40.579 - 50 F5 04 (关内卫影视)
2024-08-14 07:14:41.129 - 01 06 07 D6 FF 60 28 9E (主卧空调关)
2024-08-14 07:14:41.152 - 01 06 07 D6 FF 60 28 9E (主卧空调关)
2024-08-14 07:14:41.725 - A5 00 52 FE 01 AA (主卧窗帘开)
2024-08-14 07:14:42.776 - A5 00 52 FE 01 AA (主卧窗帘开)
2024-08-14 07:14:43.821 - A5 00 53 FF 00 AA (主卧纱帘开)
2024-08-14 07:14:43.878 - 55 00 53 01 00 0C 02 30 AA 55 00 53 01 00 0C 02 B0 (主卧纱帘电机状态返回)
2024-08-14 07:14:44.420 - A5 00 53 FF 00 AA (主卧纱帘开)
2024-08-14 07:14:44.964 - 1A 22 33 62 0F 00 00 01 0F (正反转地址-内卫卷帘, 内卫卷帘升)
2024-08-14 07:14:45.677 - 55 20 20 00 00 0F 02 16 AA 55 20 20 00 00 0F 02 16 AA (主卧窗帘电机状态返回)
2024-08-14 07:14:46.067 - 1A 20 07 01 40 00 01 00 0F (自保持开关地址-内卫顶灯, 内卫顶灯关)
2024-08-14 07:14:47.187 - 1A 20 07 01 55 00 01 00 0F (自保持开关地址-主卧顶灯, 主卧顶灯只关)
2024-08-14 07:14:47.761 - 1A 0C 02 08 01 FF 00 01 FF 00 01 FF 00 00 0F (调光器地址-内卫射灯, 内卫感应灯关)
2024-08-14 07:14:48.361 - 1A FF FF FF 56 00 00 01 0F (人体红外感应地址-内卫, 打开内卫感应)
2024-08-14 07:14:48.763 - 19 08 24 03 CC 01 54 00 01 (调用内卫感应灯开的按键)
2024-08-14 07:14:48.822 - 1A 0C 02 08 01 FF 45 01 FF 45 01 FF 00 00 0F (调光器地址-内卫射灯, 内卫射灯微光)
2024-08-14 07:14:52.257 - 1A 0C 02 04 FF FF 00 01 FF 00 01 FF 00 00 0F (主卧调光全关)
2024-08-14 07:14:53.343 - 09 06 00 0F 02 02 38 20 (提示音咚)
2024-08-14 07:14:53.938 - EE 00 00 B1 00 00 02 FF FC FF FF (情景完成返回主页)
2024-08-14 07:14:54.479 - 55 00 53 00 02 22 02 30 AA 55 00 53 00 02 22 02 30 AA (主卧纱帘电机状态返回)
2024-08-14 07:15:37.559 - 19 08 24 03 CC 01 55 00 01 (调用外卫感应灯关的按键)
2024-08-14 07:15:37.623 - 1A 0C 02 08 01 FF 00 01 FF 00 01 FF 00 00 0F (调光器地址-内卫射灯, 内卫感应灯关)
2024-08-14 07:16:25.660 - 19 08 24 03 CC 01 54 00 01 (调用内卫感应灯开的按键)
2024-08-14 07:16:25.698 - 1A 0C 02 08 01 FF 45 01 FF 45 01 FF 00 00 0F (调光器地址-内卫射灯, 内卫射灯微光)
2024-08-14 07:16:51.210 - 19 08 24 03 CC 01 55 00 01 (调用外卫感应灯关的按键)
2024-08-14 07:16:51.242 - 1A 0C 02 08 01 FF 00 01 FF 00 01 FF 00 00 0F (调光器地址-内卫射灯, 内卫感应灯关)
2024-08-14 07:18:34.558 - 19 08 24 03 DD 00 00 00 01 (调用情景-离家（末）)
2024-08-14 07:18:35.096 - EE 00 00 B1 00 00 00 FF FC FF FF (情景执行提示)
2024-08-14 07:18:35.690 - 09 06 00 0F 02 02 38 20 (提示音咚)
2024-08-14 07:18:36.231 - 50 F7 01 (全屋影音全关)
2024-08-14 07:18:36.773 - 01 06 07 D0 FF 60 C8 9F (客厅空调关)
2024-08-14 07:18:36.822 - 01 06 07 D0 FF 60 C8 9F (客厅空调关)
2024-08-14 07:18:37.383 - 01 06 07 D0 FF 60 C8 9F (客厅空调关)
2024-08-14 07:18:37.416 - 01 06 07 D0 FF 60 C8 9F (客厅空调关)
2024-08-14 07:18:37.984 - 01 06 07 D3 FF 60 38 9F (餐厅空调关)
2024-08-14 07:18:38.012 - 01 06 07 D3 FF 60 38 9F (餐厅空调关)
2024-08-14 07:18:38.579 - 01 06 07 D3 FF 60 38 9F (餐厅空调关)
2024-08-14 07:18:38.602 - 01 06 07 D3 FF 60 38 9F (餐厅空调关)
2024-08-14 07:18:39.174 - 01 06 07 D6 FF 60 28 9E (主卧空调关)
2024-08-14 07:18:39.214 - 01 06 07 D6 FF 60 28 9E (主卧空调关)
2024-08-14 07:18:39.764 - 01 06 07 D6 FF 60 28 9E (主卧空调关)
2024-08-14 07:18:39.811 - 01 06 07 D6 FF 60 28 9E (主卧空调关)
2024-08-14 07:18:40.374 - 01 06 07 D9 FF 60 18 9D (次卧空调关)
2024-08-14 07:18:40.406 - 01 06 07 D9 FF 60 18 9D (次卧空调关)
2024-08-14 07:18:40.982 - 01 06 07 D9 FF 60 18 9D (次卧空调关)
2024-08-14 07:18:41.000 - 01 06 07 D9 FF 60 18 9D (次卧空调关)
2024-08-14 07:18:41.566 - 01 06 07 DC FF 60 08 9C (书房空调关)
2024-08-14 07:18:41.607 - 01 06 07 DC FF 60 08 9C (书房空调关)
2024-08-14 07:18:42.168 - 01 06 07 DC FF 60 08 9C (书房空调关)
2024-08-14 07:18:42.200 - 01 06 07 DC FF 60 08 9C (书房空调关)
2024-08-14 07:18:42.765 - 09 06 00 0F 02 02 38 20 (提示音咚)
2024-08-14 07:18:43.315 - 1A FF FF FF 56 00 00 00 0F (人体红外感应地址-内卫, 关闭内卫感应)
2024-08-14 07:18:43.860 - 1A FF FF FF 55 00 00 00 0F (人体红外感应地址-外卫, 关闭外卫感应)
2024-08-14 07:18:43.958 - BC BC
2024-08-14 07:18:44.415 - 1A FF FF FF 57 00 00 00 0F (关闭厨房感应)
2024-08-14 07:18:44.428 - BC BC
2024-08-14 07:18:45.007 - 1A 20 07 00 93 00 01 00 0F (自保持开关地址-设备区顶, 设备区顶灯关)
2024-08-14 07:18:46.057 - 1A 20 07 01 40 00 01 00 0F (自保持开关地址-内卫顶灯, 内卫顶灯关)
2024-08-14 07:18:47.106 - 1A 20 07 01 55 00 01 00 0F (自保持开关地址-主卧顶灯, 主卧顶灯只关)
2024-08-14 07:18:48.142 - 1A 20 07 00 42 00 01 00 0F (自保持开关地址-外卫顶灯, 外卫顶灯关)
2024-08-14 07:18:49.191 - 55 0D 31 00 00 00 01 94 (书房顶灯只关)
2024-08-14 07:18:50.241 - 55 0A 31 00 00 00 01 91 (厨房顶灯一关)
2024-08-14 07:18:51.290 - 55 0A 31 00 00 00 02 92 (厨房顶灯二关)
2024-08-14 07:18:52.337 - 55 0B 31 00 00 00 01 92 (厨房风扇只关)
2024-08-14 07:18:53.385 - 55 0C 31 00 00 00 01 93 (餐厅顶灯关)
2024-08-14 07:18:54.429 - 1A 20 07 01 30 00 01 00 0F (自保持开关地址-西阳顶灯, 西阳顶灯关)
2024-08-14 07:18:55.477 - 1A 18 05 21 89 00 01 00 0F (自保持开关地址-客厅顶灯, 客厅顶灯一关)
2024-08-14 07:18:56.523 - 1A 18 05 01 94 00 01 00 0F (自保持开关地址-客厅顶灯, 客厅顶灯二关)
2024-08-14 07:18:57.571 - 1A 20 07 00 70 00 01 00 0F (自保持开关地址-次卧顶灯, 次卧顶灯只关)
2024-08-14 07:18:58.620 - 1A 18 05 10 31 00 01 00 0F (自保持开关地址-门厅顶灯, 门厅顶灯关)
2024-08-14 07:18:59.664 - 1A FF FF FF 04 00 03 02 (继电器地址-东阳衣架, 东阳衣架照明关)
2024-08-14 07:19:00.207 - 09 06 00 0F 02 02 38 20 (提示音咚)
2024-08-14 07:19:00.749 - A5 00 A6 FE 01 AA (餐厅窗帘开)
2024-08-14 07:19:00.800 - 55 00 A6 02 01 67 01 75 AA 55 00 A6 02 01 67 01 75 AA (餐厅窗帘电机状态返回)
2024-08-14 07:19:01.360 - FF FF FF FF 0A 00 01 00 (继电器地址-东阳窗帘, 东阳窗帘开)
2024-08-14 07:19:01.905 - 1A BE B0 DC 04 00 01 00 (继电器地址-西阳窗帘, 西阳窗帘开)
2024-08-14 07:19:02.447 - FF FF FF FF 0E 00 01 00 (继电器地址-西阳小窗帘, 西阳小窗帘开)
2024-08-14 07:19:03.003 - 1A 22 33 62 0F 00 00 01 0F (正反转地址-内卫卷帘, 内卫卷帘升)
2024-08-14 07:19:03.543 - A5 00 52 FE 01 AA (主卧窗帘开)
2024-08-14 07:19:04.146 - A5 00 53 FF 00 AA (主卧纱帘开)
2024-08-14 07:19:04.696 - A5 00 76 FE 01 AA (次卧窗帘开)
2024-08-14 07:19:05.244 - A5 00 21 FE 01 AA (次卧纱帘开)
2024-08-14 07:19:05.783 - A5 00 D2 FE 01 AA 22 0D (书房窗帘开)
2024-08-14 07:19:05.832 - 55 00 D2 02 00 E5 00 F2 AA 55 00 D2 02 00 E5 00 F2 AA (书房窗帘电机状态返回)
2024-08-14 07:19:06.391 - 1A BE B0 DC 09 00 01 00 (继电器地址-客厅窗帘, 客厅窗帘开)
2024-08-14 07:19:06.942 - 1A BE B0 DC 0A 00 02 00 (继电器地址-客厅纱帘, 客厅纱帘开)
2024-08-14 07:19:07.483 - 09 06 00 0F 02 02 38 20 (提示音咚)
2024-08-14 07:19:07.657 - 55 20 20 00 00 0F 02 16 AA 55 20 20 00 00 0F 02 16 AA (主卧窗帘电机状态返回)
2024-08-14 07:19:08.531 - 1A EC A0 DC 02 00 00 00 0F (自保持开关地址-天花12V供电, 天花12V 供电关)
2024-08-14 07:19:09.084 - 1A EC A0 DC 02 00 00 00 0F (自保持开关地址-天花12V供电, 天花12V 供电关)
2024-08-14 07:19:09.612 - 55 00 A6 00 00 0E 01 75 AA 55 00 A6 00 00 0E 01 75 AA (餐厅窗帘电机状态返回)
2024-08-14 07:19:09.634 - 1A EC A0 DC 01 00 00 00 0F (自保持开关地址-电视、设备12V供电, 12V 电视供电关)
2024-08-14 07:19:10.180 - 1A EC A0 DC 01 00 00 00 0F (自保持开关地址-电视、设备12V供电, 12V 电视供电关)
2024-08-14 07:19:10.727 - 1A EC A0 DC 04 00 01 00 0F (自保持开关地址-次卧西阳内外卫供电, 内卫外卫关)
2024-08-14 07:19:11.275 - 1A EC A0 DC 04 00 01 00 0F (自保持开关地址-次卧西阳内外卫供电, 内卫外卫关)
2024-08-14 07:19:13.406 - 55 00 D2 00 00 0D 00 F2 AA 55 00 D2 00 00 0D 00 F2 AA (书房窗帘电机状态返回)
2024-08-14 07:19:29.368 - 09 06 00 0F 02 02 38 20 (提示音咚)
2024-08-14 07:19:29.910 - 1A 27 89 12 AA 00 00 00 0F (状态寄存器地址, 无人状态)
2024-08-14 07:19:30.463 - 1A 27 89 12 AA 00 00 00 0F (状态寄存器地址, 无人状态)
2024-08-14 07:19:31.004 - A1 11 11 11 4D (天花供电关闭确认)
2024-08-14 07:19:31.236 - 1A EC A0 DC 02 86 86 86 0F (查询天花供电状态, 自保持开关地址-天花12V供电)
2024-08-14 07:19:31.670 - 1A EC A0 DC 02 00 01 0F (自保持开关地址-天花12V供电)
2024-08-14 07:19:34.053 - A1 11 11 11 4E (卫生供电关闭确认)
2024-08-14 07:19:34.275 - 1A EC A0 DC 04 86 86 86 0F (查询卫生间供电状态, 自保持开关地址-次卧西阳内外卫供电)
2024-08-14 07:19:34.705 - 1A EC A0 DC 04 01 00 0F (自保持开关地址-次卧西阳内外卫供电)
2024-08-14 07:19:37.088 - A1 11 11 11 4F (电视供电关闭确认)
2024-08-14 07:19:37.310 - 1A EC A0 DC 01 86 86 86 0F (查询电视供电状态, 自保持开关地址-电视、设备12V供电)
2024-08-14 07:19:37.738 - 1A EC A0 DC 01 00 01 0F (自保持开关地址-电视、设备12V供电)
2024-08-14 07:19:40.138 - 09 06 00 0F 02 02 38 20 (提示音咚)
2024-08-14 07:19:40.680 - 09 06 00 0F 02 02 38 20 (提示音咚)
2024-08-14 07:19:41.233 - EE 00 00 B1 00 00 02 FF FC FF FF (情景完成返回主页)
2024-08-14 07:19:42.327 - BA BA EE EE BA BA (离家设置信科变量)
2024-08-14 07:19:43.364 - A1 11 11 11 46 (天热离家遮阳)
2024-08-14 07:19:43.603 - 1A 27 89 12 AA 86 86 86 0F (查询寄存器状态, 状态寄存器地址)
2024-08-14 07:19:43.984 - 1A 27 89 12 AA 00 00 00 00 00 00 00 00 00 00 00 01 00 00 00 00 0F (状态寄存器地址)
2024-08-14 07:19:44.602 - 19 08 24 03 DD 00 05 00 01 (调用情景-天热遮阳关帘)
2024-08-14 07:19:45.175 - EE 00 00 B1 00 00 00 FF FC FF FF (情景执行提示)
2024-08-14 07:19:45.766 - 09 06 00 0F 02 01 78 21 (提示音叮)
2024-08-14 07:19:46.366 - A5 00 A2 FF 00 AA (餐厅纱帘关)
2024-08-14 07:19:47.412 - A5 00 A6 FF 00 AA (餐厅窗帘关)
2024-08-14 07:19:47.462 - 55 00 A6 01 00 0E 01 75 AA 55 00 A6 01 00 0E 01 75 AA (餐厅窗帘电机状态返回)
2024-08-14 07:19:48.495 - A5 00 53 FE 01 AA (主卧纱帘关)
2024-08-14 07:19:48.563 - 55 00 53 02 02 22 02 30 AA 55 00 53 02 02 22 02 30 AA (主卧纱帘电机状态返回)
2024-08-14 07:19:49.598 - A5 00 52 FF 00 AA (主卧窗帘关)
2024-08-14 07:19:50.650 - A5 00 21 FF 00 AA (次卧纱帘关)
2024-08-14 07:19:50.707 - 55 00 21 01 00 0D 01 34 AA 55 00 21 01 00 0D 01 34 AA (次卧纱帘电机状态返回)
2024-08-14 07:19:51.737 - A5 00 76 FF 00 AA (次卧窗帘关)
2024-08-14 07:19:51.784 - 55 00 76 01 00 0E 01 1B AA 55 00 76 01 00 0E 01 1B AA (次卧窗帘电机状态返回)
2024-08-14 07:19:52.836 - A5 00 B7 FF 00 AA 22 0D (书房纱帘关)
2024-08-14 07:19:53.887 - A5 00 D2 FF 00 AA 22 0C (书房窗帘关)
2024-08-14 07:19:53.938 - 55 00 D2 01 00 0D 00 F2 AA 55 00 D2 01 00 0D 00 F2 AA (书房窗帘电机状态返回)
2024-08-14 07:19:55.490 - 1A 22 33 62 5E 00 02 01 0F (正反转地址-厨房卷帘三, 厨房卷帘一降)
2024-08-14 07:19:55.872 - 55 00 A6 00 01 67 01 75 AA 55 00 A6 00 01 67 01 75 AA (餐厅窗帘电机状态返回)
2024-08-14 07:19:56.533 - 1A 22 33 62 56 00 02 01 0F (正反转地址-厨房卷帘二, 厨房卷帘二降)
2024-08-14 07:19:57.583 - 1A 22 33 62 4F 00 00 01 0F (正反转地址-厨房卷帘一, 厨房卷帘三降)
2024-08-14 07:19:57.972 - 55 00 21 00 01 27 01 34 AA 55 00 21 00 01 27 01 34 AA (次卧纱帘电机状态返回)
2024-08-14 07:19:58.620 - 1A BE B0 DC 04 00 02 00 (继电器地址-西阳窗帘, 西阳窗帘关)
2024-08-14 07:19:58.786 - 55 00 76 00 01 0E 01 1B AA 55 00 76 00 01 0E 01 1B AA (次卧窗帘电机状态返回)
2024-08-14 07:19:59.383 - 55 00 53 00 00 0C 02 30 AA 55 00 53 00 00 0C 02 30 AA (主卧纱帘电机状态返回)
2024-08-14 07:19:59.671 - FF FF FF FF 0E 00 02 00 (继电器地址-西阳小窗帘, 西阳小窗帘关)
2024-08-14 07:20:00.721 - 1A BE B0 DC 03 00 03 00 (继电器地址-西阳天幕, 西阳天幕关)
2024-08-14 07:20:01.241 - 55 20 20 00 02 09 02 16 AA 55 20 20 00 02 09 02 16 AA (主卧窗帘电机状态返回)
2024-08-14 07:20:01.768 - 1A BE B0 DC 03 00 03 00 (继电器地址-西阳天幕, 西阳天幕关)
2024-08-14 07:20:02.816 - 09 06 00 0F 02 02 38 20 (提示音咚)
2024-08-14 07:20:03.366 - EE 00 00 B1 00 00 02 FF FC FF FF (情景完成返回主页)
2024-08-14 07:23:03.212 - 1B 03 00 00 00 02 C6 31 (查询室外光线)
2024-08-14 07:23:03.227 - 1B 03 04 00 00 00 38 40 20 (室外光线返回)
2024-08-14 07:23:03.549 - 1A EC A0 DC 02 00 00 01 0F (自保持开关地址-天花12V供电, 天花12V 供电开)
2024-08-14 07:23:04.247 - 1A FF 01 FF FF FF 60 01 FF 60 01 FF 00 00 0F (调光器地址-公共区域统配地址)
2024-08-14 07:23:05.246 - 19 08 24 03 DD 00 0D 00 01 (调用情景-信科调用进门暗)
2024-08-14 07:23:06.331 - 1A EC A0 DC 01 00 00 01 0F (自保持开关地址-电视、设备12V供电, 12V 电视供电开)
2024-08-14 07:23:06.883 - 1A EC A0 DC 01 00 00 01 0F (自保持开关地址-电视、设备12V供电, 12V 电视供电开)
2024-08-14 07:23:07.434 - 1A EC A0 DC 04 00 01 01 0F (自保持开关地址-次卧西阳内外卫供电, 内卫外卫开)
2024-08-14 07:23:07.980 - 1A EC A0 DC 04 00 01 01 0F (自保持开关地址-次卧西阳内外卫供电, 内卫外卫开)
2024-08-14 07:23:13.020 - 1A 27 89 12 AA 00 00 01 0F (状态寄存器地址, 有人状态)
2024-08-14 07:23:13.558 - 1A 27 89 12 AA 00 00 01 0F (状态寄存器地址, 有人状态)
2024-08-14 07:23:14.117 - 1A BE B0 DC 01 00 01 00 (继电器地址-回水泵点动, 回水泵点动)
2024-08-14 07:23:14.658 - 1A FF FF FF 56 00 00 01 0F (人体红外感应地址-内卫, 打开内卫感应)
2024-08-14 07:23:15.210 - 1A FF FF FF 55 00 00 01 0F (人体红外感应地址-外卫, 打开外卫感应)
2024-08-14 07:23:15.310 - BC BC
2024-08-14 07:23:15.761 - 1A FF FF FF 57 00 00 01 0F (打开厨房感应)
2024-08-14 07:23:16.284 - 19 08 24 03 CC 01 54 00 01 (调用内卫感应灯开的按键)
2024-08-14 07:23:16.337 - 1A 0C 02 08 01 FF 45 01 FF 45 01 FF 00 00 0F (调光器地址-内卫射灯, 内卫射灯微光)
2024-08-14 07:23:16.738 - 1A BE B0 DC 01 00 01 00 (继电器地址-回水泵点动, 回水泵点动)
2024-08-14 07:23:17.309 - A5 00 B7 FF 00 AA 22 0D (书房纱帘关)
2024-08-14 07:23:17.846 - A5 00 A2 FF 00 AA (餐厅纱帘关)
2024-08-14 07:23:18.455 - 09 06 00 0F 02 01 78 21 (提示音叮)
2024-08-14 07:23:19.003 - 09 06 00 0F 02 01 78 21 (提示音叮)
2024-08-14 07:23:19.543 - EE 00 00 B1 00 00 02 FF FC FF FF (情景完成返回主页)
2024-08-14 07:23:20.132 - A1 11 11 11 50 (天花供电打开确认)
2024-08-14 07:23:20.370 - 1A EC A0 DC 02 86 86 86 0F (查询天花供电状态, 自保持开关地址-天花12V供电)
2024-08-14 07:23:20.808 - 1A EC A0 DC 02 01 01 0F (自保持开关地址-天花12V供电)
2024-08-14 07:23:22.689 - A1 11 11 11 51 (卫生供电打开确认)
2024-08-14 07:23:22.913 - 1A EC A0 DC 04 86 86 86 0F (查询卫生间供电状态, 自保持开关地址-次卧西阳内外卫供电)
2024-08-14 07:23:23.341 - 1A EC A0 DC 04 01 01 0F (自保持开关地址-次卧西阳内外卫供电)
2024-08-14 07:23:25.230 - A1 11 11 11 52 (电视供电打开确认)
2024-08-14 07:23:25.444 - 1A EC A0 DC 01 86 86 86 0F (查询电视供电状态, 自保持开关地址-电视、设备12V供电)
2024-08-14 07:23:25.883 - 1A EC A0 DC 01 01 01 0F (自保持开关地址-电视、设备12V供电)
2024-08-14 07:23:30.303 - A1 11 11 11 47 (天热回家开帘)
2024-08-14 07:23:30.524 - 1A 27 89 12 AA 86 86 86 0F (查询寄存器状态, 状态寄存器地址)
2024-08-14 07:23:30.920 - 1A 27 89 12 AA 01 00 00 00 00 00 00 00 00 00 00 01 00 00 00 00 0F (状态寄存器地址)
2024-08-14 07:23:31.541 - 19 08 24 03 DD 00 06 00 01 (调用情景-天热遮阳开帘)
2024-08-14 07:23:32.115 - EE 00 00 B1 00 00 00 FF FC FF FF (情景执行提示)
2024-08-14 07:23:32.709 - 09 06 00 0F 02 01 78 21 (提示音叮)
2024-08-14 07:23:33.256 - A5 00 A6 FE 01 AA (餐厅窗帘开)
2024-08-14 07:23:33.305 - 55 00 A6 02 01 67 01 75 AA 55 00 A6 02 01 67 01 75 FF (餐厅窗帘电机状态返回)
2024-08-14 07:23:34.350 - A5 00 52 FE 01 AA (主卧窗帘开)
2024-08-14 07:23:35.389 - A5 00 53 FF 00 AA (主卧纱帘开)
2024-08-14 07:23:35.448 - 55 00 53 01 00 0C 02 30 AA 55 00 53 01 00 0C 02 30 AA (主卧纱帘电机状态返回)
2024-08-14 07:23:36.495 - A5 00 76 FE 01 AA (次卧窗帘开)
2024-08-14 07:23:36.543 - 55 00 76 02 01 0E 01 1B AA 55 00 76 02 01 0E 01 1B AA (次卧窗帘电机状态返回)
2024-08-14 07:23:37.593 - A5 00 21 FE 01 AA (次卧纱帘开)
2024-08-14 07:23:37.638 - 55 00 21 02 01 27 01 34 AA 55 00 21 02 01 27 01 34 AA (次卧纱帘电机状态返回)
2024-08-14 07:23:38.686 - 1A BE B0 DC 04 00 01 00 (继电器地址-西阳窗帘, 西阳窗帘开)
2024-08-14 07:23:39.734 - FF FF FF FF 0E 00 01 00 (继电器地址-西阳小窗帘, 西阳小窗帘开)
2024-08-14 07:23:40.783 - A5 00 D2 FE 01 AA 22 0D (书房窗帘开)
2024-08-14 07:23:40.832 - 55 00 D2 02 00 E5 00 F2 AA 55 00 D2 02 00 E5 00 F2 AA (书房窗帘电机状态返回)
2024-08-14 07:23:41.879 - 09 06 00 0F 02 02 38 20 (提示音咚)
2024-08-14 07:23:42.426 - EE 00 00 B1 00 00 02 FF FC FF FF (情景完成返回主页)
2024-08-14 07:23:43.617 - 55 00 76 00 00 0E 01 1B AA 55 00 76 00 00 0E 01 1B AA (次卧窗帘电机状态返回)
2024-08-14 07:23:45.125 - 55 00 21 00 00 0D 01 34 AA 55 00 21 00 00 0D 01 34 AA (次卧纱帘电机状态返回)
2024-08-14 07:23:46.463 - 55 20 20 00 00 0E 02 16 AA 55 A0 15 (主卧窗帘电机状态返回)
2024-08-14 07:23:46.492 - 53 00 02 22 02 30 AA 55 00 53 00 02 22 02 30 AA (主卧纱帘电机状态返回)
2024-08-14 07:23:48.433 - 55 00 D2 00 00 0D 00 F2 AA 55 00 D2 00 00 0D 00 F2 AA (书房窗帘电机状态返回)
2024-08-14 07:23:54.943 - 19 08 24 03 DD 00 00 00 01 (调用情景-离家（末）)
2024-08-14 07:23:55.490 - EE 00 00 B1 00 00 00 FF FC FF FF (情景执行提示)
2024-08-14 07:23:56.079 - 09 06 00 0F 02 02 38 20 (提示音咚)
2024-08-14 07:23:56.620 - 50 F7 01 (全屋影音全关)
2024-08-14 07:23:57.231 - 01 06 07 D0 FF 60 C8 9F (客厅空调关)
2024-08-14 07:23:57.254 - 01 06 07 D0 FF 60 C8 9F (客厅空调关)
2024-08-14 07:23:57.825 - 01 06 07 D0 FF 60 C8 9F (客厅空调关)
2024-08-14 07:23:57.856 - 01 06 07 D0 FF 60 C8 9F (客厅空调关)
2024-08-14 07:23:58.428 - 01 06 07 D3 FF 60 38 9F (餐厅空调关)
2024-08-14 07:23:58.460 - 01 06 07 D3 FF 60 38 9F (餐厅空调关)
2024-08-14 07:23:59.016 - 01 06 07 D3 FF 60 38 9F (餐厅空调关)
2024-08-14 07:23:59.047 - 01 06 07 D3 FF 60 38 9F (餐厅空调关)
2024-08-14 07:23:59.622 - 01 06 07 D6 FF 60 28 9E (主卧空调关)
2024-08-14 07:23:59.656 - 01 06 07 D6 FF 60 28 9E (主卧空调关)
2024-08-14 07:24:00.220 - 01 06 07 D6 FF 60 28 9E (主卧空调关)
2024-08-14 07:24:00.251 - 01 06 07 D6 FF 60 28 9E (主卧空调关)
2024-08-14 07:24:00.821 - 01 06 07 D9 FF 60 18 9D (次卧空调关)
2024-08-14 07:24:00.844 - 01 06 07 D9 FF 60 18 9D (次卧空调关)
2024-08-14 07:24:01.408 - 01 06 07 D9 FF 60 18 9D (次卧空调关)
2024-08-14 07:24:01.454 - 01 06 07 D9 FF 60 18 9D (次卧空调关)
2024-08-14 07:24:02.014 - 01 06 07 DC FF 60 08 9C (书房空调关)
2024-08-14 07:24:02.046 - 01 06 07 DC FF 60 08 9C (书房空调关)
2024-08-14 07:24:02.616 - 01 06 07 DC FF 60 08 9C (书房空调关)
2024-08-14 07:24:02.639 - 01 06 07 DC FF 60 08 9C (书房空调关)
2024-08-14 07:24:03.204 - 09 06 00 0F 02 02 38 20 (提示音咚)
2024-08-14 07:24:03.762 - 1A FF FF FF 56 00 00 00 0F (人体红外感应地址-内卫, 关闭内卫感应)
2024-08-14 07:24:04.304 - 1A FF FF FF 55 00 00 00 0F (人体红外感应地址-外卫, 关闭外卫感应)
2024-08-14 07:24:04.405 - BC BC
2024-08-14 07:24:04.845 - 1A FF FF FF 57 00 00 00 0F (关闭厨房感应)
2024-08-14 07:24:05.404 - 1A 20 07 00 93 00 01 00 0F (自保持开关地址-设备区顶, 设备区顶灯关)
2024-08-14 07:24:06.450 - 1A 20 07 01 40 00 01 00 0F (自保持开关地址-内卫顶灯, 内卫顶灯关)
2024-08-14 07:24:07.492 - 1A 20 07 01 55 00 01 00 0F (自保持开关地址-主卧顶灯, 主卧顶灯只关)
2024-08-14 07:24:08.543 - 1A 20 07 00 42 00 01 00 0F (自保持开关地址-外卫顶灯, 外卫顶灯关)
2024-08-14 07:24:09.587 - 55 0D 31 00 00 00 01 94 (书房顶灯只关)
2024-08-14 07:24:10.639 - 55 0A 31 00 00 00 01 91 (厨房顶灯一关)
2024-08-14 07:24:11.687 - 55 0A 31 00 00 00 02 92 (厨房顶灯二关)
2024-08-14 07:24:12.732 - 55 0B 31 00 00 00 01 92 (厨房风扇只关)
2024-08-14 07:24:13.767 - 55 0C 31 00 00 00 01 93 (餐厅顶灯关)
2024-08-14 07:24:14.821 - 1A 20 07 01 30 00 01 00 0F (自保持开关地址-西阳顶灯, 西阳顶灯关)
2024-08-14 07:24:15.872 - 1A 18 05 21 89 00 01 00 0F (自保持开关地址-客厅顶灯, 客厅顶灯一关)
2024-08-14 07:24:16.912 - 1A 18 05 01 94 00 01 00 0F (自保持开关地址-客厅顶灯, 客厅顶灯二关)
2024-08-14 07:24:17.960 - 1A 20 07 00 70 00 01 00 0F (自保持开关地址-次卧顶灯, 次卧顶灯只关)
2024-08-14 07:24:19.010 - 1A 18 05 10 31 00 01 00 0F (自保持开关地址-门厅顶灯, 门厅顶灯关)
2024-08-14 07:24:20.060 - 1A FF FF FF 04 00 03 02 (继电器地址-东阳衣架, 东阳衣架照明关)
2024-08-14 07:24:20.603 - 09 06 00 0F 02 02 38 20 (提示音咚)
2024-08-14 07:24:21.145 - A5 00 A6 FE 01 AA (餐厅窗帘开)
2024-08-14 07:24:21.700 - FF FF FF FF 0A 00 01 00 (继电器地址-东阳窗帘, 东阳窗帘开)
2024-08-14 07:24:22.247 - 1A BE B0 DC 04 00 01 00 (继电器地址-西阳窗帘, 西阳窗帘开)
2024-08-14 07:24:22.795 - FF FF FF FF 0E 00 01 00 (继电器地址-西阳小窗帘, 西阳小窗帘开)
2024-08-14 07:24:23.400 - 1A 22 33 62 0F 00 00 01 0F (正反转地址-内卫卷帘, 内卫卷帘升)
2024-08-14 07:24:23.943 - A5 00 52 FE 01 AA (主卧窗帘开)
2024-08-14 07:24:24.486 - A5 00 53 FF 00 AA (主卧纱帘开)
2024-08-14 07:24:25.036 - A5 00 76 FE 01 AA (次卧窗帘开)
2024-08-14 07:24:25.589 - A5 00 21 FE 01 AA (次卧纱帘开)
2024-08-14 07:24:26.134 - A5 00 D2 FE 01 AA 22 0D (书房窗帘开)
2024-08-14 07:24:26.674 - 1A BE B0 DC 09 00 01 00 (继电器地址-客厅窗帘, 客厅窗帘开)
2024-08-14 07:24:27.234 - 1A BE B0 DC 0A 00 02 00 (继电器地址-客厅纱帘, 客厅纱帘开)
2024-08-14 07:24:27.777 - 09 06 00 0F 02 02 38 20 (提示音咚)
2024-08-14 07:24:28.828 - 1A EC A0 DC 02 00 00 00 0F (自保持开关地址-天花12V供电, 天花12V 供电关)
2024-08-14 07:24:29.377 - 1A EC A0 DC 02 00 00 00 0F (自保持开关地址-天花12V供电, 天花12V 供电关)
2024-08-14 07:24:29.930 - 1A EC A0 DC 01 00 00 00 0F (自保持开关地址-电视、设备12V供电, 12V 电视供电关)
2024-08-14 07:24:30.472 - 1A EC A0 DC 01 00 00 00 0F (自保持开关地址-电视、设备12V供电, 12V 电视供电关)
2024-08-14 07:24:31.028 - 1A EC A0 DC 04 00 01 00 0F (自保持开关地址-次卧西阳内外卫供电, 内卫外卫关)
2024-08-14 07:24:31.574 - 1A EC A0 DC 04 00 01 00 0F (自保持开关地址-次卧西阳内外卫供电, 内卫外卫关)
2024-08-14 07:24:49.662 - 09 06 00 0F 02 02 38 20 (提示音咚)
2024-08-14 07:24:50.212 - 1A 27 89 12 AA 00 00 00 0F (状态寄存器地址, 无人状态)
2024-08-14 07:24:50.758 - 1A 27 89 12 AA 00 00 00 0F (状态寄存器地址, 无人状态)
2024-08-14 07:24:51.299 - A1 11 11 11 4D (天花供电关闭确认)
2024-08-14 07:24:51.523 - 1A EC A0 DC 02 86 86 86 0F (查询天花供电状态, 自保持开关地址-天花12V供电)
2024-08-14 07:24:51.957 - 1A EC A0 DC 02 00 01 0F (自保持开关地址-天花12V供电)
2024-08-14 07:24:54.348 - A1 11 11 11 4E (卫生供电关闭确认)
2024-08-14 07:24:54.574 - 1A EC A0 DC 04 86 86 86 0F (查询卫生间供电状态, 自保持开关地址-次卧西阳内外卫供电)
2024-08-14 07:24:55.009 - 1A EC A0 DC 04 01 00 0F (自保持开关地址-次卧西阳内外卫供电)
2024-08-14 07:24:57.389 - A1 11 11 11 4F (电视供电关闭确认)
2024-08-14 07:24:57.612 - 1A EC A0 DC 01 86 86 86 0F (查询电视供电状态, 自保持开关地址-电视、设备12V供电)
2024-08-14 07:24:58.044 - 1A EC A0 DC 01 00 01 0F (自保持开关地址-电视、设备12V供电)
2024-08-14 07:25:00.424 - 09 06 00 0F 02 02 38 20 (提示音咚)
2024-08-14 07:25:00.979 - 09 06 00 0F 02 02 38 20 (提示音咚)
2024-08-14 07:25:01.522 - EE 00 00 B1 00 00 02 FF FC FF FF (情景完成返回主页)
2024-08-14 07:25:02.622 - BA BA EE EE BA BA (离家设置信科变量)
