2024-09-10 14:22:36.064 - FF FF FF FF 0E (继电器地址-西阳小窗帘)
2024-09-10 14:22:36.200 - FF
2024-09-10 14:23:14.985 - 1A BE B0 DC 04 FC (继电器地址-西阳窗帘)
2024-09-10 14:23:18.265 - 1A BE B0 DC 09 (继电器地址-客厅窗帘)
2024-09-10 14:23:18.400 - FF
2024-09-10 14:23:29.496 - 1A BE B0 DC 02 FE (正反转地址-外卫卷帘)
2024-09-10 14:23:29.631 - FF
2024-09-10 14:23:36.748 - 1A BE B0 DC 0A (继电器地址-客厅纱帘)
2024-09-10 14:23:36.884 - FF
2024-09-10 14:24:11.406 - 1A BE B0 DC 01 FD (继电器地址-回水泵点动)
2024-09-10 14:24:11.540 - FF
2024-09-10 14:24:26.531 - 1A BE B0 DC 03 (继电器地址-西阳天幕)
2024-09-10 14:38:14.687 - FF FF FF FF 0A (继电器地址-东阳窗帘)
2024-09-10 16:01:49.955 - 1A FF FF FF 04 (继电器地址-东阳衣架)
2024-09-10 16:01:50.091 - 03
2024-09-10 17:42:40.631 - FF FF FF FF 0E (继电器地址-西阳小窗帘)
2024-09-10 17:43:09.536 - 1A BE B0 DC 04 (继电器地址-西阳窗帘)
2024-09-10 17:43:09.671 - FE
2024-09-10 17:43:42.618 - 1A BE B0 DC 09 (继电器地址-客厅窗帘)
2024-09-10 17:43:42.753 - FE
2024-09-10 17:44:01.297 - 1A BE B0 DC 02 (正反转地址-外卫卷帘)
2024-09-10 17:44:01.433 - FF
2024-09-10 17:44:09.530 - 1A BE B0 DC 0A (继电器地址-客厅纱帘)
2024-09-10 17:44:09.665 - FE
2024-09-10 17:45:02.668 - 1A BE B0 DC 01 (继电器地址-回水泵点动)
2024-09-10 17:45:02.805 - FF
2024-09-10 17:45:25.145 - 1A BE B0 DC 03 FC (继电器地址-西阳天幕)
2024-09-10 18:02:32.375 - FF FF FF FF 0A FC (继电器地址-东阳窗帘)
2024-09-10 18:02:32.511 - FF
2024-09-10 18:12:23.459 - FF
2024-09-10 19:22:55.211 - 1A FF FF FF 04 FE (继电器地址-东阳衣架)
2024-09-10 19:22:55.346 - 00
2024-09-10 20:05:39.052 - EE 00 00 B1 00 00 00 FF FC FF FF (情景执行提示)
2024-09-10 20:05:39.647 - 09 06 00 0F 02 01 78 21 (提示音叮)
2024-09-10 20:05:40.193 - A1 11 11 11 40 (客厅空调自动开)
2024-09-10 20:05:40.421 - 19 08 24 03 F0 BB 78 02 02 00
2024-09-10 20:05:40.471 - 23 AA 56 02 14 05 29 18 09 0A 02 73 65 6F 6B 65 6E 64
2024-09-10 20:05:41.431 - 01 10 07 D0 00 03 06 70 61 00 02 00 FA 6F 26 (客厅空调冷25度)
2024-09-10 20:05:41.474 - 01 10 07 D0 00 03 06 70 61 00 02 00 FA 6F 26 (客厅空调冷25度)
2024-09-10 20:05:44.278 - A1 11 11 11 41 (餐厅空调自动开)
2024-09-10 20:05:44.502 - 19 08 24 03 F0 BB 78 02 02 00
2024-09-10 20:05:44.553 - 23 AA 56 02 14 05 2D 18 09 0A 02 73 65 6F 6B 65 6E 64
2024-09-10 20:05:45.513 - 01 10 07 D3 00 03 06 70 61 00 02 00 FA 9F 29 (餐厅空调冷25度)
2024-09-10 20:05:45.552 - 01 10 07 D3 00 03 06 70 61 00 02 00 FA 9F 29 (餐厅空调冷25度)
2024-09-10 20:05:48.313 - A1 11 11 11 42 (主卧空调自动开)
2024-09-10 20:05:48.535 - 19 08 24 03 F0 BB 78 02 02 00
2024-09-10 20:05:48.586 - 23 AA 56 02 14 05 31 18 09 0A 02 73 65 6F 6B 65 6E 64
2024-09-10 20:05:49.545 - 01 10 07 D6 00 03 06 70 61 00 02 00 F0 0F 3E (主卧空调冷24度)
2024-09-10 20:05:49.582 - 01 10 07 D6 00 03 06 70 61 00 02 00 F0 0F 3E (主卧空调冷24度)
2024-09-10 20:05:50.360 - 09 06 00 0F 02 02 38 20 (提示音咚)
2024-09-10 20:05:50.911 - EE 00 00 B1 00 00 02 FF FC FF FF (情景完成返回主页)
2024-09-10 20:27:15.656 - FF
2024-09-10 20:29:08.784 - 1B 03 00 00 00 02 C6 31 (查询室外光线)
2024-09-10 20:29:08.803 - 1B 03 04 00 00 00 00 41 F2 (室外光线返回)
2024-09-10 20:29:09.582 - 1A EC A0 DC 02 00 00 01 0F (自保持开关地址-天花12V供电, 天花12V 供电开)
2024-09-10 20:29:10.154 - 1A AA AA AA 88 (调光器地址-茶吧灯带)
2024-09-10 20:29:10.272 - 1A
2024-09-10 20:29:10.286 - 01 FF FF FF 60 01 FF 60 01 FF 00 00 0F
2024-09-10 20:29:11.278 - 19 08 24 03 DD 00 0D 00 01 (调用情景-信科调用进门暗)
2024-09-10 20:29:13.332 - 1A FF 01 FF FF FF 60 01 FF 60 01 FF 00 00 0F (调光器地址-公共区域统配地址)
2024-09-10 20:29:15.419 - 1A EC A0 DC 01 00 00 01 0F (自保持开关地址-电视、设备12V供电, 12V 电视供电开)
2024-09-10 20:29:15.968 - 1A EC A0 DC 01 00 00 01 0F (自保持开关地址-电视、设备12V供电, 12V 电视供电开)
2024-09-10 20:29:16.515 - 1A EC A0 DC 04 00 01 01 0F (自保持开关地址-次卧西阳内外卫供电, 内卫外卫开)
2024-09-10 20:29:17.063 - 1A EC A0 DC 04 00 01 01 0F (自保持开关地址-次卧西阳内外卫供电, 内卫外卫开)
2024-09-10 20:29:17.609 - 1A BB BB BB 01 01 00 (开水器电源开)
2024-09-10 20:29:19.155 - 1A 27 89 12 AA 00 00 01 0F (状态寄存器地址, 有人状态)
2024-09-10 20:29:19.703 - 1A 27 89 12 AA 00 00 01 0F (状态寄存器地址, 有人状态)
2024-09-10 20:29:20.251 - 1A BE B0 DC 01 00 01 00 (继电器地址-回水泵点动, 回水泵点动)
2024-09-10 20:29:20.799 - 1A FF FF FF 56 00 00 01 0F (人体感应地址-内卫, 打开内卫感应)
2024-09-10 20:29:21.348 - 1A FF FF FF 55 00 00 01 0F (人体感应地址-外卫, 打开外卫感应)
2024-09-10 20:29:21.440 - BC BC
2024-09-10 20:29:21.896 - 1A FF FF FF 57 00 00 01 0F (人体感应地址-厨房, 打开厨房感应)
2024-09-10 20:29:22.444 - 1A FF FF FF 58 00 00 01 0F (人体感应地址-茶吧, 打开茶吧感应)
2024-09-10 20:29:22.494 - BC BC
2024-09-10 20:29:23.042 - 1A BE B0 DC 01 00 01 00 (继电器地址-回水泵点动, 回水泵点动)
2024-09-10 20:29:23.589 - A5 00 B7 FF 00 AA 22 0D (书房纱帘关)
2024-09-10 20:29:24.135 - A5 00 A2 FF 00 AA (餐厅纱帘关)
2024-09-10 20:29:24.684 - 09 06 00 0F 02 01 78 21 (提示音叮)
2024-09-10 20:29:25.233 - 09 06 00 0F 02 01 78 21 (提示音叮)
2024-09-10 20:29:25.785 - EE 00 00 B1 00 00 02 FF FC FF FF (情景完成返回主页)
2024-09-10 20:29:26.375 - A1 11 11 11 50 (天花供电打开确认)
2024-09-10 20:29:26.603 - 1A EC A0 DC 02 86 86 86 0F (查询天花供电状态, 自保持开关地址-天花12V供电)
2024-09-10 20:29:27.037 - 1A EC A0 DC 02 01 01 0F (自保持开关地址-天花12V供电)
2024-09-10 20:29:28.967 - A1 11 11 11 51 (卫生供电打开确认)
2024-09-10 20:29:29.189 - 1A EC A0 DC 04 86 86 86 0F (查询卫生间供电状态, 自保持开关地址-次卧西阳内外卫供电)
2024-09-10 20:29:29.621 - 1A EC A0 DC 04 01 01 0F (自保持开关地址-次卧西阳内外卫供电)
2024-09-10 20:29:31.508 - A1 11 11 11 52 (电视供电打开确认)
2024-09-10 20:29:31.737 - 1A EC A0 DC 01 86 86 86 0F (查询电视供电状态, 自保持开关地址-电视、设备12V供电)
2024-09-10 20:29:31.938 - 19 08 24 03 CC 01 54 00 01 (调用内卫感应灯开的按键)
2024-09-10 20:29:31.974 - 1A 0C 02 08 01 FF 45 01 FF 45 01 FF 00 00 0F (调光器地址-内卫射灯, 内卫射灯微光)
2024-09-10 20:29:32.169 - 1A EC A0 DC 01 01 01 0F (自保持开关地址-电视、设备12V供电)
2024-09-10 20:29:36.541 - A1 11 11 11 47 (天热回家开帘)
2024-09-10 20:29:36.769 - 1A 27 89 12 AA 86 86 86 0F (查询寄存器状态, 状态寄存器地址)
2024-09-10 20:29:37.153 - 1A 27 89 12 AA 01 00 00 00 00 00 00 00 00 00 00 01 00 00 00 00 0F (状态寄存器地址)
2024-09-10 20:29:37.775 - 19 08 24 03 DD 00 06 00 01 (调用情景-天热遮阳开帘)
2024-09-10 20:29:38.339 - EE 00 00 B1 00 00 00 FF FC FF FF (情景执行提示)
2024-09-10 20:29:38.934 - 09 06 00 0F 02 01 78 21 (提示音叮)
2024-09-10 20:29:39.530 - A5 00 A6 FE 01 AA (餐厅窗帘开)
2024-09-10 20:29:39.580 - 55 00 A6 02 01 66 01 74 AA 55 00 A6 02 01 66 01 74 AA (餐厅窗帘电机状态返回)
2024-09-10 20:29:40.626 - A5 00 52 FE 01 AA (主卧窗帘开)
2024-09-10 20:29:41.673 - A5 00 53 FF 00 AA (主卧纱帘开)
2024-09-10 20:29:41.725 - 55 00 53 01 00 0C 02 30 AA 55 00 53 01 00 0C 02 30 AA (主卧纱帘电机状态返回)
2024-09-10 20:29:42.771 - A5 00 76 FE 01 AA (次卧窗帘开)
2024-09-10 20:29:42.821 - 55 00 76 02 01 0E 01 1B AA 55 00 76 02 01 0E 01 1B AA (次卧窗帘电机状态返回)
2024-09-10 20:29:43.866 - A5 00 21 FE 01 AA (次卧纱帘开)
2024-09-10 20:29:43.916 - 55 00 21 02 01 27 01 34 AA 55 00 21 02 01 27 01 34 AA (次卧纱帘电机状态返回)
2024-09-10 20:29:44.964 - 1A BE B0 DC 04 00 01 00 (继电器地址-西阳窗帘, 西阳窗帘开)
2024-09-10 20:29:46.010 - FF FF FF FF 0E 00 01 00 (继电器地址-西阳小窗帘, 西阳小窗帘开)
2024-09-10 20:29:47.056 - A5 00 D2 FE 01 AA 22 0D (书房窗帘开)
2024-09-10 20:29:47.106 - 55 00 D2 02 00 FE 01 0B AA 55 00 D2 02 00 FE 01 0B AA (书房窗帘电机状态返回)
2024-09-10 20:29:48.152 - 09 06 00 0F 02 02 38 20 (提示音咚)
2024-09-10 20:29:48.270 - 40
2024-09-10 20:29:48.283 - 0E 01 74 AA 55 00 A6 00 00 0E 01 74 AA (餐厅窗帘电机状态返回)
2024-09-10 20:29:48.702 - EE 00 00 B1 00 00 02 FF FC FF FF (情景完成返回主页)
2024-09-10 20:29:49.808 - 55 00 76 00 00 0E 01 1B AA 55 00 76 00 00 0E 01 1B AA (次卧窗帘电机状态返回)
2024-09-10 20:29:51.461 - 55 00 21 00 00 0D 01 34 AA 55 00 21 00 00 0D 01 34 AA (次卧纱帘电机状态返回)
2024-09-10 20:29:51.535 - FF
2024-09-10 20:29:52.903 - 55 00 53 00 02 23 02 30 AA 55 00 53 00 02 23 02 30 AA (主卧纱帘电机状态返回)
2024-09-10 20:29:53.579 - EE 00 6E B1 01 00 03 FF FC FF FF
2024-09-10 20:29:54.152 - EE 00 6E B1 01 00 08 FF FC FF FF
2024-09-10 20:29:55.174 - 1A BE B0 DC 0A 00 01 00 (继电器地址-客厅纱帘, 客厅纱帘关)
2024-09-10 20:29:55.291 - AA
2024-09-10 20:30:09.531 - 19 08 24 03 CC 01 55 00 01 (调用内卫感应灯关的按键)
2024-09-10 20:30:09.583 - 1A 0C 02 08 01 FF 00 01 FF 00 01 FF 00 00 0F (调光器地址-内卫射灯, 内卫感应灯关)
2024-09-10 20:30:42.685 - 19 08 24 03 CC 01 CC 00 01 (调用茶吧感应灯开的按键)
2024-09-10 20:30:42.735 - 1A AA AA AA 88 FF B0 01 FF B0 01 0F (调光器地址-茶吧灯带, 茶吧灯带明亮)
2024-09-10 20:31:24.767 - 19 08 24 03 CC 00 D3 00 01 (调用厨房感应灯开的按键)
2024-09-10 20:31:24.802 - 55 0A 32 00 00 00 01 92 55 0A 32 00 00 00 02 93 (厨房顶灯一开, 厨房顶灯二开)
2024-09-10 20:31:51.820 - 19 08 24 03 CC 01 CD 00 01 (调用茶吧感应灯关的按键)
2024-09-10 20:31:51.853 - 1A AA AA AA 88 FF 00 01 FF 00 01 0F (调光器地址-茶吧灯带, 茶吧灯带关闭)
2024-09-10 20:34:30.135 - 19 08 24 03 CC 01 CC 00 01 (调用茶吧感应灯开的按键)
2024-09-10 20:34:30.166 - 1A AA AA AA 88 FF B0 01 FF B0 01 0F (调光器地址-茶吧灯带, 茶吧灯带明亮)
2024-09-10 20:34:39.649 - 19 08 24 03 CC 00 D4 00 01 (调用厨房感应灯关的按键)
2024-09-10 20:34:39.685 - 55 0A 31 00 00 00 01 91 55 0A 31 00 00 00 02 92 (厨房顶灯一关, 厨房顶灯二关)
2024-09-10 20:34:51.694 - 19 08 24 03 CC 01 CD 00 01 (调用茶吧感应灯关的按键)
2024-09-10 20:34:51.725 - 1A AA AA AA 88 FF 00 01 FF 00 01 0F (调光器地址-茶吧灯带, 茶吧灯带关闭)
2024-09-10 20:36:11.743 - 19 08 24 03 CC 01 54 00 01 (调用内卫感应灯开的按键)
2024-09-10 20:36:11.777 - 1A 0C 02 08 01 FF 45 01 FF 45 01 FF 00 00 0F (调光器地址-内卫射灯, 内卫射灯微光)
2024-09-10 20:36:14.020 - 1A 20 07 00 93 00 01 02 0F (自保持开关地址-设备区顶, 设备区顶灯开关)
2024-09-10 20:36:42.805 - 19 08 24 03 CC 01 55 00 01 (调用内卫感应灯关的按键)
2024-09-10 20:36:42.838 - 1A 0C 02 08 01 FF 00 01 FF 00 01 FF 00 00 0F (调光器地址-内卫射灯, 内卫感应灯关)
2024-09-10 20:36:43.805 - 19 08 24 03 CC 01 54 00 01 (调用内卫感应灯开的按键)
2024-09-10 20:36:43.841 - 1A 0C 02 08 01 FF 45 01 FF 45 01 FF 00 00 0F (调光器地址-内卫射灯, 内卫射灯微光)
2024-09-10 20:37:52.440 - 19 08 24 03 CC 01 55 00 01 (调用内卫感应灯关的按键)
2024-09-10 20:37:52.476 - 1A 0C 02 08 01 FF 00 01 FF 00 01 FF 00 00 0F (调光器地址-内卫射灯, 内卫感应灯关)
2024-09-10 20:37:57.450 - 19 08 24 03 CC 01 54 00 01 (调用内卫感应灯开的按键)
2024-09-10 20:37:57.486 - 1A 0C 02 08 01 FF 45 01 FF 45 01 FF 00 00 0F (调光器地址-内卫射灯, 内卫射灯微光)
2024-09-10 20:38:17.491 - 19 08 24 03 CC 01 55 00 01 (调用内卫感应灯关的按键)
2024-09-10 20:38:17.525 - 1A 0C 02 08 01 FF 00 01 FF 00 01 FF 00 00 0F (调光器地址-内卫射灯, 内卫感应灯关)
2024-09-10 20:38:19.995 - 19 08 24 03 CC 01 54 00 01 (调用内卫感应灯开的按键)
2024-09-10 20:38:20.029 - 1A 0C 02 08 01 FF 45 01 FF 45 01 FF 00 00 0F (调光器地址-内卫射灯, 内卫射灯微光)
2024-09-10 20:38:45.545 - 19 08 24 03 CC 01 55 00 01 (调用内卫感应灯关的按键)
2024-09-10 20:38:45.579 - 1A 0C 02 08 01 FF 00 01 FF 00 01 FF 00 00 0F (调光器地址-内卫射灯, 内卫感应灯关)
2024-09-10 20:38:52.559 - 19 08 24 03 CC 01 54 00 01 (调用内卫感应灯开的按键)
2024-09-10 20:38:52.593 - 1A 0C 02 08 01 FF 45 01 FF 45 01 FF 00 00 0F (调光器地址-内卫射灯, 内卫射灯微光)
2024-09-10 20:39:09.593 - 19 08 24 03 CC 01 55 00 01 (调用内卫感应灯关的按键)
2024-09-10 20:39:09.627 - 1A 0C 02 08 01 FF 00 01 FF 00 01 FF 00 00 0F (调光器地址-内卫射灯, 内卫感应灯关)
2024-09-10 20:40:01.195 - 19 08 24 03 CC 01 54 00 01 (调用内卫感应灯开的按键)
2024-09-10 20:40:01.227 - 1A 0C 02 08 01 FF 45 01 FF 45 01 FF 00 00 0F (调光器地址-内卫射灯, 内卫射灯微光)
2024-09-10 20:40:29.750 - 19 08 24 03 CC 01 55 00 01 (调用内卫感应灯关的按键)
2024-09-10 20:40:29.785 - 1A 0C 02 08 01 FF 00 01 FF 00 01 FF 00 00 0F (调光器地址-内卫射灯, 内卫感应灯关)
2024-09-10 20:40:44.780 - 19 08 24 03 CC 01 54 00 01 (调用内卫感应灯开的按键)
2024-09-10 20:40:44.814 - 1A 0C 02 08 01 FF 45 01 FF 45 01 FF 00 00 0F (调光器地址-内卫射灯, 内卫射灯微光)
2024-09-10 20:41:01.813 - 19 08 24 03 CC 01 55 00 01 (调用内卫感应灯关的按键)
2024-09-10 20:41:01.850 - 1A 0C 02 08 01 FF 00 01 FF 00 01 FF 00 00 0F (调光器地址-内卫射灯, 内卫感应灯关)
2024-09-10 20:41:42.895 - 19 08 24 03 CC 01 54 00 01 (调用内卫感应灯开的按键)
2024-09-10 20:41:42.928 - 1A 0C 02 08 01 FF 45 01 FF 45 01 FF 00 00 0F (调光器地址-内卫射灯, 内卫射灯微光)
2024-09-10 20:42:32.994 - 19 08 24 03 CC 01 55 00 01 (调用内卫感应灯关的按键)
2024-09-10 20:42:33.027 - 1A 0C 02 08 01 FF 00 01 FF 00 01 FF 00 00 0F (调光器地址-内卫射灯, 内卫感应灯关)
2024-09-10 20:44:12.690 - 19 08 24 03 CC 01 54 00 01 (调用内卫感应灯开的按键)
2024-09-10 20:44:12.725 - 1A 0C 02 08 01 FF 45 01 FF 45 01 FF 00 00 0F (调光器地址-内卫射灯, 内卫射灯微光)
2024-09-10 20:44:38.240 - 19 08 24 03 CC 01 55 00 01 (调用内卫感应灯关的按键)
2024-09-10 20:44:38.274 - 1A 0C 02 08 01 FF 00 01 FF 00 01 FF 00 00 0F (调光器地址-内卫射灯, 内卫感应灯关)
2024-09-10 20:46:21.554 - 19 08 24 03 CC 01 CC 00 01 (调用茶吧感应灯开的按键)
2024-09-10 20:46:21.585 - 1A AA AA AA 88 FF B0 01 FF B0 01 0F (调光器地址-茶吧灯带, 茶吧灯带明亮)
2024-09-10 20:46:25.035 - 19 08 24 03 CC 00 D3 00 01 (调用厨房感应灯开的按键)
2024-09-10 20:46:25.072 - 55 0A 32 00 00 00 01 92 55 0A 32 00 00 00 02 93 (厨房顶灯一开, 厨房顶灯二开)
2024-09-10 20:46:35.081 - 19 08 24 03 CC 01 CD 00 01 (调用茶吧感应灯关的按键)
2024-09-10 20:46:35.112 - 1A AA AA AA 88 FF 00 01 FF 00 01 0F (调光器地址-茶吧灯带, 茶吧灯带关闭)
2024-09-10 20:49:42.952 - 19 08 24 03 CC 01 CC 00 01 (调用茶吧感应灯开的按键)
2024-09-10 20:49:42.984 - 1A AA AA AA 88 FF B0 01 FF B0 01 0F (调光器地址-茶吧灯带, 茶吧灯带明亮)
2024-09-10 20:49:54.976 - 19 08 24 03 CC 01 CD 00 01 (调用茶吧感应灯关的按键)
2024-09-10 20:49:55.005 - 1A AA AA AA 88 FF 00 01 FF 00 01 0F (调光器地址-茶吧灯带, 茶吧灯带关闭)
2024-09-10 20:50:23.006 - 19 08 24 03 CC 00 D4 00 01 (调用厨房感应灯关的按键)
2024-09-10 20:50:23.039 - 55 0A 31 00 00 00 01 91 55 0A 31 00 00 00 02 92 (厨房顶灯一关, 厨房顶灯二关)
2024-09-10 20:50:27.544 - FF
2024-09-10 20:51:49.201 - 19 08 24 03 CC 01 CC 00 01 (调用茶吧感应灯开的按键)
2024-09-10 20:51:49.250 - 1A AA AA AA 88 FF B0 01 FF B0 01 0F (调光器地址-茶吧灯带, 茶吧灯带明亮)
2024-09-10 20:51:51.177 - 19 08 24 03 CC 00 D3 00 01 (调用厨房感应灯开的按键)
2024-09-10 20:51:51.231 - 55 0A 32 00 00 00 01 92 55 0A 32 00 00 00 02 93 (厨房顶灯一开, 厨房顶灯二开)
2024-09-10 20:52:01.726 - 19 08 24 03 CC 01 CD 00 01 (调用茶吧感应灯关的按键)
2024-09-10 20:52:01.757 - 1A AA AA AA 88 FF 00 01 FF 00 01 0F (调光器地址-茶吧灯带, 茶吧灯带关闭)
2024-09-10 20:56:02.201 - 19 08 24 03 CC 01 CC 00 01 (调用茶吧感应灯开的按键)
2024-09-10 20:56:02.232 - 1A AA AA AA 88 FF B0 01 FF B0 01 0F (调光器地址-茶吧灯带, 茶吧灯带明亮)
2024-09-10 20:56:14.731 - 19 08 24 03 CC 01 CD 00 01 (调用茶吧感应灯关的按键)
2024-09-10 20:56:14.757 - 1A AA AA AA 88 FF 00 01 FF 00 01 0F (调光器地址-茶吧灯带, 茶吧灯带关闭)
2024-09-10 20:56:42.751 - 19 08 24 03 CC 00 D4 00 01 (调用厨房感应灯关的按键)
2024-09-10 20:56:42.785 - 55 0A 31 00 00 00 01 91 55 0A 31 00 00 00 02 92 (厨房顶灯一关, 厨房顶灯二关)
2024-09-10 21:00:30.247 - 1A 27 89 12 73 FF 00 33 20 00
2024-09-10 21:00:31.667 - 1A FF FF FF FF 00 00 01 0F
2024-09-10 21:00:33.058 - 1A FF FF FF FF 00 00 01 0F
2024-09-10 21:00:33.784 - 1A AA AA AA 94 FF 00 00 FF 70 01 0F
2024-09-10 21:00:34.535 - EE 00 00 B1 00 00 00 FF FC FF FF (情景执行提示)
2024-09-10 21:00:35.236 - 1A AA AA AA 63 FF 00 00 FF 70 01 0F
2024-09-10 21:00:35.938 - 1A AA AA AA 4A FF 00 00 FF 70 01 0F
2024-09-10 21:00:37.352 - 1A FF FF FF FF 00 01 01 0F
2024-09-10 21:00:38.745 - 1A FF FF FF FF 00 01 01 0F
2024-09-10 21:00:39.472 - 1A AA AA AA 8A FF 00 00 FF 70 01 0F
2024-09-10 21:00:40.222 - 1A AA AA AA 25 FF 00 00 FF 70 01 0F
2024-09-10 21:00:41.587 - 1A FF FF FF 20 00 00 01 0F
2024-09-10 21:00:42.983 - 1A FF FF FF 20 00 00 01 0F
2024-09-10 21:00:43.704 - 1A FF FF FF 25 30 77 88 0F
2024-09-10 21:00:44.403 - 1A FF FF FF 25 30 77 88 0F
2024-09-10 21:00:46.268 - 97 23 12 43 DD 00 15 00 01
2024-09-10 21:00:46.469 - DD 00 15 08 01
2024-09-10 21:00:48.160 - 97 23 12 43 DD 00 15 00 01
2024-09-10 21:00:48.401 - DD 00 15 08 01
2024-09-10 21:00:49.556 - 1A FF FF FF 25 00 01 01 0F
2024-09-10 21:00:50.948 - 1A FF FF FF 25 00 01 01 0F
2024-09-10 21:00:51.675 - 1A AA AA AA 94 FF 70 01 FF 00 00 0F
2024-09-10 21:00:52.376 - 1A AA AA AA 63 FF 70 01 FF 00 00 0F
2024-09-10 21:00:53.077 - 1A AA AA AA 4A FF 70 01 FF 00 00 0F
2024-09-10 21:00:53.826 - 1A AA AA AA 8A FF 70 01 FF 00 00 0F
2024-09-10 21:00:54.528 - 1A AA AA AA 25 FF 70 01 FF 00 00 0F
2024-09-10 21:00:55.224 - FF FF FF FF 03 00 02 00
2024-09-10 21:00:55.973 - A5 00 B7 FF 00 AA
2024-09-10 21:00:58.720 - 1A 27 89 12 73 FF 00 33 20 00
2024-09-10 21:00:59.422 - 1A 27 89 12 73 FF 00 33 20 00
2024-09-10 21:01:01.121 - 1A FF FF FF 12 0C 00 01 (机柜光感关闭)
2024-09-10 21:01:02.399 - 1A BE B0 DC 01 00 01 00 (继电器地址-回水泵点动, 回水泵点动)
2024-09-10 21:01:03.626 - 1A BE B0 DC 01 00 01 00 (继电器地址-回水泵点动, 回水泵点动)
2024-09-10 21:01:05.827 - 1A BE B0 DC 01 00 01 00 (继电器地址-回水泵点动, 回水泵点动)
2024-09-10 21:01:06.529 - B7 23 12 43 DD 00 1D 00 01
2024-09-10 21:01:11.784 - 09 06 00 0F 02 01 78 21 (提示音叮)
2024-09-10 21:01:12.534 - 09 06 00 0F 02 01 78 21 (提示音叮)
2024-09-10 21:01:13.235 - 1A 27 89 12 AA 00 00 01 0F (状态寄存器地址, 有人状态)
2024-09-10 21:01:13.938 - 1A 27 89 12 AA 00 00 01 0F (状态寄存器地址, 有人状态)
2024-09-10 21:01:14.691 - EE 00 00 B1 00 00 02 FF FC FF FF (情景完成返回主页)
2024-09-10 21:01:15.385 - A1 11 11 11 47 (天热回家开帘)
2024-09-10 21:01:15.616 - 1A 27 89 12 AA 86 86 86 0F (查询寄存器状态, 状态寄存器地址)
2024-09-10 21:01:15.999 - 1A 27 89 12 AA 01 00 00 00 00 00 00 00 00 00 00 01 00 00 00 00 0F (状态寄存器地址)
2024-09-10 21:01:16.621 - 19 08 24 03 DD 00 06 00 01 (调用情景-天热遮阳开帘)
2024-09-10 21:01:17.153 - EE 00 00 B1 00 00 00 FF FC FF FF (情景执行提示)
2024-09-10 21:01:17.776 - 09 06 00 0F 02 01 78 21 (提示音叮)
2024-09-10 21:01:18.343 - A5 00 A6 FE 01 AA (餐厅窗帘开)
2024-09-10 21:01:19.390 - A5 00 52 FE 01 AA (主卧窗帘开)
2024-09-10 21:01:20.436 - A5 00 53 FF 00 AA (主卧纱帘开)
2024-09-10 21:01:21.482 - A5 00 76 FE 01 AA (次卧窗帘开)
2024-09-10 21:01:22.529 - A5 00 21 FE 01 AA (次卧纱帘开)
2024-09-10 21:01:23.577 - 1A BE B0 DC 04 00 01 00 (继电器地址-西阳窗帘, 西阳窗帘开)
2024-09-10 21:01:24.624 - FF FF FF FF 0E 00 01 00 (继电器地址-西阳小窗帘, 西阳小窗帘开)
2024-09-10 21:01:25.669 - A5 00 D2 FE 01 AA 22 0D (书房窗帘开)
2024-09-10 21:01:26.717 - 09 06 00 0F 02 02 38 20 (提示音咚)
2024-09-10 21:01:27.267 - EE 00 00 B1 00 00 02 FF FC FF FF (情景完成返回主页)
2024-09-10 21:03:46.164 - 19 08 24 03 CC 01 CC 00 01 (调用茶吧感应灯开的按键)
2024-09-10 21:03:46.194 - 1A AA AA AA 88 FF B0 01 FF B0 01 0F (调光器地址-茶吧灯带, 茶吧灯带明亮)
2024-09-10 21:03:48.215 - 19 08 24 03 CC 00 D3 00 01 55 0A 32 00 00 00 01 92 55 0A 32 00 00 00 02 93 (调用厨房感应灯开的按键, 厨房顶灯一开, 厨房顶灯二开)
2024-09-10 21:03:58.186 - 19 08 24 03 CC 01 CD 00 01 (调用茶吧感应灯关的按键)
2024-09-10 21:03:58.217 - 1A AA AA AA 88 FF 00 01 FF 00 01 0F (调光器地址-茶吧灯带, 茶吧灯带关闭)
2024-09-10 21:06:37.501 - 19 08 24 03 CC 01 CC 00 01 (调用茶吧感应灯开的按键)
2024-09-10 21:06:37.532 - 1A AA AA AA 88 FF B0 01 FF B0 01 0F (调光器地址-茶吧灯带, 茶吧灯带明亮)
2024-09-10 21:06:51.029 - 19 08 24 03 CC 01 CD 00 01 (调用茶吧感应灯关的按键)
2024-09-10 21:06:51.058 - 1A AA AA AA 88 FF 00 01 FF 00 01 0F (调光器地址-茶吧灯带, 茶吧灯带关闭)
2024-09-10 21:07:18.503 - 19 08 24 03 CC 00 D4 00 01 (调用厨房感应灯关的按键)
2024-09-10 21:07:18.538 - 55 0A 31 00 00 00 01 91 55 0A 31 00 00 00 02 92 (厨房顶灯一关, 厨房顶灯二关)
2024-09-10 21:10:30.855 - 1A 27 89 12 73 FF 00 33 20 00
2024-09-10 21:10:32.262 - 1A FF FF FF FF 00 00 01 0F
2024-09-10 21:10:33.655 - 1A FF FF FF FF 00 00 01 0F
2024-09-10 21:10:34.382 - 1A AA AA AA 94 FF 00 00 FF 70 01 0F
2024-09-10 21:10:35.080 - EE 00 00 B1 00 00 00 FF FC FF FF (情景执行提示)
2024-09-10 21:10:35.832 - 1A AA AA AA 63 FF 00 00 FF 70 01 0F
2024-09-10 21:10:36.533 - 1A AA AA AA 4A FF 00 00 FF 70 01 0F
2024-09-10 21:10:37.898 - 1A FF FF FF FF 00 01 01 0F
2024-09-10 21:10:39.291 - 1A FF FF FF FF 00 01 01 0F
2024-09-10 21:10:40.016 - 1A AA AA AA 8A FF 00 00 FF 70 01 0F
2024-09-10 21:10:40.865 - 1A AA AA AA 25 FF 00 00 FF 70 01 0F
2024-09-10 21:10:42.284 - 1A FF FF FF 20 00 00 01 0F
2024-09-10 21:10:43.723 - 1A FF FF FF 20 00 00 01 0F
2024-09-10 21:10:44.477 - 1A FF FF FF 25 30 77 88 0F
2024-09-10 21:10:45.200 - 1A FF FF FF 25 30 77 88 0F
2024-09-10 21:10:47.064 - 97 23 12 43 DD 00 15 00 01
2024-09-10 21:10:47.303 - DD 00 15 08 01
2024-09-10 21:10:48.956 - 97 23 12 43 DD 00 15 00 01
2024-09-10 21:10:49.198 - DD 00 15 08 01
2024-09-10 21:10:50.354 - 1A FF FF FF 25 00 01 01 0F
2024-09-10 21:10:51.746 - 1A FF FF FF 25 00 01 01 0F
2024-09-10 21:10:52.472 - 1A AA AA AA 94 FF 70 01 FF 00 00 0F
2024-09-10 21:10:53.222 - 1A AA AA AA 63 FF 70 01 FF 00 00 0F
2024-09-10 21:10:53.922 - 1A AA AA AA 4A FF 70 01 FF 00 00 0F
2024-09-10 21:10:54.623 - 1A AA AA AA 8A FF 70 01 FF 00 00 0F
2024-09-10 21:10:55.375 - 1A AA AA AA 25 FF 70 01 FF 00 00 0F
2024-09-10 21:10:56.070 - FF FF FF FF 03 00 02 00
2024-09-10 21:10:56.770 - A5 00 B7 FF 00 AA
2024-09-10 21:10:59.518 - 1A 27 89 12 73 FF 00 33 20 00
2024-09-10 21:11:00.269 - 1A 27 89 12 73 FF 00 33 20 00
2024-09-10 21:11:01.969 - 1A FF FF FF 12 0C 00 01 (机柜光感关闭)
2024-09-10 21:11:03.170 - 1A BE B0 DC 01 00 01 00 (继电器地址-回水泵点动, 回水泵点动)
2024-09-10 21:11:04.371 - 1A BE B0 DC 01 00 01 00 (继电器地址-回水泵点动, 回水泵点动)
2024-09-10 21:11:06.575 - 1A BE B0 DC 01 00 01 00 (继电器地址-回水泵点动, 回水泵点动)
2024-09-10 21:11:07.279 - B7 23 12 43 DD 00 1D 00 01
2024-09-10 21:11:12.480 - 09 06 00 0F 02 01 78 21 (提示音叮)
2024-09-10 21:11:13.181 - 09 06 00 0F 02 01 78 21 (提示音叮)
2024-09-10 21:11:13.934 - 1A 27 89 12 AA 00 00 01 0F (状态寄存器地址, 有人状态)
2024-09-10 21:11:14.633 - 1A 27 89 12 AA 00 00 01 0F (状态寄存器地址, 有人状态)
2024-09-10 21:11:15.337 - EE 00 00 B1 00 00 02 FF FC FF FF (情景完成返回主页)
2024-09-10 21:11:16.082 - A1 11 11 11 47 (天热回家开帘)
2024-09-10 21:11:16.303 - 1A 27 89 12 AA 86 86 86 0F (查询寄存器状态, 状态寄存器地址)
2024-09-10 21:11:16.687 - 1A 27 89 12 AA 01 00 00 00 00 00 00 00 00 00 00 01 00 00 00 00 0F (状态寄存器地址)
2024-09-10 21:11:17.307 - 19 08 24 03 DD 00 06 00 01 (调用情景-天热遮阳开帘)
2024-09-10 21:11:17.877 - EE 00 00 B1 00 00 00 FF FC FF FF (情景执行提示)
2024-09-10 21:11:18.472 - 09 06 00 0F 02 01 78 21 (提示音叮)
2024-09-10 21:11:19.019 - A5 00 A6 FE 01 AA (餐厅窗帘开)
2024-09-10 21:11:20.064 - A5 00 52 FE 01 AA (主卧窗帘开)
2024-09-10 21:11:21.111 - A5 00 53 FF 00 AA (主卧纱帘开)
2024-09-10 21:11:22.156 - A5 00 76 FE 01 AA (次卧窗帘开)
2024-09-10 21:11:23.204 - A5 00 21 FE 01 AA (次卧纱帘开)
2024-09-10 21:11:24.251 - 1A BE B0 DC 04 00 01 00 (继电器地址-西阳窗帘, 西阳窗帘开)
2024-09-10 21:11:25.299 - FF FF FF FF 0E 00 01 00 (继电器地址-西阳小窗帘, 西阳小窗帘开)
2024-09-10 21:11:26.344 - A5 00 D2 FE 01 AA 22 0D (书房窗帘开)
2024-09-10 21:11:27.392 - 09 06 00 0F 02 02 38 20 (提示音咚)
2024-09-10 21:11:27.942 - EE 00 00 B1 00 00 02 FF FC FF FF (情景完成返回主页)
2024-09-10 21:11:57.873 - 1A BE B0 DC 04 FC (继电器地址-西阳窗帘)
2024-09-10 21:11:59.089 - 1A 27 89 12 73 FF 00 33 20 00
2024-09-10 21:12:00.458 - 1A FF FF FF FF 00 00 01 0F
2024-09-10 21:12:01.850 - 1A FF FF FF FF 00 00 01 0F
2024-09-10 21:12:02.575 - 1A AA AA AA 94 FF 00 00 FF 70 01 0F
2024-09-10 21:12:03.274 - EE 00 00 B1 00 00 00 FF FC FF FF (情景执行提示)
2024-09-10 21:12:03.977 - 1A AA AA AA 63 FF 00 00 FF 70 01 0F
2024-09-10 21:12:04.728 - 1A AA AA AA 4A FF 00 00 FF 70 01 0F
2024-09-10 21:12:06.094 - 1A FF FF FF FF 00 01 01 0F
2024-09-10 21:12:07.486 - 1A FF FF FF FF 00 01 01 0F
2024-09-10 21:12:08.214 - 1A AA AA AA 8A FF 00 00 FF 70 01 0F
2024-09-10 21:12:08.913 - 1A AA AA AA 25 FF 00 00 FF 70 01 0F
2024-09-10 21:12:10.279 - 1A FF FF FF 20 00 00 01 0F
2024-09-10 21:12:11.673 - 1A FF FF FF 20 00 00 01 0F
2024-09-10 21:12:12.398 - 1A FF FF FF 25 30 77 88 0F
2024-09-10 21:12:13.095 - 1A FF FF FF 25 30 77 88 0F
2024-09-10 21:12:15.038 - 97 23 12 43 DD 00 15 00 01
2024-09-10 21:12:15.238 - DD 00 15 08 01
2024-09-10 21:12:16.952 - 97 23 12 43 DD 00 15 00 01
2024-09-10 21:12:17.193 - DD 00 15 08 01
2024-09-10 21:12:18.349 - 1A FF FF FF 25 00 01 01 0F
2024-09-10 21:12:19.740 - 1A FF FF FF 25 00 01 01 0F
2024-09-10 21:12:20.466 - 1A AA AA AA 94 FF 70 01 FF 00 00 0F
2024-09-10 21:12:21.167 - 1A AA AA AA 63 FF 70 01 FF 00 00 0F
2024-09-10 21:12:21.919 - 1A AA AA AA 4A FF 70 01 FF 00 00 0F
2024-09-10 21:12:22.621 - 1A AA AA AA 8A FF 70 01 FF 00 00 0F
2024-09-10 21:12:23.320 - 1A AA AA AA 25 FF 70 01 FF 00 00 0F
2024-09-10 21:12:24.073 - FF FF FF FF 03 00 02 00
2024-09-10 21:12:24.765 - A5 00 B7 FF 00 AA
2024-09-10 21:12:27.465 - 1A 27 89 12 73 FF 00 33 20 00
2024-09-10 21:12:28.167 - 1A 27 89 12 73 FF 00 33 20 00
2024-09-10 21:12:29.941 - 1A FF FF FF 12 0C 00 01 (机柜光感关闭)
2024-09-10 21:12:31.164 - 1A BE B0 DC 01 00 01 00 (继电器地址-回水泵点动, 回水泵点动)
2024-09-10 21:12:32.366 - 1A BE B0 DC 01 00 01 00 (继电器地址-回水泵点动, 回水泵点动)
2024-09-10 21:12:34.568 - 1A BE B0 DC 01 00 01 00 (继电器地址-回水泵点动, 回水泵点动)
2024-09-10 21:12:35.271 - B7 23 12 43 DD 00 1D 00 01
2024-09-10 21:12:40.475 - 09 06 00 0F 02 01 78 21 (提示音叮)
2024-09-10 21:12:40.801 - 19 08 24 03 CC 01 CC 00 01 (调用茶吧感应灯开的按键)
2024-09-10 21:12:40.807 - 1A AA AA AA 88 FF B0 01 FF B0 01 0F (调光器地址-茶吧灯带, 茶吧灯带明亮)
2024-09-10 21:12:41.176 - 09 06 00 0F 02 01 78 21 (提示音叮)
2024-09-10 21:12:41.937 - 1A 27 89 12 AA 00 00 01 0F (状态寄存器地址, 有人状态)
2024-09-10 21:12:42.579 - 1A 27 89 12 AA 00 00 01 0F (状态寄存器地址, 有人状态)
2024-09-10 21:12:43.208 - 19 08 24 03 CC 00 D3 00 01 (调用厨房感应灯开的按键)
2024-09-10 21:12:43.244 - 55 0A 32 00 00 00 01 92 55 0A 32 00 00 00 02 93 (厨房顶灯一开, 厨房顶灯二开)
2024-09-10 21:12:44.027 - A1 11 11 11 47 (天热回家开帘)
2024-09-10 21:12:44.252 - 1A 27 89 12 AA 86 86 86 0F (查询寄存器状态, 状态寄存器地址)
2024-09-10 21:12:44.636 - 1A 27 89 12 AA 01 00 00 00 00 00 00 00 00 00 00 01 00 00 00 00 0F (状态寄存器地址)
2024-09-10 21:12:45.255 - 19 08 24 03 DD 00 06 00 01 (调用情景-天热遮阳开帘)
2024-09-10 21:12:45.796 - EE 00 00 B1 00 00 00 FF FC FF FF (情景执行提示)
2024-09-10 21:12:46.392 - 09 06 00 0F 02 01 78 21 (提示音叮)
2024-09-10 21:12:46.938 - A5 00 A6 FE 01 AA (餐厅窗帘开)
2024-09-10 21:12:47.984 - A5 00 52 FE 01 AA (主卧窗帘开)
2024-09-10 21:12:49.031 - A5 00 53 FF 00 AA (主卧纱帘开)
2024-09-10 21:12:50.077 - A5 00 76 FE 01 AA (次卧窗帘开)
2024-09-10 21:12:51.123 - A5 00 21 FE 01 AA (次卧纱帘开)
2024-09-10 21:12:52.172 - 1A BE B0 DC 04 00 01 00 (继电器地址-西阳窗帘, 西阳窗帘开)
2024-09-10 21:12:53.219 - FF FF FF FF 0E 00 01 00 (继电器地址-西阳小窗帘, 西阳小窗帘开)
2024-09-10 21:12:53.290 - 19 08 24 03 CC 01 CD 00 01 (调用茶吧感应灯关的按键)
2024-09-10 21:12:53.337 - 1A AA AA AA 88 FF 00 01 FF 00 01 0F (调光器地址-茶吧灯带, 茶吧灯带关闭)
2024-09-10 21:12:54.714 - A5 00 D2 FE 01 AA 22 0D (书房窗帘开)
2024-09-10 21:12:55.760 - 09 06 00 0F 02 02 38 20 (提示音咚)
2024-09-10 21:12:56.311 - EE 00 00 B1 00 00 02 FF FC FF FF (情景完成返回主页)
2024-09-10 21:16:38.841 - FF FF FF FF 0E (继电器地址-西阳小窗帘)
2024-09-10 21:16:38.976 - FF
2024-09-10 21:16:57.771 - 19 08 24 03 CC 01 CC 00 01 (调用茶吧感应灯开的按键)
2024-09-10 21:16:57.820 - 1A AA AA AA 88 FF B0 01 FF B0 01 0F (调光器地址-茶吧灯带, 茶吧灯带明亮)
2024-09-10 21:17:10.652 - 19 08 24 03 DD 00 42 00 01 (调用情景-主卧电视空调)
2024-09-10 21:17:11.194 - EE 00 00 B1 00 00 00 FF FC FF FF (情景执行提示)
2024-09-10 21:17:11.787 - 09 06 00 0F 02 01 78 21 (提示音叮)
2024-09-10 21:17:12.307 - 19 08 24 03 CC 01 CD 00 01 (调用茶吧感应灯关的按键)
2024-09-10 21:17:12.339 - 1A AA AA AA 88 FF 00 01 FF 00 01 0F (调光器地址-茶吧灯带, 茶吧灯带关闭)
2024-09-10 21:17:12.733 - 50 F0 05 (开主卧影视)
2024-09-10 21:17:13.277 - 50 F0 04 (开内卫影视)
2024-09-10 21:17:13.832 - 1A FF FF FF 56 00 00 00 0F (人体感应地址-内卫, 关闭内卫感应)
2024-09-10 21:17:14.379 - 1A 22 33 62 0F 00 02 01 0F (正反转地址-内卫卷帘, 内卫卷帘降)
2024-09-10 21:17:14.925 - A5 00 53 FE 01 AA (主卧纱帘关)
2024-09-10 21:17:14.976 - 55 00 53 02 02 23 02 30 AA 55 00 53 02 02 23 02 30 AA (主卧纱帘电机状态返回)
2024-09-10 21:17:16.021 - A5 00 52 FF 00 AA (主卧窗帘关)
2024-09-10 21:17:17.127 - 1A 0C 02 04 FF FF 45 01 FF 45 01 FF 00 00 0F (主卧调光微光)
2024-09-10 21:17:18.009 - 1A 20 07 00 93 00 01 02 0F (自保持开关地址-设备区顶, 设备区顶灯开关)
2024-09-10 21:17:20.348 - FF
2024-09-10 21:17:21.212 - 1A 0C 02 08 01 FF 45 01 FF 45 01 FF 00 00 0F (调光器地址-内卫射灯, 内卫射灯微光)
2024-09-10 21:17:21.799 - 50 F1 25 (主卧—有线2)
2024-09-10 21:17:22.348 - A1 11 11 11 42 (主卧空调自动开)
2024-09-10 21:17:22.578 - 19 08 24 03 F0 BB 78 02 02 00
2024-09-10 21:17:22.629 - 23 AA 56 02 15 11 17 18 09 0A 02 73 65 6F 6B 65 6E 64
2024-09-10 21:17:22.894 - 50 F1 24 (内卫—有线2)
2024-09-10 21:17:23.587 - 01 10 07 D6 00 03 06 70 61 00 02 00 F0 0F 3E (主卧空调冷24度)
2024-09-10 21:17:23.626 - 01 10 07 D6 00 03 06 70 61 00 02 00 F0 0F 3E (主卧空调冷24度)
2024-09-10 21:17:24.941 - AF BF CF DF C2 21 (有线2/快捷-凤凰卫视)
2024-09-10 21:17:25.838 - 55 00 53 00 00 0C 02 30 AA 55 00 53 00 00 0C 02 30 AA (主卧纱帘电机状态返回)
2024-09-10 21:17:26.986 - 1A FF FF FF 60 0B 01 01 0F (红外总线地址-主卧发射设备, 主卧电视电源)
2024-09-10 21:17:27.503 - F0 0B 01 08
2024-09-10 21:17:28.249 - 55 20 20 00 02 09 02 16 AA 55 20 20 00 02 09 02 16 AA (主卧窗帘电机状态返回)
2024-09-10 21:17:35.013 - 09 06 00 0F 02 02 38 20 (提示音咚)
2024-09-10 21:17:35.564 - EE 00 00 B1 00 00 02 FF FC FF FF (情景完成返回主页)
2024-09-10 21:17:39.806 - 19 08 24 03 CC 00 D4 00 01 (调用厨房感应灯关的按键)
2024-09-10 21:17:39.859 - 55 0A 31 00 00 00 01 91 55 0A 31 00 00 00 02 92 (厨房顶灯一关, 厨房顶灯二关)
2024-09-10 21:18:33.843 - 1A BE B0 DC 09 FC (继电器地址-客厅窗帘)
2024-09-10 21:19:33.744 - 1A BE B0 DC 02 (正反转地址-外卫卷帘)
2024-09-10 21:19:33.880 - FE
2024-09-10 21:20:33.882 - 1A BE B0 DC 01 FF (继电器地址-回水泵点动)
2024-09-10 21:21:33.948 - 1A BE B0 DC 03 FD (继电器地址-西阳天幕)
2024-09-10 21:21:34.084 - FF
2024-09-10 21:30:21.558 - 19 08 24 03 CC 01 3E 00 01
2024-09-10 21:30:23.295 - 19 08 24 03 CC 01 3E 00 01
2024-09-10 21:30:25.884 - 19 08 24 03 CC 01 3F 00 01
2024-09-10 21:30:27.128 - 19 08 24 03 CC 01 3E 00 01
2024-09-10 21:30:29.626 - 19 08 24 03 CC 01 3E 00 01
2024-09-10 21:30:30.719 - 19 08 24 03 CC 01 3F 00 01
2024-09-10 21:30:34.159 - 19 08 24 03 CC 01 3E 00 01
2024-09-10 21:30:35.724 - 19 08 24 03 CC 01 3E 00 01
2024-09-10 21:30:36.748 - 19 08 24 03 CC 01 3E 00 01
2024-09-10 21:30:37.612 - 19 08 24 03 CC 01 3F 00 01
2024-09-10 21:30:43.498 - 19 08 24 03 CC 01 3E 00 01
2024-09-10 21:30:44.421 - 19 08 24 03 CC 01 3F 00 01
2024-09-10 21:30:46.801 - 19 08 24 03 CC 01 3F 00 01
2024-09-10 21:31:13.033 - EE 00 00 B1 00 00 00 FF FC FF FF (情景执行提示)
2024-09-10 21:31:13.627 - 09 06 00 0F 02 02 38 20 (提示音咚)
2024-09-10 21:31:14.172 - 50 F7 01 (全屋影音全关)
2024-09-10 21:31:14.725 - 01 06 07 D0 FF 60 C8 9F (客厅空调关)
2024-09-10 21:31:14.759 - 01 06 07 D0 FF 60 C8 9F (客厅空调关)
2024-09-10 21:31:15.351 - 01 06 07 D0 FF 60 C8 9F (客厅空调关)
2024-09-10 21:31:15.386 - 01 06 07 D0 FF 60 C8 9F (客厅空调关)
2024-09-10 21:31:15.921 - 01 06 07 D3 FF 60 38 9F (餐厅空调关)
2024-09-10 21:31:15.951 - 01 06 07 D3 FF 60 38 9F (餐厅空调关)
2024-09-10 21:31:16.519 - 01 06 07 D3 FF 60 38 9F (餐厅空调关)
2024-09-10 21:31:16.547 - 01 06 07 D3 FF 60 38 9F (餐厅空调关)
2024-09-10 21:31:17.117 - 01 06 07 D6 FF 60 28 9E (主卧空调关)
2024-09-10 21:31:17.153 - 01 06 07 D6 FF 60 28 9E (主卧空调关)
2024-09-10 21:31:17.715 - 01 06 07 D6 FF 60 28 9E (主卧空调关)
2024-09-10 21:31:17.749 - 01 06 07 D6 FF 60 28 9E (主卧空调关)
2024-09-10 21:31:18.313 - 01 06 07 D9 FF 60 18 9D (次卧空调关)
2024-09-10 21:31:18.344 - 01 06 07 D9 FF 60 18 9D (次卧空调关)
2024-09-10 21:31:18.911 - 01 06 07 D9 FF 60 18 9D (次卧空调关)
2024-09-10 21:31:18.942 - 01 06 07 D9 FF 60 18 9D (次卧空调关)
2024-09-10 21:31:19.508 - 01 06 07 DC FF 60 08 9C (书房空调关)
2024-09-10 21:31:19.538 - 01 06 07 DC FF 60 08 9C (书房空调关)
2024-09-10 21:31:20.107 - 01 06 07 DC FF 60 08 9C (书房空调关)
2024-09-10 21:31:20.143 - 01 06 07 DC FF 60 08 9C (书房空调关)
2024-09-10 21:31:20.704 - 09 06 00 0F 02 02 38 20 (提示音咚)
2024-09-10 21:31:21.254 - 1A FF FF FF 56 00 00 00 0F (人体感应地址-内卫, 关闭内卫感应)
2024-09-10 21:31:21.268 - BC BC
2024-09-10 21:31:21.852 - 1A FF FF FF 55 00 00 00 0F (人体感应地址-外卫, 关闭外卫感应)
2024-09-10 21:31:22.400 - 1A FF FF FF 57 00 00 00 0F (人体感应地址-厨房, 关闭厨房感应)
2024-09-10 21:31:22.500 - BC BC
2024-09-10 21:31:22.948 - 1A FF FF FF 58 00 00 00 0F (人体感应地址-茶吧, 关闭茶吧感应)
2024-09-10 21:31:22.998 - BC BC
2024-09-10 21:31:23.547 - 1A 20 07 00 93 00 01 00 0F (自保持开关地址-设备区顶, 设备区顶灯关)
2024-09-10 21:31:24.593 - 1A 20 07 01 40 00 01 00 0F (自保持开关地址-内卫顶灯, 内卫顶灯关)
2024-09-10 21:31:25.639 - 1A 20 07 01 55 00 01 00 0F (自保持开关地址-主卧顶灯, 主卧顶灯只关)
2024-09-10 21:31:26.685 - 1A 20 07 00 42 00 01 00 0F (自保持开关地址-外卫顶灯, 外卫顶灯关)
2024-09-10 21:31:27.730 - 55 0D 31 00 00 00 01 94 (书房顶灯只关)
2024-09-10 21:31:28.778 - 55 0A 31 00 00 00 01 91 (厨房顶灯一关)
2024-09-10 21:31:29.874 - 55 0A 31 00 00 00 02 92 (厨房顶灯二关)
2024-09-10 21:31:30.922 - 55 0B 31 00 00 00 01 92 (厨房风扇只关)
2024-09-10 21:31:31.967 - 55 0C 31 00 00 00 01 93 (餐厅顶灯关)
2024-09-10 21:31:33.014 - 1A 20 07 01 30 00 01 00 0F (自保持开关地址-西阳顶灯, 西阳顶灯关)
2024-09-10 21:31:34.060 - 1A 18 05 21 89 00 01 00 0F (自保持开关地址-客厅顶灯, 客厅顶灯一关)
2024-09-10 21:31:35.107 - 1A 18 05 01 94 00 01 00 0F (自保持开关地址-客厅顶灯, 客厅顶灯二关)
2024-09-10 21:31:36.154 - 1A 20 07 00 70 00 01 00 0F (自保持开关地址-次卧顶灯, 次卧顶灯只关)
2024-09-10 21:31:37.200 - 1A 18 05 10 31 00 01 00 0F (自保持开关地址-门厅顶灯, 门厅顶灯关)
2024-09-10 21:31:38.294 - 1A FF FF FF 04 00 03 02 (继电器地址-东阳衣架, 东阳衣架照明关)
2024-09-10 21:31:38.843 - 09 06 00 0F 02 02 38 20 (提示音咚)
2024-09-10 21:31:39.390 - A5 00 A6 FE 01 AA (餐厅窗帘开)
2024-09-10 21:31:39.989 - FF FF FF FF 0A 00 01 00 (继电器地址-东阳窗帘, 东阳窗帘开)
2024-09-10 21:31:40.537 - 1A BE B0 DC 04 00 01 00 (继电器地址-西阳窗帘, 西阳窗帘开)
2024-09-10 21:31:41.085 - FF FF FF FF 0E 00 01 00 (继电器地址-西阳小窗帘, 西阳小窗帘开)
2024-09-10 21:31:41.636 - 1A 22 33 62 0F 00 00 01 0F (正反转地址-内卫卷帘, 内卫卷帘升)
2024-09-10 21:31:42.180 - A5 00 52 FE 01 AA (主卧窗帘开)
2024-09-10 21:31:42.728 - A5 00 53 FF 00 AA (主卧纱帘开)
2024-09-10 21:31:42.784 - 55 00 53 01 00 0C 02 30 AA 55 00 53 01 00 0C 02 30 AA (主卧纱帘电机状态返回)
2024-09-10 21:31:43.326 - A5 00 76 FE 01 AA (次卧窗帘开)
2024-09-10 21:31:43.875 - A5 00 21 FE 01 AA (次卧纱帘开)
2024-09-10 21:31:44.425 - A5 00 D2 FE 01 AA 22 0D (书房窗帘开)
2024-09-10 21:31:44.971 - 1A BE B0 DC 09 00 01 00 (继电器地址-客厅窗帘, 客厅窗帘开)
2024-09-10 21:31:45.521 - 1A BE B0 DC 0A 00 02 00 (继电器地址-客厅纱帘, 客厅纱帘开)
2024-09-10 21:31:46.069 - 09 06 00 0F 02 02 38 20 (提示音咚)
2024-09-10 21:31:47.115 - 1A EC A0 DC 02 00 00 00 0F (自保持开关地址-天花12V供电, 天花12V 供电关)
2024-09-10 21:31:47.665 - 1A EC A0 DC 02 00 00 00 0F (自保持开关地址-天花12V供电, 天花12V 供电关)
2024-09-10 21:31:48.212 - 1A EC A0 DC 01 00 00 00 0F (自保持开关地址-电视、设备12V供电, 12V 电视供电关)
2024-09-10 21:31:48.762 - 1A EC A0 DC 01 00 00 00 0F (自保持开关地址-电视、设备12V供电, 12V 电视供电关)
2024-09-10 21:31:49.308 - 1A EC A0 DC 04 00 01 00 0F (自保持开关地址-次卧西阳内外卫供电, 内卫外卫关)
2024-09-10 21:31:49.856 - 1A EC A0 DC 04 00 01 00 0F (自保持开关地址-次卧西阳内外卫供电, 内卫外卫关)
2024-09-10 21:31:51.449 - 1A BB BB BB 01 02 00 (开水器电源关)
2024-09-10 21:31:53.647 - 55 00 53 00 02 23 02 30 AA 55 00 53 00 02 23 02 30 AA (主卧纱帘电机状态返回)
2024-09-10 21:32:04.522 - 09 06 00 0F 02 02 38 20 (提示音咚)
2024-09-10 21:32:05.070 - 1A 27 89 12 AA 00 00 00 0F (状态寄存器地址, 无人状态)
2024-09-10 21:32:05.617 - 1A 27 89 12 AA 00 00 00 0F (状态寄存器地址, 无人状态)
2024-09-10 21:32:06.162 - A1 11 11 11 4D (天花供电关闭确认)
2024-09-10 21:32:06.389 - 1A EC A0 DC 02 86 86 86 0F (查询天花供电状态, 自保持开关地址-天花12V供电)
2024-09-10 21:32:06.821 - 1A EC A0 DC 02 00 01 0F (自保持开关地址-天花12V供电)
2024-09-10 21:32:09.201 - A1 11 11 11 4E (卫生供电关闭确认)
2024-09-10 21:32:09.426 - 1A EC A0 DC 04 86 86 86 0F (查询卫生间供电状态, 自保持开关地址-次卧西阳内外卫供电)
2024-09-10 21:32:09.859 - 1A EC A0 DC 04 01 00 0F (自保持开关地址-次卧西阳内外卫供电)
2024-09-10 21:32:12.241 - A1 11 11 11 4F (电视供电关闭确认)
2024-09-10 21:32:12.464 - 1A EC A0 DC 01 86 86 86 0F (查询电视供电状态, 自保持开关地址-电视、设备12V供电)
2024-09-10 21:32:12.897 - 1A EC A0 DC 01 00 01 0F (自保持开关地址-电视、设备12V供电)
2024-09-10 21:32:15.284 - 09 06 00 0F 02 02 38 20 (提示音咚)
2024-09-10 21:32:15.832 - 09 06 00 0F 02 02 38 20 (提示音咚)
2024-09-10 21:32:16.383 - EE 00 00 B1 00 00 02 FF FC FF FF (情景完成返回主页)
2024-09-10 21:32:17.474 - BA BA EE EE BA BA (离家设置信科变量)
2024-09-10 21:32:18.519 - A1 11 11 11 46 (天热离家遮阳)
2024-09-10 21:32:18.747 - 1A 27 89 12 AA 86 86 86 0F (查询寄存器状态, 状态寄存器地址)
2024-09-10 21:32:19.131 - 1A 27 89 12 AA 00 00 00 00 00 00 00 00 00 00 00 01 00 00 00 00 0F (状态寄存器地址)
2024-09-10 21:32:19.752 - 19 08 24 03 DD 00 05 00 01 (调用情景-天热遮阳关帘)
2024-09-10 21:32:20.321 - EE 00 00 B1 00 00 00 FF FC FF FF (情景执行提示)
2024-09-10 21:32:20.914 - 09 06 00 0F 02 01 78 21 (提示音叮)
2024-09-10 21:32:21.511 - A5 00 A2 FF 00 AA (餐厅纱帘关)
2024-09-10 21:32:22.557 - A5 00 A6 FF 00 AA (餐厅窗帘关)
2024-09-10 21:32:22.614 - 55 00 A6 01 00 0E 01 74 AA 55 00 A6 01 00 0E 01 74 FA (餐厅窗帘电机状态返回)
2024-09-10 21:32:23.653 - A5 00 53 FE 01 AA (主卧纱帘关)
2024-09-10 21:32:23.712 - 55 00 53 02 02 23 02 30 AA 55 00 53 02 02 23 02 30 FE (主卧纱帘电机状态返回)
2024-09-10 21:32:24.751 - A5 00 52 FF 00 AA (主卧窗帘关)
2024-09-10 21:32:25.797 - A5 00 21 FF 00 AA (次卧纱帘关)
2024-09-10 21:32:25.848 - 55 00 21 01 00 0D 01 34 AA 55 00 21 01 00 0D 01 34 AA (次卧纱帘电机状态返回)
2024-09-10 21:32:26.893 - A5 00 76 FF 00 AA (次卧窗帘关)
2024-09-10 21:32:26.950 - 55 00 76 01 00 0E 01 1B AA 55 00 76 01 00 0E 01 FF (次卧窗帘电机状态返回)
2024-09-10 21:32:27.991 - A5 00 B7 FF 00 AA 22 0D (书房纱帘关)
2024-09-10 21:32:29.038 - A5 00 D2 FF 00 AA 22 0C (书房窗帘关)
2024-09-10 21:32:29.092 - 55 00 D2 01 00 0D 01 0B AA 55 00 D2 01 00 0D 01 8B (书房窗帘电机状态返回)
2024-09-10 21:32:30.634 - 1A 22 33 62 5E 00 02 01 0F (正反转地址-厨房卷帘三, 厨房卷帘一降)
2024-09-10 21:32:31.267 - 55 00 A6 00 01 66 01 74 AA 55 00 A6 00 01 66 01 74 AA (餐厅窗帘电机状态返回)
2024-09-10 21:32:31.681 - 1A 22 33 62 56 00 02 01 0F (正反转地址-厨房卷帘二, 厨房卷帘二降)
2024-09-10 21:32:32.726 - 1A 22 33 62 4F 00 00 01 0F (正反转地址-厨房卷帘一, 厨房卷帘三降)
2024-09-10 21:32:33.232 - 55 00 21 00 01 27 01 34 AA 55 00 21 00 01 27 01 34 AA (次卧纱帘电机状态返回)
2024-09-10 21:32:33.771 - 1A BE B0 DC 04 00 02 00 (继电器地址-西阳窗帘, 西阳窗帘关)
2024-09-10 21:32:34.020 - 55 00 76 00 01 0E 01 1B AA 55 00 76 00 01 0E 01 1B AA (次卧窗帘电机状态返回)
2024-09-10 21:32:34.726 - 55 00 53 00 00 0C 02 30 AA 55 00 53 00 00 0C 02 30 AA (主卧纱帘电机状态返回)
2024-09-10 21:32:34.818 - FF FF FF FF 0E 00 02 00 (继电器地址-西阳小窗帘, 西阳小窗帘关)
2024-09-10 21:32:35.865 - 1A BE B0 DC 03 00 03 00 (继电器地址-西阳天幕, 西阳天幕关)
2024-09-10 21:32:36.962 - 1A BE B0 DC 03 00 03 00 (继电器地址-西阳天幕, 西阳天幕关)
2024-09-10 21:32:38.008 - 09 06 00 0F 02 02 38 20 (提示音咚)
2024-09-10 21:32:38.558 - EE 00 00 B1 00 00 02 FF FC FF FF (情景完成返回主页)
2024-09-10 21:32:39.402 - 55 00 D2 00 00 FE 01 0B AA 55 00 D2 00 00 FE 01 0B AA (书房窗帘电机状态返回)
2024-09-10 21:32:45.341 - 1A FF 01 FF FF FF 45 01 FF 45 01 FF 00 00 0F (调光器地址-公共区域统配地址, 公共区域微光)
2024-09-10 21:32:45.932 - 1A EC A0 DC 02 00 00 01 0F (自保持开关地址-天花12V供电, 天花12V 供电开)
2024-09-10 21:32:46.457 - 1A AA AA AA 88 (调光器地址-茶吧灯带)
2024-09-10 21:32:46.496 - 1A FF 01 FF FF FF 45 01 FF 45 01 FF 00 00 0F (调光器地址-公共区域统配地址, 公共区域微光)
2024-09-10 21:32:47.578 - EE 00 00 B1 00 00 00 FF FC FF FF (情景执行提示)
2024-09-10 21:32:48.174 - 1A EC A0 DC 01 00 00 01 0F (自保持开关地址-电视、设备12V供电, 12V 电视供电开)
2024-09-10 21:32:48.773 - 1A EC A0 DC 01 00 00 01 0F (自保持开关地址-电视、设备12V供电, 12V 电视供电开)
2024-09-10 21:32:49.321 - 1A EC A0 DC 04 00 01 01 0F (自保持开关地址-次卧西阳内外卫供电, 内卫外卫开)
2024-09-10 21:32:49.919 - 1A EC A0 DC 04 00 01 01 0F (自保持开关地址-次卧西阳内外卫供电, 内卫外卫开)
2024-09-10 21:32:50.465 - 1A BB BB BB 01 01 00 (开水器电源开)
2024-09-10 21:32:52.012 - 1A 27 89 12 AA 00 00 01 0F (状态寄存器地址, 有人状态)
2024-09-10 21:32:52.560 - 1A 27 89 12 AA 00 00 01 0F (状态寄存器地址, 有人状态)
2024-09-10 21:32:53.108 - 1A FF FF FF 56 00 00 01 0F (人体感应地址-内卫, 打开内卫感应)
2024-09-10 21:32:53.213 - BC BC
2024-09-10 21:32:53.522 - 19 08 24 03 CC 01 54 00 01 (调用内卫感应灯开的按键)
2024-09-10 21:32:53.574 - 1A 0C 02 08 01 FF 45 01 FF 45 01 FF 00 00 0F (调光器地址-内卫射灯, 内卫射灯微光)
2024-09-10 21:32:53.974 - 1A FF FF FF 55 00 00 01 0F (人体感应地址-外卫, 打开外卫感应)
2024-09-10 21:32:54.554 - 1A FF FF FF 57 00 00 01 0F (人体感应地址-厨房, 打开厨房感应)
2024-09-10 21:32:54.654 - BC BC
2024-09-10 21:32:55.102 - 1A FF FF FF 58 00 00 01 0F (人体感应地址-茶吧, 打开茶吧感应)
2024-09-10 21:32:55.147 - BC BC
2024-09-10 21:32:55.697 - 1A BE B0 DC 01 00 01 00 (继电器地址-回水泵点动, 回水泵点动)
2024-09-10 21:32:56.247 - 1A BE B0 DC 01 00 01 00 (继电器地址-回水泵点动, 回水泵点动)
2024-09-10 21:32:56.795 - A5 00 B7 FF 00 AA 22 0D (书房纱帘关)
2024-09-10 21:32:57.340 - A5 00 A2 FF 00 AA (餐厅纱帘关)
2024-09-10 21:32:57.890 - 09 06 00 0F 02 01 78 21 (提示音叮)
2024-09-10 21:32:58.439 - 09 06 00 0F 02 01 78 21 (提示音叮)
2024-09-10 21:32:58.990 - EE 00 00 B1 00 00 02 FF FC FF FF (情景完成返回主页)
2024-09-10 21:32:59.582 - A1 11 11 11 50 (天花供电打开确认)
2024-09-10 21:32:59.810 - 1A EC A0 DC 02 86 86 86 0F (查询天花供电状态, 自保持开关地址-天花12V供电)
2024-09-10 21:33:00.243 - 1A EC A0 DC 02 01 01 0F (自保持开关地址-天花12V供电)
2024-09-10 21:33:02.622 - A1 11 11 11 51 (卫生供电打开确认)
2024-09-10 21:33:02.847 - 1A EC A0 DC 04 86 86 86 0F (查询卫生间供电状态, 自保持开关地址-次卧西阳内外卫供电)
2024-09-10 21:33:03.279 - 1A EC A0 DC 04 01 01 0F (自保持开关地址-次卧西阳内外卫供电)
2024-09-10 21:33:05.661 - A1 11 11 11 52 (电视供电打开确认)
2024-09-10 21:33:05.885 - 1A EC A0 DC 01 86 86 86 0F (查询电视供电状态, 自保持开关地址-电视、设备12V供电)
2024-09-10 21:33:06.317 - 1A EC A0 DC 01 01 01 0F (自保持开关地址-电视、设备12V供电)
2024-09-10 21:33:08.701 - A1 11 11 11 47 (天热回家开帘)
2024-09-10 21:33:08.922 - 1A 27 89 12 AA 86 86 86 0F (查询寄存器状态, 状态寄存器地址)
2024-09-10 21:33:09.306 - 1A 27 89 12 AA 01 00 00 00 00 00 00 00 00 00 00 01 00 00 00 00 0F (状态寄存器地址)
2024-09-10 21:33:09.925 - 19 08 24 03 DD 00 06 00 01 (调用情景-天热遮阳开帘)
2024-09-10 21:33:10.451 - EE 00 00 B1 00 00 00 FF FC FF FF (情景执行提示)
2024-09-10 21:33:11.045 - 09 06 00 0F 02 01 78 21 (提示音叮)
2024-09-10 21:33:11.592 - A5 00 A6 FE 01 AA (餐厅窗帘开)
2024-09-10 21:33:11.647 - 55 00 A6 02 01 66 01 74 AA 55 00 A6 02 01 66 01 74 AA (餐厅窗帘电机状态返回)
2024-09-10 21:33:12.688 - A5 00 52 FE 01 AA (主卧窗帘开)
2024-09-10 21:33:13.734 - A5 00 53 FF 00 AA (主卧纱帘开)
2024-09-10 21:33:13.785 - 55 00 53 01 00 0C 02 30 AA 55 00 53 01 00 0C 02 30 AA (主卧纱帘电机状态返回)
2024-09-10 21:33:14.832 - A5 00 76 FE 01 AA (次卧窗帘开)
2024-09-10 21:33:14.887 - 55 00 76 02 01 0E 01 1B AA 55 00 76 02 01 0E 01 1B AA (次卧窗帘电机状态返回)
2024-09-10 21:33:15.927 - A5 00 21 FE 01 AA (次卧纱帘开)
2024-09-10 21:33:15.985 - 55 00 21 02 01 27 01 34 AA 55 00 21 02 01 27 01 FC (次卧纱帘电机状态返回)
2024-09-10 21:33:17.025 - 1A BE B0 DC 04 00 01 00 (继电器地址-西阳窗帘, 西阳窗帘开)
2024-09-10 21:33:18.072 - FF FF FF FF 0E 00 01 00 (继电器地址-西阳小窗帘, 西阳小窗帘开)
2024-09-10 21:33:19.119 - A5 00 D2 FE 01 AA 22 0D (书房窗帘开)
2024-09-10 21:33:19.173 - 55 00 D2 02 00 FE 01 0B AA 55 00 D2 02 00 FE 01 0B AA (书房窗帘电机状态返回)
2024-09-10 21:33:20.214 - 09 06 00 0F 02 02 38 20 (提示音咚)
2024-09-10 21:33:20.358 - 55 00 A6 00 00 0E 01 74 AA 55 00 A6 00 00 0E 01 74 AA (餐厅窗帘电机状态返回)
2024-09-10 21:33:20.817 - EE 00 00 B1 00 00 02 FF FC FF FF (情景完成返回主页)
2024-09-10 21:33:21.833 - 55 00 76 00 00 0E 01 1B AA 55 00 76 00 00 0E 01 1B AA (次卧窗帘电机状态返回)
2024-09-10 21:33:23.531 - 55 00 21 00 00 0D 01 34 AA 55 00 21 00 00 0D 01 34 AA (次卧纱帘电机状态返回)
2024-09-10 21:33:24.876 - 55 20 20 00 00 0F 02 16 AA 55 20 20 00 00 0F 02 16 AA (主卧窗帘电机状态返回)
2024-09-10 21:33:24.913 - 55 00 53 00 02 22 02 30 AA 55 00 53 00 02 22 02 30 AA (主卧纱帘电机状态返回)
2024-09-10 21:33:27.336 - 55 00 D2 00 00 0D 01 0B AA 55 00 D2 00 00 0D 01 0B AA (书房窗帘电机状态返回)
2024-09-10 21:33:29.786 - EE 00 00 B1 00 00 00 FF FC FF FF (情景执行提示)
2024-09-10 21:33:30.381 - 09 06 00 0F 02 01 78 21 (提示音叮)
2024-09-10 21:33:30.925 - A1 11 11 11 40 (客厅空调自动开)
2024-09-10 21:33:31.151 - 19 08 24 03 F0 BB 78 02 02 00
2024-09-10 21:33:31.202 - 23 AA 56 02 15 21 20 18 09 0A 02 73 65 6F 6B 65 6E 64
2024-09-10 21:33:32.161 - 01 10 07 D0 00 03 06 70 61 00 02 00 FA 6F 26 (客厅空调冷25度)
2024-09-10 21:33:32.203 - 01 10 07 D0 00 03 06 70 61 00 02 00 FA 6F 26 (客厅空调冷25度)
2024-09-10 21:33:34.962 - A1 11 11 11 41 (餐厅空调自动开)
2024-09-10 21:33:35.191 - 19 08 24 03 F0 BB 78 02 02 00
2024-09-10 21:33:35.241 - 23 AA 56 02 15 21 24 18 09 0A 02 73 65 6F 6B 65 6E 64
2024-09-10 21:33:36.199 - 01 10 07 D3 00 03 06 70 61 00 02 00 FA 9F 29 (餐厅空调冷25度)
2024-09-10 21:33:36.243 - 01 10 07 D3 00 03 06 70 61 00 02 00 FA 9F 29 (餐厅空调冷25度)
2024-09-10 21:33:38.999 - A1 11 11 11 42 (主卧空调自动开)
2024-09-10 21:33:39.229 - 19 08 24 03 F0 BB 78 02 02 00
2024-09-10 21:33:39.280 - 23 AA 56 02 15 21 28 18 09 0A 02 73 65 6F 6B 65 6E 64
2024-09-10 21:33:40.239 - 01 10 07 D6 00 03 06 70 61 00 02 00 F0 0F 3E (主卧空调冷24度)
2024-09-10 21:33:40.273 - 01 10 07 D6 00 03 06 70 61 00 02 00 F0 0F 3E (主卧空调冷24度)
2024-09-10 21:33:41.046 - 09 06 00 0F 02 02 38 20 (提示音咚)
2024-09-10 21:33:41.597 - EE 00 00 B1 00 00 02 FF FC FF FF (情景完成返回主页)
2024-09-10 21:34:25.249 - EE 00 00 B1 00 00 00 FF FC FF FF (情景执行提示)
2024-09-10 21:34:25.844 - 09 06 00 0F 02 01 78 21 (提示音叮)
2024-09-10 21:34:26.387 - 50 F0 05 (开主卧影视)
2024-09-10 21:34:26.934 - 50 F0 04 (开内卫影视)
2024-09-10 21:34:27.489 - 1A FF FF FF 56 00 00 00 0F (人体感应地址-内卫, 关闭内卫感应)
2024-09-10 21:34:28.038 - 1A 22 33 62 0F 00 02 01 0F (正反转地址-内卫卷帘, 内卫卷帘降)
2024-09-10 21:34:28.583 - A5 00 53 FE 01 AA (主卧纱帘关)
2024-09-10 21:34:28.631 - 55 00 53 02 02 22 02 30 AA 55 00 53 02 02 22 02 30 AA (主卧纱帘电机状态返回)
2024-09-10 21:34:29.678 - A5 00 52 FF 00 AA (主卧窗帘关)
2024-09-10 21:34:30.734 - 1A 0C 02 04 FF FF 45 01 FF 45 01 FF 00 00 0F (主卧调光微光)
2024-09-10 21:34:34.820 - 1A 0C 02 08 01 FF 45 01 FF 45 01 FF 00 00 0F (调光器地址-内卫射灯, 内卫射灯微光)
2024-09-10 21:34:35.406 - 50 F1 25 (主卧—有线2)
2024-09-10 21:34:35.956 - A1 11 11 11 42 (主卧空调自动开)
2024-09-10 21:34:36.186 - 19 08 24 03 F0 BB 78 02 02 00
2024-09-10 21:34:36.238 - 23 AA 56 02 15 22 25 18 09 0A 02 73 65 6F 6B 65 6E 64
2024-09-10 21:34:36.504 - 50 F1 24 (内卫—有线2)
2024-09-10 21:34:37.195 - 01 10 07 D6 00 03 06 70 61 00 02 00 F0 0F 3E (主卧空调冷24度)
2024-09-10 21:34:37.231 - 01 10 07 D6 00 03 06 70 61 00 02 00 F0 0F 3E (主卧空调冷24度)
2024-09-10 21:34:38.549 - AF BF CF DF C2 21 (有线2/快捷-凤凰卫视)
2024-09-10 21:34:39.342 - 55 00 53 00 00 0C 02 30 AA 55 00 53 00 00 0C 02 30 AA (主卧纱帘电机状态返回)
2024-09-10 21:34:40.594 - 1A FF FF FF 60 0B 01 01 0F (红外总线地址-主卧发射设备, 主卧电视电源)
2024-09-10 21:34:41.085 - F0 0B 01 08
2024-09-10 21:34:41.241 - 55 20 20 00 02 09 02 16 AA 55 20 20 00 02 09 02 16 AA (主卧窗帘电机状态返回)
2024-09-10 21:34:48.620 - 09 06 00 0F 02 02 38 20 (提示音咚)
2024-09-10 21:34:49.172 - EE 00 00 B1 00 00 02 FF FC FF FF (情景完成返回主页)
2024-09-10 21:38:37.569 - 19 08 24 03 DD 00 1B 00 01 (调用情景-外卫使用)
2024-09-10 21:38:38.099 - EE 00 00 B1 00 00 00 FF FC FF FF (情景执行提示)
2024-09-10 21:38:38.694 - 09 06 00 0F 02 01 78 21 (提示音叮)
2024-09-10 21:38:39.271 - 1A BE B0 DC 02 00 01 00 (正反转地址-外卫卷帘, 外卫卷帘降)
2024-09-10 21:38:39.834 - 50 F0 03 (开外卫影视)
2024-09-10 21:38:40.389 - 1A FF FF FF 55 00 00 00 0F (人体感应地址-外卫, 关闭外卫感应)
2024-09-10 21:38:40.942 - 1A 0D 01 07 01 FF 45 01 FF 45 01 FF 00 00 0F (调光器地址-外卫射灯, 外卫感应灯开)
2024-09-10 21:38:43.029 - 1A BE B0 DC 01 00 01 00 (继电器地址-回水泵点动, 回水泵点动)
2024-09-10 21:38:44.076 - 1A BE B0 DC 01 00 01 00 (继电器地址-回水泵点动, 回水泵点动)
2024-09-10 21:38:45.121 - 1A BE B0 DC 01 00 01 00 (继电器地址-回水泵点动, 回水泵点动)
2024-09-10 21:38:46.162 - 50 F1 43 (外卫—CH4)
2024-09-10 21:39:03.238 - A1 11 11 11 11 05 (外卫使用浴霸判断)
2024-09-10 21:39:03.466 - 13 03 00 00 00 02 C7 79 (查询外卫温湿度)
2024-09-10 21:39:03.490 - 13 03 04 01 D7 01 0E F9 A2 (外卫温湿度返回)
2024-09-10 21:39:05.305 - 09 06 00 0F 02 02 38 20 (提示音咚)
2024-09-10 21:39:07.402 - EE 00 00 B1 00 00 02 FF FC FF FF (情景完成返回主页)
2024-09-10 21:40:01.933 - FF FF FF FF 0A (继电器地址-东阳窗帘)
2024-09-10 21:40:02.068 - FF
2024-09-10 21:40:23.984 - FF
2024-09-10 21:42:19.013 - EE 00 6E B1 01 00 03 FF FC FF FF
2024-09-10 21:42:19.627 - EE 00 6E B1 01 00 08 FF FC FF FF
2024-09-10 21:42:20.727 - 1A BE B0 DC 0A 00 01 00 (继电器地址-客厅纱帘, 客厅纱帘关)
2024-09-10 21:42:22.834 - EE 00 6E B1 01 00 02 FF FC FF FF
2024-09-10 21:42:24.018 - 19 08 24 03 DD 00 12 00 01 (调用情景-公共灯光开)
2024-09-10 21:42:24.569 - EE 00 00 B1 00 00 00 FF FC FF FF (情景执行提示)
2024-09-10 21:42:25.162 - 09 06 00 0F 02 01 78 21 (提示音叮)
2024-09-10 21:42:25.718 - 1A 0D 01 01 01 FF 55 01 FF 55 01 FF 00 00 0F (调光器地址-客厅筒灯, 客厅筒灯微光)
2024-09-10 21:42:26.316 - 1A 0D 01 01 03 FF 55 01 FF 55 01 FF 00 00 0F (调光器地址-客厅过道, 客厅过道微光)
2024-09-10 21:42:26.914 - 1A 0D 01 01 02 FF 55 01 FF 55 01 FF 00 00 0F (调光器地址-客厅灯带, 客厅灯带微光)
2024-09-10 21:42:27.512 - 1A 0B 01 02 02 FF 45 01 FF 45 01 FF 00 00 0F (调光器地址-门厅射灯, 门厅背景微光)
2024-09-10 21:42:28.110 - 1A 0B 01 02 01 FF 45 01 FF 45 01 FF 00 00 0F (调光器地址-门厅灯带, 门厅灯带微光)
2024-09-10 21:42:28.706 - 1A 0B 01 03 01 FF 45 01 FF 45 01 FF 00 00 0F (调光器地址-餐厅筒灯, 餐厅筒灯微光)
2024-09-10 21:42:29.307 - 1A 0B 01 03 02 FF 45 01 FF 45 01 FF 00 00 0F (调光器地址-餐桌筒灯, 餐桌筒灯微光)
2024-09-10 21:42:29.904 - 1A 0B 01 03 03 FF 45 01 FF 45 01 FF 00 00 0F (调光器地址-餐厅灯带, 餐厅灯带微光)
2024-09-10 21:42:30.494 - 55 0A 32 00 00 00 01 92 (厨房顶灯一开)
2024-09-10 21:42:31.041 - 55 0A 32 00 00 00 02 93 (厨房顶灯二开)
2024-09-10 21:42:31.589 - 09 06 00 0F 02 02 38 20 (提示音咚)
2024-09-10 21:42:32.192 - EE 00 00 B1 00 00 02 FF FC FF FF (情景完成返回主页)
2024-09-10 21:52:56.135 - 19 08 24 03 DD 00 1C 00 01 (调用情景-外卫使用完毕)
2024-09-10 21:52:56.640 - EE 00 00 B1 00 00 00 FF FC FF FF (情景执行提示)
2024-09-10 21:52:57.234 - 09 06 00 0F 02 01 78 21 (提示音叮)
2024-09-10 21:52:57.791 - 1A 0D 01 07 01 FF 00 01 FF 00 01 FF 00 00 0F (调光器地址-外卫射灯, 外卫感应灯关)
2024-09-10 21:52:58.375 - 50 F5 03 (关外卫影视)
2024-09-10 21:52:58.980 - 1A 20 07 00 42 00 01 00 0F (自保持开关地址-外卫顶灯, 外卫顶灯关)
2024-09-10 21:52:59.528 - 1A FF FF FF 55 00 00 01 0F (人体感应地址-外卫, 打开外卫感应)
2024-09-10 21:52:59.622 - BC BC
2024-09-10 21:52:59.929 - 19 08 24 03 CC 01 52 00 01 (调用外卫感应灯开的按键)
2024-09-10 21:52:59.982 - 1A 0D 01 07 01 FF 45 01 FF 45 01 FF 00 00 0F (调光器地址-外卫射灯, 外卫感应灯开)
2024-09-10 21:53:02.448 - 09 06 00 0F 02 02 38 20 (提示音咚)
2024-09-10 21:53:03.022 - EE 00 00 B1 00 00 02 FF FC FF FF (情景完成返回主页)
2024-09-10 21:53:06.598 - 19 08 24 03 CC 01 CC 00 01 (调用茶吧感应灯开的按键)
2024-09-10 21:53:06.657 - 1A AA AA AA 88 FF B0 01 FF B0 01 0F (调光器地址-茶吧灯带, 茶吧灯带明亮)
2024-09-10 21:53:08.648 - 19 08 24 03 CC 01 53 00 01 (调用外卫感应灯关的按键)
2024-09-10 21:53:08.684 - 1A 0D 01 07 01 FF 00 01 FF 00 01 FF 00 00 0F (调光器地址-外卫射灯, 外卫感应灯关)
2024-09-10 21:53:31.141 - 19 08 24 03 CC 00 D3 00 01 (调用厨房感应灯开的按键)
2024-09-10 21:53:31.175 - 55 0A 32 00 00 00 01 92 55 0A 32 00 00 00 02 93 (厨房顶灯一开, 厨房顶灯二开)
2024-09-10 21:54:15.247 - 19 08 24 03 CC 01 CD 00 01 (调用茶吧感应灯关的按键)
2024-09-10 21:54:15.277 - 1A AA AA AA 88 FF 00 01 FF 00 01 0F (调光器地址-茶吧灯带, 茶吧灯带关闭)
2024-09-10 21:54:24.765 - 19 08 24 03 CC 01 CC 00 01 (调用茶吧感应灯开的按键)
2024-09-10 21:54:24.796 - 1A AA AA AA 88 FF B0 01 FF B0 01 0F (调光器地址-茶吧灯带, 茶吧灯带明亮)
2024-09-10 21:54:52.322 - 19 08 24 03 CC 01 CD 00 01 (调用茶吧感应灯关的按键)
2024-09-10 21:54:52.352 - 1A AA AA AA 88 FF 00 01 FF 00 01 0F (调光器地址-茶吧灯带, 茶吧灯带关闭)
2024-09-10 21:56:11.978 - 19 08 24 03 CC 01 CC 00 01 (调用茶吧感应灯开的按键)
2024-09-10 21:56:12.008 - 1A AA AA AA 88 FF B0 01 FF B0 01 0F (调光器地址-茶吧灯带, 茶吧灯带明亮)
2024-09-10 21:56:57.066 - 19 08 24 03 CC 01 CD 00 01 (调用茶吧感应灯关的按键)
2024-09-10 21:56:57.097 - 1A AA AA AA 88 FF 00 01 FF 00 01 0F (调光器地址-茶吧灯带, 茶吧灯带关闭)
2024-09-10 21:57:27.105 - 19 08 24 03 CC 00 D4 00 01 (调用厨房感应灯关的按键)
2024-09-10 21:57:27.141 - 55 0A 31 00 00 00 01 91 55 0A 31 00 00 00 02 92 (厨房顶灯一关, 厨房顶灯二关)
2024-09-10 21:58:01.939 - FF
2024-09-10 22:06:48.523 - FF
2024-09-10 22:13:42.805 - FF
2024-09-10 22:27:25.816 - FF
2024-09-10 22:33:06.119 - 19 08 24 03 DD 00 13 00 01 (调用情景-公共区域关)
2024-09-10 22:33:06.347 - 19 08 24 03 CC 01 CC 00 01 (调用茶吧感应灯开的按键)
2024-09-10 22:33:06.378 - 1A AA AA AA 88 FF B0 01 FF B0 01 0F (调光器地址-茶吧灯带, 茶吧灯带明亮)
2024-09-10 22:33:06.781 - EE 00 00 B1 00 00 00 FF FC FF FF (情景执行提示)
2024-09-10 22:33:07.359 - 09 06 00 0F 02 01 78 21 (提示音叮)
2024-09-10 22:33:07.939 - 55 0B 31 00 00 00 01 92 (厨房风扇只关)
2024-09-10 22:33:09.003 - 01 06 07 D3 FF 60 38 9F (餐厅空调关)
2024-09-10 22:33:09.078 - 01 06 07 D3 FF 60 38 9F (餐厅空调关)
2024-09-10 22:33:10.101 - 01 06 07 D0 FF 60 C8 9F (客厅空调关)
2024-09-10 22:33:10.128 - 01 06 07 D0 FF 60 C8 9F (客厅空调关)
2024-09-10 22:33:14.185 - 50 F5 02 (关厨房影视)
2024-09-10 22:33:15.233 - 50 F5 01 (关餐厅影视)
2024-09-10 22:33:16.277 - 50 F5 08 (关客厅影视)
2024-09-10 22:33:17.324 - 50 F5 03 (关外卫影视)
2024-09-10 22:33:18.377 - 55 0A 31 00 00 00 01 91 (厨房顶灯一关)
2024-09-10 22:33:19.422 - 55 0A 31 00 00 00 02 92 (厨房顶灯二关)
2024-09-10 22:33:20.469 - 55 0C 31 00 00 00 01 93 (餐厅顶灯关)
2024-09-10 22:33:21.517 - 1A 18 05 10 31 00 01 00 0F (自保持开关地址-门厅顶灯, 门厅顶灯关)
2024-09-10 22:33:22.562 - 1A 20 07 00 42 00 01 00 0F (自保持开关地址-外卫顶灯, 外卫顶灯关)
2024-09-10 22:33:23.610 - 1A 18 05 21 89 00 01 00 0F (自保持开关地址-客厅顶灯, 客厅顶灯一关)
2024-09-10 22:33:24.656 - 1A 18 05 01 94 00 01 00 0F (自保持开关地址-客厅顶灯, 客厅顶灯二关)
2024-09-10 22:33:25.703 - 1A 20 07 01 30 00 01 00 0F (自保持开关地址-西阳顶灯, 西阳顶灯关)
2024-09-10 22:33:26.756 - 1A FF 01 FF FF FF 00 01 FF 00 01 FF 00 00 0F (调光器地址-公共区域统配地址, 公共区域灯光全关)
2024-09-10 22:33:27.845 - 09 06 00 0F 02 02 38 20 (提示音咚)
2024-09-10 22:33:29.891 - EE 00 00 B1 00 00 02 FF FC FF FF (情景完成返回主页)
2024-09-10 22:33:48.448 - 19 08 24 03 CC 01 CD 00 01 (调用茶吧感应灯关的按键)
2024-09-10 22:33:48.496 - 1A AA AA AA 88 FF 00 01 FF 00 01 0F (调光器地址-茶吧灯带, 茶吧灯带关闭)
2024-09-10 22:35:47.873 - 19 08 24 03 DD 00 4F 00 01 (调用情景-内卫使用完毕)
2024-09-10 22:35:48.382 - EE 00 00 B1 00 00 00 FF FC FF FF (情景执行提示)
2024-09-10 22:35:48.977 - 09 06 00 0F 02 01 78 21 (提示音叮)
2024-09-10 22:35:49.533 - 1A 0C 02 08 01 FF 00 01 FF 00 01 FF 00 00 0F (调光器地址-内卫射灯, 内卫感应灯关)
2024-09-10 22:35:53.606 - 50 F5 04 (关内卫影视)
2024-09-10 22:35:54.161 - 1A 20 07 01 40 00 01 00 0F (自保持开关地址-内卫顶灯, 内卫顶灯关)
2024-09-10 22:35:54.709 - 1A FF FF FF 56 00 00 01 0F (人体感应地址-内卫, 打开内卫感应)
2024-09-10 22:35:54.789 - BC BC
2024-09-10 22:35:57.303 - 09 06 00 0F 02 02 38 20 (提示音咚)
2024-09-10 22:35:57.854 - EE 00 00 B1 00 00 02 FF FC FF FF (情景完成返回主页)
2024-09-10 22:45:58.741 - FF
2024-09-10 22:47:16.141 - 19 08 24 03 CC 01 55 00 01 (调用内卫感应灯关的按键)
2024-09-10 22:47:16.192 - 1A 0C 02 08 01 FF 00 01 FF 00 01 FF 00 00 0F (调光器地址-内卫射灯, 内卫感应灯关)
2024-09-10 22:48:05.237 - 19 08 24 03 CC 01 54 00 01 (调用内卫感应灯开的按键)
2024-09-10 22:48:05.290 - 1A 0C 02 08 01 FF 45 01 FF 45 01 FF 00 00 0F (调光器地址-内卫射灯, 内卫射灯微光)
2024-09-10 22:49:12.355 - 1A FF FF FF 04 (继电器地址-东阳衣架)
2024-09-10 22:49:12.492 - 00
2024-09-10 23:01:41.844 - 19 08 24 03 CC 01 55 00 01 (调用内卫感应灯关的按键)
2024-09-10 23:01:41.895 - 1A 0C 02 08 01 FF 00 01 FF 00 01 FF 00 00 0F (调光器地址-内卫射灯, 内卫感应灯关)
2024-09-10 23:01:43.847 - 19 08 24 03 CC 01 54 00 01 (调用内卫感应灯开的按键)
2024-09-10 23:01:43.900 - 1A 0C 02 08 01 FF 45 01 FF 45 01 FF 00 00 0F (调光器地址-内卫射灯, 内卫射灯微光)
2024-09-10 23:02:49.977 - 19 08 24 03 CC 01 55 00 01 (调用内卫感应灯关的按键)
2024-09-10 23:02:50.012 - 1A 0C 02 08 01 FF 00 01 FF 00 01 FF 00 00 0F (调光器地址-内卫射灯, 内卫感应灯关)
2024-09-10 23:03:08.514 - 19 08 24 03 CC 01 54 00 01 (调用内卫感应灯开的按键)
2024-09-10 23:03:08.547 - 1A 0C 02 08 01 FF 45 01 FF 45 01 FF 00 00 0F (调光器地址-内卫射灯, 内卫射灯微光)
2024-09-10 23:04:35.685 - 19 08 24 03 CC 01 55 00 01 (调用内卫感应灯关的按键)
2024-09-10 23:04:35.719 - 1A 0C 02 08 01 FF 00 01 FF 00 01 FF 00 00 0F (调光器地址-内卫射灯, 内卫感应灯关)
2024-09-10 23:05:46.824 - 19 08 24 03 CC 01 54 00 01 (调用内卫感应灯开的按键)
2024-09-10 23:05:46.860 - 1A 0C 02 08 01 FF 45 01 FF 45 01 FF 00 00 0F (调光器地址-内卫射灯, 内卫射灯微光)
2024-09-10 23:08:03.094 - 19 08 24 03 CC 01 55 00 01 (调用内卫感应灯关的按键)
2024-09-10 23:08:03.128 - 1A 0C 02 08 01 FF 00 01 FF 00 01 FF 00 00 0F (调光器地址-内卫射灯, 内卫感应灯关)
2024-09-10 23:09:02.711 - 19 08 24 03 CC 01 54 00 01 (调用内卫感应灯开的按键)
2024-09-10 23:09:02.746 - 1A 0C 02 08 01 FF 45 01 FF 45 01 FF 00 00 0F (调光器地址-内卫射灯, 内卫射灯微光)
2024-09-10 23:10:34.391 - 19 08 24 03 CC 01 55 00 01 (调用内卫感应灯关的按键)
2024-09-10 23:10:34.425 - 1A 0C 02 08 01 FF 00 01 FF 00 01 FF 00 00 0F (调光器地址-内卫射灯, 内卫感应灯关)
2024-09-10 23:20:44.091 - 19 08 24 03 CC 01 54 00 01 (调用内卫感应灯开的按键)
2024-09-10 23:20:44.125 - 1A 0C 02 08 01 FF 45 01 FF 45 01 FF 00 00 0F (调光器地址-内卫射灯, 内卫射灯微光)
2024-09-10 23:21:40.201 - 19 08 24 03 CC 01 55 00 01 (调用内卫感应灯关的按键)
2024-09-10 23:21:40.235 - 1A 0C 02 08 01 FF 00 01 FF 00 01 FF 00 00 0F (调光器地址-内卫射灯, 内卫感应灯关)
2024-09-10 23:26:59.831 - 19 08 24 03 CC 01 54 00 01 (调用内卫感应灯开的按键)
2024-09-10 23:26:59.864 - 1A 0C 02 08 01 FF 45 01 FF 45 01 FF 00 00 0F (调光器地址-内卫射灯, 内卫射灯微光)
2024-09-10 23:28:16.480 - 19 08 24 03 CC 01 55 00 01 (调用内卫感应灯关的按键)
2024-09-10 23:28:16.514 - 1A 0C 02 08 01 FF 00 01 FF 00 01 FF 00 00 0F (调光器地址-内卫射灯, 内卫感应灯关)
2024-09-10 23:28:40.027 - 19 08 24 03 CC 01 54 00 01 (调用内卫感应灯开的按键)
2024-09-10 23:28:40.062 - 1A 0C 02 08 01 FF 45 01 FF 45 01 FF 00 00 0F (调光器地址-内卫射灯, 内卫射灯微光)
2024-09-10 23:29:32.632 - 19 08 24 03 CC 01 55 00 01 (调用内卫感应灯关的按键)
2024-09-10 23:29:32.665 - 1A 0C 02 08 01 FF 00 01 FF 00 01 FF 00 00 0F (调光器地址-内卫射灯, 内卫感应灯关)
2024-09-10 23:34:03.665 - 19 08 24 03 CC 01 54 00 01 (调用内卫感应灯开的按键)
2024-09-10 23:34:03.699 - 1A 0C 02 08 01 FF 45 01 FF 45 01 FF 00 00 0F (调光器地址-内卫射灯, 内卫射灯微光)
2024-09-10 23:34:49.755 - 19 08 24 03 CC 01 55 00 01 (调用内卫感应灯关的按键)
2024-09-10 23:34:49.789 - 1A 0C 02 08 01 FF 00 01 FF 00 01 FF 00 00 0F (调光器地址-内卫射灯, 内卫感应灯关)
2024-09-10 23:35:02.781 - 19 08 24 03 CC 01 54 00 01 (调用内卫感应灯开的按键)
2024-09-10 23:35:02.815 - 1A 0C 02 08 01 FF 45 01 FF 45 01 FF 00 00 0F (调光器地址-内卫射灯, 内卫射灯微光)
2024-09-10 23:54:45.109 - 19 08 24 03 CC 01 55 00 01 (调用内卫感应灯关的按键)
2024-09-10 23:54:45.142 - 1A 0C 02 08 01 FF 00 01 FF 00 01 FF 00 00 0F (调光器地址-内卫射灯, 内卫感应灯关)
2024-09-10 23:54:57.632 - 19 08 24 03 CC 01 54 00 01 (调用内卫感应灯开的按键)
2024-09-10 23:54:57.666 - 1A 0C 02 08 01 FF 45 01 FF 45 01 FF 00 00 0F (调光器地址-内卫射灯, 内卫射灯微光)
2024-09-10 23:55:25.188 - 19 08 24 03 CC 01 55 00 01 (调用内卫感应灯关的按键)
2024-09-10 23:55:25.221 - 1A 0C 02 08 01 FF 00 01 FF 00 01 FF 00 00 0F (调光器地址-内卫射灯, 内卫感应灯关)
2024-09-10 23:55:29.697 - 19 08 24 03 CC 01 54 00 01 (调用内卫感应灯开的按键)
2024-09-10 23:55:29.731 - 1A 0C 02 08 01 FF 45 01 FF 45 01 FF 00 00 0F (调光器地址-内卫射灯, 内卫射灯微光)
2024-09-10 23:56:27.986 - FF
2024-09-11 00:01:17.161 - 19 08 24 03 DD 00 4B 00 01 (调用情景-主卧睡觉)
2024-09-11 00:01:17.717 - EE 00 00 B1 00 00 00 FF FC FF FF (情景执行提示)
2024-09-11 00:01:18.313 - 09 06 00 0F 02 01 78 21 (提示音叮)
2024-09-11 00:01:18.855 - 50 F5 04 (关内卫影视)
2024-09-11 00:01:19.406 - A5 00 53 FE 01 AA (主卧纱帘关)
2024-09-11 00:01:20.453 - A5 00 52 FF 00 AA (主卧窗帘关)
2024-09-11 00:01:21.501 - 1A 22 33 62 0F 00 02 01 0F (正反转地址-内卫卷帘, 内卫卷帘降)
2024-09-11 00:01:22.548 - 1A 20 07 01 40 00 01 00 0F (自保持开关地址-内卫顶灯, 内卫顶灯关)
2024-09-11 00:01:23.594 - 1A 20 07 01 55 00 01 00 0F (自保持开关地址-主卧顶灯, 主卧顶灯只关)
2024-09-11 00:01:24.142 - 1A FF FF FF 56 00 00 01 0F (人体感应地址-内卫, 打开内卫感应)
2024-09-11 00:01:24.156 - BC BC
2024-09-11 00:01:27.740 - 1A 0C 02 08 01 FF 00 01 FF 00 01 FF 00 00 0F (调光器地址-内卫射灯, 内卫感应灯关)
2024-09-11 00:01:28.339 - 1A 0C 02 04 01 FF 00 01 FF 00 01 FF 00 00 0F (调光器地址-主卧筒灯, 主卧筒灯关闭)
2024-09-11 00:01:28.936 - 1A 0C 02 04 03 FF 00 01 FF 00 01 FF 00 00 0F (调光器地址-主卧灯带, 主卧灯带关闭)
2024-09-11 00:01:29.533 - 1A 0C 02 04 04 FF 00 01 FF 00 01 FF 00 00 0F (调光器地址-主卧南阅, 主卧南阅关闭)
2024-09-11 00:01:30.132 - 1A 0C 02 04 05 FF 00 01 FF 00 01 FF 00 00 0F (调光器地址-主卧北阅, 主卧北阅关闭)
2024-09-11 00:01:30.730 - 1A 0C 02 04 02 FF 00 01 FF 00 01 FF 00 00 0F (调光器地址-主卧过道, 主卧过道关闭)
2024-09-11 00:01:31.321 - 09 06 00 0F 02 02 38 20 (提示音咚)
2024-09-11 00:01:31.871 - EE 00 00 B1 00 00 02 FF FC FF FF (情景完成返回主页)
2024-09-11 00:03:51.227 - FF
2024-09-11 00:21:51.812 - 19 08 24 03 CC 01 55 00 01 (调用内卫感应灯关的按键)
2024-09-11 00:21:51.864 - 1A 0C 02 08 01 FF 00 01 FF 00 01 FF 00 00 0F (调光器地址-内卫射灯, 内卫感应灯关)
2024-09-11 00:33:45.718 - 19 08 24 03 CC 01 54 00 01 (调用内卫感应灯开的按键)
2024-09-11 00:33:45.771 - 1A 0C 02 08 01 FF 45 01 FF 45 01 FF 00 00 0F (调光器地址-内卫射灯, 内卫射灯微光)
2024-09-11 00:34:14.233 - 1A BE B0 DC 04 (继电器地址-西阳窗帘)
2024-09-11 00:34:14.369 - FF
2024-09-11 00:36:28.037 - 19 08 24 03 CC 01 55 00 01 (调用内卫感应灯关的按键)
2024-09-11 00:36:28.090 - 1A 0C 02 08 01 FF 00 01 FF 00 01 FF 00 00 0F (调光器地址-内卫射灯, 内卫感应灯关)
2024-09-11 00:37:39.179 - 19 08 24 03 CC 01 54 00 01 (调用内卫感应灯开的按键)
2024-09-11 00:37:39.232 - 1A 0C 02 08 01 FF 45 01 FF 45 01 FF 00 00 0F (调光器地址-内卫射灯, 内卫射灯微光)
2024-09-11 00:42:00.694 - 19 08 24 03 CC 01 55 00 01 (调用内卫感应灯关的按键)
2024-09-11 00:42:00.727 - 1A 0C 02 08 01 FF 00 01 FF 00 01 FF 00 00 0F (调光器地址-内卫射灯, 内卫感应灯关)
2024-09-11 00:42:14.344 - FF FF FF FF 0E (继电器地址-西阳小窗帘)
2024-09-11 00:42:14.481 - FF
2024-09-11 00:43:17.882 - 1A BE B0 DC 09 FC (继电器地址-客厅窗帘)
2024-09-11 00:43:18.017 - FE
2024-09-11 00:44:10.895 - 19 08 24 03 CC 01 CC 00 01 (调用茶吧感应灯开的按键)
2024-09-11 00:44:10.943 - 1A AA AA AA 88 FF B0 01 FF B0 01 0F (调光器地址-茶吧灯带, 茶吧灯带明亮)
2024-09-11 00:44:17.909 - 19 08 24 03 CC 01 CD 00 01 (调用茶吧感应灯关的按键)
2024-09-11 00:44:17.958 - 1A AA AA AA 88 FF 00 01 FF 00 01 0F (调光器地址-茶吧灯带, 茶吧灯带关闭)
2024-09-11 00:44:19.501 - 1A BE B0 DC 02 FC (正反转地址-外卫卷帘)
2024-09-11 00:44:20.262 - 1A BE B0 DC 0A FC (继电器地址-客厅纱帘)
2024-09-11 00:44:20.397 - FF
2024-09-11 00:46:23.285 - 1A BE B0 DC 01 FE (继电器地址-回水泵点动)
2024-09-11 00:46:23.419 - FF
2024-09-11 00:47:25.163 - 1A BE B0 DC 03 FE (继电器地址-西阳天幕)
2024-09-11 00:47:25.296 - FF
2024-09-11 00:52:30.114 - FF
2024-09-11 01:02:11.790 - FF FF FF FF 0A (继电器地址-东阳窗帘)
2024-09-11 01:09:27.950 - 19 08 24 03 CC 01 54 00 01 (调用内卫感应灯开的按键)
2024-09-11 01:09:28.003 - 1A 0C 02 08 01 FF 45 01 FF 45 01 FF 00 00 0F (调光器地址-内卫射灯, 内卫射灯微光)
2024-09-11 01:11:55.743 - 19 08 24 03 CC 01 55 00 01 (调用内卫感应灯关的按键)
2024-09-11 01:11:55.794 - 1A 0C 02 08 01 FF 00 01 FF 00 01 FF 00 00 0F (调光器地址-内卫射灯, 内卫感应灯关)
2024-09-11 01:26:11.427 - 19 08 24 03 CC 01 54 00 01 (调用内卫感应灯开的按键)
2024-09-11 01:26:11.461 - 1A 0C 02 08 01 FF 45 01 FF 45 01 FF 00 00 0F (调光器地址-内卫射灯, 内卫射灯微光)
2024-09-11 01:29:27.816 - 19 08 24 03 CC 01 55 00 01 (调用内卫感应灯关的按键)
2024-09-11 01:29:27.850 - 1A 0C 02 08 01 FF 00 01 FF 00 01 FF 00 00 0F (调光器地址-内卫射灯, 内卫感应灯关)
2024-09-11 01:30:00.379 - 19 08 24 03 CC 01 54 00 01 (调用内卫感应灯开的按键)
2024-09-11 01:30:00.413 - 1A 0C 02 08 01 FF 45 01 FF 45 01 FF 00 00 0F (调光器地址-内卫射灯, 内卫射灯微光)
2024-09-11 01:31:06.011 - 19 08 24 03 CC 01 55 00 01 (调用内卫感应灯关的按键)
2024-09-11 01:31:06.044 - 1A 0C 02 08 01 FF 00 01 FF 00 01 FF 00 00 0F (调光器地址-内卫射灯, 内卫感应灯关)
2024-09-11 02:10:12.851 - 1A FF FF FF 04 FE (继电器地址-东阳衣架)
2024-09-11 02:10:12.986 - FE
2024-09-11 02:40:50.035 - FF
2024-09-11 02:55:28.318 - FF
2024-09-11 03:00:00.556 - 50 F7 01 (全屋影音全关)
2024-09-11 03:04:55.898 - 19 08 24 03 CC 00 D3 00 01 (调用厨房感应灯开的按键)
2024-09-11 03:04:55.951 - 55 0A 32 00 00 00 01 92 55 0A 32 00 00 00 02 93 (厨房顶灯一开, 厨房顶灯二开)
2024-09-11 03:05:30.968 - 19 08 24 03 CC 00 D4 00 01 (调用厨房感应灯关的按键)
2024-09-11 03:05:31.021 - 55 0A 31 00 00 00 01 91 55 0A 31 00 00 00 02 92 (厨房顶灯一关, 厨房顶灯二关)
2024-09-11 03:54:03.417 - 1A BE B0 DC 04 (继电器地址-西阳窗帘)
2024-09-11 03:54:03.553 - FF
2024-09-11 04:01:13.240 - 19 08 24 03 CC 01 54 00 01 (调用内卫感应灯开的按键)
2024-09-11 04:01:13.292 - 1A 0C 02 08 01 FF 45 01 FF 45 01 FF 00 00 0F (调光器地址-内卫射灯, 内卫射灯微光)
2024-09-11 04:02:17.939 - FF FF FF FF 0E FE (继电器地址-西阳小窗帘)
2024-09-11 04:02:18.074 - FC
2024-09-11 04:03:40.165 - 1A BE B0 DC 09 FC (继电器地址-客厅窗帘)
2024-09-11 04:04:17.604 - 19 08 24 03 CC 01 55 00 01 (调用内卫感应灯关的按键)
2024-09-11 04:04:17.655 - 1A 0C 02 08 01 FF 00 01 FF 00 01 FF 00 00 0F (调光器地址-内卫射灯, 内卫感应灯关)
2024-09-11 04:04:50.765 - 1A BE B0 DC 02 (正反转地址-外卫卷帘)
2024-09-11 04:04:50.900 - FF
2024-09-11 04:04:54.387 - 1A BE B0 DC 0A (继电器地址-客厅纱帘)
2024-09-11 04:05:17.220 - 19 08 24 03 CC 01 54 00 01 (调用内卫感应灯开的按键)
2024-09-11 04:05:17.272 - 1A 0C 02 08 01 FF 45 01 FF 45 01 FF 00 00 0F (调光器地址-内卫射灯, 内卫射灯微光)
2024-09-11 04:05:43.271 - 19 08 24 03 CC 01 55 00 01 (调用内卫感应灯关的按键)
2024-09-11 04:05:43.324 - 1A 0C 02 08 01 FF 00 01 FF 00 01 FF 00 00 0F (调光器地址-内卫射灯, 内卫感应灯关)
2024-09-11 04:07:12.412 - 1A BE B0 DC 01 (继电器地址-回水泵点动)
2024-09-11 04:07:12.547 - FC
2024-09-11 04:08:22.900 - 1A BE B0 DC 03 (继电器地址-西阳天幕)
2024-09-11 04:08:23.036 - FF
2024-09-11 04:22:24.870 - FF FF FF FF 0A FE (继电器地址-东阳窗帘)
2024-09-11 04:22:25.004 - FF
2024-09-11 04:48:39.353 - 19 08 24 03 CC 01 CC 00 01 (调用茶吧感应灯开的按键)
2024-09-11 04:48:39.401 - 1A AA AA AA 88 FF B0 01 FF B0 01 0F (调光器地址-茶吧灯带, 茶吧灯带明亮)
2024-09-11 04:48:46.367 - 19 08 24 03 CC 01 CD 00 01 (调用茶吧感应灯关的按键)
2024-09-11 04:48:46.417 - 1A AA AA AA 88 FF 00 01 FF 00 01 0F (调光器地址-茶吧灯带, 茶吧灯带关闭)
2024-09-11 04:50:00.835 - EE 00 00 B1 00 00 00 FF FC FF FF (情景执行提示)
2024-09-11 04:50:01.428 - A5 00 A2 FF 00 AA (餐厅纱帘关)
2024-09-11 04:50:02.523 - A5 00 A6 FF 00 AA (餐厅窗帘关)
2024-09-11 04:50:02.575 - 55 00 A6 01 00 0E 01 74 AA 55 00 A6 01 00 0E 01 74 AA (餐厅窗帘电机状态返回)
2024-09-11 04:50:03.700 - A5 00 B7 FF 00 AA 22 0D (书房纱帘关)
2024-09-11 04:50:04.769 - A5 00 D2 FF 00 AA 22 0C (书房窗帘关)
2024-09-11 04:50:04.817 - 55 00 D2 01 00 0D 01 0B AA 55 00 D2 01 00 0D 01 0B AA (书房窗帘电机状态返回)
2024-09-11 04:50:05.870 - EE 00 00 B1 00 00 02 FF FC FF FF (情景完成返回主页)
2024-09-11 04:50:11.207 - 55 00 A6 00 01 66 01 74 AA 55 00 A6 00 01 66 01 74 AA (餐厅窗帘电机状态返回)
2024-09-11 04:50:15.136 - 55 00 D2 00 00 FC 01 0B AA 55 00 D2 00 00 FC 01 0B AA (书房窗帘电机状态返回)
2024-09-11 05:23:50.089 - 03 00 00 2F 2A E0 00 00 00 00 00 43 6F 6F 6B 69 65 3A 20 6D 73 74 73 68 61 73 68 3D 41 64 6D 69
2024-09-11 05:23:50.106 - 6E 69 73 74 72 0D 0A 01 00 08 00 03 00 00 00
2024-09-11 05:31:13.199 - 1A FF FF FF 04 (继电器地址-东阳衣架)
2024-09-11 05:31:13.336 - 00
2024-09-11 06:07:50.416 - FF
2024-09-11 06:22:52.827 - FF
2024-09-11 06:30:01.498 - EE 00 00 B1 00 00 00 FF FC FF FF (情景执行提示)
2024-09-11 06:30:02.196 - 09 06 00 0F 02 01 78 21 (提示音叮)
2024-09-11 06:30:02.892 - 50 F0 04 (开内卫影视)
2024-09-11 06:30:03.644 - 50 F0 04 (开内卫影视)
2024-09-11 06:30:04.344 - 50 F0 05 (开主卧影视)
2024-09-11 06:30:05.045 - 50 F0 05 (开主卧影视)
2024-09-11 06:30:05.803 - FF FF FF FF 09 00 01 00
2024-09-11 06:30:06.502 - FF FF FF FF 08 00 01 00
2024-09-11 06:30:07.204 - FF FF FF FF 08 00 01 00
2024-09-11 06:30:07.955 - 1A 22 33 62 0F 00 02 01 0F (正反转地址-内卫卷帘, 内卫卷帘降)
2024-09-11 06:30:08.657 - 1A FF FF FF 56 0C 00 01 (人体感应地址-内卫)
2024-09-11 06:30:08.882 - 1A FF FF FF 56 00 00 00 0F (人体感应地址-内卫, 关闭内卫感应)
2024-09-11 06:30:09.357 - 1A FF FF FF A5 00 01 02
2024-09-11 06:30:10.113 - 1A AA AA AA 84 FF B0 01 FF 00 00 0F
2024-09-11 06:30:11.815 - 1A AA AA AA 27 FF 00 01 FF 00 00 0F
2024-09-11 06:30:13.517 - 1A AA AA AA 6F FF 27 01 FF 00 00 0F
2024-09-11 06:30:15.220 - 1A AA AA AA 55 FF 45 01 FF 00 00 0F
2024-09-11 06:30:16.948 - 1A AA AA AA 2C FF 00 00 FF 00 01 0F
2024-09-11 06:30:18.675 - 1A AA AA AA 84 FF 00 00 FF B0 01 0F
2024-09-11 06:30:20.377 - 1A AA AA AA 5B FF 00 01 FF 00 00 0F
2024-09-11 06:30:22.080 - 1A AA AA AA 27 FF 00 00 FF 00 01 0F
2024-09-11 06:30:23.832 - 1A AA AA AA 6F FF 00 00 FF 27 01 0F
2024-09-11 06:30:25.536 - 1A AA AA AA 55 FF 00 00 FF 45 01 0F
2024-09-11 06:30:27.237 - 1A AA AA AA 2C FF 00 01 FF 00 00 0F
2024-09-11 06:30:28.941 - 1A AA AA AA 5B FF 00 00 FF 00 01 0F
2024-09-11 06:30:30.634 - 50 F1 25 (主卧—有线2)
2024-09-11 06:30:32.385 - 50 F1 25 (主卧—有线2)
2024-09-11 06:30:34.091 - A1 11 11 11 11 01 (内卫浴霸取暖判断)
2024-09-11 06:30:34.314 - 14 03 00 00 00 02 C6 CE (查询内卫温湿度)
2024-09-11 06:30:34.338 - 14 03 04 01 F4 00 F5 3E BB (内卫温湿度返回)
2024-09-11 06:30:35.294 - 1A BE B0 DC 01 00 01 00 (继电器地址-回水泵点动, 回水泵点动)
2024-09-11 06:30:36.496 - 1A BE B0 DC 01 00 01 00 (继电器地址-回水泵点动, 回水泵点动)
2024-09-11 06:30:38.700 - 1A BE B0 DC 01 00 01 00 (继电器地址-回水泵点动, 回水泵点动)
2024-09-11 06:30:40.404 - 1A FF FF FF 60 0B 01 01 0F (红外总线地址-主卧发射设备, 主卧电视电源)
2024-09-11 06:30:40.919 - F0 0B 01 08
2024-09-11 06:30:43.502 - EE 00 00 B1 00 00 02 FF FC FF FF (情景完成返回主页)
2024-09-11 06:45:00.360 - EE 00 00 B1 00 00 00 FF FC FF FF (情景执行提示)
2024-09-11 06:45:00.985 - 09 06 00 0F 02 01 78 21 (提示音叮)
2024-09-11 06:45:01.548 - 50 F0 04 (开内卫影视)
2024-09-11 06:45:02.097 - 50 F0 05 (开主卧影视)
2024-09-11 06:45:02.648 - A5 00 53 FE 01 AA (主卧纱帘关)
2024-09-11 06:45:03.197 - A5 00 53 FE 01 AA (主卧纱帘关)
2024-09-11 06:45:03.745 - A5 00 52 FE 01 AA (主卧窗帘开)
2024-09-11 06:45:04.791 - A5 00 52 FE 01 AA (主卧窗帘开)
2024-09-11 06:45:05.840 - 1A 22 33 62 0F 00 02 01 0F (正反转地址-内卫卷帘, 内卫卷帘降)
2024-09-11 06:45:06.388 - 1A FF FF FF 56 00 00 00 0F (人体感应地址-内卫, 关闭内卫感应)
2024-09-11 06:45:06.401 - BC BC
2024-09-11 06:45:06.988 - 1A 20 07 01 55 00 01 00 0F (自保持开关地址-主卧顶灯, 主卧顶灯只关)
2024-09-11 06:45:08.039 - 1A 0C 02 08 01 FF F0 01 FF F0 01 FF 00 00 0F (调光器地址-内卫射灯, 内卫射灯明亮)
2024-09-11 06:45:08.638 - 1A 0C 02 04 01 FF 00 01 FF 00 01 FF 00 00 0F (调光器地址-主卧筒灯, 主卧筒灯关闭)
2024-09-11 06:45:09.270 - 1A 0C 02 04 03 FF 45 01 FF 45 01 FF 00 00 0F (调光器地址-主卧灯带, 主卧灯带微光)
2024-09-11 06:45:09.883 - 1A 0C 02 04 02 FF F0 01 FF 00 01 FF 00 00 0F (调光器地址-主卧过道, 主卧过道暖光)
2024-09-11 06:45:10.482 - 1A 0C 02 04 05 FF 00 01 FF 00 01 FF 00 00 0F (调光器地址-主卧北阅, 主卧北阅关闭)
2024-09-11 06:45:11.080 - 1A 0C 02 04 04 FF 00 01 FF 00 01 FF 00 00 0F (调光器地址-主卧南阅, 主卧南阅关闭)
2024-09-11 06:45:12.163 - 50 F1 24 (内卫—有线2)
2024-09-11 06:45:13.209 - 50 F1 25 (主卧—有线2)
2024-09-11 06:45:14.259 - AF BF CF DF C2 21 (有线2/快捷-凤凰卫视)
2024-09-11 06:45:14.812 - 1A FF FF FF 60 0B 01 01 0F (红外总线地址-主卧发射设备, 主卧电视电源)
2024-09-11 06:45:15.329 - F0 0B 01 08
2024-09-11 06:45:15.857 - 1A BE B0 DC 01 00 01 00 (继电器地址-回水泵点动, 回水泵点动)
2024-09-11 06:45:17.266 - 55 20 20 00 00 0F 02 16 AA 55 20 20 00 00 0F 02 16 AA (主卧窗帘电机状态返回)
2024-09-11 06:45:19.896 - 09 06 00 0F 02 02 38 20 (提示音咚)
2024-09-11 06:45:20.447 - EE 00 00 B1 00 00 02 FF FC FF FF (情景完成返回主页)
2024-09-11 06:45:21.537 - A1 11 11 11 11 01 (内卫浴霸取暖判断)
2024-09-11 06:45:21.765 - 14 03 00 00 00 02 C6 CE (查询内卫温湿度)
2024-09-11 06:45:21.789 - 14 03 04 01 DE 00 F6 5F 72 (内卫温湿度返回)
2024-09-11 07:15:08.110 - 1A BE B0 DC 04 FC (继电器地址-西阳窗帘)
2024-09-11 07:15:08.245 - FF
2024-09-11 07:21:48.330 - 19 08 24 03 DD 00 40 00 01 (调用情景-离开主卧)
2024-09-11 07:21:48.874 - EE 00 00 B1 00 00 00 FF FC FF FF (情景执行提示)
2024-09-11 07:21:49.469 - 09 06 00 0F 02 01 78 21 (提示音叮)
2024-09-11 07:21:50.012 - 50 F5 05 (关主卧影视)
2024-09-11 07:21:50.560 - 50 F5 04 (关内卫影视)
2024-09-11 07:21:51.113 - 01 06 07 D6 FF 60 28 9E (主卧空调关)
2024-09-11 07:21:51.145 - 01 06 07 D6 FF 60 28 9E (主卧空调关)
2024-09-11 07:21:51.709 - A5 00 52 FE 01 AA (主卧窗帘开)
2024-09-11 07:21:52.755 - A5 00 52 FE 01 AA (主卧窗帘开)
2024-09-11 07:21:53.802 - A5 00 53 FF 00 AA (主卧纱帘开)
2024-09-11 07:21:53.855 - 55 00 53 01 00 0C 02 30 AA 55 00 53 01 00 0C 02 30 AA (主卧纱帘电机状态返回)
2024-09-11 07:21:54.400 - A5 00 53 FF 00 AA (主卧纱帘开)
2024-09-11 07:21:54.952 - 1A 22 33 62 0F 00 00 01 0F (正反转地址-内卫卷帘, 内卫卷帘升)
2024-09-11 07:21:55.665 - 55 20 20 00 00 0F 02 16 AA 55 20 20 00 00 0F 02 16 AA (主卧窗帘电机状态返回)
2024-09-11 07:21:56.049 - 1A 20 07 01 40 00 01 00 0F (自保持开关地址-内卫顶灯, 内卫顶灯关)
2024-09-11 07:21:57.143 - 1A 20 07 01 55 00 01 00 0F (自保持开关地址-主卧顶灯, 主卧顶灯只关)
2024-09-11 07:21:57.749 - 1A 0C 02 08 01 FF 00 01 FF 00 01 FF 00 00 0F (调光器地址-内卫射灯, 内卫感应灯关)
2024-09-11 07:21:58.339 - 1A FF FF FF 56 00 00 01 0F (人体感应地址-内卫, 打开内卫感应)
2024-09-11 07:21:58.754 - 19 08 24 03 CC 01 54 00 01 (调用内卫感应灯开的按键)
2024-09-11 07:21:58.806 - 1A 0C 02 08 01 FF 45 01 FF 45 01 FF 00 00 0F (调光器地址-内卫射灯, 内卫射灯微光)
2024-09-11 07:22:00.526 - 19 08 24 03 CC 01 CC 00 01 (调用茶吧感应灯开的按键)
2024-09-11 07:22:00.556 - 1A AA AA AA 88 FF B0 01 FF B0 01 0F (调光器地址-茶吧灯带, 茶吧灯带明亮)
2024-09-11 07:22:02.236 - 1A 0C 02 04 FF FF 00 01 FF 00 01 FF 00 00 0F (主卧调光全关)
2024-09-11 07:22:03.324 - 09 06 00 0F 02 02 38 20 (提示音咚)
2024-09-11 07:22:03.926 - EE 00 00 B1 00 00 02 FF FC FF FF (情景完成返回主页)
2024-09-11 07:22:04.414 - 55 00 53 00 02 23 02 30 AA 55 00 53 00 02 23 02 30 AA (主卧纱帘电机状态返回)
2024-09-11 07:22:42.855 - 19 08 24 03 CC 00 D3 00 01 (调用厨房感应灯开的按键)
2024-09-11 07:22:42.910 - 55 0A 32 00 00 00 01 92 55 0A 32 00 00 00 02 93 (厨房顶灯一开, 厨房顶灯二开)
2024-09-11 07:22:45.549 - 19 08 24 03 CC 01 55 00 01 (调用内卫感应灯关的按键)
2024-09-11 07:22:45.584 - 1A 0C 02 08 01 FF 00 01 FF 00 01 FF 00 00 0F (调光器地址-内卫射灯, 内卫感应灯关)
2024-09-11 07:23:28.446 - 19 08 24 03 CC 00 D4 00 01 (调用厨房感应灯关的按键)
2024-09-11 07:23:28.480 - 55 0A 31 00 00 00 01 91 55 0A 31 00 00 00 02 92 (厨房顶灯一关, 厨房顶灯二关)
2024-09-11 07:23:47.985 - 19 08 24 03 CC 00 D3 00 01 (调用厨房感应灯开的按键)
2024-09-11 07:23:48.019 - 55 0A 32 00 00 00 01 92 55 0A 32 00 00 00 02 93 (厨房顶灯一开, 厨房顶灯二开)
2024-09-11 07:23:59.651 - FF FF FF FF 0E (继电器地址-西阳小窗帘)
2024-09-11 07:23:59.787 - FF
2024-09-11 07:24:01.263 - 19 08 24 03 CC 01 CD 00 01 (调用茶吧感应灯关的按键)
2024-09-11 07:24:01.311 - 1A AA AA AA 88 FF 00 01 FF 00 01 0F (调光器地址-茶吧灯带, 茶吧灯带关闭)
2024-09-11 07:25:15.911 - 19 08 24 03 CC 01 CC 00 01 (调用茶吧感应灯开的按键)
2024-09-11 07:25:15.960 - 1A AA AA AA 88 FF B0 01 FF B0 01 0F (调光器地址-茶吧灯带, 茶吧灯带明亮)
2024-09-11 07:25:28.436 - 19 08 24 03 CC 01 CD 00 01 (调用茶吧感应灯关的按键)
2024-09-11 07:25:28.467 - 1A AA AA AA 88 FF 00 01 FF 00 01 0F (调光器地址-茶吧灯带, 茶吧灯带关闭)
2024-09-11 07:25:38.444 - 19 08 24 03 DD 00 00 00 01 (调用情景-离家（末）)
2024-09-11 07:25:38.950 - EE 00 00 B1 00 00 00 FF FC FF FF (情景执行提示)
2024-09-11 07:25:39.544 - 09 06 00 0F 02 02 38 20 (提示音咚)
2024-09-11 07:25:40.088 - 50 F7 01 (全屋影音全关)
2024-09-11 07:25:40.642 - 01 06 07 D0 FF 60 C8 9F (客厅空调关)
2024-09-11 07:25:40.674 - 01 06 07 D0 FF 60 C8 9F (客厅空调关)
2024-09-11 07:25:41.238 - 01 06 07 D0 FF 60 C8 9F (客厅空调关)
2024-09-11 07:25:41.271 - 01 06 07 D0 FF 60 C8 9F (客厅空调关)
2024-09-11 07:25:41.836 - 01 06 07 D3 FF 60 38 9F (餐厅空调关)
2024-09-11 07:25:41.866 - 01 06 07 D3 FF 60 38 9F (餐厅空调关)
2024-09-11 07:25:42.434 - 01 06 07 D3 FF 60 38 9F (餐厅空调关)
2024-09-11 07:25:42.462 - 01 06 07 D3 FF 60 38 9F (餐厅空调关)
2024-09-11 07:25:43.032 - 01 06 07 D6 FF 60 28 9E (主卧空调关)
2024-09-11 07:25:43.068 - 01 06 07 D6 FF 60 28 9E (主卧空调关)
2024-09-11 07:25:43.631 - 01 06 07 D6 FF 60 28 9E (主卧空调关)
2024-09-11 07:25:43.664 - 01 06 07 D6 FF 60 28 9E (主卧空调关)
2024-09-11 07:25:44.229 - 01 06 07 D9 FF 60 18 9D (次卧空调关)
2024-09-11 07:25:44.260 - 01 06 07 D9 FF 60 18 9D (次卧空调关)
2024-09-11 07:25:44.827 - 01 06 07 D9 FF 60 18 9D (次卧空调关)
2024-09-11 07:25:44.857 - 01 06 07 D9 FF 60 18 9D (次卧空调关)
2024-09-11 07:25:45.424 - 01 06 07 DC FF 60 08 9C (书房空调关)
2024-09-11 07:25:45.452 - 01 06 07 DC FF 60 08 9C (书房空调关)
2024-09-11 07:25:46.022 - 01 06 07 DC FF 60 08 9C (书房空调关)
2024-09-11 07:25:46.058 - 01 06 07 DC FF 60 08 9C (书房空调关)
2024-09-11 07:25:46.622 - 09 06 00 0F 02 02 38 20 (提示音咚)
2024-09-11 07:25:47.219 - 1A FF FF FF 56 00 00 00 0F (人体感应地址-内卫, 关闭内卫感应)
2024-09-11 07:25:47.768 - 1A FF FF FF 55 00 00 00 0F (人体感应地址-外卫, 关闭外卫感应)
2024-09-11 07:25:47.862 - BC BC
2024-09-11 07:25:48.316 - 1A FF FF FF 57 00 00 00 0F (人体感应地址-厨房, 关闭厨房感应)
2024-09-11 07:25:48.863 - 1A FF FF FF 58 00 00 00 0F (人体感应地址-茶吧, 关闭茶吧感应)
2024-09-11 07:25:48.913 - BC BC
2024-09-11 07:25:49.461 - 1A 20 07 00 93 00 01 00 0F (自保持开关地址-设备区顶, 设备区顶灯关)
2024-09-11 07:25:50.507 - 1A 20 07 01 40 00 01 00 0F (自保持开关地址-内卫顶灯, 内卫顶灯关)
2024-09-11 07:25:51.554 - 1A 20 07 01 55 00 01 00 0F (自保持开关地址-主卧顶灯, 主卧顶灯只关)
2024-09-11 07:25:52.601 - 1A 20 07 00 42 00 01 00 0F (自保持开关地址-外卫顶灯, 外卫顶灯关)
2024-09-11 07:25:53.646 - 55 0D 31 00 00 00 01 94 (书房顶灯只关)
2024-09-11 07:25:54.692 - 55 0A 31 00 00 00 01 91 (厨房顶灯一关)
2024-09-11 07:25:55.739 - 55 0A 31 00 00 00 02 92 (厨房顶灯二关)
2024-09-11 07:25:56.785 - 55 0B 31 00 00 00 01 92 (厨房风扇只关)
2024-09-11 07:25:57.831 - 55 0C 31 00 00 00 01 93 (餐厅顶灯关)
2024-09-11 07:25:58.878 - 1A 20 07 01 30 00 01 00 0F (自保持开关地址-西阳顶灯, 西阳顶灯关)
2024-09-11 07:25:59.467 - 1A BE B0 DC 09 (继电器地址-客厅窗帘)
2024-09-11 07:25:59.602 - FF
2024-09-11 07:25:59.926 - 1A 18 05 21 89 00 01 00 0F (自保持开关地址-客厅顶灯, 客厅顶灯一关)
2024-09-11 07:26:00.972 - 1A 18 05 01 94 00 01 00 0F (自保持开关地址-客厅顶灯, 客厅顶灯二关)
2024-09-11 07:26:02.018 - 1A 20 07 00 70 00 01 00 0F (自保持开关地址-次卧顶灯, 次卧顶灯只关)
2024-09-11 07:26:03.064 - 1A 18 05 10 31 00 01 00 0F (自保持开关地址-门厅顶灯, 门厅顶灯关)
2024-09-11 07:26:04.110 - 1A FF FF FF 04 00 03 02 (继电器地址-东阳衣架, 东阳衣架照明关)
2024-09-11 07:26:04.659 - 09 06 00 0F 02 02 38 20 (提示音咚)
2024-09-11 07:26:05.204 - A5 00 A6 FE 01 AA (餐厅窗帘开)
2024-09-11 07:26:05.258 - 55 00 A6 02 01 66 01 74 AA 55 00 A6 02 01 66 01 74 AA (餐厅窗帘电机状态返回)
2024-09-11 07:26:05.804 - FF FF FF FF 0A 00 01 00 (继电器地址-东阳窗帘, 东阳窗帘开)
2024-09-11 07:26:06.353 - 1A BE B0 DC 04 00 01 00 (继电器地址-西阳窗帘, 西阳窗帘开)
2024-09-11 07:26:06.899 - FF FF FF FF 0E 00 01 00 (继电器地址-西阳小窗帘, 西阳小窗帘开)
2024-09-11 07:26:07.449 - 1A 22 33 62 0F 00 00 01 0F (正反转地址-内卫卷帘, 内卫卷帘升)
2024-09-11 07:26:07.996 - A5 00 52 FE 01 AA (主卧窗帘开)
2024-09-11 07:26:08.542 - A5 00 53 FF 00 AA (主卧纱帘开)
2024-09-11 07:26:09.091 - A5 00 76 FE 01 AA (次卧窗帘开)
2024-09-11 07:26:09.638 - A5 00 21 FE 01 AA (次卧纱帘开)
2024-09-11 07:26:10.239 - A5 00 D2 FE 01 AA 22 0D (书房窗帘开)
2024-09-11 07:26:10.293 - 55 00 D2 02 00 FC 01 0B AA 55 00 D2 02 00 FC 01 CB (书房窗帘电机状态返回)
2024-09-11 07:26:10.836 - 1A BE B0 DC 09 00 01 00 (继电器地址-客厅窗帘, 客厅窗帘开)
2024-09-11 07:26:11.385 - 1A BE B0 DC 0A 00 02 00 (继电器地址-客厅纱帘, 客厅纱帘开)
2024-09-11 07:26:11.932 - 09 06 00 0F 02 02 38 20 (提示音咚)
2024-09-11 07:26:12.981 - 1A EC A0 DC 02 00 00 00 0F (自保持开关地址-天花12V供电, 天花12V 供电关)
2024-09-11 07:26:13.529 - 1A EC A0 DC 02 00 00 00 0F (自保持开关地址-天花12V供电, 天花12V 供电关)
2024-09-11 07:26:14.077 - 1A EC A0 DC 01 00 00 00 0F (自保持开关地址-电视、设备12V供电, 12V 电视供电关)
2024-09-11 07:26:14.214 - 55 00 A6 00 00 0E 01 74 AA 55 00 A6 00 00 0E 01 74 AA (餐厅窗帘电机状态返回)
2024-09-11 07:26:14.625 - 1A EC A0 DC 01 00 00 00 0F (自保持开关地址-电视、设备12V供电, 12V 电视供电关)
2024-09-11 07:26:15.172 - 1A EC A0 DC 04 00 01 00 0F (自保持开关地址-次卧西阳内外卫供电, 内卫外卫关)
2024-09-11 07:26:15.721 - 1A EC A0 DC 04 00 01 00 0F (自保持开关地址-次卧西阳内外卫供电, 内卫外卫关)
2024-09-11 07:26:17.263 - 1A BB BB BB 01 02 00 (开水器电源关)
2024-09-11 07:26:18.368 - 55 00 D2 00 00 0D 01 0B AA 55 00 D2 00 00 0D 01 0B AA (书房窗帘电机状态返回)
2024-09-11 07:26:30.383 - 09 06 00 0F 02 02 38 20 (提示音咚)
2024-09-11 07:26:30.932 - 1A 27 89 12 AA 00 00 00 0F (状态寄存器地址, 无人状态)
2024-09-11 07:26:31.481 - 1A 27 89 12 AA 00 00 00 0F (状态寄存器地址, 无人状态)
2024-09-11 07:26:32.025 - A1 11 11 11 4D (天花供电关闭确认)
2024-09-11 07:26:32.249 - 1A EC A0 DC 02 86 86 86 0F (查询天花供电状态, 自保持开关地址-天花12V供电)
2024-09-11 07:26:32.682 - 1A EC A0 DC 02 00 01 0F (自保持开关地址-天花12V供电)
2024-09-11 07:26:35.065 - A1 11 11 11 4E (卫生供电关闭确认)
2024-09-11 07:26:35.289 - 1A EC A0 DC 04 86 86 86 0F (查询卫生间供电状态, 自保持开关地址-次卧西阳内外卫供电)
2024-09-11 07:26:35.719 - 1A EC A0 DC 04 01 00 0F (自保持开关地址-次卧西阳内外卫供电)
2024-09-11 07:26:38.103 - A1 11 11 11 4F (电视供电关闭确认)
2024-09-11 07:26:38.327 - 1A EC A0 DC 01 86 86 86 0F (查询电视供电状态, 自保持开关地址-电视、设备12V供电)
2024-09-11 07:26:38.760 - 1A EC A0 DC 01 00 01 0F (自保持开关地址-电视、设备12V供电)
2024-09-11 07:26:41.145 - 09 06 00 0F 02 02 38 20 (提示音咚)
2024-09-11 07:26:41.693 - 09 06 00 0F 02 02 38 20 (提示音咚)
2024-09-11 07:26:42.297 - EE 00 00 B1 00 00 02 FF FC FF FF (情景完成返回主页)
2024-09-11 07:26:43.392 - BA BA EE EE BA BA (离家设置信科变量)
2024-09-11 07:26:44.481 - A1 11 11 11 46 (天热离家遮阳)
2024-09-11 07:26:44.707 - 1A 27 89 12 AA 86 86 86 0F (查询寄存器状态, 状态寄存器地址)
2024-09-11 07:26:45.089 - 1A 27 89 12 AA 00 00 00 00 00 00 00 00 00 00 00 01 00 00 00 00 0F (状态寄存器地址)
2024-09-11 07:26:45.709 - 19 08 24 03 DD 00 05 00 01 (调用情景-天热遮阳关帘)
2024-09-11 07:26:46.231 - EE 00 00 B1 00 00 00 FF FC FF FF (情景执行提示)
2024-09-11 07:26:46.826 - 09 06 00 0F 02 01 78 21 (提示音叮)
2024-09-11 07:26:47.371 - A5 00 A2 FF 00 AA (餐厅纱帘关)
2024-09-11 07:26:48.419 - A5 00 A6 FF 00 AA (餐厅窗帘关)
2024-09-11 07:26:48.475 - 55 00 A6 01 00 0E 01 74 AA 55 00 A6 01 00 0E 01 F4 (餐厅窗帘电机状态返回)
2024-09-11 07:26:49.514 - A5 00 53 FE 01 AA (主卧纱帘关)
2024-09-11 07:26:49.568 - 55 00 53 02 02 23 02 30 AA 55 00 53 02 02 23 02 30 AA (主卧纱帘电机状态返回)
2024-09-11 07:26:50.611 - A5 00 52 FF 00 AA (主卧窗帘关)
2024-09-11 07:26:51.657 - A5 00 21 FF 00 AA (次卧纱帘关)
2024-09-11 07:26:51.710 - 55 00 21 01 00 0D 01 34 AA 55 00 21 01 00 0D 01 34 AA (次卧纱帘电机状态返回)
2024-09-11 07:26:52.802 - A5 00 76 FF 00 AA (次卧窗帘关)
2024-09-11 07:26:52.859 - 55 00 76 01 00 0E 01 1B AA 55 00 76 01 00 0E 01 1B AA (次卧窗帘电机状态返回)
2024-09-11 07:26:53.901 - A5 00 B7 FF 00 AA 22 0D (书房纱帘关)
2024-09-11 07:26:54.947 - A5 00 D2 FF 00 AA 22 0C (书房窗帘关)
2024-09-11 07:26:55.001 - 55 00 D2 01 00 0D 01 0B AA 55 00 D2 01 00 0D 01 8B (书房窗帘电机状态返回)
2024-09-11 07:26:56.542 - 1A 22 33 62 5E 00 02 01 0F (正反转地址-厨房卷帘三, 厨房卷帘一降)
2024-09-11 07:26:56.927 - 55 00 A6 00 01 66 01 74 AA 55 00 A6 00 01 66 01 74 AA (餐厅窗帘电机状态返回)
2024-09-11 07:26:57.591 - 1A 22 33 62 56 00 02 01 0F (正反转地址-厨房卷帘二, 厨房卷帘二降)
2024-09-11 07:26:58.636 - 1A 22 33 62 4F 00 00 01 0F (正反转地址-厨房卷帘一, 厨房卷帘三降)
2024-09-11 07:26:59.075 - 55 00 21 00 01 27 01 34 AA 55 00 21 00 01 27 01 34 AA (次卧纱帘电机状态返回)
2024-09-11 07:26:59.682 - 1A BE B0 DC 04 00 02 00 (继电器地址-西阳窗帘, 西阳窗帘关)
2024-09-11 07:26:59.992 - 55 00 76 00 01 0E 01 1B AA 55 00 76 00 01 0E 01 1B AA (次卧窗帘电机状态返回)
2024-09-11 07:27:00.728 - FF FF FF FF 0E 00 02 00 (继电器地址-西阳小窗帘, 西阳小窗帘关)
2024-09-11 07:27:01.406 - 55 00 53 00 00 0C 02 30 AA 55 00 53 00 00 0C 02 30 AA (主卧纱帘电机状态返回)
2024-09-11 07:27:01.776 - 1A BE B0 DC 03 00 03 00 (继电器地址-西阳天幕, 西阳天幕关)
2024-09-11 07:27:02.659 - 55 20 20 00 02 09 02 16 AA 55 20 20 00 02 09 02 16 AA (主卧窗帘电机状态返回)
2024-09-11 07:27:02.820 - 1A BE B0 DC 03 00 03 00 (继电器地址-西阳天幕, 西阳天幕关)
2024-09-11 07:27:03.867 - 09 06 00 0F 02 02 38 20 (提示音咚)
2024-09-11 07:27:04.417 - EE 00 00 B1 00 00 02 FF FC FF FF (情景完成返回主页)
2024-09-11 07:27:05.333 - 55 00 D2 00 00 FE 01 0B AA 55 00 D2 00 00 FE 01 0B AA (书房窗帘电机状态返回)
2024-09-11 07:27:25.945 - 1A BE B0 DC 02 (正反转地址-外卫卷帘)
2024-09-11 07:27:26.081 - FF
2024-09-11 07:27:29.259 - 1A BE B0 DC 0A FC (继电器地址-客厅纱帘)
2024-09-11 07:27:29.393 - FF
2024-09-11 07:30:25.804 - 1A BE B0 DC 01 (继电器地址-回水泵点动)
2024-09-11 07:30:25.941 - FF
2024-09-11 07:31:25.995 - 1A BE B0 DC 03 FD (继电器地址-西阳天幕)
2024-09-11 07:46:24.641 - FF FF FF FF 0A FD (继电器地址-东阳窗帘)
2024-09-11 07:46:24.777 - FF
2024-09-11 08:52:42.715 - 1A FF FF FF 04 FC (继电器地址-东阳衣架)
2024-09-11 08:52:42.849 - 03
2024-09-11 10:36:18.384 - 1A BE B0 DC 04 FC (继电器地址-西阳窗帘)
2024-09-11 10:36:18.517 - FF
2024-09-11 10:44:29.813 - FF FF FF FF 0E FC (继电器地址-西阳小窗帘)
2024-09-11 10:44:29.948 - FF
2024-09-11 10:46:51.768 - 1A BE B0 DC 09 FC (继电器地址-客厅窗帘)
2024-09-11 10:46:51.902 - FF
2024-09-11 10:47:57.155 - 1A BE B0 DC 02 FC (正反转地址-外卫卷帘)
2024-09-11 10:47:57.290 - FF
2024-09-11 10:48:03.211 - 1A BE B0 DC 0A (继电器地址-客厅纱帘)
2024-09-11 10:48:03.346 - FF
2024-09-11 10:51:14.364 - 1A BE B0 DC 01 FD (继电器地址-回水泵点动)
2024-09-11 10:51:14.497 - FF
2024-09-11 10:52:22.666 - 1A BE B0 DC 03 FC (继电器地址-西阳天幕)
2024-09-11 11:09:53.610 - FF FF FF FF 0A FE (继电器地址-东阳窗帘)
2024-09-11 11:09:53.745 - FF
2024-09-11 12:13:44.841 - 1A FF FF FF 04 (继电器地址-东阳衣架)
2024-09-11 12:13:44.976 - 03
2024-09-11 12:32:33.002 - FF
2024-09-11 13:56:10.541 - 1A BE B0 DC 04 (继电器地址-西阳窗帘)
2024-09-11 13:56:10.677 - FF
2024-09-11 14:04:33.190 - FF FF FF FF 0E FC (继电器地址-西阳小窗帘)
2024-09-11 14:07:14.727 - 1A BE B0 DC 09 (继电器地址-客厅窗帘)
2024-09-11 14:08:28.667 - 1A BE B0 DC 02 FC (正反转地址-外卫卷帘)
2024-09-11 14:08:28.802 - FF
2024-09-11 14:08:37.057 - 1A BE B0 DC 0A (继电器地址-客厅纱帘)
2024-09-11 14:08:37.193 - FF
2024-09-11 14:12:03.845 - 1A BE B0 DC 01 (继电器地址-回水泵点动)
2024-09-11 14:13:20.058 - 1A BE B0 DC 03 (继电器地址-西阳天幕)
2024-09-11 14:30:51.612 - FF FF FF FF 0A (继电器地址-东阳窗帘)
