2025-09-08 00:23:01.758 - 19 08 24 03 CC 00 D3 00 01 (调用厨房感应灯开的按键)
2025-09-08 00:23:01.813 - 55 0A 32 00 00 00 01 92 55 0A 32 00 00 00 02 93 (厨房顶灯一开, 厨房顶灯二开)
2025-09-08 00:23:36.827 - 19 08 24 03 CC 00 D4 00 01 (调用厨房感应灯关的按键)
2025-09-08 00:23:36.892 - 55 0A 31 00 00 00 01 91 55 0A 31 00 00 00 02 92 (厨房顶灯一关, 厨房顶灯二关)
2025-09-08 00:37:19.777 - 19 08 24 03 CC 01 54 00 01 (调用内卫感应灯开的按键)
2025-09-08 00:37:19.809 - 1A 0C 02 08 01 FF 45 01 FF 45 01 FF 00 00 0F (调光器地址-内卫射灯, 内卫射灯微光)
2025-09-08 00:40:42.177 - 19 08 24 03 CC 01 55 00 01 (调用内卫感应灯关的按键)
2025-09-08 00:40:42.211 - 1A 0C 02 08 01 FF 00 01 FF 00 01 FF 00 00 0F (调光器地址-内卫射灯, 内卫感应灯关)
2025-09-08 00:42:23.378 - 19 08 24 03 CC 01 54 00 01 (调用内卫感应灯开的按键)
2025-09-08 00:42:23.413 - 1A 0C 02 08 01 FF 45 01 FF 45 01 FF 00 00 0F (调光器地址-内卫射灯, 内卫射灯微光)
2025-09-08 00:42:44.416 - 19 08 24 03 CC 01 55 00 01 (调用内卫感应灯关的按键)
2025-09-08 00:42:44.452 - 1A 0C 02 08 01 FF 00 01 FF 00 01 FF 00 00 0F (调光器地址-内卫射灯, 内卫感应灯关)
2025-09-08 00:43:30.451 - 19 08 24 03 DD 00 4B 00 01 (调用情景-主卧睡觉)
2025-09-08 00:43:30.962 - EE 00 00 B1 00 00 00 FF FC FF FF (情景执行提示)
2025-09-08 00:43:31.555 - 09 06 00 0F 02 01 78 21 (提示音叮)
2025-09-08 00:43:32.100 - 50 F5 04 (关内卫影视)
2025-09-08 00:43:32.751 - 55 11 1D 03 01 7C 06 (主卧纱帘关)
2025-09-08 00:43:32.794 - 55 11 1D 03 01 7C 06 (主卧纱帘关)
2025-09-08 00:43:33.850 - 55 12 12 03 02 0C 40 (主卧窗帘关)
2025-09-08 00:43:33.883 - 55 12 12 03 02 0C 40 (主卧窗帘关)
2025-09-08 00:43:34.950 - 1A 22 33 62 0F 00 02 01 0F (正反转地址-内卫卷帘, 内卫卷帘降)
2025-09-08 00:43:35.991 - 1A 20 07 01 40 00 01 00 0F (自保持开关地址-内卫顶灯, 内卫顶灯关)
2025-09-08 00:43:37.038 - 1A 20 07 01 55 00 01 00 0F (自保持开关地址-主卧顶灯, 主卧顶灯只关)
2025-09-08 00:43:37.586 - 1A FF FF FF 56 00 00 01 0F (人体感应地址-内卫, 打开内卫感应)
2025-09-08 00:43:37.598 - BC BC
2025-09-08 00:43:41.184 - 1A 0C 02 08 01 FF 00 01 FF 00 01 FF 00 00 0F (调光器地址-内卫射灯, 内卫感应灯关)
2025-09-08 00:43:41.780 - 1A 0C 02 04 01 FF 00 01 FF 00 01 FF 00 00 0F (调光器地址-主卧筒灯, 主卧筒灯关闭)
2025-09-08 00:43:42.382 - 1A 0C 02 04 03 FF 00 01 FF 00 01 FF 00 00 0F (调光器地址-主卧灯带, 主卧灯带关闭)
2025-09-08 00:43:42.982 - 1A 0C 02 04 04 FF 00 01 FF 00 01 FF 00 00 0F (调光器地址-主卧南阅, 主卧南阅关闭)
2025-09-08 00:43:43.575 - 1A 0C 02 04 05 FF 00 01 FF 00 01 FF 00 00 0F (调光器地址-主卧北阅, 主卧北阅关闭)
2025-09-08 00:43:44.174 - 1A 0C 02 04 02 FF 00 01 FF 00 01 FF 00 00 0F (调光器地址-主卧过道, 主卧过道关闭)
2025-09-08 00:43:44.767 - 09 06 00 0F 02 02 38 20 (提示音咚)
2025-09-08 00:43:45.315 - EE 00 00 B1 00 00 02 FF FC FF FF (情景完成返回主页)
2025-09-08 01:20:38.237 - 1A BE B0 DC 03 (继电器地址-西阳天幕)
2025-09-08 01:20:38.375 - FE
2025-09-08 01:33:38.663 - 1A BE B0 DC 01 (继电器地址-回水泵点动)
2025-09-08 01:33:38.799 - FE
2025-09-08 01:50:16.819 - 1A BE B0 DC 04 FF (继电器地址-西阳窗帘)
2025-09-08 02:02:38.762 - 1A FF FF FF 04 (继电器地址-东阳衣架)
2025-09-08 02:02:38.899 - FF
2025-09-08 02:16:24.620 - 1A BE B0 DC 02 FE (正反转地址-外卫卷帘)
2025-09-08 02:19:20.155 - 1A BE B0 DC 09 FC (继电器地址-客厅窗帘)
2025-09-08 02:51:15.614 - 19 08 24 03 CC 01 54 00 01 (调用内卫感应灯开的按键)
2025-09-08 02:51:15.665 - 1A 0C 02 08 01 FF 45 01 FF 45 01 FF 00 00 0F (调光器地址-内卫射灯, 内卫射灯微光)
2025-09-08 02:53:12.343 - 19 08 24 03 CC 01 55 00 01 (调用内卫感应灯关的按键)
2025-09-08 02:53:12.399 - 1A 0C 02 08 01 FF 00 01 FF 00 01 FF 00 00 0F (调光器地址-内卫射灯, 内卫感应灯关)
2025-09-08 02:53:21.900 - 1A BE B0 DC 0A FC (继电器地址-客厅纱帘)
2025-09-08 02:53:22.041 - FF
2025-09-08 02:54:54.546 - 19 08 24 03 CC 01 54 00 01 (调用内卫感应灯开的按键)
2025-09-08 02:54:54.598 - 1A 0C 02 08 01 FF 45 01 FF 45 01 FF 00 00 0F (调光器地址-内卫射灯, 内卫射灯微光)
2025-09-08 02:55:14.584 - 19 08 24 03 CC 01 55 00 01 (调用内卫感应灯关的按键)
2025-09-08 02:55:14.635 - 1A 0C 02 08 01 FF 00 01 FF 00 01 FF 00 00 0F (调光器地址-内卫射灯, 内卫感应灯关)
2025-09-08 02:59:41.003 - 50 F7 01 (全屋影音全关)
2025-09-08 03:12:56.594 - FF FF FF FF 0E FC (继电器地址-西阳小窗帘)
2025-09-08 03:21:04.448 - FF FF FF FF 0A FC (继电器地址-东阳窗帘)
2025-09-08 04:29:41.530 - EE 00 00 B1 00 00 00 FF FC FF FF (情景执行提示)
2025-09-08 04:29:42.155 - A5 00 A2 FF 00 AA (餐厅纱帘关)
2025-09-08 04:29:43.220 - A5 00 A6 FF 00 AA (餐厅窗帘关)
2025-09-08 04:29:43.271 - 55 00 A6 01 00 0E 01 74 AA 55 00 A6 01 00 0E 01 74 AA (餐厅窗帘电机状态返回)
2025-09-08 04:29:44.319 - A5 00 B7 FF 00 AA 22 0D (书房纱帘关)
2025-09-08 04:29:45.363 - A5 00 D2 FF 00 AA 22 0C (书房窗帘关)
2025-09-08 04:29:45.413 - 55 00 D2 01 00 0D 01 0B AA 55 00 D2 01 00 0D 01 0B AA (书房窗帘电机状态返回)
2025-09-08 04:29:46.463 - EE 00 00 B1 00 00 02 FF FC FF FF (情景完成返回主页)
2025-09-08 04:29:52.106 - 55 00 A6 00 01 66 01 74 AA 55 00 A6 00 01 66 01 74 AA (餐厅窗帘电机状态返回)
2025-09-08 04:29:54.261 - 55 00 D2 00 00 FE 01 0B AA 55 00 D2 00 00 FE 01 0B AA (书房窗帘电机状态返回)
2025-09-08 04:41:32.892 - 1A BE B0 DC 03 (继电器地址-西阳天幕)
2025-09-08 04:54:35.495 - 1A BE B0 DC 01 (继电器地址-回水泵点动)
2025-09-08 04:54:35.629 - FF
2025-09-08 05:10:08.716 - 1A BE B0 DC 04 FC (继电器地址-西阳窗帘)
2025-09-08 05:10:08.852 - FF
2025-09-08 05:23:38.409 - 1A FF FF FF 04 FC (继电器地址-东阳衣架)
2025-09-08 05:23:38.541 - FF
2025-09-08 05:36:53.699 - 1A BE B0 DC 02 FC (正反转地址-外卫卷帘)
2025-09-08 05:36:53.833 - FE
2025-09-08 05:39:41.051 - 1A BE B0 DC 09 (继电器地址-客厅窗帘)
2025-09-08 05:46:19.419 - 19 08 24 03 CC 00 D3 00 01 (调用厨房感应灯开的按键)
2025-09-08 05:46:19.472 - 55 0A 32 00 00 00 01 92 55 0A 32 00 00 00 02 93 (厨房顶灯一开, 厨房顶灯二开)
2025-09-08 05:46:54.991 - 19 08 24 03 CC 00 D4 00 01 (调用厨房感应灯关的按键)
2025-09-08 05:46:55.048 - 55 0A 31 00 00 00 01 91 55 0A 31 00 00 00 02 92 (厨房顶灯一关, 厨房顶灯二关)
2025-09-08 06:13:55.382 - 1A BE B0 DC 0A (继电器地址-客厅纱帘)
2025-09-08 06:33:00.318 - FF FF FF FF 0E FE (继电器地址-西阳小窗帘)
2025-09-08 06:41:24.425 - FF FF FF FF 0A FC (继电器地址-东阳窗帘)
2025-09-08 06:41:24.560 - FC
2025-09-08 06:44:40.874 - EE 00 00 B1 00 00 00 FF FC FF FF (情景执行提示)
2025-09-08 06:44:41.467 - 09 06 00 0F 02 01 78 21 (提示音叮)
2025-09-08 06:44:42.061 - 50 F0 04 (开内卫影视)
2025-09-08 06:44:42.610 - 50 F0 05 (开主卧影视)
2025-09-08 06:44:43.162 - 55 11 1D 03 01 7C 06 (主卧纱帘关)
2025-09-08 06:44:43.204 - 55 11 1D 03 01 7C 06 (主卧纱帘关)
2025-09-08 06:44:43.759 - 55 11 1D 03 01 7C 06 (主卧纱帘关)
2025-09-08 06:44:43.805 - 55 11 1D 03 01 7C 06 (主卧纱帘关)
2025-09-08 06:44:44.359 - 55 12 12 03 01 4C 41 (主卧窗帘开)
2025-09-08 06:44:44.398 - 55 12 12 03 01 4C 41 (主卧窗帘开)
2025-09-08 06:44:45.455 - 55 12 12 03 01 4C 41 (主卧窗帘开)
2025-09-08 06:44:45.497 - 55 12 12 03 01 4C 41 (主卧窗帘开)
2025-09-08 06:44:46.553 - 1A 22 33 62 0F 00 02 01 0F (正反转地址-内卫卷帘, 内卫卷帘降)
2025-09-08 06:44:47.102 - 1A FF FF FF 56 00 00 00 0F (人体感应地址-内卫, 关闭内卫感应)
2025-09-08 06:44:47.177 - BC BC
2025-09-08 06:44:47.699 - 1A 20 07 01 55 00 01 00 0F (自保持开关地址-主卧顶灯, 主卧顶灯只关)
2025-09-08 06:44:48.753 - 1A 0C 02 08 01 FF F0 01 FF F0 01 FF 00 00 0F (调光器地址-内卫射灯, 内卫射灯明亮)
2025-09-08 06:44:49.349 - 1A 0C 02 04 01 FF 00 01 FF 00 01 FF 00 00 0F (调光器地址-主卧筒灯, 主卧筒灯关闭)
2025-09-08 06:44:49.947 - 1A 0C 02 04 03 FF 45 01 FF 45 01 FF 00 00 0F (调光器地址-主卧灯带, 主卧灯带微光)
2025-09-08 06:44:50.548 - 1A 0C 02 04 02 FF F0 01 FF 00 01 FF 00 00 0F (调光器地址-主卧过道, 主卧过道暖光)
2025-09-08 06:44:51.146 - 1A 0C 02 04 05 FF 00 01 FF 00 01 FF 00 00 0F (调光器地址-主卧北阅, 主卧北阅关闭)
2025-09-08 06:44:51.741 - 1A 0C 02 04 04 FF 00 01 FF 00 01 FF 00 00 0F (调光器地址-主卧南阅, 主卧南阅关闭)
2025-09-08 06:44:52.828 - 50 F1 24 (内卫—有线2)
2025-09-08 06:44:53.874 - 50 F1 25 (主卧—有线2)
2025-09-08 06:44:54.925 - AF BF CF DF C2 21 (有线2/快捷-凤凰卫视)
2025-09-08 06:44:55.475 - 1A FF FF FF 60 0B 01 01 0F (红外总线地址-主卧发射设备, 主卧电视电源)
2025-09-08 06:44:55.990 - F0 0B 01 08
2025-09-08 06:44:56.519 - 1A BE B0 DC 01 00 01 00 (继电器地址-回水泵点动, 回水泵点动)
2025-09-08 06:45:00.558 - 09 06 00 0F 02 02 38 20 (提示音咚)
2025-09-08 06:45:01.112 - EE 00 00 B1 00 00 02 FF FC FF FF (情景完成返回主页)
2025-09-08 06:45:02.201 - A1 11 11 11 11 01 (内卫浴霸取暖判断)
2025-09-08 06:45:02.429 - 14 03 00 00 00 02 C6 CE (查询内卫温湿度)
2025-09-08 06:45:02.453 - 14 03 04 01 B8 01 06 BE B9 (内卫温湿度返回)
2025-09-08 07:11:58.494 - 19 08 24 03 DD 00 40 00 01 (调用情景-离开主卧)
2025-09-08 07:11:59.074 - EE 00 00 B1 00 00 00 FF FC FF FF (情景执行提示)
2025-09-08 07:11:59.638 - 09 06 00 0F 02 01 78 21 (提示音叮)
2025-09-08 07:12:00.182 - 50 F5 05 (关主卧影视)
2025-09-08 07:12:00.726 - 50 F5 04 (关内卫影视)
2025-09-08 07:12:01.284 - 01 06 07 D6 FF 60 28 9E (主卧空调关)
2025-09-08 07:12:01.310 - 01 06 07 D6 FF 60 28 9E (主卧空调关)
2025-09-08 07:12:01.878 - 55 12 12 03 01 4C 41 (主卧窗帘开)
2025-09-08 07:12:01.922 - 55 12 12 03 01 4C 41 (主卧窗帘开)
2025-09-08 07:12:02.974 - 55 12 12 03 01 4C 41 (主卧窗帘开)
2025-09-08 07:12:03.018 - 55 12 12 03 01 4C 41 (主卧窗帘开)
2025-09-08 07:12:04.071 - 55 11 1D 03 02 3C 07 (主卧纱帘开)
2025-09-08 07:12:04.113 - 55 11 1D 03 02 3C 07 (主卧纱帘开)
2025-09-08 07:12:04.668 - 55 11 1D 03 02 3C 07 (主卧纱帘开)
2025-09-08 07:12:04.711 - 55 11 1D 03 02 3C 07 (主卧纱帘开)
2025-09-08 07:12:05.268 - 1A 22 33 62 0F 00 00 01 0F (正反转地址-内卫卷帘, 内卫卷帘升)
2025-09-08 07:12:06.366 - 1A 20 07 01 40 00 01 00 0F (自保持开关地址-内卫顶灯, 内卫顶灯关)
2025-09-08 07:12:07.488 - 1A 20 07 01 55 00 01 00 0F (自保持开关地址-主卧顶灯, 主卧顶灯只关)
2025-09-08 07:12:08.065 - 1A 0C 02 08 01 FF 00 01 FF 00 01 FF 00 00 0F (调光器地址-内卫射灯, 内卫感应灯关)
2025-09-08 07:12:08.659 - 1A FF FF FF 56 00 00 01 0F (人体感应地址-内卫, 打开内卫感应)
2025-09-08 07:12:08.771 - BF BF
2025-09-08 07:12:09.079 - 19 08 24 03 CC 01 54 00 01 (调用内卫感应灯开的按键)
2025-09-08 07:12:09.130 - 1A 0C 02 08 01 FF 45 01 FF 45 01 FF 00 00 0F (调光器地址-内卫射灯, 内卫射灯微光)
2025-09-08 07:12:12.526 - 1A 0C 02 04 FF FF 00 01 FF 00 01 FF 00 00 0F (主卧调光全关)
2025-09-08 07:12:13.612 - 09 06 00 0F 02 02 38 20 (提示音咚)
2025-09-08 07:12:14.215 - EE 00 00 B1 00 00 02 FF FC FF FF (情景完成返回主页)
2025-09-08 07:12:45.838 - 19 08 24 03 CC 01 CC 00 01 (调用茶吧感应灯开的按键)
2025-09-08 07:12:45.869 - 1A AA AA AA 88 FF B0 01 FF B0 01 0F (调光器地址-茶吧灯带, 茶吧灯带明亮)
2025-09-08 07:12:50.863 - 19 08 24 03 CC 01 55 00 01 (调用内卫感应灯关的按键)
2025-09-08 07:12:50.898 - 1A 0C 02 08 01 FF 00 01 FF 00 01 FF 00 00 0F (调光器地址-内卫射灯, 内卫感应灯关)
2025-09-08 07:13:46.961 - 19 08 24 03 CC 01 CD 00 01 (调用茶吧感应灯关的按键)
2025-09-08 07:13:46.995 - 1A AA AA AA 88 FF 00 01 FF 00 01 0F (调光器地址-茶吧灯带, 茶吧灯带关闭)
2025-09-08 07:14:31.062 - 19 08 24 03 CC 01 54 00 01 (调用内卫感应灯开的按键)
2025-09-08 07:14:31.095 - 1A 0C 02 08 01 FF 45 01 FF 45 01 FF 00 00 0F (调光器地址-内卫射灯, 内卫射灯微光)
2025-09-08 07:14:52.605 - 19 08 24 03 CC 01 55 00 01 (调用内卫感应灯关的按键)
2025-09-08 07:14:52.637 - 1A 0C 02 08 01 FF 00 01 FF 00 01 FF 00 00 0F (调光器地址-内卫射灯, 内卫感应灯关)
2025-09-08 07:15:16.135 - 19 08 24 03 CC 01 CC 00 01 (调用茶吧感应灯开的按键)
2025-09-08 07:15:16.164 - 1A AA AA AA 88 FF B0 01 FF B0 01 0F (调光器地址-茶吧灯带, 茶吧灯带明亮)
2025-09-08 07:16:16.253 - 19 08 24 03 CC 01 CD 00 01 (调用茶吧感应灯关的按键)
2025-09-08 07:16:16.283 - 1A AA AA AA 88 FF 00 01 FF 00 01 0F (调光器地址-茶吧灯带, 茶吧灯带关闭)
2025-09-08 07:16:51.320 - 19 08 24 03 CC 01 CC 00 01 (调用茶吧感应灯开的按键)
2025-09-08 07:16:51.353 - 1A AA AA AA 88 FF B0 01 FF B0 01 0F (调光器地址-茶吧灯带, 茶吧灯带明亮)
2025-09-08 07:17:30.401 - 19 08 24 03 CC 01 CD 00 01 (调用茶吧感应灯关的按键)
2025-09-08 07:17:30.432 - 1A AA AA AA 88 FF 00 01 FF 00 01 0F (调光器地址-茶吧灯带, 茶吧灯带关闭)
2025-09-08 07:18:11.980 - 19 08 24 03 CC 01 CC 00 01 (调用茶吧感应灯开的按键)
2025-09-08 07:18:12.012 - 1A AA AA AA 88 FF B0 01 FF B0 01 0F (调光器地址-茶吧灯带, 茶吧灯带明亮)
2025-09-08 07:18:28.012 - 19 08 24 03 CC 01 CD 00 01 (调用茶吧感应灯关的按键)
2025-09-08 07:18:28.044 - 1A AA AA AA 88 FF 00 01 FF 00 01 0F (调光器地址-茶吧灯带, 茶吧灯带关闭)
2025-09-08 07:57:13.590 - 19 08 24 03 DD 00 3E 00 01 (调用情景-外卫照明关帘)
2025-09-08 07:57:14.100 - EE 00 00 B1 00 00 00 FF FC FF FF (情景执行提示)
2025-09-08 07:57:14.693 - 09 06 00 0F 02 01 78 21 (提示音叮)
2025-09-08 07:57:15.243 - 1A FF FF FF 55 00 00 00 0F (人体感应地址-外卫, 关闭外卫感应)
2025-09-08 07:57:15.258 - BC BC
2025-09-08 07:57:16.349 - 1A 0D 01 07 01 FF F0 01 FF F0 01 FF 00 00 0F (调光器地址-外卫射灯, 外卫射灯明亮)
2025-09-08 07:57:16.935 - 09 06 00 0F 02 02 38 20 (提示音咚)
2025-09-08 07:57:17.487 - EE 00 00 B1 00 00 02 FF FC FF FF (情景完成返回主页)
2025-09-08 08:03:09.115 - 1A BE B0 DC 03 (继电器地址-西阳天幕)
2025-09-08 08:03:09.255 - FF
2025-09-08 08:16:09.724 - 1A BE B0 DC 01 (继电器地址-回水泵点动)
2025-09-08 08:30:43.481 - 1A BE B0 DC 04 (继电器地址-西阳窗帘)
2025-09-08 08:45:10.840 - 1A FF FF FF 04 (继电器地址-东阳衣架)
2025-09-08 08:45:10.973 - FF
2025-09-08 08:57:54.495 - 1A BE B0 DC 02 (正反转地址-外卫卷帘)
2025-09-08 08:57:54.630 - FF
2025-09-08 09:00:49.657 - 1A BE B0 DC 09 (继电器地址-客厅窗帘)
2025-09-08 09:11:39.917 - 19 08 24 03 CC 01 54 00 01 (调用内卫感应灯开的按键)
2025-09-08 09:11:39.968 - 1A 0C 02 08 01 FF 45 01 FF 45 01 FF 00 00 0F (调光器地址-内卫射灯, 内卫射灯微光)
2025-09-08 09:11:57.450 - 19 08 24 03 CC 01 55 00 01 (调用内卫感应灯关的按键)
2025-09-08 09:11:57.502 - 1A 0C 02 08 01 FF 00 01 FF 00 01 FF 00 00 0F (调光器地址-内卫射灯, 内卫感应灯关)
2025-09-08 09:12:09.976 - 19 08 24 03 CC 01 54 00 01 (调用内卫感应灯开的按键)
2025-09-08 09:12:10.012 - 1A 0C 02 08 01 FF 45 01 FF 45 01 FF 00 00 0F (调光器地址-内卫射灯, 内卫射灯微光)
2025-09-08 09:12:27.009 - 19 08 24 03 CC 01 55 00 01 (调用内卫感应灯关的按键)
2025-09-08 09:12:27.043 - 1A 0C 02 08 01 FF 00 01 FF 00 01 FF 00 00 0F (调光器地址-内卫射灯, 内卫感应灯关)
2025-09-08 09:12:45.044 - 19 08 24 03 CC 01 54 00 01 (调用内卫感应灯开的按键)
2025-09-08 09:12:45.082 - 1A 0C 02 08 01 FF 45 01 FF 45 01 FF 00 00 0F (调光器地址-内卫射灯, 内卫射灯微光)
2025-09-08 09:13:21.116 - 19 08 24 03 CC 01 55 00 01 (调用内卫感应灯关的按键)
2025-09-08 09:13:21.150 - 1A 0C 02 08 01 FF 00 01 FF 00 01 FF 00 00 0F (调光器地址-内卫射灯, 内卫感应灯关)
2025-09-08 09:13:33.646 - 19 08 24 03 CC 01 54 00 01 (调用内卫感应灯开的按键)
2025-09-08 09:13:33.675 - 1A 0C 02 08 01 FF 45 01 FF 45 01 FF 00 00 0F (调光器地址-内卫射灯, 内卫射灯微光)
2025-09-08 09:14:12.716 - 19 08 24 03 CC 01 55 00 01 (调用内卫感应灯关的按键)
2025-09-08 09:14:12.752 - 1A 0C 02 08 01 FF 00 01 FF 00 01 FF 00 00 0F (调光器地址-内卫射灯, 内卫感应灯关)
2025-09-08 09:14:26.745 - 19 08 24 03 CC 01 54 00 01 (调用内卫感应灯开的按键)
2025-09-08 09:14:26.778 - 1A 0C 02 08 01 FF 45 01 FF 45 01 FF 00 00 0F (调光器地址-内卫射灯, 内卫射灯微光)
2025-09-08 09:14:45.283 - 19 08 24 03 CC 01 55 00 01 (调用内卫感应灯关的按键)
2025-09-08 09:14:45.316 - 1A 0C 02 08 01 FF 00 01 FF 00 01 FF 00 00 0F (调光器地址-内卫射灯, 内卫感应灯关)
2025-09-08 09:15:23.857 - 19 08 24 03 CC 01 54 00 01 (调用内卫感应灯开的按键)
2025-09-08 09:15:23.891 - 1A 0C 02 08 01 FF 45 01 FF 45 01 FF 00 00 0F (调光器地址-内卫射灯, 内卫射灯微光)
2025-09-08 09:16:13.456 - 19 08 24 03 CC 01 55 00 01 (调用内卫感应灯关的按键)
2025-09-08 09:16:13.491 - 1A 0C 02 08 01 FF 00 01 FF 00 01 FF 00 00 0F (调光器地址-内卫射灯, 内卫感应灯关)
2025-09-08 09:34:51.415 - 1A BE B0 DC 0A FC (继电器地址-客厅纱帘)
2025-09-08 09:34:51.547 - FF
2025-09-08 09:53:25.184 - FF FF FF FF 0E FE (继电器地址-西阳小窗帘)
2025-09-08 09:53:25.321 - FC
2025-09-08 10:00:13.962 - 19 08 24 03 DD 00 28 00 01 (调用情景-离开次卧)
2025-09-08 10:00:14.503 - EE 00 00 B1 00 00 00 FF FC FF FF (情景执行提示)
2025-09-08 10:00:15.097 - 09 06 00 0F 02 01 78 21 (提示音叮)
2025-09-08 10:00:15.642 - 50 F5 06 (关次卧影视)
2025-09-08 10:00:16.196 - 01 06 07 D9 FF 60 18 9D (次卧空调关)
2025-09-08 10:00:16.231 - 01 06 07 D9 FF 60 18 9D (次卧空调关)
2025-09-08 10:00:16.793 - A5 00 76 FE 01 AA (次卧窗帘开)
2025-09-08 10:00:16.846 - 55 00 76 02 01 0E 01 1B AA 55 00 76 02 01 0E 01 1B AA (次卧窗帘电机状态返回)
2025-09-08 10:00:17.889 - A5 00 21 FE 01 AA (次卧纱帘开)
2025-09-08 10:00:17.941 - 55 00 21 02 01 27 01 34 AA 55 00 21 02 01 27 01 34 AA (次卧纱帘电机状态返回)
2025-09-08 10:00:19.020 - 1A 20 07 00 70 00 01 00 0F (自保持开关地址-次卧顶灯, 次卧顶灯只关)
2025-09-08 10:00:19.591 - 1A 0E 03 05 FF FF 00 01 FF 00 01 FF 00 00 0F (调光器地址-次卧调光统配符, 次卧调光全关)
2025-09-08 10:00:20.182 - 09 06 00 0F 02 02 38 20 (提示音咚)
2025-09-08 10:00:22.229 - EE 00 00 B1 00 00 02 FF FC FF FF (情景完成返回主页)
2025-09-08 10:00:24.188 - 55 00 76 00 00 0E 01 1B AA 55 00 76 00 00 0E 01 1B AA (次卧窗帘电机状态返回)
2025-09-08 10:00:25.565 - 55 00 21 00 00 0D 01 34 AA 55 00 21 00 00 0D 01 34 AA (次卧纱帘电机状态返回)
2025-09-08 10:00:59.781 - 19 08 24 03 CC 01 CC 00 01 (调用茶吧感应灯开的按键)
2025-09-08 10:00:59.895 - 1A AA AA AA 88 FF B0 01 FF B0 01 0F (调光器地址-茶吧灯带, 茶吧灯带明亮)
2025-09-08 10:01:39.042 - 19 08 24 03 CC 00 D3 00 01 (调用厨房感应灯开的按键)
2025-09-08 10:01:39.074 - 55 0A 32 00 00 00 01 92 55 0A 32 00 00 00 02 93 (厨房顶灯一开, 厨房顶灯二开)
2025-09-08 10:01:47.377 - 19 08 24 03 CC 01 CD 00 01 (调用茶吧感应灯关的按键)
2025-09-08 10:01:47.406 - 1A AA AA AA 88 FF 00 01 FF 00 01 0F (调光器地址-茶吧灯带, 茶吧灯带关闭)
2025-09-08 10:01:55.393 - 19 08 24 03 CC 01 CC 00 01 (调用茶吧感应灯开的按键)
2025-09-08 10:01:55.423 - 1A AA AA AA 88 FF B0 01 FF B0 01 0F (调光器地址-茶吧灯带, 茶吧灯带明亮)
2025-09-08 10:02:08.916 - 19 08 24 03 CC 01 CD 00 01 (调用茶吧感应灯关的按键)
2025-09-08 10:02:08.948 - 1A AA AA AA 88 FF 00 01 FF 00 01 0F (调光器地址-茶吧灯带, 茶吧灯带关闭)
2025-09-08 10:04:46.624 - FF FF FF FF 0A (继电器地址-东阳窗帘)
2025-09-08 10:04:46.759 - FF
2025-09-08 10:06:31.618 - 19 08 24 03 CC 00 D4 00 01 (调用厨房感应灯关的按键)
2025-09-08 10:06:31.669 - 55 0A 31 00 00 00 01 91 55 0A 31 00 00 00 02 92 (厨房顶灯一关, 厨房顶灯二关)
2025-09-08 11:11:03.086 - 19 08 24 03 CC 01 CC 00 01 (调用茶吧感应灯开的按键)
2025-09-08 11:11:03.135 - 1A AA AA AA 88 FF B0 01 FF B0 01 0F (调光器地址-茶吧灯带, 茶吧灯带明亮)
2025-09-08 11:11:46.671 - 19 08 24 03 CC 01 CD 00 01 (调用茶吧感应灯关的按键)
2025-09-08 11:11:46.703 - 1A AA AA AA 88 FF 00 01 FF 00 01 0F (调光器地址-茶吧灯带, 茶吧灯带关闭)
2025-09-08 11:21:30.323 - 19 08 24 03 CC 01 CC 00 01 (调用茶吧感应灯开的按键)
2025-09-08 11:21:30.357 - 1A AA AA AA 88 FF B0 01 FF B0 01 0F (调光器地址-茶吧灯带, 茶吧灯带明亮)
2025-09-08 11:23:16.535 - 19 08 24 03 CC 01 CD 00 01 (调用茶吧感应灯关的按键)
2025-09-08 11:23:16.564 - 1A AA AA AA 88 FF 00 01 FF 00 01 0F (调光器地址-茶吧灯带, 茶吧灯带关闭)
2025-09-08 11:23:41.080 - 19 08 24 03 CC 01 CC 00 01 (调用茶吧感应灯开的按键)
2025-09-08 11:23:41.112 - 1A AA AA AA 88 FF B0 01 FF B0 01 0F (调光器地址-茶吧灯带, 茶吧灯带明亮)
2025-09-08 11:24:03.445 - 1A BE B0 DC 03 (继电器地址-西阳天幕)
2025-09-08 11:24:03.581 - FF
2025-09-08 11:25:59.858 - 19 08 24 03 CC 01 CD 00 01 (调用茶吧感应灯关的按键)
2025-09-08 11:25:59.905 - 1A AA AA AA 88 FF 00 01 FF 00 01 0F (调光器地址-茶吧灯带, 茶吧灯带关闭)
2025-09-08 11:35:02.930 - 19 08 24 03 CC 01 CC 00 01 (调用茶吧感应灯开的按键)
2025-09-08 11:35:02.981 - 1A AA AA AA 88 FF B0 01 FF B0 01 0F (调光器地址-茶吧灯带, 茶吧灯带明亮)
2025-09-08 11:36:04.552 - 19 08 24 03 CC 01 CD 00 01 (调用茶吧感应灯关的按键)
2025-09-08 11:36:04.581 - 1A AA AA AA 88 FF 00 01 FF 00 01 0F (调光器地址-茶吧灯带, 茶吧灯带关闭)
2025-09-08 11:37:07.420 - 1A BE B0 DC 01 FF (继电器地址-回水泵点动)
2025-09-08 11:37:07.555 - FF
2025-09-08 11:50:36.279 - 1A BE B0 DC 04 (继电器地址-西阳窗帘)
2025-09-08 11:56:30.591 - 19 08 24 03 CC 00 D3 00 01 (调用厨房感应灯开的按键)
2025-09-08 11:56:30.642 - 55 0A 32 00 00 00 01 92 55 0A 32 00 00 00 02 93 (厨房顶灯一开, 厨房顶灯二开)
2025-09-08 11:57:06.158 - 19 08 24 03 CC 00 D4 00 01 (调用厨房感应灯关的按键)
2025-09-08 11:57:06.213 - 55 0A 31 00 00 00 01 91 55 0A 31 00 00 00 02 92 (厨房顶灯一关, 厨房顶灯二关)
2025-09-08 12:01:09.139 - 19 08 24 03 CC 00 D3 00 01 (调用厨房感应灯开的按键)
2025-09-08 12:01:09.173 - 55 0A 32 00 00 00 01 92 55 0A 32 00 00 00 02 93 (厨房顶灯一开, 厨房顶灯二开)
2025-09-08 12:04:49.070 - 19 08 24 03 CC 00 D4 00 01 (调用厨房感应灯关的按键)
2025-09-08 12:04:49.145 - 55 0A 31 00 00 00 01 91 55 0A 31 00 00 00 02 92 (厨房顶灯一关, 厨房顶灯二关)
2025-09-08 12:05:03.600 - 19 08 24 03 CC 00 D3 00 01 (调用厨房感应灯开的按键)
2025-09-08 12:05:03.635 - 55 0A 32 00 00 00 01 92 55 0A 32 00 00 00 02 93 (厨房顶灯一开, 厨房顶灯二开)
2025-09-08 12:06:13.830 - 1A FF FF FF 04 FC (继电器地址-东阳衣架)
2025-09-08 12:06:13.969 - FF
2025-09-08 12:09:06.970 - 19 08 24 03 CC 01 CC 00 01 (调用茶吧感应灯开的按键)
2025-09-08 12:09:07.039 - 1A AA AA AA 88 FF B0 01 FF B0 01 0F (调光器地址-茶吧灯带, 茶吧灯带明亮)
2025-09-08 12:09:07.577 - 19 08 24 03 CC 00 D4 00 01 (调用厨房感应灯关的按键)
2025-09-08 12:09:07.632 - 55 0A 31 00 00 00 01 91 55 0A 31 00 00 00 02 92 (厨房顶灯一关, 厨房顶灯二关)
2025-09-08 12:09:19.498 - 19 08 24 03 CC 01 CD 00 01 (调用茶吧感应灯关的按键)
2025-09-08 12:09:19.528 - 1A AA AA AA 88 FF 00 01 FF 00 01 0F (调光器地址-茶吧灯带, 茶吧灯带关闭)
2025-09-08 12:18:00.127 - 19 08 24 03 CC 00 D3 00 01 (调用厨房感应灯开的按键)
2025-09-08 12:18:00.162 - 55 0A 32 00 00 00 01 92 55 0A 32 00 00 00 02 93 (厨房顶灯一开, 厨房顶灯二开)
2025-09-08 12:18:23.654 - 1A BE B0 DC 02 FC (正反转地址-外卫卷帘)
2025-09-08 12:18:23.788 - FF
2025-09-08 12:19:16.275 - 19 08 24 03 CC 00 D4 00 01 (调用厨房感应灯关的按键)
2025-09-08 12:19:16.329 - 55 0A 31 00 00 00 01 91 55 0A 31 00 00 00 02 92 (厨房顶灯一关, 厨房顶灯二关)
2025-09-08 12:21:10.689 - 1A BE B0 DC 09 FC (继电器地址-客厅窗帘)
2025-09-08 12:21:10.821 - FF
2025-09-08 12:23:18.249 - 19 08 24 03 CC 00 D3 00 01 (调用厨房感应灯开的按键)
2025-09-08 12:23:18.304 - 55 0A 32 00 00 00 01 92 55 0A 32 00 00 00 02 93 (厨房顶灯一开, 厨房顶灯二开)
2025-09-08 12:24:04.342 - 19 08 24 03 CC 00 D4 00 01 (调用厨房感应灯关的按键)
2025-09-08 12:24:04.397 - 55 0A 31 00 00 00 01 91 55 0A 31 00 00 00 02 92 (厨房顶灯一关, 厨房顶灯二关)
2025-09-08 12:27:27.745 - 19 08 24 03 CC 00 D3 00 01 (调用厨房感应灯开的按键)
2025-09-08 12:27:27.776 - 55 0A 32 00 00 00 01 92 55 0A 32 00 00 00 02 93 (厨房顶灯一开, 厨房顶灯二开)
2025-09-08 12:29:17.963 - 19 08 24 03 CC 00 D4 00 01 (调用厨房感应灯关的按键)
2025-09-08 12:29:17.993 - 55 0A 31 00 00 00 01 91 55 0A 31 00 00 00 02 92 (厨房顶灯一关, 厨房顶灯二关)
2025-09-08 12:30:09.043 - 19 08 24 03 DD 00 33 00 01 (调用情景-次卧睡觉)
2025-09-08 12:30:09.551 - EE 00 00 B1 00 00 00 FF FC FF FF (情景执行提示)
2025-09-08 12:30:10.144 - 09 06 00 0F 02 01 78 21 (提示音叮)
2025-09-08 12:30:10.724 - 1A 20 07 00 70 00 01 00 0F (自保持开关地址-次卧顶灯, 次卧顶灯只关)
2025-09-08 12:30:11.291 - A5 00 21 FF 00 AA (次卧纱帘关)
2025-09-08 12:30:11.338 - 55 00 21 01 00 0D 01 34 AA 55 00 21 01 00 0D 01 34 AA (次卧纱帘电机状态返回)
2025-09-08 12:30:12.383 - A5 00 76 FF 00 AA (次卧窗帘关)
2025-09-08 12:30:12.441 - 55 00 76 01 00 0E 01 1B AA 55 00 76 01 00 0E 01 1B AA (次卧窗帘电机状态返回)
2025-09-08 12:30:13.480 - 50 F5 06 (关次卧影视)
2025-09-08 12:30:14.039 - 1A 0E 03 05 03 FF 00 01 FF 00 01 FF 00 00 0F (调光器地址-次卧阅读灯, 次卧阅读关闭)
2025-09-08 12:30:14.638 - 1A 0E 03 05 02 FF 00 01 FF 00 01 FF 00 00 0F (调光器地址-次卧灯带, 次卧灯带关闭)
2025-09-08 12:30:15.239 - 1A 0E 03 05 04 FF 00 01 FF 00 01 FF 00 00 0F (调光器地址-次卧北筒灯, 次卧北筒灯关闭)
2025-09-08 12:30:15.832 - 1A 0E 03 05 05 FF 00 01 FF 00 01 FF 00 00 0F (调光器地址-次卧南筒灯, 次卧南筒灯关闭)
2025-09-08 12:30:16.429 - 1A 0E 03 05 01 FF 00 01 FF 00 01 FF 00 00 0F (调光器地址-次卧射灯, 次卧射灯关闭)
2025-09-08 12:30:17.026 - 09 06 00 0F 02 02 38 20 (提示音咚)
2025-09-08 12:30:17.575 - EE 00 00 B1 00 00 02 FF FC FF FF (情景完成返回主页)
2025-09-08 12:30:18.678 - 55 00 21 00 01 27 01 34 AA 55 00 21 00 01 27 01 34 AA (次卧纱帘电机状态返回)
2025-09-08 12:30:20.008 - 55 00 76 00 01 0E 01 1B AA 55 00 76 00 01 0E 01 1B AA (次卧窗帘电机状态返回)
2025-09-08 12:55:25.302 - 1A BE B0 DC 0A (继电器地址-客厅纱帘)
2025-09-08 12:55:25.438 - FF
2025-09-08 13:13:29.236 - FF FF FF FF 0E FE (继电器地址-西阳小窗帘)
2025-09-08 13:13:29.369 - FF
2025-09-08 13:28:50.967 - FF FF FF FF 0A FC (继电器地址-东阳窗帘)
2025-09-08 13:28:51.106 - FF
2025-09-08 14:44:59.352 - 1A BE B0 DC 03 FC (继电器地址-西阳天幕)
2025-09-08 14:44:59.486 - FF
2025-09-08 14:58:05.845 - 1A BE B0 DC 01 (继电器地址-回水泵点动)
2025-09-08 15:04:53.332 - 19 08 24 03 CC 00 D3 00 01 (调用厨房感应灯开的按键)
2025-09-08 15:04:53.383 - 55 0A 32 00 00 00 01 92 55 0A 32 00 00 00 02 93 (厨房顶灯一开, 厨房顶灯二开)
2025-09-08 15:05:41.931 - 19 08 24 03 CC 00 D4 00 01 (调用厨房感应灯关的按键)
2025-09-08 15:05:41.982 - 55 0A 31 00 00 00 01 91 55 0A 31 00 00 00 02 92 (厨房顶灯一关, 厨房顶灯二关)
2025-09-08 15:09:10.337 - 19 08 24 03 CC 00 D3 00 01 (调用厨房感应灯开的按键)
2025-09-08 15:09:10.373 - 55 0A 32 00 00 00 01 92 55 0A 32 00 00 00 02 93 (厨房顶灯一开, 厨房顶灯二开)
2025-09-08 15:10:40.449 - 1A BE B0 DC 04 (继电器地址-西阳窗帘)
2025-09-08 15:10:40.583 - FF
2025-09-08 15:11:54.660 - 19 08 24 03 CC 00 D4 00 01 (调用厨房感应灯关的按键)
2025-09-08 15:11:54.713 - 55 0A 31 00 00 00 01 91 55 0A 31 00 00 00 02 92 (厨房顶灯一关, 厨房顶灯二关)
2025-09-08 15:27:25.956 - 1A FF FF FF 04 FC (继电器地址-东阳衣架)
2025-09-08 15:27:26.091 - C0
2025-09-08 15:31:17.949 - 19 08 24 03 CC 00 D3 00 01 (调用厨房感应灯开的按键)
2025-09-08 15:31:18.002 - 55 0A 32 00 00 00 01 92 55 0A 32 00 00 00 02 93 (厨房顶灯一开, 厨房顶灯二开)
2025-09-08 15:32:02.536 - 19 08 24 03 CC 00 D4 00 01 (调用厨房感应灯关的按键)
2025-09-08 15:32:02.589 - 55 0A 31 00 00 00 01 91 55 0A 31 00 00 00 02 92 (厨房顶灯一关, 厨房顶灯二关)
2025-09-08 15:38:53.218 - 1A BE B0 DC 02 FC (正反转地址-外卫卷帘)
2025-09-08 15:38:53.353 - FE
2025-09-08 15:41:35.128 - 1A BE B0 DC 09 FC (继电器地址-客厅窗帘)
2025-09-08 15:41:53.197 - 19 08 24 03 CC 00 D3 00 01 (调用厨房感应灯开的按键)
2025-09-08 15:41:53.250 - 55 0A 32 00 00 00 01 92 55 0A 32 00 00 00 02 93 (厨房顶灯一开, 厨房顶灯二开)
2025-09-08 15:42:42.296 - 19 08 24 03 CC 00 D4 00 01 (调用厨房感应灯关的按键)
2025-09-08 15:42:42.347 - 55 0A 31 00 00 00 01 91 55 0A 31 00 00 00 02 92 (厨房顶灯一关, 厨房顶灯二关)
2025-09-08 15:56:30.923 - 19 08 24 03 CC 00 D3 00 01 (调用厨房感应灯开的按键)
2025-09-08 15:56:30.959 - 55 0A 32 00 00 00 01 92 55 0A 32 00 00 00 02 93 (厨房顶灯一开, 厨房顶灯二开)
2025-09-08 15:57:21.029 - 19 08 24 03 CC 00 D4 00 01 (调用厨房感应灯关的按键)
2025-09-08 15:57:21.058 - 55 0A 31 00 00 00 01 91 55 0A 31 00 00 00 02 92 (厨房顶灯一关, 厨房顶灯二关)
2025-09-08 16:13:57.482 - 19 08 24 03 CC 00 D3 00 01 (调用厨房感应灯开的按键)
2025-09-08 16:13:57.516 - 55 0A 32 00 00 00 01 92 55 0A 32 00 00 00 02 93 (厨房顶灯一开, 厨房顶灯二开)
2025-09-08 16:15:00.104 - 19 08 24 03 CC 00 D4 00 01 (调用厨房感应灯关的按键)
2025-09-08 16:15:00.138 - 55 0A 31 00 00 00 01 91 55 0A 31 00 00 00 02 92 (厨房顶灯一关, 厨房顶灯二关)
2025-09-08 16:15:56.083 - 1A BE B0 DC 0A (继电器地址-客厅纱帘)
2025-09-08 16:15:56.217 - FF
2025-09-08 16:33:35.817 - FF FF FF FF 0E (继电器地址-西阳小窗帘)
2025-09-08 16:33:35.952 - FC
2025-09-08 16:43:08.127 - 01 04 07 D0 00 06 70 85
2025-09-08 16:43:08.161 - 01 04 0C 70 00 42 02 00 FA 00 00 01 2C 00 00 F4 8C
2025-09-08 16:43:09.177 - 01 04 07 D6 00 06 90 84
2025-09-08 16:43:09.212 - 01 04 0C 70 00 42 02 00 FA 00 00 01 36 00 00 D5 4B
2025-09-08 16:43:10.236 - 01 04 07 DC 00 06 B0 86
2025-09-08 16:43:10.273 - 01 04 0C 70 00 42 02 01 04 00 00 01 36 00 00 0B 48
2025-09-08 16:43:11.286 - 01 04 07 E2 00 06 D1 4A
2025-09-08 16:43:11.322 - 01 04 0C 70 01 42 02 00 FA 00 00 00 FA 00 00 10 74
2025-09-08 16:43:12.346 - 01 04 07 E8 00 06 F1 48
2025-09-08 16:43:12.373 - 01 04 0C 70 00 42 02 00 FA 00 00 01 36 00 00 D5 4B
2025-09-08 16:43:14.403 - 01 04 07 DC 00 06 B0 86
2025-09-08 16:43:14.443 - 01 04 0C 70 00 42 02 01 04 00 00 01 36 00 00 0B 48
2025-09-08 16:43:19.809 - 01 04 07 D0 00 06 70 85
2025-09-08 16:43:19.845 - 01 04 0C 70 00 42 02 00 FA 00 00 01 2C 00 00 F4 8C
2025-09-08 16:43:20.859 - 01 04 07 D6 00 06 90 84
2025-09-08 16:43:20.896 - 01 04 0C 70 00 42 02 00 FA 00 00 01 36 00 00 D5 4B
2025-09-08 16:43:21.925 - 01 04 07 DC 00 06 B0 86
2025-09-08 16:43:21.957 - 01 04 0C 70 00 42 02 01 04 00 00 01 36 00 00 0B 48
2025-09-08 16:43:22.989 - 01 04 07 E2 00 06 D1 4A
2025-09-08 16:43:23.016 - 01 04 0C 70 01 42 02 00 FA 00 00 00 FA 00 00 10 74
2025-09-08 16:43:24.046 - 01 04 07 E8 00 06 F1 48
2025-09-08 16:43:24.077 - 01 04 0C 70 00 42 02 00 FA 00 00 01 36 00 00 D5 4B
2025-09-08 16:43:26.109 - 01 04 07 DC 00 06 B0 86
2025-09-08 16:43:26.148 - 01 04 0C 70 00 42 02 01 04 00 00 01 36 00 00 0B 48
2025-09-08 16:43:56.221 - 01 04 07 D0 00 06 70 85
2025-09-08 16:43:56.252 - 01 04 0C 70 00 42 02 00 FA 00 00 01 2C 00 00 F4 8C
2025-09-08 16:43:57.268 - 01 04 07 D6 00 06 90 84
2025-09-08 16:43:57.303 - 01 04 0C 70 00 42 02 00 FA 00 00 01 36 00 00 D5 4B
2025-09-08 16:43:58.331 - 01 04 07 DC 00 06 B0 86
2025-09-08 16:43:58.364 - 01 04 0C 70 00 42 02 01 04 00 00 01 36 00 00 0B 48
2025-09-08 16:43:59.376 - 01 04 07 E2 00 06 D1 4A
2025-09-08 16:43:59.413 - 01 04 0C 70 01 42 02 00 FA 00 00 00 FA 00 00 10 74
2025-09-08 16:44:00.443 - 01 04 07 E8 00 06 F1 48
2025-09-08 16:44:00.473 - 01 04 0C 70 00 42 02 00 FA 00 00 01 36 00 00 D5 4B
2025-09-08 16:44:02.515 - 01 04 07 DC 00 06 B0 86
2025-09-08 16:44:02.555 - 01 04 0C 70 00 42 02 01 04 00 00 01 36 00 00 0B 48
2025-09-08 16:44:55.587 - 01 04 07 D0 00 06 70 85
2025-09-08 16:44:55.624 - 01 04 0C 70 00 42 02 00 FA 00 00 01 2C 00 00 F4 8C
2025-09-08 16:44:56.644 - 01 04 07 D6 00 06 90 84
2025-09-08 16:44:56.675 - 01 04 0C 70 00 42 02 00 FA 00 00 01 36 00 00 D5 4B
2025-09-08 16:44:57.688 - 01 04 07 DC 00 06 B0 86
2025-09-08 16:44:57.725 - 01 04 0C 70 00 42 02 01 04 00 00 01 36 00 00 0B 48
2025-09-08 16:44:58.750 - 01 04 07 E2 00 06 D1 4A
2025-09-08 16:44:58.784 - 01 04 0C 70 01 42 02 00 FA 00 00 00 FA 00 00 10 74
2025-09-08 16:44:59.813 - 01 04 07 E8 00 06 F1 48
2025-09-08 16:44:59.845 - 01 04 0C 70 00 42 02 00 FA 00 00 01 36 00 00 D5 4B
2025-09-08 16:45:01.878 - 01 04 07 DC 00 06 B0 86
2025-09-08 16:45:01.906 - 01 04 0C 70 00 42 02 01 04 00 00 01 36 00 00 0B 48
2025-09-08 16:53:51.493 - FF FF FF FF 0A (继电器地址-东阳窗帘)
2025-09-08 16:58:20.732 - 19 08 24 03 DD 00 29 00 01 (调用情景-次卧照明关帘)
2025-09-08 16:58:21.255 - EE 00 00 B1 00 00 00 FF FC FF FF (情景执行提示)
2025-09-08 16:58:21.851 - 09 06 00 0F 02 01 78 21 (提示音叮)
2025-09-08 16:58:22.406 - 1A 0E 03 05 01 FF F0 01 FF F0 01 FF 00 00 0F (调光器地址-次卧射灯, 次卧射灯明亮)
2025-09-08 16:58:23.004 - 1A 0E 03 05 02 FF F0 01 FF F0 01 FF 00 00 0F (调光器地址-次卧灯带, 次卧灯带明亮)
2025-09-08 16:58:23.593 - A5 00 21 FF 00 AA (次卧纱帘关)
2025-09-08 16:58:24.642 - A5 00 76 FF 00 AA (次卧窗帘关)
2025-09-08 16:58:25.695 - 1A 0E 03 05 04 FF F0 01 FF F0 01 FF 00 00 0F (调光器地址-次卧北筒灯, 次卧北筒灯明亮)
2025-09-08 16:58:26.294 - 1A 0E 03 05 05 FF F0 01 FF F0 01 FF 00 00 0F (调光器地址-次卧南筒灯, 次卧南筒灯明亮)
2025-09-08 16:58:26.888 - 09 06 00 0F 02 02 38 20 (提示音咚)
2025-09-08 16:58:27.437 - EE 00 00 B1 00 00 02 FF FC FF FF (情景完成返回主页)
2025-09-08 17:09:00.992 - 19 08 24 03 CC 00 D3 00 01 (调用厨房感应灯开的按键)
2025-09-08 17:09:01.044 - 55 0A 32 00 00 00 01 92 55 0A 32 00 00 00 02 93 (厨房顶灯一开, 厨房顶灯二开)
2025-09-08 17:11:20.258 - 19 08 24 03 CC 00 D4 00 01 (调用厨房感应灯关的按键)
2025-09-08 17:11:20.292 - 55 0A 31 00 00 00 01 91 55 0A 31 00 00 00 02 92 (厨房顶灯一关, 厨房顶灯二关)
2025-09-08 17:20:53.379 - 1A 27 89 12 AA 86 86 86 0F (查询寄存器状态, 状态寄存器地址)
2025-09-08 17:20:53.762 - 1A 27 89 12 AA 01 00 00 00 00 00 00 00 00 00 00 01 00 00 00 00 0F (状态寄存器地址)
2025-09-08 17:20:53.930 - 1A EC A0 DC 02 86 86 86 0F (查询天花供电状态, 自保持开关地址-天花12V供电)
2025-09-08 17:20:54.365 - 1A EC A0 DC 02 01 01 0F (自保持开关地址-天花12V供电)
2025-09-08 17:20:54.550 - 1A EC A0 DC 01 86 86 86 0F (查询电视供电状态, 自保持开关地址-电视、设备12V供电)
2025-09-08 17:20:54.985 - 1A EC A0 DC 01 01 01 0F (自保持开关地址-电视、设备12V供电)
2025-09-08 17:20:55.209 - 1A EC A0 DC 03 86 86 86 0F (自保持开关地址-书房餐厅厨房供电)
2025-09-08 17:20:55.640 - 1A EC A0 DC 03 01 01 0F (自保持开关地址-书房餐厅厨房供电)
2025-09-08 17:20:55.831 - 1A EC A0 DC 04 86 86 86 0F (查询卫生间供电状态, 自保持开关地址-次卧西阳内外卫供电)
2025-09-08 17:20:56.263 - 1A EC A0 DC 04 01 01 0F (自保持开关地址-次卧西阳内外卫供电)
2025-09-08 17:20:56.447 - 1A FF 03 00 00 86 86 86 0F 19 08 24 03 AB 00 00 33 01 19 08 24 03 CD B8 B4 AB 1A FF 04 00 00 86 (调用查询模块-主卧空调开关查询, 主卧空调虚拟地址, 次卧空调虚拟地址)
2025-09-08 17:20:56.453 - 86 86 0F
2025-09-08 17:20:56.676 - 01 04 07 DC 00 01 F1 44 (查询主卧空调开关状态)
2025-09-08 17:20:56.707 - 01 04 02 70 00 9C F0
2025-09-08 17:20:57.680 - 1A FF 03 00 00 00 00 0F (主卧空调虚拟地址)
2025-09-08 17:20:57.849 - 1A FF 05 00 00 86 86 86 0F (调用查询模块-书房空调开关查询, 书房空调虚拟地址)
2025-09-08 17:20:58.072 - 01 04 07 E8 00 01 B0 8A (查询书房空调开关状态)
2025-09-08 17:20:58.099 - 01 04 02 70 00 9C F0
2025-09-08 17:20:59.077 - 1A FF 05 00 00 00 00 0F (书房空调虚拟地址)
2025-09-08 17:20:59.376 - 1A FF 02 00 00 86 86 86 0F (调用查询模块-餐厅空调开关查询, 餐厅空调虚拟地址)
2025-09-08 17:20:59.607 - 01 04 07 D6 00 01 D1 46 (查询餐厅空调开关状态)
2025-09-08 17:20:59.635 - 01 04 02 70 00 9C F0
2025-09-08 17:21:00.613 - 1A FF 02 00 00 00 00 0F (餐厅空调虚拟地址)
2025-09-08 17:21:01.052 - 1A FF 01 00 00 86 86 86 0F (调用查询模块-客厅空调开关查询, 客厅空调虚拟地址)
2025-09-08 17:21:01.281 - 01 04 07 D0 00 01 31 47 (查询客厅空调开关状态)
2025-09-08 17:21:01.300 - 01 04 02 70 00 9C F0
2025-09-08 17:21:02.286 - 1A FF 01 00 00 00 00 0F (客厅空调虚拟地址)
2025-09-08 17:21:51.577 - 1A 10 00 00 00 86 86 86 0F (调用查询模块-主卧测温转换, 主卧温湿度虚拟地址)
2025-09-08 17:21:51.802 - 1D 03 00 00 00 02 C6 57 (查询主卧温湿度)
2025-09-08 17:21:51.822 - 1D 03 04 02 1D 01 36 37 CA (主卧温湿度返回)
2025-09-08 17:21:52.830 - 1A 10 00 00 00 00 00 01 00 00 01 00 00 01 01 36 01 02 1D 01 00 00 01 00 00 01 0F (主卧温湿度虚拟地址)
2025-09-08 17:21:53.037 - 1A 11 00 00 00 86 86 86 0F (调用查询模块-次卧测温转换, 次卧温湿度虚拟地址)
2025-09-08 17:21:53.257 - 11 03 00 00 00 02 C6 9B (查询次卧温湿度)
2025-09-08 17:21:53.277 - 11 03 04 01 E3 00 E6 9A 72 (次卧温湿度返回)
2025-09-08 17:21:54.281 - 1A 11 00 00 00 00 00 01 00 00 01 00 00 01 00 E6 01 01 E3 01 00 00 01 00 00 01 0F (次卧温湿度虚拟地址)
2025-09-08 17:21:54.427 - 1A 12 00 00 00 86 86 86 0F (调用查询模块-书房测温转换, 书房温湿度虚拟地址)
2025-09-08 17:21:54.652 - 12 03 00 00 00 02 C6 A8 (查询书房温湿度)
2025-09-08 17:21:54.669 - 12 03 04 02 20 01 3D 18 C1 (书房温湿度返回)
2025-09-08 17:21:55.675 - 1A 12 00 00 00 00 00 01 00 00 01 00 00 01 01 3D 01 02 20 01 00 00 01 00 00 01 0F (书房温湿度虚拟地址)
2025-09-08 17:21:55.867 - 1A 13 00 00 00 86 86 86 0F (调用查询模块-外卫测温转换, 外卫温湿度虚拟地址)
2025-09-08 17:21:56.094 - 13 03 00 00 00 02 C7 79 (查询外卫温湿度)
2025-09-08 17:21:56.115 - 13 03 04 02 2C 01 33 49 C6 (外卫温湿度返回)
2025-09-08 17:21:57.116 - 1A 13 00 00 00 00 00 01 00 00 01 00 00 01 01 33 01 02 2C 01 00 00 01 00 00 01 0F (外卫温湿度虚拟地址)
2025-09-08 17:21:57.297 - 1A 14 00 00 00 86 86 86 0F (调用查询模块-内卫测温转换, 内卫温湿度虚拟地址)
2025-09-08 17:21:57.517 - 14 03 00 00 00 02 C6 CE (查询内卫温湿度)
2025-09-08 17:21:57.541 - 14 03 04 02 29 01 31 AE C6 (内卫温湿度返回)
2025-09-08 17:21:58.544 - 1A 14 00 00 00 00 00 01 00 00 01 00 00 01 01 31 01 02 29 01 00 00 01 00 00 01 0F (内卫温湿度虚拟地址)
2025-09-08 17:21:58.754 - 1A 15 00 00 00 86 86 86 0F (调用查询模块-客厅测温转换, 客厅温湿度虚拟地址)
2025-09-08 17:21:58.980 - 15 03 00 00 00 02 C7 1F (查询客厅温湿度)
2025-09-08 17:21:59.006 - 15 03 04 02 10 01 38 AE 0D (客厅温湿度返回)
2025-09-08 17:22:00.006 - 1A 15 00 00 00 00 00 01 00 00 01 00 00 01 01 38 01 02 10 01 00 00 01 00 00 01 0F (客厅温湿度虚拟地址)
2025-09-08 17:22:00.158 - 1A 16 00 00 00 86 86 86 0F (调用查询模块-机柜测温转换, 机柜温湿度虚拟地址)
2025-09-08 17:22:00.389 - 16 03 00 00 00 02 C7 2C (查询机柜温湿度)
2025-09-08 17:22:01.412 - 1A 16 00 00 00 00 00 01 00 00 01 00 00 01 86 86 01 00 00 01 00 00 01 00 00 01 0F (机柜温湿度虚拟地址)
2025-09-08 17:22:01.558 - 1A 0E 00 00 00 86 86 86 0F (调用查询模块-厨房测温转换, 厨房温湿度虚拟地址)
2025-09-08 17:22:01.779 - 0E 03 00 00 00 02 C4 F4 (查询厨房温湿度)
2025-09-08 17:22:01.805 - 0E 03 04 02 01 01 44 54 E8 (厨房温湿度返回)
2025-09-08 17:22:02.805 - 1A 0E 00 00 00 00 00 01 00 00 01 00 00 01 01 44 01 02 01 01 00 00 01 00 00 01 0F (厨房温湿度虚拟地址)
2025-09-08 17:22:02.957 - 1A 0F 00 00 00 86 86 86 0F (调用查询模块-餐厅测温转换, 餐厅温湿度虚拟地址)
2025-09-08 17:22:03.186 - 1C 03 00 00 00 02 C7 86 (查询餐厅温湿度)
2025-09-08 17:22:03.203 - 1C 03 04 01 F0 01 42 B7 5C (餐厅温湿度返回)
2025-09-08 17:22:04.210 - 1A 0F 00 00 00 00 00 01 00 00 01 00 00 01 01 42 01 01 F0 01 00 00 01 00 00 01 0F (餐厅温湿度虚拟地址)
2025-09-08 17:22:04.355 - 1A 20 00 00 00 86 86 86 0F (调用查询模块-阳台测温湿气压转换, 阳台温湿气压虚拟地址)
2025-09-08 17:22:04.577 - 20 03 00 00 00 03 03 7A (查询阳台温湿度气压)
2025-09-08 17:22:04.599 - 20 03 06 01 70 01 81 26 ED 7E C7 (阳台温湿度返回)
2025-09-08 17:22:05.100 - 1A 20 00 00 00 00 00 01 00 00 01 00 00 01 01 70 01 01 81 01 26 ED 01 00 00 01 0F (阳台温湿气压虚拟地址)
2025-09-08 17:22:05.246 - 1A 21 00 00 00 86 86 86 0F (调用查询模块-储藏室测温湿气压转换, 储藏室温湿气压虚拟地址)
2025-09-08 17:22:05.474 - 21 03 00 00 00 03 02 AB (查询储藏室温湿度气压)
2025-09-08 17:22:05.495 - 21 03 06 01 52 02 1C 26 EB 9A F8 (储藏室温湿度返回)
2025-09-08 17:22:05.992 - 1A 21 00 00 00 00 00 01 00 00 01 00 00 01 01 52 01 02 1C 01 26 EB 01 00 00 01 0F (储藏室温湿气压虚拟地址)
2025-09-08 17:22:06.175 - 1A 22 00 00 00 86 86 86 0F (调用查询模块-室外测温湿气压转换, 室外温湿气压虚拟地址)
2025-09-08 17:22:06.404 - 22 03 00 00 00 03 02 98 (查询室外温湿度气压)
2025-09-08 17:22:06.424 - 22 03 06 01 57 02 34 26 E9 43 C1 (室外温湿度返回)
2025-09-08 17:22:06.925 - 1A 22 00 00 00 00 00 01 00 00 01 00 00 01 01 57 01 02 34 01 26 E9 01 00 00 01 0F (室外温湿气压虚拟地址)
2025-09-08 17:22:07.130 - 1A FF 01 00 00 86 86 86 0F (调用查询模块-客厅空调开关查询, 客厅空调虚拟地址)
2025-09-08 17:22:07.355 - 01 04 07 D0 00 01 31 47 (查询客厅空调开关状态)
2025-09-08 17:22:07.377 - 01 04 02 70 00 9C F0
2025-09-08 17:22:08.359 - 1A FF 01 00 00 00 00 0F (客厅空调虚拟地址)
2025-09-08 17:22:27.600 - 1A FF 03 00 00 00 00 02 0F (主卧空调虚拟地址)
2025-09-08 17:22:28.578 - 1A FF 03 00 00 86 86 86 0F (调用查询模块-主卧空调开关查询, 主卧空调虚拟地址)
2025-09-08 17:22:28.807 - 01 04 07 DC 00 01 F1 44 (查询主卧空调开关状态)
2025-09-08 17:22:28.827 - 01 04 02 70 00 9C F0
2025-09-08 17:22:29.811 - 1A FF 03 00 00 00 00 0F (主卧空调虚拟地址)
2025-09-08 17:22:33.334 - 1A FF 04 00 00 00 00 02 0F (次卧空调虚拟地址)
2025-09-08 17:22:34.307 - 1A FF 04 00 00 86 86 86 0F (调用查询模块-次卧空调开关查询, 次卧空调虚拟地址)
2025-09-08 17:22:34.533 - 01 04 07 E2 00 01 90 88 (查询次卧空调开关状态)
2025-09-08 17:22:34.556 - 01 04 02 70 01 5D 30
2025-09-08 17:22:35.537 - 1A FF 04 00 00 01 00 0F (次卧空调虚拟地址)
2025-09-08 17:22:36.714 - 1A FF 02 00 00 00 00 02 0F (餐厅空调虚拟地址)
2025-09-08 17:22:37.696 - 1A FF 02 00 00 86 86 86 0F (调用查询模块-餐厅空调开关查询, 餐厅空调虚拟地址)
2025-09-08 17:22:37.924 - 01 04 07 D6 00 01 D1 46 (查询餐厅空调开关状态)
2025-09-08 17:22:37.948 - 01 04 02 70 00 9C F0
2025-09-08 17:22:38.927 - 1A FF 02 00 00 00 00 0F (餐厅空调虚拟地址)
2025-09-08 17:22:39.067 - 1A FF 05 00 00 00 00 02 0F (书房空调虚拟地址)
2025-09-08 17:22:40.905 - 1A FF 01 00 00 00 00 02 0F (客厅空调虚拟地址)
2025-09-08 17:22:41.864 - 1A FF 01 00 00 86 86 86 0F (调用查询模块-客厅空调开关查询, 客厅空调虚拟地址)
2025-09-08 17:22:42.088 - 01 04 07 D0 00 01 31 47 (查询客厅空调开关状态)
2025-09-08 17:22:42.108 - 01 04 02 70 00 9C F0
2025-09-08 17:22:43.096 - 1A FF 01 00 00 00 00 0F (客厅空调虚拟地址)
2025-09-08 17:22:45.845 - 01 04 07 D0 00 06 70 85
2025-09-08 17:22:45.874 - 01 04 0C 70 00 42 02 00 FA 00 00 01 2C 00 00 F4 8C
2025-09-08 17:22:46.890 - 01 04 07 D6 00 06 90 84
2025-09-08 17:22:46.925 - 01 04 0C 70 00 42 02 00 FA 00 00 01 36 00 00 D5 4B
2025-09-08 17:22:47.951 - 01 04 07 DC 00 06 B0 86
2025-09-08 17:22:47.983 - 01 04 0C 70 00 42 02 01 04 00 00 01 36 00 00 0B 48
2025-09-08 17:22:49.015 - 01 04 07 E2 00 06 D1 4A
2025-09-08 17:22:49.045 - 01 04 0C 70 01 42 02 00 FA 00 00 00 FA 00 00 10 74
2025-09-08 17:22:50.067 - 01 04 07 E8 00 06 F1 48
2025-09-08 17:22:50.095 - 01 04 0C 70 00 42 02 00 FA 00 00 01 36 00 00 D5 4B
2025-09-08 17:22:51.116 - 01 10 07 D6 00 03 06 70 61 00 02 00 A6 8F 00
2025-09-08 17:22:51.153 - 01 10 07 D6 00 03 06 70 61 00 02 00 A6 8F 00
2025-09-08 17:22:58.701 - 1A FF 03 00 00 00 00 02 0F (主卧空调虚拟地址)
2025-09-08 17:22:59.668 - 1A FF 03 00 00 86 86 86 0F (调用查询模块-主卧空调开关查询, 主卧空调虚拟地址)
2025-09-08 17:22:59.896 - 01 04 07 DC 00 01 F1 44 (查询主卧空调开关状态)
2025-09-08 17:22:59.921 - 01 04 02 70 01 5D 30
2025-09-08 17:23:00.900 - 1A FF 03 00 00 01 00 0F (主卧空调虚拟地址)
2025-09-08 17:23:19.300 - 19 08 24 03 CC 01 CC 00 01 (调用茶吧感应灯开的按键)
2025-09-08 17:23:19.350 - 1A AA AA AA 88 FF B0 01 FF B0 01 0F (调光器地址-茶吧灯带, 茶吧灯带明亮)
2025-09-08 17:23:29.523 - 1A FF 03 00 00 00 00 02 0F (主卧空调虚拟地址)
2025-09-08 17:23:30.538 - 1A FF 03 00 00 86 86 86 0F (调用查询模块-主卧空调开关查询, 主卧空调虚拟地址)
2025-09-08 17:23:30.762 - 01 04 07 DC 00 01 F1 44 (查询主卧空调开关状态)
2025-09-08 17:23:30.786 - 01 04 02 70 01 5D 30
2025-09-08 17:23:31.767 - 1A FF 03 00 00 01 00 0F (主卧空调虚拟地址)
2025-09-08 17:23:34.753 - 01 06 07 D6 FF 60 28 9E (主卧空调关)
2025-09-08 17:23:34.783 - 01 06 07 D6 FF 60 28 9E (主卧空调关)
2025-09-08 17:23:43.080 - 1A FF 03 00 00 00 00 02 0F (主卧空调虚拟地址)
2025-09-08 17:23:44.023 - 1A FF 03 00 00 86 86 86 0F (调用查询模块-主卧空调开关查询, 主卧空调虚拟地址)
2025-09-08 17:23:44.250 - 01 04 07 DC 00 01 F1 44 (查询主卧空调开关状态)
2025-09-08 17:23:44.278 - 01 04 02 70 00 9C F0
2025-09-08 17:23:45.252 - 1A FF 03 00 00 00 00 0F (主卧空调虚拟地址)
2025-09-08 17:24:05.286 - 01 04 07 D0 00 06 70 85
2025-09-08 17:24:05.323 - 01 04 0C 70 00 42 02 00 FA 00 00 01 2C 00 00 F4 8C
2025-09-08 17:24:06.345 - 01 04 07 D6 00 06 90 84
2025-09-08 17:24:06.373 - 01 04 0C 70 00 42 02 00 FA 00 00 01 36 00 00 D5 4B
2025-09-08 17:24:07.392 - 01 04 07 DC 00 06 B0 86
2025-09-08 17:24:07.424 - 01 04 0C 70 00 42 02 00 A0 00 00 01 36 00 00 2F 4E
2025-09-08 17:24:08.454 - 01 04 07 E2 00 06 D1 4A
2025-09-08 17:24:08.483 - 01 04 0C 70 01 42 02 00 FA 00 00 00 FA 00 00 10 74
2025-09-08 17:24:09.498 - 01 04 07 E8 00 06 F1 48
2025-09-08 17:24:09.535 - 01 04 0C 70 00 42 02 00 FA 00 00 01 36 00 00 D5 4B
2025-09-08 17:24:11.417 - 19 08 24 03 CC 01 CD 00 01 (调用茶吧感应灯关的按键)
2025-09-08 17:24:11.468 - 1A AA AA AA 88 FF 00 01 FF 00 01 0F (调光器地址-茶吧灯带, 茶吧灯带关闭)
2025-09-08 17:24:11.568 - 01 04 07 DC 00 06 B0 86
2025-09-08 17:24:11.605 - 01 04 0C 70 00 42 02 00 A0 00 00 01 36 00 00 2F 4E
2025-09-08 17:24:28.693 - 19 08 24 03 DD 00 00 00 01 (调用情景-离家（末）)
2025-09-08 17:24:29.211 - EE 00 00 B1 00 00 00 FF FC FF FF (情景执行提示)
2025-09-08 17:24:29.806 - 09 06 00 0F 02 02 38 20 (提示音咚)
2025-09-08 17:24:30.348 - 50 F7 01 (全屋影音全关)
2025-09-08 17:24:30.902 - 01 06 07 D0 FF 60 C8 9F (客厅空调关)
2025-09-08 17:24:30.934 - 01 06 07 D0 FF 60 C8 9F (客厅空调关)
2025-09-08 17:24:31.498 - 01 06 07 D0 FF 60 C8 9F (客厅空调关)
2025-09-08 17:24:31.533 - 01 06 07 D0 FF 60 C8 9F (客厅空调关)
2025-09-08 17:24:32.097 - 01 06 07 D3 FF 60 38 9F (餐厅空调关)
2025-09-08 17:24:32.126 - 01 06 07 D3 FF 60 38 9F (餐厅空调关)
2025-09-08 17:24:32.694 - 01 06 07 D3 FF 60 38 9F (餐厅空调关)
2025-09-08 17:24:32.724 - 01 06 07 D3 FF 60 38 9F (餐厅空调关)
2025-09-08 17:24:33.292 - 01 06 07 D6 FF 60 28 9E (主卧空调关)
2025-09-08 17:24:33.329 - 01 06 07 D6 FF 60 28 9E (主卧空调关)
2025-09-08 17:24:33.891 - 01 06 07 D6 FF 60 28 9E (主卧空调关)
2025-09-08 17:24:33.923 - 01 06 07 D6 FF 60 28 9E (主卧空调关)
2025-09-08 17:24:34.490 - 01 06 07 D9 FF 60 18 9D (次卧空调关)
2025-09-08 17:24:34.520 - 01 06 07 D9 FF 60 18 9D (次卧空调关)
2025-09-08 17:24:35.088 - 01 06 07 D9 FF 60 18 9D (次卧空调关)
2025-09-08 17:24:35.117 - 01 06 07 D9 FF 60 18 9D (次卧空调关)
2025-09-08 17:24:35.684 - 01 06 07 DC FF 60 08 9C (书房空调关)
2025-09-08 17:24:35.714 - 01 06 07 DC FF 60 08 9C (书房空调关)
2025-09-08 17:24:36.282 - 01 06 07 DC FF 60 08 9C (书房空调关)
2025-09-08 17:24:36.318 - 01 06 07 DC FF 60 08 9C (书房空调关)
2025-09-08 17:24:36.880 - 09 06 00 0F 02 02 38 20 (提示音咚)
2025-09-08 17:24:37.431 - 1A FF FF FF 56 00 00 00 0F (人体感应地址-内卫, 关闭内卫感应)
2025-09-08 17:24:37.543 - BF BF
2025-09-08 17:24:37.978 - 1A FF FF FF 55 00 00 00 0F (人体感应地址-外卫, 关闭外卫感应)
2025-09-08 17:24:37.991 - BC BC
2025-09-08 17:24:38.576 - 1A FF FF FF 57 00 00 00 0F (人体感应地址-厨房, 关闭厨房感应)
2025-09-08 17:24:38.684 - BF BF
2025-09-08 17:24:39.125 - 1A FF FF FF 58 00 00 00 0F (人体感应地址-茶吧, 关闭茶吧感应)
2025-09-08 17:24:39.176 - BC BC
2025-09-08 17:24:39.720 - 1A 20 07 00 93 00 01 00 0F (自保持开关地址-设备区顶, 设备区顶灯关)
2025-09-08 17:24:40.771 - 1A 20 07 01 40 00 01 00 0F (自保持开关地址-内卫顶灯, 内卫顶灯关)
2025-09-08 17:24:41.814 - 1A 20 07 01 55 00 01 00 0F (自保持开关地址-主卧顶灯, 主卧顶灯只关)
2025-09-08 17:24:42.863 - 1A 20 07 00 42 00 01 00 0F (自保持开关地址-外卫顶灯, 外卫顶灯关)
2025-09-08 17:24:43.920 - 55 0D 31 00 00 00 01 94 (书房顶灯只关)
2025-09-08 17:24:44.953 - 55 0A 31 00 00 00 01 91 (厨房顶灯一关)
2025-09-08 17:24:46.003 - 55 0A 31 00 00 00 02 92 (厨房顶灯二关)
2025-09-08 17:24:47.046 - 55 0B 31 00 00 00 01 92 (厨房风扇只关)
2025-09-08 17:24:48.094 - 55 0C 31 00 00 00 01 93 (餐厅顶灯关)
2025-09-08 17:24:49.139 - 1A 20 07 01 30 00 01 00 0F (自保持开关地址-西阳顶灯, 西阳顶灯关)
2025-09-08 17:24:50.185 - 1A 18 05 21 89 00 01 00 0F (自保持开关地址-客厅顶灯, 客厅顶灯一关)
2025-09-08 17:24:51.234 - 1A 18 05 01 94 00 01 00 0F (自保持开关地址-客厅顶灯, 客厅顶灯二关)
2025-09-08 17:24:52.279 - 1A 20 07 00 70 00 01 00 0F (自保持开关地址-次卧顶灯, 次卧顶灯只关)
2025-09-08 17:24:53.326 - 1A 18 05 10 31 00 01 00 0F (自保持开关地址-门厅顶灯, 门厅顶灯关)
2025-09-08 17:24:54.371 - 1A FF FF FF 04 00 03 02 (继电器地址-东阳衣架, 东阳衣架照明关)
2025-09-08 17:24:54.920 - 09 06 00 0F 02 02 38 20 (提示音咚)
2025-09-08 17:24:55.464 - A5 00 A6 FE 01 AA (餐厅窗帘开)
2025-09-08 17:24:55.522 - 55 00 A6 02 01 66 01 74 AA 55 00 A6 02 01 66 01 FC (餐厅窗帘电机状态返回)
2025-09-08 17:24:56.064 - FF FF FF FF 0A 00 01 00 (继电器地址-东阳窗帘, 东阳窗帘开)
2025-09-08 17:24:56.665 - 1A BE B0 DC 04 00 01 00 (继电器地址-西阳窗帘, 西阳窗帘开)
2025-09-08 17:24:57.211 - FF FF FF FF 0E 00 01 00 (继电器地址-西阳小窗帘, 西阳小窗帘开)
2025-09-08 17:24:57.759 - 1A 22 33 62 0F 00 00 01 0F (正反转地址-内卫卷帘, 内卫卷帘升)
2025-09-08 17:24:58.306 - 55 12 12 03 01 4C 41 (主卧窗帘开)
2025-09-08 17:24:58.352 - 55 12 12 03 01 4C 41 (主卧窗帘开)
2025-09-08 17:24:58.904 - 55 11 1D 03 02 3C 07 (主卧纱帘开)
2025-09-08 17:24:58.951 - 55 11 1D 03 02 3C 07 (主卧纱帘开)
2025-09-08 17:24:59.503 - A5 00 76 FE 01 AA (次卧窗帘开)
2025-09-08 17:24:59.557 - 55 00 76 02 01 0E 01 1B AA 55 00 76 02 01 0E 01 1B AA (次卧窗帘电机状态返回)
2025-09-08 17:25:00.099 - A5 00 21 FE 01 AA (次卧纱帘开)
2025-09-08 17:25:00.152 - 55 00 21 02 01 27 01 34 AA 55 00 21 02 01 27 01 34 AA (次卧纱帘电机状态返回)
2025-09-08 17:25:00.699 - A5 00 D2 FE 01 AA 22 0D (书房窗帘开)
2025-09-08 17:25:00.752 - 55 00 D2 02 00 FE 01 0B AA 55 00 D2 02 00 FE 01 0B AA (书房窗帘电机状态返回)
2025-09-08 17:25:01.300 - 1A BE B0 DC 09 00 01 00 (继电器地址-客厅窗帘, 客厅窗帘开)
2025-09-08 17:25:01.895 - 1A BE B0 DC 0A 00 02 00 (继电器地址-客厅纱帘, 客厅纱帘开)
2025-09-08 17:25:02.444 - 09 06 00 0F 02 02 38 20 (提示音咚)
2025-09-08 17:25:03.491 - 1A EC A0 DC 02 00 00 00 0F (自保持开关地址-天花12V供电, 天花12V 供电关)
2025-09-08 17:25:04.040 - 1A EC A0 DC 02 00 00 00 0F (自保持开关地址-天花12V供电, 天花12V 供电关)
2025-09-08 17:25:04.450 - 55 00 A6 00 00 0E 01 74 AA 55 00 A6 00 00 0E 01 74 AA (餐厅窗帘电机状态返回)
2025-09-08 17:25:04.586 - 1A EC A0 DC 01 00 00 00 0F (自保持开关地址-电视、设备12V供电, 12V 电视供电关)
2025-09-08 17:25:05.134 - 1A EC A0 DC 01 00 00 00 0F (自保持开关地址-电视、设备12V供电, 12V 电视供电关)
2025-09-08 17:25:05.682 - 1A EC A0 DC 04 00 01 00 0F (自保持开关地址-次卧西阳内外卫供电, 内卫外卫关)
2025-09-08 17:25:06.189 - 55 00 76 00 00 0E 01 1B AA 55 00 76 00 00 0E 01 1B AA (次卧窗帘电机状态返回)
2025-09-08 17:25:06.230 - 1A EC A0 DC 04 00 01 00 0F (自保持开关地址-次卧西阳内外卫供电, 内卫外卫关)
2025-09-08 17:25:06.928 - 55 00 21 00 00 0D 01 34 AA 55 00 21 00 00 0D 01 34 AA (次卧纱帘电机状态返回)
2025-09-08 17:25:07.773 - 1A BB BB BB 01 02 00 (开水器电源关)
2025-09-08 17:25:08.196 - 55 00 D2 00 00 0D 01 0B AA 55 00 D2 00 00 0D 01 0B AA (书房窗帘电机状态返回)
2025-09-08 17:25:20.893 - 09 06 00 0F 02 02 38 20 (提示音咚)
2025-09-08 17:25:21.443 - 1A 27 89 12 AA 00 00 00 0F (状态寄存器地址, 无人状态)
2025-09-08 17:25:21.992 - 1A 27 89 12 AA 00 00 00 0F (状态寄存器地址, 无人状态)
2025-09-08 17:25:22.537 - A1 11 11 11 4D (天花供电关闭确认)
2025-09-08 17:25:22.765 - 1A EC A0 DC 02 86 86 86 0F (查询天花供电状态, 自保持开关地址-天花12V供电)
2025-09-08 17:25:23.195 - 1A EC A0 DC 02 00 01 0F (自保持开关地址-天花12V供电)
2025-09-08 17:25:25.576 - A1 11 11 11 4E (卫生供电关闭确认)
2025-09-08 17:25:25.802 - 1A EC A0 DC 04 86 86 86 0F (查询卫生间供电状态, 自保持开关地址-次卧西阳内外卫供电)
2025-09-08 17:25:26.240 - 1A EC A0 DC 04 01 00 0F (自保持开关地址-次卧西阳内外卫供电)
2025-09-08 17:25:28.615 - A1 11 11 11 4F (电视供电关闭确认)
2025-09-08 17:25:28.839 - 1A EC A0 DC 01 86 86 86 0F (查询电视供电状态, 自保持开关地址-电视、设备12V供电)
2025-09-08 17:25:29.275 - 1A EC A0 DC 01 00 01 0F (自保持开关地址-电视、设备12V供电)
2025-09-08 17:25:31.656 - 09 06 00 0F 02 02 38 20 (提示音咚)
2025-09-08 17:25:32.207 - 09 06 00 0F 02 02 38 20 (提示音咚)
2025-09-08 17:25:32.806 - EE 00 00 B1 00 00 02 FF FC FF FF (情景完成返回主页)
2025-09-08 17:25:33.897 - BA BA EE EE BA BA (离家设置信科变量)
2025-09-08 17:25:34.942 - A1 11 11 11 46 (天热离家遮阳)
2025-09-08 17:25:35.167 - 1A 27 89 12 AA 86 86 86 0F (查询寄存器状态, 状态寄存器地址)
2025-09-08 17:25:35.556 - 1A 27 89 12 AA 00 00 00 00 00 00 00 00 00 00 00 01 00 00 00 00 0F (状态寄存器地址)
2025-09-08 17:25:36.175 - 19 08 24 03 DD 00 05 00 01 (调用情景-天热遮阳关帘)
2025-09-08 17:25:36.744 - EE 00 00 B1 00 00 00 FF FC FF FF (情景执行提示)
2025-09-08 17:25:37.337 - 09 06 00 0F 02 01 78 21 (提示音叮)
2025-09-08 17:25:37.886 - A5 00 A2 FF 00 AA (餐厅纱帘关)
2025-09-08 17:25:38.931 - A5 00 A6 FF 00 AA (餐厅窗帘关)
2025-09-08 17:25:38.984 - 55 00 A6 01 00 0E 01 74 AA 55 00 A6 01 00 0E 01 74 AA (餐厅窗帘电机状态返回)
2025-09-08 17:25:40.028 - 55 11 1D 03 01 7C 06 (主卧纱帘关)
2025-09-08 17:25:40.068 - 55 11 1D 03 01 7C 06 (主卧纱帘关)
2025-09-08 17:25:41.125 - 55 12 12 03 02 0C 40 (主卧窗帘关)
2025-09-08 17:25:41.165 - 55 12 12 03 02 0C 40 (主卧窗帘关)
2025-09-08 17:25:42.218 - A5 00 21 FF 00 AA (次卧纱帘关)
2025-09-08 17:25:42.275 - 55 00 21 01 00 0D 01 34 AA 55 00 21 01 00 0D 01 34 AA (次卧纱帘电机状态返回)
2025-09-08 17:25:43.317 - A5 00 76 FF 00 AA (次卧窗帘关)
2025-09-08 17:25:43.372 - 55 00 76 01 00 0E 01 1B AA 55 00 76 01 00 0E 01 FB (次卧窗帘电机状态返回)
2025-09-08 17:25:44.414 - A5 00 B7 FF 00 AA 22 0D (书房纱帘关)
2025-09-08 17:25:45.459 - A5 00 D2 FF 00 AA 22 0C (书房窗帘关)
2025-09-08 17:25:45.513 - 55 00 D2 01 00 0D 01 0B AA 55 00 D2 01 00 0D 01 0B AA (书房窗帘电机状态返回)
2025-09-08 17:25:47.055 - 1A 22 33 62 5E 00 02 01 0F (正反转地址-厨房卷帘三, 厨房卷帘一降)
2025-09-08 17:25:48.022 - 55 00 A6 00 01 66 01 74 AA 55 00 A6 00 01 66 01 74 AA (餐厅窗帘电机状态返回)
2025-09-08 17:25:48.100 - 1A 22 33 62 56 00 02 01 0F (正反转地址-厨房卷帘二, 厨房卷帘二降)
2025-09-08 17:25:49.149 - 1A 22 33 62 4F 00 00 01 0F (正反转地址-厨房卷帘一, 厨房卷帘三降)
2025-09-08 17:25:49.231 - 55 FF BD FF FD B7 FD B7 AB 55 FF BD FF FD B7 FD B7 AB
2025-09-08 17:25:50.242 - 1A BE B0 DC 04 00 02 00 (继电器地址-西阳窗帘, 西阳窗帘关)
2025-09-08 17:25:50.453 - 55 00 76 00 01 0E 01 1B AA 55 00 76 00 01 0E 01 1B AA (次卧窗帘电机状态返回)
2025-09-08 17:25:51.292 - FF FF FF FF 0E 00 02 00 (继电器地址-西阳小窗帘, 西阳小窗帘关)
2025-09-08 17:25:52.335 - 1A BE B0 DC 03 00 03 00 (继电器地址-西阳天幕, 西阳天幕关)
2025-09-08 17:25:53.383 - 1A BE B0 DC 03 00 03 00 (继电器地址-西阳天幕, 西阳天幕关)
2025-09-08 17:25:54.204 - 55 00 D2 00 00 FE 01 0B AA 55 00 D2 00 00 FE 01 0B AA (书房窗帘电机状态返回)
2025-09-08 17:25:54.429 - 09 06 00 0F 02 02 38 20 (提示音咚)
2025-09-08 17:25:54.979 - EE 00 00 B1 00 00 02 FF FC FF FF (情景完成返回主页)
2025-09-08 17:34:26.083 - 01 04 07 D0 00 06 70 85
2025-09-08 17:34:26.116 - 01 04 0C 00 00 00 00 00 00 00 00 00 00 00 00 95 B7
2025-09-08 17:34:27.141 - 01 04 07 D6 00 06 90 84
2025-09-08 17:34:27.177 - 01 04 0C 00 00 00 00 00 00 00 00 00 00 00 00 95 B7
2025-09-08 17:34:28.205 - 01 04 07 DC 00 06 B0 86
2025-09-08 17:34:28.237 - 01 04 0C 00 00 00 00 00 00 00 00 00 00 00 00 95 B7
2025-09-08 17:34:29.267 - 01 04 07 E2 00 06 D1 4A
2025-09-08 17:34:29.298 - 01 04 0C 00 00 00 00 00 00 00 00 00 00 00 00 95 B7
2025-09-08 17:34:30.314 - 01 04 07 E8 00 06 F1 48
2025-09-08 17:34:30.348 - 01 04 0C 00 00 00 00 00 00 00 00 00 00 00 00 95 B7
2025-09-08 17:34:31.383 - 01 10 07 D6 00 03 06 70 61 00 02 00 A6 8F 00
2025-09-08 17:34:31.427 - 01 10 07 D6 00 03 06 70 61 00 02 00 A6 8F 00
2025-09-08 17:34:32.455 - 01 04 07 DC 00 06 B0 86
2025-09-08 17:34:32.489 - 01 04 0C 70 01 42 02 00 A0 00 00 01 36 00 00 2B B2
2025-09-08 17:37:55.411 - 01 04 07 D0 00 06 70 85
2025-09-08 17:37:55.447 - 01 04 0C 70 00 42 02 00 FA 00 00 01 2C 00 00 F4 8C
2025-09-08 17:37:56.474 - 01 04 07 D6 00 06 90 84
2025-09-08 17:37:56.508 - 01 04 0C 70 00 42 02 00 FA 00 00 01 36 00 00 D5 4B
2025-09-08 17:37:57.531 - 01 04 07 DC 00 06 B0 86
2025-09-08 17:37:57.569 - 01 04 0C 70 01 42 02 00 A0 00 00 01 36 00 00 2B B2
2025-09-08 17:37:58.597 - 01 04 07 E2 00 06 D1 4A
2025-09-08 17:37:58.629 - 01 04 0C 70 00 42 02 00 FA 00 00 00 FA 00 00 14 88
2025-09-08 17:37:59.644 - 01 04 07 E8 00 06 F1 48
2025-09-08 17:37:59.679 - 01 04 0C 70 00 42 02 00 FA 00 00 01 36 00 00 D5 4B
2025-09-08 17:38:00.714 - 01 10 07 D6 00 03 06 70 61 00 02 00 DC 0E E3
2025-09-08 17:38:00.758 - 01 10 07 D6 00 03 06 70 61 00 02 00 DC 0E E3
2025-09-08 17:38:01.783 - 01 04 07 DC 00 06 B0 86
2025-09-08 17:38:01.821 - 01 04 0C 70 01 42 02 00 DC 00 00 01 36 00 00 96 75
2025-09-08 17:38:40.452 - 1A FF 03 00 00 86 86 86 0F (调用查询模块-主卧空调开关查询, 主卧空调虚拟地址)
2025-09-08 17:38:40.676 - 01 04 07 DC 00 01 F1 44 (查询主卧空调开关状态)
2025-09-08 17:38:40.702 - 01 04 02 70 01 5D 30
2025-09-08 17:38:41.679 - 1A FF 03 00 00 01 00 0F (主卧空调虚拟地址)
2025-09-08 17:38:41.854 - 1A FF 04 00 00 86 86 86 0F (调用查询模块-次卧空调开关查询, 次卧空调虚拟地址)
2025-09-08 17:38:42.079 - 01 04 07 E2 00 01 90 88 (查询次卧空调开关状态)
2025-09-08 17:38:42.105 - 01 04 02 70 00 9C F0
2025-09-08 17:38:43.086 - 1A FF 04 00 00 00 00 0F (次卧空调虚拟地址)
2025-09-08 17:38:43.231 - 1A FF 05 00 00 86 86 86 0F (调用查询模块-书房空调开关查询, 书房空调虚拟地址)
2025-09-08 17:38:43.454 - 01 04 07 E8 00 01 B0 8A (查询书房空调开关状态)
2025-09-08 17:38:43.478 - 01 04 02 70 00 9C F0
2025-09-08 17:38:44.458 - 1A FF 05 00 00 00 00 0F (书房空调虚拟地址)
2025-09-08 17:38:44.613 - 1A FF 02 00 00 86 86 86 0F (调用查询模块-餐厅空调开关查询, 餐厅空调虚拟地址)
2025-09-08 17:38:44.837 - 01 04 07 D6 00 01 D1 46 (查询餐厅空调开关状态)
2025-09-08 17:38:44.862 - 01 04 02 70 00 9C F0
2025-09-08 17:38:45.841 - 1A FF 02 00 00 00 00 0F (餐厅空调虚拟地址)
2025-09-08 17:38:45.994 - 1A FF 01 00 00 86 86 86 0F (调用查询模块-客厅空调开关查询, 客厅空调虚拟地址)
2025-09-08 17:38:46.221 - 01 04 07 D0 00 01 31 47 (查询客厅空调开关状态)
2025-09-08 17:38:46.246 - 01 04 02 70 00 9C F0
2025-09-08 17:38:47.226 - 1A FF 01 00 00 00 00 0F (客厅空调虚拟地址)
2025-09-08 17:38:47.387 - 1A 10 00 00 00 86 86 86 0F (调用查询模块-主卧测温转换, 主卧温湿度虚拟地址)
2025-09-08 17:38:47.616 - 1D 03 00 00 00 02 C6 57 (查询主卧温湿度)
2025-09-08 17:38:47.640 - 1D 03 04 02 06 01 33 87 CE (主卧温湿度返回)
2025-09-08 17:38:48.638 - 1A 10 00 00 00 00 00 01 00 00 01 00 00 01 01 33 01 02 06 01 00 00 01 00 00 01 0F (主卧温湿度虚拟地址)
2025-09-08 17:38:50.848 - 1A 12 00 00 00 86 86 86 0F (调用查询模块-书房测温转换, 书房温湿度虚拟地址)
2025-09-08 17:38:51.076 - 12 03 00 00 00 02 C6 A8 (查询书房温湿度)
2025-09-08 17:38:51.097 - 12 03 04 02 25 01 3C C9 00 (书房温湿度返回)
2025-09-08 17:38:52.099 - 1A 12 00 00 00 00 00 01 00 00 01 00 00 01 01 3C 01 02 25 01 00 00 01 00 00 01 0F (书房温湿度虚拟地址)
2025-09-08 17:38:52.250 - 1A 13 00 00 00 86 86 86 0F (调用查询模块-外卫测温转换, 外卫温湿度虚拟地址)
2025-09-08 17:38:52.468 - 13 03 00 00 00 02 C7 79 (查询外卫温湿度)
2025-09-08 17:38:52.492 - 13 03 04 02 2D 01 32 D9 C6 (外卫温湿度返回)
2025-09-08 17:38:53.494 - 1A 13 00 00 00 00 00 01 00 00 01 00 00 01 01 32 01 02 2D 01 00 00 01 00 00 01 0F (外卫温湿度虚拟地址)
2025-09-08 17:38:53.640 - 1A 14 00 00 00 86 86 86 0F (调用查询模块-内卫测温转换, 内卫温湿度虚拟地址)
2025-09-08 17:38:53.865 - 14 03 00 00 00 02 C6 CE (查询内卫温湿度)
2025-09-08 17:38:53.886 - 14 03 04 02 2A 01 31 5E C6 (内卫温湿度返回)
2025-09-08 17:38:54.888 - 1A 14 00 00 00 00 00 01 00 00 01 00 00 01 01 31 01 02 2A 01 00 00 01 00 00 01 0F (内卫温湿度虚拟地址)
2025-09-08 17:38:55.391 - 1A 15 00 00 00 86 86 86 0F (调用查询模块-客厅测温转换, 客厅温湿度虚拟地址)
2025-09-08 17:38:55.617 - 15 03 00 00 00 02 C7 1F (查询客厅温湿度)
2025-09-08 17:38:55.642 - 15 03 04 02 06 01 36 CE 0D (客厅温湿度返回)
2025-09-08 17:38:56.642 - 1A 15 00 00 00 00 00 01 00 00 01 00 00 01 01 36 01 02 06 01 00 00 01 00 00 01 0F (客厅温湿度虚拟地址)
2025-09-08 17:38:56.800 - 1A 16 00 00 00 86 86 86 0F (调用查询模块-机柜测温转换, 机柜温湿度虚拟地址)
2025-09-08 17:38:57.023 - 16 03 00 00 00 02 C7 2C (查询机柜温湿度)
2025-09-08 17:38:58.046 - 1A 16 00 00 00 00 00 01 00 00 01 00 00 01 86 86 01 00 00 01 00 00 01 00 00 01 0F (机柜温湿度虚拟地址)
2025-09-08 17:38:58.231 - 1A 0E 00 00 00 86 86 86 0F (调用查询模块-厨房测温转换, 厨房温湿度虚拟地址)
2025-09-08 17:38:58.455 - 0E 03 00 00 00 02 C4 F4 (查询厨房温湿度)
2025-09-08 17:38:58.481 - 0E 03 04 01 FC 01 44 C5 5C (厨房温湿度返回)
2025-09-08 17:38:59.481 - 1A 0E 00 00 00 00 00 01 00 00 01 00 00 01 01 44 01 01 FC 01 00 00 01 00 00 01 0F (厨房温湿度虚拟地址)
2025-09-08 17:38:59.620 - 1A 0F 00 00 00 86 86 86 0F (调用查询模块-餐厅测温转换, 餐厅温湿度虚拟地址)
2025-09-08 17:38:59.840 - 1C 03 00 00 00 02 C7 86 (查询餐厅温湿度)
2025-09-08 17:38:59.861 - 1C 03 04 01 F4 01 41 B6 9C (餐厅温湿度返回)
2025-09-08 17:39:00.866 - 1A 0F 00 00 00 00 00 01 00 00 01 00 00 01 01 41 01 01 F4 01 00 00 01 00 00 01 0F (餐厅温湿度虚拟地址)
2025-09-08 17:39:01.021 - 1A 20 00 00 00 86 86 86 0F (调用查询模块-阳台测温湿气压转换, 阳台温湿气压虚拟地址)
2025-09-08 17:39:01.245 - 20 03 00 00 00 03 03 7A (查询阳台温湿度气压)
2025-09-08 17:39:01.265 - 20 03 06 01 6B 01 82 26 ED EA C5 (阳台温湿度返回)
2025-09-08 17:39:01.769 - 1A 20 00 00 00 00 00 01 00 00 01 00 00 01 01 6B 01 01 82 01 26 ED 01 00 00 01 0F (阳台温湿气压虚拟地址)
2025-09-08 17:39:01.913 - 1A 21 00 00 00 86 86 86 0F (调用查询模块-储藏室测温湿气压转换, 储藏室温湿气压虚拟地址)
2025-09-08 17:39:02.137 - 21 03 00 00 00 03 02 AB (查询储藏室温湿度气压)
2025-09-08 17:39:02.157 - 21 03 06 01 51 02 17 26 EC EE F8 (储藏室温湿度返回)
2025-09-08 17:39:02.660 - 1A 21 00 00 00 00 00 01 00 00 01 00 00 01 01 51 01 02 17 01 26 EC 01 00 00 01 0F (储藏室温湿气压虚拟地址)
2025-09-08 17:39:02.815 - 1A 22 00 00 00 86 86 86 0F (调用查询模块-室外测温湿气压转换, 室外温湿气压虚拟地址)
2025-09-08 17:39:03.039 - 22 03 00 00 00 03 02 98 (查询室外温湿度气压)
2025-09-08 17:39:03.060 - 22 03 06 01 3E 02 8B 26 EA 6E 2D (室外温湿度返回)
2025-09-08 17:39:03.564 - 1A 22 00 00 00 00 00 01 00 00 01 00 00 01 01 3E 01 02 8B 01 26 EA 01 00 00 01 0F (室外温湿气压虚拟地址)
2025-09-08 17:39:03.740 - 1A 11 00 00 00 86 86 86 0F (调用查询模块-次卧测温转换, 次卧温湿度虚拟地址)
2025-09-08 17:39:03.966 - 11 03 00 00 00 02 C6 9B (查询次卧温湿度)
2025-09-08 17:39:03.984 - 11 03 04 02 2A 01 02 4B D3 (次卧温湿度返回)
2025-09-08 17:39:04.986 - 1A 11 00 00 00 00 00 01 00 00 01 00 00 01 01 02 01 02 2A 01 00 00 01 00 00 01 0F (次卧温湿度虚拟地址)
2025-09-08 17:39:27.859 - 1A FF 03 00 00 86 86 86 0F (调用查询模块-主卧空调开关查询, 主卧空调虚拟地址)
2025-09-08 17:39:28.081 - 01 04 07 DC 00 01 F1 44 (查询主卧空调开关状态)
2025-09-08 17:39:28.107 - 01 04 02 70 01 5D 30
2025-09-08 17:39:29.083 - 1A FF 03 00 00 01 00 0F (主卧空调虚拟地址)
2025-09-08 17:39:29.273 - 1A FF 04 00 00 86 86 86 0F (调用查询模块-次卧空调开关查询, 次卧空调虚拟地址)
2025-09-08 17:39:29.493 - 01 04 07 E2 00 01 90 88 (查询次卧空调开关状态)
2025-09-08 17:39:29.519 - 01 04 02 70 00 9C F0
2025-09-08 17:39:30.496 - 1A FF 04 00 00 00 00 0F (次卧空调虚拟地址)
2025-09-08 17:39:30.838 - 1A FF 05 00 00 86 86 86 0F (调用查询模块-书房空调开关查询, 书房空调虚拟地址)
2025-09-08 17:39:31.059 - 01 04 07 E8 00 01 B0 8A (查询书房空调开关状态)
2025-09-08 17:39:31.085 - 01 04 02 70 00 9C F0
2025-09-08 17:39:32.063 - 1A FF 05 00 00 00 00 0F (书房空调虚拟地址)
2025-09-08 17:39:32.394 - 1A FF 02 00 00 86 86 86 0F (调用查询模块-餐厅空调开关查询, 餐厅空调虚拟地址)
2025-09-08 17:39:32.622 - 01 04 07 D6 00 01 D1 46 (查询餐厅空调开关状态)
2025-09-08 17:39:32.650 - 01 04 02 70 00 9C F0
2025-09-08 17:39:33.627 - 1A FF 02 00 00 00 00 0F (餐厅空调虚拟地址)
2025-09-08 17:39:33.996 - 1A FF 01 00 00 86 86 86 0F (调用查询模块-客厅空调开关查询, 客厅空调虚拟地址)
2025-09-08 17:39:34.216 - 01 04 07 D0 00 01 31 47 (查询客厅空调开关状态)
2025-09-08 17:39:34.238 - 01 04 02 70 00 9C F0
2025-09-08 17:39:35.222 - 1A FF 01 00 00 00 00 0F (客厅空调虚拟地址)
2025-09-08 17:39:35.623 - 1A 10 00 00 00 86 86 86 0F (调用查询模块-主卧测温转换, 主卧温湿度虚拟地址)
2025-09-08 17:39:35.843 - 1D 03 00 00 00 02 C6 57 (查询主卧温湿度)
2025-09-08 17:39:35.863 - 1D 03 04 02 01 01 32 F7 CF (主卧温湿度返回)
2025-09-08 17:39:36.868 - 1A 10 00 00 00 00 00 01 00 00 01 00 00 01 01 32 01 02 01 01 00 00 01 00 00 01 0F (主卧温湿度虚拟地址)
2025-09-08 17:39:37.205 - 1A 11 00 00 00 86 86 86 0F (调用查询模块-次卧测温转换, 次卧温湿度虚拟地址)
2025-09-08 17:39:37.425 - 11 03 00 00 00 02 C6 9B (查询次卧温湿度)
2025-09-08 17:39:37.451 - 11 03 04 02 2D 01 03 3B D2 (次卧温湿度返回)
2025-09-08 17:39:38.450 - 1A 11 00 00 00 00 00 01 00 00 01 00 00 01 01 03 01 02 2D 01 00 00 01 00 00 01 0F (次卧温湿度虚拟地址)
2025-09-08 17:39:38.804 - 1A 12 00 00 00 86 86 86 0F (调用查询模块-书房测温转换, 书房温湿度虚拟地址)
2025-09-08 17:39:39.033 - 12 03 00 00 00 02 C6 A8 (查询书房温湿度)
2025-09-08 17:39:39.050 - 12 03 04 02 28 01 3C 58 C3 (书房温湿度返回)
2025-09-08 17:39:40.054 - 1A 12 00 00 00 00 00 01 00 00 01 00 00 01 01 3C 01 02 28 01 00 00 01 00 00 01 0F (书房温湿度虚拟地址)
2025-09-08 17:39:40.437 - 1A 13 00 00 00 86 86 86 0F (调用查询模块-外卫测温转换, 外卫温湿度虚拟地址)
2025-09-08 17:39:40.668 - 13 03 00 00 00 02 C7 79 (查询外卫温湿度)
2025-09-08 17:39:40.685 - 13 03 04 02 2D 01 32 D9 C6 (外卫温湿度返回)
2025-09-08 17:39:41.688 - 1A 13 00 00 00 00 00 01 00 00 01 00 00 01 01 32 01 02 2D 01 00 00 01 00 00 01 0F (外卫温湿度虚拟地址)
2025-09-08 17:39:42.635 - 1A 14 00 00 00 86 86 86 0F (调用查询模块-内卫测温转换, 内卫温湿度虚拟地址)
2025-09-08 17:39:42.863 - 14 03 00 00 00 02 C6 CE (查询内卫温湿度)
2025-09-08 17:39:42.883 - 14 03 04 02 25 01 30 AF 05 (内卫温湿度返回)
2025-09-08 17:39:43.887 - 1A 14 00 00 00 00 00 01 00 00 01 00 00 01 01 30 01 02 25 01 00 00 01 00 00 01 0F (内卫温湿度虚拟地址)
2025-09-08 17:39:44.035 - 1A 15 00 00 00 86 86 86 0F (调用查询模块-客厅测温转换, 客厅温湿度虚拟地址)
2025-09-08 17:39:44.267 - 15 03 00 00 00 02 C7 1F (查询客厅温湿度)
2025-09-08 17:39:44.291 - 15 03 04 02 04 01 36 6F CD (客厅温湿度返回)
2025-09-08 17:39:45.290 - 1A 15 00 00 00 00 00 01 00 00 01 00 00 01 01 36 01 02 04 01 00 00 01 00 00 01 0F (客厅温湿度虚拟地址)
2025-09-08 17:39:45.449 - 1A 16 00 00 00 86 86 86 0F (调用查询模块-机柜测温转换, 机柜温湿度虚拟地址)
2025-09-08 17:39:45.669 - 16 03 00 00 00 02 C7 2C (查询机柜温湿度)
2025-09-08 17:39:46.696 - 1A 16 00 00 00 00 00 01 00 00 01 00 00 01 86 86 01 00 00 01 00 00 01 00 00 01 0F (机柜温湿度虚拟地址)
2025-09-08 17:39:46.847 - 1A 0E 00 00 00 86 86 86 0F (调用查询模块-厨房测温转换, 厨房温湿度虚拟地址)
2025-09-08 17:39:47.074 - 0E 03 00 00 00 02 C4 F4 (查询厨房温湿度)
2025-09-08 17:39:47.095 - 0E 03 04 01 F9 01 44 D5 5D (厨房温湿度返回)
2025-09-08 17:39:48.098 - 1A 0E 00 00 00 00 00 01 00 00 01 00 00 01 01 44 01 01 F9 01 00 00 01 00 00 01 0F (厨房温湿度虚拟地址)
2025-09-08 17:39:48.326 - 1A 0F 00 00 00 86 86 86 0F (调用查询模块-餐厅测温转换, 餐厅温湿度虚拟地址)
2025-09-08 17:39:48.548 - 1C 03 00 00 00 02 C7 86 (查询餐厅温湿度)
2025-09-08 17:39:48.570 - 1C 03 04 01 F5 01 41 E7 5C (餐厅温湿度返回)
2025-09-08 17:39:49.574 - 1A 0F 00 00 00 00 00 01 00 00 01 00 00 01 01 41 01 01 F5 01 00 00 01 00 00 01 0F (餐厅温湿度虚拟地址)
2025-09-08 17:39:49.726 - 1A 20 00 00 00 86 86 86 0F (调用查询模块-阳台测温湿气压转换, 阳台温湿气压虚拟地址)
2025-09-08 17:39:49.951 - 20 03 00 00 00 03 03 7A (查询阳台温湿度气压)
2025-09-08 17:39:49.971 - 20 03 06 01 6B 01 82 26 EE AA C4 (阳台温湿度返回)
2025-09-08 17:39:50.476 - 1A 20 00 00 00 00 00 01 00 00 01 00 00 01 01 6B 01 01 82 01 26 EE 01 00 00 01 0F (阳台温湿气压虚拟地址)
2025-09-08 17:39:50.620 - 1A 21 00 00 00 86 86 86 0F (调用查询模块-储藏室测温湿气压转换, 储藏室温湿气压虚拟地址)
2025-09-08 17:39:50.844 - 21 03 00 00 00 03 02 AB (查询储藏室温湿度气压)
2025-09-08 17:39:50.865 - 21 03 06 01 51 02 18 26 EC DE FB (储藏室温湿度返回)
2025-09-08 17:39:51.367 - 1A 21 00 00 00 00 00 01 00 00 01 00 00 01 01 51 01 02 18 01 26 EC 01 00 00 01 0F (储藏室温湿气压虚拟地址)
2025-09-08 17:39:51.550 - 1A 22 00 00 00 86 86 86 0F (调用查询模块-室外测温湿气压转换, 室外温湿气压虚拟地址)
2025-09-08 17:39:51.777 - 22 03 00 00 00 03 02 98 (查询室外温湿度气压)
2025-09-08 17:39:51.798 - 22 03 06 01 3F 02 91 26 EB B3 EA (室外温湿度返回)
2025-09-08 17:39:52.299 - 1A 22 00 00 00 00 00 01 00 00 01 00 00 01 01 3F 01 02 91 01 26 EB 01 00 00 01 0F (室外温湿气压虚拟地址)
2025-09-08 17:39:52.498 - 1A 13 00 00 00 86 86 86 0F (调用查询模块-外卫测温转换, 外卫温湿度虚拟地址)
2025-09-08 17:39:52.721 - 13 03 00 00 00 02 C7 79 (查询外卫温湿度)
2025-09-08 17:39:52.737 - 13 03 04 02 2D 01 32 D9 C6 (外卫温湿度返回)
2025-09-08 17:39:53.744 - 1A 13 00 00 00 00 00 01 00 00 01 00 00 01 01 32 01 02 2D 01 00 00 01 00 00 01 0F (外卫温湿度虚拟地址)
2025-09-08 17:39:57.177 - 1A FF 03 00 00 00 00 02 0F (主卧空调虚拟地址)
2025-09-08 17:39:58.174 - 1A FF 03 00 00 86 86 86 0F (调用查询模块-主卧空调开关查询, 主卧空调虚拟地址)
2025-09-08 17:39:58.398 - 01 04 07 DC 00 01 F1 44 (查询主卧空调开关状态)
2025-09-08 17:39:58.425 - 01 04 02 70 01 5D 30
2025-09-08 17:39:59.402 - 1A FF 03 00 00 01 00 0F (主卧空调虚拟地址)
2025-09-08 17:40:05.954 - 01 04 07 D0 00 06 70 85
2025-09-08 17:40:05.988 - 01 04 0C 70 00 42 02 00 FA 00 00 01 2C 00 00 F4 8C
2025-09-08 17:40:07.015 - 01 04 07 D6 00 06 90 84
2025-09-08 17:40:07.047 - 01 04 0C 70 00 42 02 00 FA 00 00 01 36 00 00 D5 4B
2025-09-08 17:40:08.063 - 01 04 07 DC 00 06 B0 86
2025-09-08 17:40:08.098 - 01 04 0C 70 01 42 02 00 DC 00 00 01 36 00 00 96 75
2025-09-08 17:40:09.115 - 01 04 07 E2 00 06 D1 4A
2025-09-08 17:40:09.148 - 01 04 0C 70 00 42 02 00 FA 00 00 00 FA 00 00 14 88
2025-09-08 17:40:10.174 - 01 04 07 E8 00 06 F1 48
2025-09-08 17:40:10.209 - 01 04 0C 70 00 42 02 00 FA 00 00 01 36 00 00 D5 4B
2025-09-08 17:40:11.247 - 01 10 07 D6 00 03 06 70 60 00 02 00 F0 32 FE
2025-09-08 17:40:11.287 - 01 10 07 D6 00 03 06 70 60 00 02 00 F0 32 FE
2025-09-08 17:40:12.298 - 01 04 07 DC 00 06 B0 86
2025-09-08 17:40:12.329 - 01 04 0C 70 00 42 02 00 F0 00 00 01 36 00 00 7F 4B
2025-09-08 17:40:20.398 - 1A FF 03 00 00 00 00 02 0F (主卧空调虚拟地址)
2025-09-08 17:40:21.368 - 1A FF 03 00 00 86 86 86 0F (调用查询模块-主卧空调开关查询, 主卧空调虚拟地址)
2025-09-08 17:40:21.593 - 01 04 07 DC 00 01 F1 44 (查询主卧空调开关状态)
2025-09-08 17:40:21.611 - 01 04 02 70 00 9C F0
2025-09-08 17:40:22.597 - 1A FF 03 00 00 00 00 0F (主卧空调虚拟地址)
2025-09-08 18:05:09.712 - 01 04 07 D0 00 06 70 85
2025-09-08 18:05:09.744 - 01 04 0C 70 00 42 02 00 FA 00 00 01 2C 00 00 F4 8C
2025-09-08 18:05:10.769 - 01 04 07 D6 00 06 90 84
2025-09-08 18:05:10.804 - 01 04 0C 70 00 42 02 00 FA 00 00 01 36 00 00 D5 4B
2025-09-08 18:05:11.829 - 01 04 07 DC 00 06 B0 86
2025-09-08 18:05:11.864 - 01 04 0C 70 00 42 02 00 F0 00 00 01 36 00 00 7F 4B
2025-09-08 18:05:12.887 - 01 04 07 E2 00 06 D1 4A
2025-09-08 18:05:12.928 - 01 04 0C 70 00 42 02 00 FA 00 00 01 04 00 00 74 84
2025-09-08 18:05:13.956 - 01 04 07 E8 00 06 F1 48
2025-09-08 18:05:13.995 - 01 04 0C 70 00 42 02 00 FA 00 00 01 36 00 00 D5 4B
2025-09-08 18:06:15.745 - 1A BE B0 DC 03 FC (继电器地址-西阳天幕)
2025-09-08 18:12:24.191 - 01 04 07 D0 00 06 70 85
2025-09-08 18:12:24.222 - 01 04 0C 70 00 42 02 00 FA 00 00 01 2C 00 00 F4 8C
2025-09-08 18:12:25.238 - 01 04 07 D6 00 06 90 84
2025-09-08 18:12:25.272 - 01 04 0C 70 00 42 02 00 FA 00 00 01 36 00 00 D5 4B
2025-09-08 18:12:26.300 - 01 04 07 DC 00 06 B0 86
2025-09-08 18:12:26.332 - 01 04 0C 70 00 42 02 00 F0 00 00 01 36 00 00 7F 4B
2025-09-08 18:12:27.359 - 01 04 07 E2 00 06 D1 4A
2025-09-08 18:12:27.392 - 01 04 0C 70 00 42 02 00 FA 00 00 01 04 00 00 74 84
2025-09-08 18:12:28.413 - 01 04 07 E8 00 06 F1 48
2025-09-08 18:12:28.442 - 01 04 0C 70 00 42 02 00 FA 00 00 01 36 00 00 D5 4B
2025-09-08 18:12:30.467 - 01 04 07 DC 00 06 B0 86
2025-09-08 18:12:30.503 - 01 04 0C 70 00 42 02 00 F0 00 00 01 36 00 00 7F 4B
2025-09-08 18:14:11.955 - 01 04 07 D0 00 06 70 85
2025-09-08 18:14:11.987 - 01 04 0C 70 00 42 02 00 FA 00 00 01 2C 00 00 F4 8C
2025-09-08 18:14:13.014 - 01 04 07 D6 00 06 90 84
2025-09-08 18:14:13.048 - 01 04 0C 70 00 42 02 00 FA 00 00 01 36 00 00 D5 4B
2025-09-08 18:14:14.064 - 01 04 07 DC 00 06 B0 86
2025-09-08 18:14:14.098 - 01 04 0C 70 00 42 02 00 F0 00 00 01 36 00 00 7F 4B
2025-09-08 18:14:15.126 - 01 04 07 E2 00 06 D1 4A
2025-09-08 18:14:15.158 - 01 04 0C 70 00 42 02 00 FA 00 00 01 04 00 00 74 84
2025-09-08 18:14:16.173 - 01 04 07 E8 00 06 F1 48
2025-09-08 18:14:16.209 - 01 04 0C 70 00 42 02 00 FA 00 00 01 36 00 00 D5 4B
2025-09-08 18:14:17.243 - 01 10 07 D6 00 03 06 70 60 00 02 00 F0 32 FE
2025-09-08 18:14:17.278 - 01 10 07 D6 00 03 06 70 60 00 02 00 F0 32 FE
2025-09-08 18:14:18.298 - 01 04 07 DC 00 06 B0 86
2025-09-08 18:14:18.330 - 01 04 0C 70 00 42 02 00 F0 00 00 01 36 00 00 7F 4B
2025-09-08 18:17:31.425 - 01 04 07 D0 00 06 70 85
2025-09-08 18:17:31.463 - 01 04 0C 70 00 42 02 00 FA 00 00 01 2C 00 00 F4 8C
2025-09-08 18:17:32.474 - 01 04 07 D6 00 06 90 84
2025-09-08 18:17:32.513 - 01 04 0C 70 00 42 02 00 FA 00 00 01 36 00 00 D5 4B
2025-09-08 18:17:33.534 - 01 04 07 DC 00 06 B0 86
2025-09-08 18:17:33.562 - 01 04 0C 70 00 42 02 00 F0 00 00 01 36 00 00 7F 4B
2025-09-08 18:17:34.577 - 01 04 07 E2 00 06 D1 4A
2025-09-08 18:17:34.615 - 01 04 0C 70 00 42 02 00 FA 00 00 01 04 00 00 74 84
2025-09-08 18:17:35.638 - 01 04 07 E8 00 06 F1 48
2025-09-08 18:17:35.674 - 01 04 0C 70 00 42 02 00 FA 00 00 01 36 00 00 D5 4B
2025-09-08 18:17:36.711 - 01 10 07 D6 00 03 06 70 60 00 02 00 F0 32 FE
2025-09-08 18:17:36.753 - 01 10 07 D6 00 03 06 70 60 00 02 00 F0 32 FE
2025-09-08 18:17:37.763 - 01 04 07 DC 00 06 B0 86
2025-09-08 18:17:37.795 - 01 04 0C 70 00 42 02 00 F0 00 00 01 36 00 00 7F 4B
2025-09-08 18:18:38.481 - 01 10 07 D6 00 03 06 70 60 00 02 00 F0 32 FE
2025-09-08 18:18:38.537 - 01 10 07 D6 00 03 06 70 60 00 02 00 F0 32 FE
2025-09-08 18:19:16.268 - 1A BE B0 DC 01 FC (继电器地址-回水泵点动)
2025-09-08 18:19:16.402 - FF
2025-09-08 18:30:57.679 - 1A BE B0 DC 04 FC (继电器地址-西阳窗帘)
2025-09-08 18:30:57.812 - FF
2025-09-08 18:43:03.747 - 1B 03 00 00 00 02 C6 31 (查询室外光线)
2025-09-08 18:43:03.765 - 1B 03 04 00 00 00 00 41 F2 (室外光线返回)
2025-09-08 18:43:04.545 - 1A EC A0 DC 02 00 00 01 0F (自保持开关地址-天花12V供电, 天花12V 供电开)
2025-09-08 18:43:05.198 - 1A AA AA AA 88 (调光器地址-茶吧灯带)
2025-09-08 18:43:05.248 - 1A FF 01 FF FF FF 60 01 FF 60 01 FF 00 00 0F (调光器地址-公共区域统配地址)
2025-09-08 18:43:06.242 - 19 08 24 03 DD 00 0D 00 01 (调用情景-信科调用进门暗)
2025-09-08 18:43:08.287 - 1A FF 01 FF FF FF 60 01 FF 60 01 FF 00 00 0F (调光器地址-公共区域统配地址)
2025-09-08 18:43:10.374 - 1A EC A0 DC 01 00 00 01 0F (自保持开关地址-电视、设备12V供电, 12V 电视供电开)
2025-09-08 18:43:10.923 - 1A EC A0 DC 01 00 00 01 0F (自保持开关地址-电视、设备12V供电, 12V 电视供电开)
2025-09-08 18:43:11.522 - 1A EC A0 DC 04 00 01 01 0F (自保持开关地址-次卧西阳内外卫供电, 内卫外卫开)
2025-09-08 18:43:12.070 - 1A EC A0 DC 04 00 01 01 0F (自保持开关地址-次卧西阳内外卫供电, 内卫外卫开)
2025-09-08 18:43:12.666 - 1A BB BB BB 01 01 00 (开水器电源开)
2025-09-08 18:43:14.213 - 1A 27 89 12 AA 00 00 01 0F (状态寄存器地址, 有人状态)
2025-09-08 18:43:14.810 - 1A 27 89 12 AA 00 00 01 0F (状态寄存器地址, 有人状态)
2025-09-08 18:43:15.357 - 1A BE B0 DC 01 00 01 00 (继电器地址-回水泵点动, 回水泵点动)
2025-09-08 18:43:15.907 - 1A FF FF FF 56 00 00 01 0F (人体感应地址-内卫, 打开内卫感应)
2025-09-08 18:43:16.018 - BF BF
2025-09-08 18:43:16.455 - 1A FF FF FF 55 00 00 01 0F (人体感应地址-外卫, 打开外卫感应)
2025-09-08 18:43:16.559 - BC BC
2025-09-08 18:43:17.002 - 1A FF FF FF 57 00 00 01 0F (人体感应地址-厨房, 打开厨房感应)
2025-09-08 18:43:17.088 - BF BF
2025-09-08 18:43:17.395 - 19 08 24 03 CC 00 D3 00 01 (调用厨房感应灯开的按键)
2025-09-08 18:43:17.474 - 55 0A 32 00 00 00 01 92 55 0A 32 00 00 00 02 93 (厨房顶灯一开, 厨房顶灯二开)
2025-09-08 18:43:17.874 - 1A FF FF FF 57 00 00 01 0F (人体感应地址-厨房, 打开厨房感应)
2025-09-08 18:43:17.886 - BC BC
2025-09-08 18:43:18.447 - 1A FF FF FF 58 00 00 01 0F (人体感应地址-茶吧, 打开茶吧感应)
2025-09-08 18:43:18.502 - BC BC
2025-09-08 18:43:18.574 - 19 08 24 03 CC 01 53 00 01 (调用外卫感应灯关的按键)
2025-09-08 18:43:18.619 - 1A 0D 01 07 01 FF 00 01 FF 00 01 FF 00 00 0F (调光器地址-外卫射灯, 外卫感应灯关)
2025-09-08 18:43:19.045 - 1A BE B0 DC 01 00 01 00 (继电器地址-回水泵点动, 回水泵点动)
2025-09-08 18:43:19.592 - A5 00 B7 FF 00 AA 22 0D (书房纱帘关)
2025-09-08 18:43:20.139 - A5 00 A2 FF 00 AA (餐厅纱帘关)
2025-09-08 18:43:20.691 - 09 06 00 0F 02 01 78 21 (提示音叮)
2025-09-08 18:43:21.236 - 09 06 00 0F 02 01 78 21 (提示音叮)
2025-09-08 18:43:21.823 - EE 00 00 B1 00 00 02 FF FC FF FF (情景完成返回主页)
2025-09-08 18:43:22.379 - A1 11 11 11 50 (天花供电打开确认)
2025-09-08 18:43:22.611 - 1A EC A0 DC 02 86 86 86 0F (查询天花供电状态, 自保持开关地址-天花12V供电)
2025-09-08 18:43:23.045 - 1A EC A0 DC 02 01 01 0F (自保持开关地址-天花12V供电)
2025-09-08 18:43:24.922 - A1 11 11 11 51 (卫生供电打开确认)
2025-09-08 18:43:25.147 - 1A EC A0 DC 04 86 86 86 0F (查询卫生间供电状态, 自保持开关地址-次卧西阳内外卫供电)
2025-09-08 18:43:25.578 - 1A EC A0 DC 04 01 01 0F (自保持开关地址-次卧西阳内外卫供电)
2025-09-08 18:43:27.461 - A1 11 11 11 52 (电视供电打开确认)
2025-09-08 18:43:27.683 - 1A EC A0 DC 01 86 86 86 0F (查询电视供电状态, 自保持开关地址-电视、设备12V供电)
2025-09-08 18:43:28.121 - 1A EC A0 DC 01 01 01 0F (自保持开关地址-电视、设备12V供电)
2025-09-08 18:43:32.497 - A1 11 11 11 47 (天热回家开帘)
2025-09-08 18:43:32.718 - 1A 27 89 12 AA 86 86 86 0F (查询寄存器状态, 状态寄存器地址)
2025-09-08 18:43:33.101 - 1A 27 89 12 AA 01 00 00 00 00 00 00 00 00 00 00 01 00 00 00 00 0F (状态寄存器地址)
2025-09-08 18:43:33.722 - 19 08 24 03 DD 00 06 00 01 (调用情景-天热遮阳开帘)
2025-09-08 18:43:34.247 - EE 00 00 B1 00 00 00 FF FC FF FF (情景执行提示)
2025-09-08 18:43:34.840 - 09 06 00 0F 02 01 78 21 (提示音叮)
2025-09-08 18:43:35.387 - A5 00 A6 FE 01 AA (餐厅窗帘开)
2025-09-08 18:43:35.435 - 55 00 A6 02 01 66 01 74 AA 55 00 A6 02 01 66 01 74 AA (餐厅窗帘电机状态返回)
2025-09-08 18:43:36.484 - 55 12 12 03 01 4C 41 (主卧窗帘开)
2025-09-08 18:43:36.524 - 55 12 12 03 01 4C 41 (主卧窗帘开)
2025-09-08 18:43:37.580 - 55 11 1D 03 02 3C 07 (主卧纱帘开)
2025-09-08 18:43:37.620 - 55 11 1D 03 02 3C 07 (主卧纱帘开)
2025-09-08 18:43:38.676 - A5 00 76 FE 01 AA (次卧窗帘开)
2025-09-08 18:43:38.733 - 55 00 76 02 01 0E 01 1B AA 55 00 76 02 01 0E 01 1B (次卧窗帘电机状态返回)
2025-09-08 18:43:39.771 - A5 00 21 FE 01 AA (次卧纱帘开)
2025-09-08 18:43:39.830 - 55 00 21 02 01 27 01 34 AA 55 00 21 02 01 27 C1 (次卧纱帘电机状态返回)
2025-09-08 18:43:39.832 - AF
2025-09-08 18:43:40.868 - 1A BE B0 DC 04 00 01 00 (继电器地址-西阳窗帘, 西阳窗帘开)
2025-09-08 18:43:41.916 - FF FF FF FF 0E 00 01 00 (继电器地址-西阳小窗帘, 西阳小窗帘开)
2025-09-08 18:43:42.962 - A5 00 D2 FE 01 AA 22 0D (书房窗帘开)
2025-09-08 18:43:43.017 - 55 00 D2 02 00 FE 01 0B AA 55 00 D2 02 00 FE 01 0B AA (书房窗帘电机状态返回)
2025-09-08 18:43:44.058 - 09 06 00 0F 02 02 38 20 (提示音咚)
2025-09-08 18:43:44.445 - 55 00 A6 00 00 0E 01 74 AA 55 00 A6 00 00 0E 01 74 AA (餐厅窗帘电机状态返回)
2025-09-08 18:43:44.611 - EE 00 00 B1 00 00 02 FF FC FF FF (情景完成返回主页)
2025-09-08 18:43:45.872 - 55 00 76 00 00 0E 01 1B AA 55 00 76 00 00 0E 01 1B AA (次卧窗帘电机状态返回)
2025-09-08 18:43:46.844 - 19 08 24 03 DD 00 29 00 01 (调用情景-次卧照明关帘)
2025-09-08 18:43:47.244 - 55 00 21 00 00 0D 01 34 AA 55 00 21 00 00 0D 01 34 AA (次卧纱帘电机状态返回)
2025-09-08 18:43:47.402 - EE 00 00 B1 00 00 00 FF FC FF FF (情景执行提示)
2025-09-08 18:43:47.995 - 09 06 00 0F 02 01 78 21 (提示音叮)
2025-09-08 18:43:48.552 - 1A 0E 03 05 01 FF F0 01 FF F0 01 FF 00 00 0F (调光器地址-次卧射灯, 次卧射灯明亮)
2025-09-08 18:43:49.110 - 55 00 A6 00 00 0F 01 74 AA 55 00 A6 00 00 0F 01 74 AA (餐厅窗帘电机状态返回)
2025-09-08 18:43:49.151 - 1A 0E 03 05 02 FF F0 01 FF F0 01 FF 00 00 0F (调光器地址-次卧灯带, 次卧灯带明亮)
2025-09-08 18:43:49.737 - A5 00 21 FF 00 AA (次卧纱帘关)
2025-09-08 18:43:49.788 - 55 00 21 01 00 0D 01 34 AA 55 00 21 01 00 0D 01 34 AA (次卧纱帘电机状态返回)
2025-09-08 18:43:50.430 - 55 00 D2 00 00 0D 01 0B AA 55 00 D2 00 00 0D 01 0B AA (书房窗帘电机状态返回)
2025-09-08 18:43:50.834 - A5 00 76 FF 00 AA (次卧窗帘关)
2025-09-08 18:43:50.890 - 55 00 76 01 00 0E 01 1B AA 55 00 76 01 00 0E 01 DB F5 (次卧窗帘电机状态返回)
2025-09-08 18:43:51.940 - 1A 0E 03 05 04 FF F0 01 FF F0 01 FF 00 00 0F (调光器地址-次卧北筒灯, 次卧北筒灯明亮)
2025-09-08 18:43:52.536 - 1A 0E 03 05 05 FF F0 01 FF F0 01 FF 00 00 0F (调光器地址-次卧南筒灯, 次卧南筒灯明亮)
2025-09-08 18:43:53.128 - 09 06 00 0F 02 02 38 20 (提示音咚)
2025-09-08 18:43:53.680 - EE 00 00 B1 00 00 02 FF FC FF FF (情景完成返回主页)
2025-09-08 18:43:56.746 - 55 00 21 00 01 28 01 34 AA 55 00 21 00 01 28 01 34 AA (次卧纱帘电机状态返回)
2025-09-08 18:43:58.439 - 55 00 76 00 01 0E 01 1B AA 55 00 76 00 01 0E 01 1B AA (次卧窗帘电机状态返回)
2025-09-08 18:44:54.819 - 19 08 24 03 CC 00 D4 00 01 (调用厨房感应灯关的按键)
2025-09-08 18:44:54.894 - 55 0A 31 00 00 00 01 91 55 0A 31 00 00 00 02 92 (厨房顶灯一关, 厨房顶灯二关)
2025-09-08 18:48:48.778 - 19 08 24 03 CC 00 D3 00 01 (调用厨房感应灯开的按键)
2025-09-08 18:48:48.811 - 55 0A 32 00 00 00 01 92 55 0A 32 00 00 00 02 93 (厨房顶灯一开, 厨房顶灯二开)
2025-09-08 18:49:23.306 - 1A FF FF FF 04 (继电器地址-东阳衣架)
2025-09-08 18:49:53.906 - 19 08 24 03 CC 00 D4 00 01 (调用厨房感应灯关的按键)
2025-09-08 18:49:53.959 - 55 0A 31 00 00 00 01 91 55 0A 31 00 00 00 02 92 (厨房顶灯一关, 厨房顶灯二关)
2025-09-08 19:00:01.816 - 1A BE B0 DC 02 FC (正反转地址-外卫卷帘)
2025-09-08 19:03:59.519 - 01 04 07 D0 00 06 70 85
2025-09-08 19:03:59.556 - 01 04 0C 70 00 42 02 00 FA 00 00 01 2C 00 00 F4 8C
2025-09-08 19:04:00.578 - 01 04 07 D6 00 06 90 84
2025-09-08 19:04:00.617 - 01 04 0C 70 00 42 02 00 FA 00 00 01 36 00 00 D5 4B
2025-09-08 19:04:01.631 - 01 04 07 DC 00 06 B0 86
2025-09-08 19:04:01.666 - 01 04 0C 70 00 42 02 00 F0 00 00 01 36 00 00 7F 4B
2025-09-08 19:04:02.559 - 1A BE B0 DC 09 (继电器地址-客厅窗帘)
2025-09-08 19:04:02.689 - 01 04 07 E2 00 06 D1 4A
2025-09-08 19:04:02.728 - 01 04 0C 70 00 42 02 00 FA 00 00 01 0E 00 00 54 86
2025-09-08 19:04:03.752 - 01 04 07 E8 00 06 F1 48
2025-09-08 19:04:03.786 - 01 04 0C 70 00 42 02 00 FA 00 00 01 36 00 00 D5 4B
2025-09-08 19:04:04.823 - 01 10 07 D6 00 03 06 70 60 00 02 00 F0 32 FE
2025-09-08 19:04:04.857 - 01 10 07 D6 00 03 06 70 60 00 02 00 F0 32 FE
2025-09-08 19:04:05.920 - 01 04 07 DC 00 06 B0 86
2025-09-08 19:04:05.959 - 01 04 0C 70 00 42 02 00 F0 00 00 01 36 00 00 7F 4B
2025-09-08 19:05:21.484 - 01 04 07 D0 00 06 70 85
2025-09-08 19:05:21.520 - 01 04 0C 70 00 42 02 00 FA 00 00 01 2C 00 00 F4 8C
2025-09-08 19:05:22.546 - 01 04 07 D6 00 06 90 84
2025-09-08 19:05:22.579 - 01 04 0C 70 00 42 02 00 FA 00 00 01 36 00 00 D5 4B
2025-09-08 19:05:23.614 - 01 04 07 DC 00 06 B0 86
2025-09-08 19:05:23.649 - 01 04 0C 70 00 42 02 00 F0 00 00 01 36 00 00 7F 4B
2025-09-08 19:05:24.675 - 01 04 07 E2 00 06 D1 4A
2025-09-08 19:05:24.710 - 01 04 0C 70 00 42 02 00 FA 00 00 01 0E 00 00 54 86
2025-09-08 19:05:25.728 - 01 04 07 E8 00 06 F1 48
2025-09-08 19:05:25.761 - 01 04 0C 70 00 42 02 00 FA 00 00 01 36 00 00 D5 4B
2025-09-08 19:05:26.788 - 01 06 07 DE 00 DC E9 1D
2025-09-08 19:05:26.823 - 01 06 07 DE 00 DC E9 1D
2025-09-08 19:05:28.000 - 01 04 07 E8 00 06 F1 48
2025-09-08 19:05:28.033 - 01 04 0C 70 00 42 02 00 DC 00 00 01 36 00 00 92 89
2025-09-08 19:06:15.585 - 01 04 07 D0 00 06 70 85
2025-09-08 19:06:15.619 - 01 04 0C 00 00 00 00 00 00 00 00 00 00 00 00 95 B7
2025-09-08 19:06:16.642 - 01 04 07 D6 00 06 90 84
2025-09-08 19:06:16.669 - 01 04 0C 00 00 00 00 00 00 00 00 00 00 00 00 95 B7
2025-09-08 19:06:17.688 - 01 04 07 DC 00 06 B0 86
2025-09-08 19:06:17.720 - 01 04 0C 00 00 00 00 00 00 00 00 00 00 00 00 95 B7
2025-09-08 19:06:18.739 - 01 04 07 E2 00 06 D1 4A
2025-09-08 19:06:18.771 - 01 04 0C 00 00 00 00 00 00 00 00 00 00 00 00 95 B7
2025-09-08 19:06:19.785 - 01 04 07 E8 00 06 F1 48
2025-09-08 19:06:19.821 - 01 04 0C 00 00 00 00 00 00 00 00 00 00 00 00 95 B7
2025-09-08 19:06:20.847 - 01 06 07 D8 00 E6 89 0F
2025-09-08 19:06:20.883 - 01 06 07 D8 00 E6 89 0F
2025-09-08 19:06:22.068 - 01 04 07 DC 00 06 B0 86
2025-09-08 19:06:22.102 - 01 04 0C 70 00 42 02 00 E6 00 00 01 36 00 00 08 8A
2025-09-08 19:16:30.597 - 01 04 07 D0 00 06 70 85
2025-09-08 19:16:30.626 - 01 04 0C 70 00 42 02 00 FA 00 00 01 2C 00 00 F4 8C
2025-09-08 19:16:31.100 - 01 04 07 D6 00 06 90 84
2025-09-08 19:16:31.132 - 01 04 0C 70 00 42 02 00 FA 00 00 01 36 00 00 D5 4B
2025-09-08 19:16:31.602 - 01 04 07 DC 00 06 B0 86
2025-09-08 19:16:31.637 - 01 04 0C 70 00 42 02 00 E6 00 00 01 36 00 00 08 8A
2025-09-08 19:16:32.116 - 01 04 07 E2 00 06 D1 4A
2025-09-08 19:16:32.151 - 01 04 0C 70 00 42 02 00 FA 00 00 01 0E 00 00 54 86
2025-09-08 19:16:32.634 - 01 04 07 E8 00 06 F1 48
2025-09-08 19:16:32.667 - 01 04 0C 70 00 42 02 00 DC 00 00 01 36 00 00 92 89
2025-09-08 19:17:05.957 - 01 04 07 D0 00 06 70 85
2025-09-08 19:17:05.994 - 01 04 0C 70 00 42 02 00 FA 00 00 01 2C 00 00 F4 8C
2025-09-08 19:17:08.657 - 01 04 07 D6 00 06 90 84
2025-09-08 19:17:08.691 - 01 04 0C 70 00 42 02 00 FA 00 00 01 36 00 00 D5 4B
2025-09-08 19:17:11.990 - 01 04 07 DC 00 06 B0 86
2025-09-08 19:17:12.021 - 01 04 0C 70 00 42 02 00 E6 00 00 01 36 00 00 08 8A
2025-09-08 19:17:27.492 - 01 06 07 D8 00 F0 08 C1
2025-09-08 19:17:27.524 - 01 06 07 D8 00 F0 08 C1
2025-09-08 19:17:29.574 - 01 04 07 DC 00 06 B0 86
2025-09-08 19:17:29.606 - 01 04 0C 70 00 42 02 00 F0 00 00 01 36 00 00 7F 4B
2025-09-08 19:17:40.024 - 01 06 07 D6 50 FF 15 06
2025-09-08 19:17:40.058 - 01 06 07 D6 50 FF 15 06
2025-09-08 19:17:41.892 - 01 04 07 DC 00 06 B0 86
2025-09-08 19:17:41.926 - 01 04 0C 50 00 42 02 00 F0 00 00 01 36 00 00 FE F4
2025-09-08 19:17:47.090 - 01 06 07 D6 70 FF 0C C6
2025-09-08 19:17:47.118 - 01 06 07 D6 70 FF 0C C6
2025-09-08 19:17:49.855 - 01 04 07 DC 00 06 B0 86
2025-09-08 19:17:49.892 - 01 04 0C 70 00 42 02 00 F0 00 00 01 36 00 00 7F 4B
2025-09-08 19:19:20.337 - 01 04 07 D0 00 06 70 85
2025-09-08 19:19:20.369 - 01 04 0C 70 00 42 02 00 FA 00 00 01 2C 00 00 F4 8C
2025-09-08 19:19:20.850 - 01 04 07 D6 00 06 90 84
2025-09-08 19:19:20.886 - 01 04 0C 70 00 42 02 00 FA 00 00 01 36 00 00 D5 4B
2025-09-08 19:19:21.365 - 01 04 07 DC 00 06 B0 86
2025-09-08 19:19:21.400 - 01 04 0C 70 00 42 02 00 F0 00 00 01 36 00 00 7F 4B
2025-09-08 19:19:21.880 - 01 04 07 E2 00 06 D1 4A
2025-09-08 19:19:21.915 - 01 04 0C 70 00 42 02 00 FA 00 00 01 0E 00 00 54 86
2025-09-08 19:19:22.394 - 01 04 07 E8 00 06 F1 48
2025-09-08 19:19:22.430 - 01 04 0C 70 00 42 02 00 DC 00 00 01 36 00 00 92 89
2025-09-08 19:22:18.946 - 01 04 07 D0 00 06 70 85
2025-09-08 19:22:18.980 - 01 04 0C 70 00 42 02 00 FA 00 00 01 2C 00 00 F4 8C
2025-09-08 19:22:19.457 - 01 04 07 D6 00 06 90 84
2025-09-08 19:22:19.495 - 01 04 0C 70 00 42 02 00 FA 00 00 01 36 00 00 D5 4B
2025-09-08 19:22:19.971 - 01 04 07 DC 00 06 B0 86
2025-09-08 19:22:20.000 - 01 04 0C 70 00 42 02 00 F0 00 00 01 36 00 00 7F 4B
2025-09-08 19:22:20.474 - 01 04 07 E2 00 06 D1 4A
2025-09-08 19:22:20.505 - 01 04 0C 70 00 42 02 00 FA 00 00 01 0E 00 00 54 86
2025-09-08 19:22:20.978 - 01 04 07 E8 00 06 F1 48
2025-09-08 19:22:21.011 - 01 04 0C 70 00 42 02 00 DC 00 00 01 36 00 00 92 89
2025-09-08 19:22:41.680 - 1A FF 03 00 00 86 86 86 0F (调用查询模块-主卧空调开关查询, 主卧空调虚拟地址)
2025-09-08 19:22:41.904 - 01 04 07 DC 00 01 F1 44 (查询主卧空调开关状态)
2025-09-08 19:22:41.925 - 01 04 02 70 00 9C F0
2025-09-08 19:22:42.906 - 1A FF 03 00 00 00 00 0F (主卧空调虚拟地址)
2025-09-08 19:22:43.017 - 1A FF 04 00 00 86 86 86 0F (调用查询模块-次卧空调开关查询, 次卧空调虚拟地址)
2025-09-08 19:22:43.245 - 01 04 07 E2 00 01 90 88 (查询次卧空调开关状态)
2025-09-08 19:22:43.269 - 01 04 02 70 00 9C F0
2025-09-08 19:22:44.252 - 1A FF 04 00 00 00 00 0F (次卧空调虚拟地址)
2025-09-08 19:22:44.448 - 1A FF 05 00 00 86 86 86 0F (调用查询模块-书房空调开关查询, 书房空调虚拟地址)
2025-09-08 19:22:44.672 - 01 04 07 E8 00 01 B0 8A (查询书房空调开关状态)
2025-09-08 19:22:44.692 - 01 04 02 70 00 9C F0
2025-09-08 19:22:45.677 - 1A FF 05 00 00 00 00 0F (书房空调虚拟地址)
2025-09-08 19:22:45.881 - 1A FF 02 00 00 86 86 86 0F (调用查询模块-餐厅空调开关查询, 餐厅空调虚拟地址)
2025-09-08 19:22:46.105 - 01 04 07 D6 00 01 D1 46 (查询餐厅空调开关状态)
2025-09-08 19:22:46.127 - 01 04 02 70 00 9C F0
2025-09-08 19:22:47.110 - 1A FF 02 00 00 00 00 0F (餐厅空调虚拟地址)
2025-09-08 19:22:47.313 - 1A FF 01 00 00 86 86 86 0F (调用查询模块-客厅空调开关查询, 客厅空调虚拟地址)
2025-09-08 19:22:47.539 - 01 04 07 D0 00 01 31 47 (查询客厅空调开关状态)
2025-09-08 19:22:47.560 - 01 04 02 70 00 9C F0
2025-09-08 19:22:48.542 - 1A FF 01 00 00 00 00 0F (客厅空调虚拟地址)
2025-09-08 19:22:48.745 - 1A 10 00 00 00 86 86 86 0F (调用查询模块-主卧测温转换, 主卧温湿度虚拟地址)
2025-09-08 19:22:48.975 - 1D 03 00 00 00 02 C6 57 (查询主卧温湿度)
2025-09-08 19:22:48.995 - 1D 03 04 02 4C 01 35 26 1A (主卧温湿度返回)
2025-09-08 19:22:49.995 - 1A 10 00 00 00 00 00 01 00 00 01 00 00 01 01 35 01 02 4C 01 00 00 01 00 00 01 0F (主卧温湿度虚拟地址)
2025-09-08 19:22:50.181 - 1A 11 00 00 00 86 86 86 0F (调用查询模块-次卧测温转换, 次卧温湿度虚拟地址)
2025-09-08 19:22:50.406 - 11 03 00 00 00 02 C6 9B (查询次卧温湿度)
2025-09-08 19:22:50.430 - 11 03 04 02 54 01 18 AA 00 (次卧温湿度返回)
2025-09-08 19:22:51.429 - 1A 11 00 00 00 00 00 01 00 00 01 00 00 01 01 18 01 02 54 01 00 00 01 00 00 01 0F (次卧温湿度虚拟地址)
2025-09-08 19:22:51.615 - 1A 12 00 00 00 86 86 86 0F (调用查询模块-书房测温转换, 书房温湿度虚拟地址)
2025-09-08 19:22:51.841 - 12 03 00 00 00 02 C6 A8 (查询书房温湿度)
2025-09-08 19:22:51.863 - 12 03 04 02 52 01 3C 79 1A (书房温湿度返回)
2025-09-08 19:22:52.865 - 1A 12 00 00 00 00 00 01 00 00 01 00 00 01 01 3C 01 02 52 01 00 00 01 00 00 01 0F (书房温湿度虚拟地址)
2025-09-08 19:22:52.969 - 1A 13 00 00 00 86 86 86 0F (调用查询模块-外卫测温转换, 外卫温湿度虚拟地址)
2025-09-08 19:22:53.197 - 13 03 00 00 00 02 C7 79 (查询外卫温湿度)
2025-09-08 19:22:53.217 - 13 03 04 02 39 01 32 99 C2 (外卫温湿度返回)
2025-09-08 19:22:54.219 - 1A 13 00 00 00 00 00 01 00 00 01 00 00 01 01 32 01 02 39 01 00 00 01 00 00 01 0F (外卫温湿度虚拟地址)
2025-09-08 19:22:54.379 - 1A 14 00 00 00 86 86 86 0F (调用查询模块-内卫测温转换, 内卫温湿度虚拟地址)
2025-09-08 19:22:54.606 - 14 03 00 00 00 02 C6 CE (查询内卫温湿度)
2025-09-08 19:22:54.627 - 14 03 04 02 60 01 31 7F 10 (内卫温湿度返回)
2025-09-08 19:22:55.632 - 1A 14 00 00 00 00 00 01 00 00 01 00 00 01 01 31 01 02 60 01 00 00 01 00 00 01 0F (内卫温湿度虚拟地址)
2025-09-08 19:22:55.812 - 1A 15 00 00 00 86 86 86 0F (调用查询模块-客厅测温转换, 客厅温湿度虚拟地址)
2025-09-08 19:22:56.041 - 15 03 00 00 00 02 C7 1F (查询客厅温湿度)
2025-09-08 19:22:56.065 - 15 03 04 02 51 01 35 3F DC (客厅温湿度返回)
2025-09-08 19:22:57.064 - 1A 15 00 00 00 00 00 01 00 00 01 00 00 01 01 35 01 02 51 01 00 00 01 00 00 01 0F (客厅温湿度虚拟地址)
2025-09-08 19:22:57.218 - 1A 16 00 00 00 86 86 86 0F (调用查询模块-机柜测温转换, 机柜温湿度虚拟地址)
2025-09-08 19:22:57.437 - 16 03 00 00 00 02 C7 2C (查询机柜温湿度)
2025-09-08 19:22:58.460 - 1A 16 00 00 00 00 00 01 00 00 01 00 00 01 86 86 01 00 00 01 00 00 01 00 00 01 0F (机柜温湿度虚拟地址)
2025-09-08 19:22:58.577 - 1A 0E 00 00 00 86 86 86 0F (调用查询模块-厨房测温转换, 厨房温湿度虚拟地址)
2025-09-08 19:22:58.796 - 0E 03 00 00 00 02 C4 F4 (查询厨房温湿度)
2025-09-08 19:22:58.818 - 0E 03 04 02 3E 01 42 E4 E6 (厨房温湿度返回)
2025-09-08 19:22:59.823 - 1A 0E 00 00 00 00 00 01 00 00 01 00 00 01 01 42 01 02 3E 01 00 00 01 00 00 01 0F (厨房温湿度虚拟地址)
2025-09-08 19:23:00.010 - 1A 0F 00 00 00 86 86 86 0F (调用查询模块-餐厅测温转换, 餐厅温湿度虚拟地址)
2025-09-08 19:23:00.231 - 1C 03 00 00 00 02 C7 86 (查询餐厅温湿度)
2025-09-08 19:23:00.255 - 1C 03 04 02 1F 01 40 07 2C (餐厅温湿度返回)
2025-09-08 19:23:01.258 - 1A 0F 00 00 00 00 00 01 00 00 01 00 00 01 01 40 01 02 1F 01 00 00 01 00 00 01 0F (餐厅温湿度虚拟地址)
2025-09-08 19:23:01.360 - 1A 20 00 00 00 86 86 86 0F (调用查询模块-阳台测温湿气压转换, 阳台温湿气压虚拟地址)
2025-09-08 19:23:01.585 - 20 03 00 00 00 03 03 7A (查询阳台温湿度气压)
2025-09-08 19:23:01.606 - 20 03 06 01 53 01 FA 27 0D CB 01 (阳台温湿度返回)
2025-09-08 19:23:02.106 - 1A 20 00 00 00 00 00 01 00 00 01 00 00 01 01 53 01 01 FA 01 27 0D 01 00 00 01 0F (阳台温湿气压虚拟地址)
2025-09-08 19:23:02.213 - 1A 21 00 00 00 86 86 86 0F (调用查询模块-储藏室测温湿气压转换, 储藏室温湿气压虚拟地址)
2025-09-08 19:23:02.437 - 21 03 00 00 00 03 02 AB (查询储藏室温湿度气压)
2025-09-08 19:23:02.458 - 21 03 06 01 4C 02 5E 27 0C D3 34 (储藏室温湿度返回)
2025-09-08 19:23:02.959 - 1A 21 00 00 00 00 00 01 00 00 01 00 00 01 01 4C 01 02 5E 01 27 0C 01 00 00 01 0F (储藏室温湿气压虚拟地址)
2025-09-08 19:23:03.066 - 1A 22 00 00 00 86 86 86 0F (调用查询模块-室外测温湿气压转换, 室外温湿气压虚拟地址)
2025-09-08 19:23:03.291 - 22 03 00 00 00 03 02 98 (查询室外温湿度气压)
2025-09-08 19:23:03.310 - 22 03 06 01 28 02 D9 27 07 47 E2 (室外温湿度返回)
2025-09-08 19:23:03.813 - 1A 22 00 00 00 00 00 01 00 00 01 00 00 01 01 28 01 02 D9 01 27 07 01 00 00 01 0F (室外温湿气压虚拟地址)
2025-09-08 19:34:26.235 - 19 08 24 03 DD 00 10 00 01 (调用情景-客餐厅空调开)
2025-09-08 19:34:26.757 - EE 00 00 B1 00 00 00 FF FC FF FF (情景执行提示)
2025-09-08 19:34:27.355 - 09 06 00 0F 02 01 78 21 (提示音叮)
2025-09-08 19:34:27.911 - A1 11 11 11 40 (客厅空调自动开)
2025-09-08 19:34:28.123 - 19 08 24 03 F0 BB 78 02 02 00
2025-09-08 19:34:28.171 - 23 AA 56 02 13 22 32 19 09 08 01 73 65 6F 6B 65 6E 64
2025-09-08 19:34:29.129 - 01 10 07 D0 00 03 06 70 61 00 02 00 FA 6F 26 (客厅空调冷25度)
2025-09-08 19:34:29.165 - 01 10 07 D0 00 03 06 70 61 00 02 00 FA 6F 26 (客厅空调冷25度)
2025-09-08 19:34:31.984 - A1 11 11 11 41 (餐厅空调自动开)
2025-09-08 19:34:32.210 - 19 08 24 03 F0 BB 78 02 02 00
2025-09-08 19:34:32.261 - 23 AA 56 02 13 22 36 19 09 08 01 73 65 6F 6B 65 6E 64
2025-09-08 19:34:33.219 - 01 10 07 D3 00 03 06 70 61 00 02 00 FA 9F 29 (餐厅空调冷25度)
2025-09-08 19:34:33.254 - 01 10 07 D3 00 03 06 70 61 00 02 00 FA 9F 29 (餐厅空调冷25度)
2025-09-08 19:34:36.025 - 09 06 00 0F 02 02 38 20 (提示音咚)
2025-09-08 19:34:36.574 - EE 00 00 B1 00 00 02 FF FC FF FF (情景完成返回主页)
2025-09-08 19:34:51.829 - 19 08 24 03 CC 01 52 00 01 (调用外卫感应灯开的按键)
2025-09-08 19:34:51.882 - 1A 0D 01 07 01 FF 45 01 FF 45 01 FF 00 00 0F (调光器地址-外卫射灯, 外卫感应灯开)
2025-09-08 19:35:01.568 - 19 08 24 03 DD 00 3E 00 01 (调用情景-外卫照明关帘)
2025-09-08 19:35:02.084 - EE 00 00 B1 00 00 00 FF FC FF FF (情景执行提示)
2025-09-08 19:35:02.680 - 09 06 00 0F 02 01 78 21 (提示音叮)
2025-09-08 19:35:03.280 - 1A FF FF FF 55 00 00 00 0F (人体感应地址-外卫, 关闭外卫感应)
2025-09-08 19:35:03.383 - BF BF
2025-09-08 19:35:04.333 - 1A 0D 01 07 01 FF F0 01 FF F0 01 FF 00 00 0F (调光器地址-外卫射灯, 外卫射灯明亮)
2025-09-08 19:35:04.925 - 09 06 00 0F 02 02 38 20 (提示音咚)
2025-09-08 19:35:05.476 - EE 00 00 B1 00 00 02 FF FC FF FF (情景完成返回主页)
2025-09-08 19:37:02.427 - 1A BE B0 DC 0A (继电器地址-客厅纱帘)
2025-09-08 19:37:02.562 - FF
2025-09-08 19:45:57.655 - 01 04 07 D0 00 06 70 85
2025-09-08 19:45:57.687 - 01 04 0C 70 01 42 02 00 FA 00 00 01 2C 00 00 F0 70
2025-09-08 19:45:58.235 - 01 04 07 D6 00 06 90 84
2025-09-08 19:45:58.260 - 01 04 0C 70 01 42 02 00 FA 00 00 01 36 00 00 D1 B7
2025-09-08 19:45:58.762 - 01 04 07 DC 00 06 B0 86
2025-09-08 19:45:58.794 - 01 04 0C 70 00 42 02 00 F0 00 00 01 36 00 00 7F 4B
2025-09-08 19:45:59.257 - 01 04 07 E2 00 06 D1 4A
2025-09-08 19:45:59.290 - 01 04 0C 70 00 42 02 00 FA 00 00 01 0E 00 00 54 86
2025-09-08 19:45:59.732 - 01 04 07 E8 00 06 F1 48
2025-09-08 19:45:59.764 - 01 04 0C 70 00 42 02 00 DC 00 00 01 36 00 00 92 89
2025-09-08 19:46:17.080 - 01 04 07 D0 00 06 70 85
2025-09-08 19:46:17.115 - 01 04 0C 70 01 42 02 00 FA 00 00 01 2C 00 00 F0 70
2025-09-08 19:46:18.644 - 01 04 07 D0 00 06 70 85
2025-09-08 19:46:18.679 - 01 04 0C 70 01 42 02 00 FA 00 00 01 2C 00 00 F0 70
2025-09-08 19:46:22.661 - 01 06 07 D6 FF 61 E9 5E
2025-09-08 19:46:22.690 - 01 06 07 D6 FF 61 E9 5E
2025-09-08 19:46:24.524 - 01 04 07 DC 00 06 B0 86
2025-09-08 19:46:24.558 - 01 04 0C 70 01 42 02 00 F0 00 00 01 36 00 00 7B B7
2025-09-08 19:46:30.236 - 01 06 07 D6 FF 60 28 9E (主卧空调关)
2025-09-08 19:46:30.265 - 01 06 07 D6 FF 60 28 9E (主卧空调关)
2025-09-08 19:46:32.370 - 01 04 07 DC 00 06 B0 86
2025-09-08 19:46:32.403 - 01 04 0C 70 00 42 02 00 F0 00 00 01 36 00 00 7F 4B
2025-09-08 19:46:35.855 - 01 06 07 D6 FF 61 E9 5E
2025-09-08 19:46:35.879 - 01 06 07 D6 FF 61 E9 5E
2025-09-08 19:46:37.004 - 01 04 07 DC 00 06 B0 86
2025-09-08 19:46:37.040 - 01 04 0C 70 01 42 02 00 F0 00 00 01 36 00 00 7B B7
2025-09-08 19:46:41.152 - 01 06 07 D6 FF 60 28 9E (主卧空调关)
2025-09-08 19:46:41.180 - 01 06 07 D6 FF 60 28 9E (主卧空调关)
2025-09-08 19:46:42.319 - 01 04 07 DC 00 06 B0 86
2025-09-08 19:46:42.351 - 01 04 0C 70 00 42 02 00 F0 00 00 01 36 00 00 7F 4B
2025-09-08 19:46:48.837 - 01 06 07 D6 10 FF 24 C6
2025-09-08 19:46:48.866 - 01 06 07 D6 10 FF 24 C6
2025-09-08 19:46:49.833 - 01 04 07 DC 00 06 B0 86
2025-09-08 19:46:49.864 - 01 04 0C 10 00 42 02 00 F0 00 00 01 36 00 00 FF CB
2025-09-08 19:46:54.016 - 01 06 07 D6 70 FF 0C C6
2025-09-08 19:46:54.047 - 01 06 07 D6 70 FF 0C C6
2025-09-08 19:46:58.054 - 01 04 07 DC 00 06 B0 86
2025-09-08 19:46:58.085 - 01 04 0C 70 00 42 02 00 F0 00 00 01 36 00 00 7F 4B
2025-09-08 19:47:05.723 - 01 06 07 D7 00 01 F9 46
2025-09-08 19:47:05.753 - 01 06 07 D7 00 01 F9 46
2025-09-08 19:47:06.802 - 01 04 07 DC 00 06 B0 86
2025-09-08 19:47:06.831 - 01 04 0C 70 00 42 01 00 FA 00 00 01 36 00 00 C1 BB
2025-09-08 19:47:11.184 - 01 06 07 D7 00 00 38 86
2025-09-08 19:47:11.215 - 01 06 07 D7 00 00 38 86
2025-09-08 19:47:14.701 - 01 04 07 DC 00 06 B0 86
2025-09-08 19:47:14.738 - 01 04 0C 10 00 42 00 00 FA 00 00 01 36 00 00 4C AB
2025-09-08 19:47:19.951 - 01 06 07 D7 00 07 79 44
2025-09-08 19:47:19.981 - 01 06 07 D7 00 07 79 44
2025-09-08 19:47:21.004 - 01 04 07 DC 00 06 B0 86
2025-09-08 19:47:21.040 - 01 04 0C 10 00 42 07 00 E6 00 00 01 36 00 00 B7 5A
2025-09-08 19:47:24.119 - 01 04 07 DC 00 06 B0 86
2025-09-08 19:47:24.152 - 01 04 0C 10 00 42 07 00 E6 00 00 01 36 00 00 B7 5A
2025-09-08 19:47:28.918 - 01 06 07 D7 00 03 78 87
2025-09-08 19:47:28.948 - 01 06 07 D7 00 03 78 87
2025-09-08 19:47:29.920 - 01 04 07 DC 00 06 B0 86
2025-09-08 19:47:29.949 - 01 04 0C 10 00 42 07 00 E6 00 00 01 36 00 00 B7 5A
2025-09-08 19:47:31.666 - 01 04 07 DC 00 06 B0 86
2025-09-08 19:47:31.705 - 01 04 0C 10 00 42 07 00 E6 00 00 01 36 00 00 B7 5A
2025-09-08 19:47:37.085 - 01 06 07 D7 00 02 B9 47
2025-09-08 19:47:37.118 - 01 06 07 D7 00 02 B9 47
2025-09-08 19:47:38.002 - 01 04 07 DC 00 06 B0 86
2025-09-08 19:47:38.036 - 01 04 0C 70 00 42 02 00 F0 00 00 01 36 00 00 7F 4B
2025-09-08 19:47:44.184 - 01 06 07 D8 00 C8 09 13
2025-09-08 19:47:44.218 - 01 06 07 D8 00 C8 09 13
2025-09-08 19:47:45.232 - 01 04 07 DC 00 06 B0 86
2025-09-08 19:47:45.269 - 01 04 0C 70 00 42 02 00 C8 00 00 01 36 00 00 C6 88
2025-09-08 19:47:49.704 - 01 06 07 D8 00 F0 08 C1
2025-09-08 19:47:49.734 - 01 06 07 D8 00 F0 08 C1
2025-09-08 19:47:50.555 - 01 04 07 DC 00 06 B0 86
2025-09-08 19:47:50.590 - 01 04 0C 70 00 42 02 00 F0 00 00 01 36 00 00 7F 4B
2025-09-08 19:53:15.887 - 01 04 07 D0 00 06 70 85
2025-09-08 19:53:15.918 - 01 04 0C 70 01 42 02 00 FA 00 00 01 22 00 00 91 B3
2025-09-08 19:53:16.458 - 01 04 07 D6 00 06 90 84
2025-09-08 19:53:16.493 - 01 04 0C 70 01 42 02 00 FA 00 00 01 36 00 00 D1 B7
2025-09-08 19:53:17.121 - 01 04 07 DC 00 06 B0 86
2025-09-08 19:53:17.151 - 01 04 0C 70 00 42 02 00 F0 00 00 01 36 00 00 7F 4B
2025-09-08 19:53:17.517 - 01 04 07 E2 00 06 D1 4A
2025-09-08 19:53:17.555 - 01 04 0C 70 00 42 02 00 FA 00 00 01 0E 00 00 54 86
2025-09-08 19:53:17.909 - 01 04 07 E8 00 06 F1 48
2025-09-08 19:53:17.948 - 01 04 0C 70 00 42 02 00 DC 00 00 01 36 00 00 92 89
2025-09-08 19:53:26.601 - 19 08 24 03 DD 00 1C 00 01 (调用情景-外卫使用完毕)
2025-09-08 19:53:27.146 - EE 00 00 B1 00 00 00 FF FC FF FF (情景执行提示)
2025-09-08 19:53:27.768 - 09 06 00 0F 02 01 78 21 (提示音叮)
2025-09-08 19:53:28.344 - 1A 0D 01 07 01 FF 00 01 FF 00 01 FF 00 00 0F (调光器地址-外卫射灯, 外卫感应灯关)
2025-09-08 19:53:28.930 - 50 F5 03 (关外卫影视)
2025-09-08 19:53:29.485 - 1A 20 07 00 42 00 01 00 0F (自保持开关地址-外卫顶灯, 外卫顶灯关)
2025-09-08 19:53:30.031 - 1A FF FF FF 55 00 00 01 0F (人体感应地址-外卫, 打开外卫感应)
2025-09-08 19:53:30.136 - BC BC
2025-09-08 19:53:32.575 - 09 06 00 0F 02 02 38 20 (提示音咚)
2025-09-08 19:53:33.129 - EE 00 00 B1 00 00 02 FF FC FF FF (情景完成返回主页)
2025-09-08 19:53:48.681 - 19 08 24 03 CC 01 53 00 01 (调用外卫感应灯关的按键)
2025-09-08 19:53:48.734 - 1A 0D 01 07 01 FF 00 01 FF 00 01 FF 00 00 0F (调光器地址-外卫射灯, 外卫感应灯关)
2025-09-08 19:55:30.969 - FF FF FF FF 0E FC (继电器地址-西阳小窗帘)
2025-09-08 19:55:31.101 - FE
2025-09-08 20:03:38.604 - 19 08 24 03 CC 01 CC 00 01 (调用茶吧感应灯开的按键)
2025-09-08 20:03:38.691 - 1A AA AA AA 88 FF B0 01 FF B0 01 0F (调光器地址-茶吧灯带, 茶吧灯带明亮)
2025-09-08 20:03:45.618 - 19 08 24 03 CC 01 CD 00 01 (调用茶吧感应灯关的按键)
2025-09-08 20:03:45.667 - 1A AA AA AA 88 FF 00 01 FF 00 01 0F (调光器地址-茶吧灯带, 茶吧灯带关闭)
2025-09-08 20:05:35.454 - 19 08 24 03 CC 00 D3 00 01 (调用厨房感应灯开的按键)
2025-09-08 20:05:35.489 - 55 0A 32 00 00 00 01 92 55 0A 32 00 00 00 02 93 (厨房顶灯一开, 厨房顶灯二开)
2025-09-08 20:06:12.524 - 19 08 24 03 CC 00 D4 00 01 (调用厨房感应灯关的按键)
2025-09-08 20:06:12.560 - 55 0A 31 00 00 00 01 91 55 0A 31 00 00 00 02 92 (厨房顶灯一关, 厨房顶灯二关)
2025-09-08 20:19:26.084 - FF FF FF FF 0A (继电器地址-东阳窗帘)
2025-09-08 20:29:13.634 - 19 08 24 03 CC 01 CC 00 01 (调用茶吧感应灯开的按键)
2025-09-08 20:29:13.683 - 1A AA AA AA 88 FF B0 01 FF B0 01 0F (调光器地址-茶吧灯带, 茶吧灯带明亮)
2025-09-08 20:30:11.249 - 19 08 24 03 CC 01 CD 00 01 (调用茶吧感应灯关的按键)
2025-09-08 20:30:11.297 - 1A AA AA AA 88 FF 00 01 FF 00 01 0F (调光器地址-茶吧灯带, 茶吧灯带关闭)
2025-09-08 20:52:00.430 - 19 08 24 03 CC 00 D3 00 01 (调用厨房感应灯开的按键)
2025-09-08 20:52:00.464 - 55 0A 32 00 00 00 01 92 55 0A 32 00 00 00 02 93 (厨房顶灯一开, 厨房顶灯二开)
2025-09-08 20:52:48.525 - 19 08 24 03 CC 00 D4 00 01 (调用厨房感应灯关的按键)
2025-09-08 20:52:48.560 - 55 0A 31 00 00 00 01 91 55 0A 31 00 00 00 02 92 (厨房顶灯一关, 厨房顶灯二关)
2025-09-08 21:08:34.804 - 19 08 24 03 CC 01 CC 00 01 (调用茶吧感应灯开的按键)
2025-09-08 21:08:34.831 - 1A AA AA AA 88 FF B0 01 FF B0 01 0F (调光器地址-茶吧灯带, 茶吧灯带明亮)
2025-09-08 21:08:36.390 - 19 08 24 03 CC 00 D3 00 01 (调用厨房感应灯开的按键)
2025-09-08 21:08:36.424 - 55 0A 32 00 00 00 01 92 55 0A 32 00 00 00 02 93 (厨房顶灯一开, 厨房顶灯二开)
2025-09-08 21:08:47.322 - 19 08 24 03 CC 01 CD 00 01 (调用茶吧感应灯关的按键)
2025-09-08 21:08:47.354 - 1A AA AA AA 88 FF 00 01 FF 00 01 0F (调光器地址-茶吧灯带, 茶吧灯带关闭)
2025-09-08 21:09:01.855 - 19 08 24 03 CC 01 CC 00 01 (调用茶吧感应灯开的按键)
2025-09-08 21:09:01.884 - 1A AA AA AA 88 FF B0 01 FF B0 01 0F (调光器地址-茶吧灯带, 茶吧灯带明亮)
2025-09-08 21:09:41.931 - 19 08 24 03 CC 01 CD 00 01 (调用茶吧感应灯关的按键)
2025-09-08 21:09:41.963 - 1A AA AA AA 88 FF 00 01 FF 00 01 0F (调光器地址-茶吧灯带, 茶吧灯带关闭)
2025-09-08 21:09:45.024 - 19 08 24 03 CC 00 D4 00 01 (调用厨房感应灯关的按键)
2025-09-08 21:09:45.060 - 55 0A 31 00 00 00 01 91 55 0A 31 00 00 00 02 92 (厨房顶灯一关, 厨房顶灯二关)
2025-09-08 21:09:51.840 - 19 08 24 03 DD 00 42 00 01 (调用情景-主卧电视空调)
2025-09-08 21:09:52.391 - EE 00 00 B1 00 00 00 FF FC FF FF (情景执行提示)
2025-09-08 21:09:52.986 - 09 06 00 0F 02 01 78 21 (提示音叮)
2025-09-08 21:09:53.529 - 50 F0 05 (开主卧影视)
2025-09-08 21:09:54.573 - 50 F0 04 (开内卫影视)
2025-09-08 21:09:55.176 - 1A FF FF FF 56 00 00 00 0F (人体感应地址-内卫, 关闭内卫感应)
2025-09-08 21:09:55.288 - BF BF
2025-09-08 21:09:55.724 - 1A 22 33 62 0F 00 02 01 0F (正反转地址-内卫卷帘, 内卫卷帘降)
2025-09-08 21:09:56.271 - 55 11 1D 03 01 7C 06 (主卧纱帘关)
2025-09-08 21:09:56.315 - 55 11 1D 03 01 7C 06 (主卧纱帘关)
2025-09-08 21:09:57.371 - 55 12 12 03 02 0C 40 (主卧窗帘关)
2025-09-08 21:09:57.412 - 55 12 12 03 02 0C 40 (主卧窗帘关)
2025-09-08 21:09:58.475 - 1A 0C 02 04 FF FF 45 01 FF 45 01 FF 00 00 0F (主卧调光微光)
2025-09-08 21:10:02.563 - 1A 0C 02 08 01 FF 45 01 FF 45 01 FF 00 00 0F (调光器地址-内卫射灯, 内卫射灯微光)
2025-09-08 21:10:03.147 - 50 F1 25 (主卧—有线2)
2025-09-08 21:10:03.699 - A1 11 11 11 42 (主卧空调自动开)
2025-09-08 21:10:03.922 - 19 08 24 03 F0 BB 78 02 02 00
2025-09-08 21:10:03.972 - 23 AA 56 02 15 0A 1A 19 09 08 01 73 65 6F 6B 65 6E 64
2025-09-08 21:10:04.245 - 50 F1 24 (内卫—有线2)
2025-09-08 21:10:04.930 - 01 10 07 D6 00 03 06 70 61 00 02 00 F0 0F 3E (主卧空调冷24度)
2025-09-08 21:10:04.970 - 01 10 07 D6 00 03 06 70 61 00 02 00 F0 0F 3E (主卧空调冷24度)
2025-09-08 21:10:06.290 - AF BF CF DF C2 21 (有线2/快捷-凤凰卫视)
2025-09-08 21:10:08.338 - 1A FF FF FF 60 0B 01 01 0F (红外总线地址-主卧发射设备, 主卧电视电源)
2025-09-08 21:10:08.851 - F0 0B 01 08
2025-09-08 21:10:16.363 - 09 06 00 0F 02 02 38 20 (提示音咚)
2025-09-08 21:10:16.643 - 19 08 24 03 DD 00 3B 00 01 (调用情景-书房照明关帘)
2025-09-08 21:10:16.914 - EE 00 00 B1 00 00 02 FF FC FF FF (情景完成返回主页)
2025-09-08 21:10:17.517 - EE 00 00 B1 00 00 00 FF FC FF FF (情景执行提示)
2025-09-08 21:10:18.108 - 09 06 00 0F 02 01 78 21 (提示音叮)
2025-09-08 21:10:18.663 - 1A 0A 04 06 01 FF F0 01 FF F0 01 FF 00 00 0F (调光器地址-书房射灯, 书房射灯明亮)
2025-09-08 21:10:22.741 - A5 00 B7 FF 00 AA 22 0D (书房纱帘关)
2025-09-08 21:10:23.788 - A5 00 D2 FF 00 AA 22 0C (书房窗帘关)
2025-09-08 21:10:23.837 - 55 00 D2 01 00 0D 01 0B AA 55 00 D2 01 00 0D 01 0B AA (书房窗帘电机状态返回)
2025-09-08 21:10:24.886 - 09 06 00 0F 02 02 38 20 (提示音咚)
2025-09-08 21:10:25.436 - EE 00 00 B1 00 00 02 FF FC FF FF (情景完成返回主页)
2025-09-08 21:10:32.482 - 55 00 D2 00 00 FE 01 0B AA 55 00 D2 00 00 FE 01 0B AA (书房窗帘电机状态返回)
2025-09-08 21:17:49.140 - 19 08 24 03 CC 01 52 00 01 (调用外卫感应灯开的按键)
2025-09-08 21:17:49.193 - 1A 0D 01 07 01 FF 45 01 FF 45 01 FF 00 00 0F (调光器地址-外卫射灯, 外卫感应灯开)
2025-09-08 21:18:06.680 - 19 08 24 03 CC 01 53 00 01 (调用外卫感应灯关的按键)
2025-09-08 21:18:06.712 - 1A 0D 01 07 01 FF 00 01 FF 00 01 FF 00 00 0F (调光器地址-外卫射灯, 外卫感应灯关)
2025-09-08 21:28:15.015 - 1A BE B0 DC 03 (继电器地址-西阳天幕)
2025-09-08 21:28:15.153 - FF
2025-09-08 21:29:07.760 - 19 08 24 03 CC 01 CC 00 01 (调用茶吧感应灯开的按键)
2025-09-08 21:29:07.810 - 1A AA AA AA 88 FF B0 01 FF B0 01 0F (调光器地址-茶吧灯带, 茶吧灯带明亮)
2025-09-08 21:29:11.328 - 19 08 24 03 DD 00 3A 00 01 (调用情景-离开书房)
2025-09-08 21:29:11.866 - EE 00 00 B1 00 00 00 FF FC FF FF (情景执行提示)
2025-09-08 21:29:12.461 - 09 06 00 0F 02 01 78 21 (提示音叮)
2025-09-08 21:29:13.008 - 01 06 07 DC FF 60 08 9C (书房空调关)
2025-09-08 21:29:13.037 - 01 06 07 DC FF 60 08 9C (书房空调关)
2025-09-08 21:29:13.603 - 50 F5 07 (关书房影视)
2025-09-08 21:29:14.154 - A5 00 D2 FE 01 AA 22 0D (书房窗帘开)
2025-09-08 21:29:14.211 - 55 00 D2 02 00 FE 01 0B AA 55 00 D2 02 00 FE 01 FB (书房窗帘电机状态返回)
2025-09-08 21:29:15.253 - A5 00 B7 FF 00 AA 22 0D (书房纱帘关)
2025-09-08 21:29:16.298 - 55 0D 31 00 00 00 01 94 (书房顶灯只关)
2025-09-08 21:29:17.354 - 1A 0A 04 06 01 FF 00 01 FF 00 01 FF 00 00 0F (调光器地址-书房射灯, 书房射灯关闭)
2025-09-08 21:29:21.300 - 55 00 D2 00 00 0E 01 0B AA 55 00 D2 00 00 0E 01 0B AA (书房窗帘电机状态返回)
2025-09-08 21:29:21.435 - 09 06 00 0F 02 02 38 20 (提示音咚)
2025-09-08 21:29:21.790 - 19 08 24 03 CC 01 CD 00 01 (调用茶吧感应灯关的按键)
2025-09-08 21:29:21.852 - 1A AA AA AA 88 FF 00 01 FF 00 01 0F (调光器地址-茶吧灯带, 茶吧灯带关闭)
2025-09-08 21:29:22.254 - EE 00 00 B1 00 00 02 FF FC FF FF (情景完成返回主页)
2025-09-08 21:29:38.320 - 19 08 24 03 CC 01 CC 00 01 (调用茶吧感应灯开的按键)
2025-09-08 21:29:38.354 - 1A AA AA AA 88 FF B0 01 FF B0 01 0F (调光器地址-茶吧灯带, 茶吧灯带明亮)
2025-09-08 21:29:40.918 - 19 08 24 03 CC 00 D3 00 01 (调用厨房感应灯开的按键)
2025-09-08 21:29:40.952 - 55 0A 32 00 00 00 01 92 55 0A 32 00 00 00 02 93 (厨房顶灯一开, 厨房顶灯二开)
2025-09-08 21:29:50.347 - 19 08 24 03 CC 01 CD 00 01 (调用茶吧感应灯关的按键)
2025-09-08 21:29:50.376 - 1A AA AA AA 88 FF 00 01 FF 00 01 0F (调光器地址-茶吧灯带, 茶吧灯带关闭)
2025-09-08 21:30:08.384 - 19 08 24 03 CC 01 CC 00 01 (调用茶吧感应灯开的按键)
2025-09-08 21:30:08.414 - 1A AA AA AA 88 FF B0 01 FF B0 01 0F (调光器地址-茶吧灯带, 茶吧灯带明亮)
2025-09-08 21:30:43.950 - 19 08 24 03 CC 01 CD 00 01 (调用茶吧感应灯关的按键)
2025-09-08 21:30:43.982 - 1A AA AA AA 88 FF 00 01 FF 00 01 0F (调光器地址-茶吧灯带, 茶吧灯带关闭)
2025-09-08 21:30:52.058 - 19 08 24 03 CC 00 D4 00 01 (调用厨房感应灯关的按键)
2025-09-08 21:30:52.105 - 55 0A 31 00 00 00 01 91 55 0A 31 00 00 00 02 92 (厨房顶灯一关, 厨房顶灯二关)
2025-09-08 21:41:14.918 - 1A BE B0 DC 01 FC (继电器地址-回水泵点动)
2025-09-08 21:43:06.495 - 19 08 24 03 DD 00 1B 00 01 (调用情景-外卫使用)
2025-09-08 21:43:07.063 - EE 00 00 B1 00 00 00 FF FC FF FF (情景执行提示)
2025-09-08 21:43:07.657 - 09 06 00 0F 02 01 78 21 (提示音叮)
2025-09-08 21:43:08.202 - 50 F0 03 (开外卫影视)
2025-09-08 21:43:08.759 - 1A FF FF FF 55 00 00 00 0F (人体感应地址-外卫, 关闭外卫感应)
2025-09-08 21:43:08.863 - BF BF
2025-09-08 21:43:09.310 - 1A 0D 01 07 01 FF 45 01 FF 45 01 FF 00 00 0F (调光器地址-外卫射灯, 外卫感应灯开)
2025-09-08 21:43:11.396 - 1A BE B0 DC 01 00 01 00 (继电器地址-回水泵点动, 回水泵点动)
2025-09-08 21:43:12.447 - 1A BE B0 DC 01 00 01 00 (继电器地址-回水泵点动, 回水泵点动)
2025-09-08 21:43:13.490 - 1A BE B0 DC 01 00 01 00 (继电器地址-回水泵点动, 回水泵点动)
2025-09-08 21:43:14.533 - 50 F1 43 (外卫—CH4)
2025-09-08 21:43:31.534 - A1 11 11 11 11 05 (外卫使用浴霸判断)
2025-09-08 21:43:31.762 - 13 03 00 00 00 02 C7 79 (查询外卫温湿度)
2025-09-08 21:43:31.783 - 13 03 04 01 90 01 17 88 7D (外卫温湿度返回)
2025-09-08 21:43:33.581 - 09 06 00 0F 02 02 38 20 (提示音咚)
2025-09-08 21:43:35.628 - EE 00 00 B1 00 00 02 FF FC FF FF (情景完成返回主页)
2025-09-08 21:52:27.664 - 1A BE B0 DC 04 FC (继电器地址-西阳窗帘)
2025-09-08 21:53:26.067 - 19 08 24 03 DD 00 1C 00 01 (调用情景-外卫使用完毕)
2025-09-08 21:53:26.587 - EE 00 00 B1 00 00 00 FF FC FF FF (情景执行提示)
2025-09-08 21:53:27.182 - 09 06 00 0F 02 01 78 21 (提示音叮)
2025-09-08 21:53:27.738 - 1A 0D 01 07 01 FF 00 01 FF 00 01 FF 00 00 0F (调光器地址-外卫射灯, 外卫感应灯关)
2025-09-08 21:53:28.326 - 50 F5 03 (关外卫影视)
2025-09-08 21:53:28.929 - 1A 20 07 00 42 00 01 00 0F (自保持开关地址-外卫顶灯, 外卫顶灯关)
2025-09-08 21:53:29.477 - 1A FF FF FF 55 00 00 01 0F (人体感应地址-外卫, 打开外卫感应)
2025-09-08 21:53:29.582 - BC BC
2025-09-08 21:53:29.887 - 19 08 24 03 CC 01 52 00 01 (调用外卫感应灯开的按键)
2025-09-08 21:53:29.940 - 1A 0D 01 07 01 FF 45 01 FF 45 01 FF 00 00 0F (调光器地址-外卫射灯, 外卫感应灯开)
2025-09-08 21:53:32.370 - 09 06 00 0F 02 02 38 20 (提示音咚)
2025-09-08 21:53:32.971 - EE 00 00 B1 00 00 02 FF FC FF FF (情景完成返回主页)
2025-09-08 21:53:39.279 - 1A AA AA AA 66 00 00 02 0F (调光器地址-东阳筒灯, 东阳筒灯开关)
2025-09-08 21:53:40.616 - 19 08 24 03 CC 01 53 00 01 (调用外卫感应灯关的按键)
2025-09-08 21:53:40.648 - 1A 0D 01 07 01 FF 00 01 FF 00 01 FF 00 00 0F (调光器地址-外卫射灯, 外卫感应灯关)
2025-09-08 21:53:45.552 - 1A AA AA AA 66 00 64 01 00 64 01 0F (调光器地址-东阳筒灯)
2025-09-08 21:53:46.469 - 1A AA AA AA 66 01 0F (调光器地址-东阳筒灯)
2025-09-08 21:54:46.672 - 1A AA AA AA 66 00 00 02 0F (调光器地址-东阳筒灯, 东阳筒灯开关)
2025-09-08 21:54:52.923 - 1A AA AA AA 66 00 64 00 00 64 00 0F (调光器地址-东阳筒灯)
2025-09-08 21:54:53.842 - 1A AA AA AA 66 00 0F (调光器地址-东阳筒灯)
2025-09-08 21:55:49.928 - 19 08 24 03 CC 01 CC 00 01 (调用茶吧感应灯开的按键)
2025-09-08 21:55:49.980 - 1A AA AA AA 88 FF B0 01 FF B0 01 0F (调光器地址-茶吧灯带, 茶吧灯带明亮)
2025-09-08 21:56:06.037 - 19 08 24 03 CC 00 D3 00 01 (调用厨房感应灯开的按键)
2025-09-08 21:56:06.074 - 55 0A 32 00 00 00 01 92 55 0A 32 00 00 00 02 93 (厨房顶灯一开, 厨房顶灯二开)
2025-09-08 21:56:15.980 - 19 08 24 03 CC 01 CD 00 01 (调用茶吧感应灯关的按键)
2025-09-08 21:56:16.011 - 1A AA AA AA 88 FF 00 01 FF 00 01 0F (调光器地址-茶吧灯带, 茶吧灯带关闭)
2025-09-08 21:56:16.982 - 19 08 24 03 CC 01 CC 00 01 (调用茶吧感应灯开的按键)
2025-09-08 21:56:17.036 - 1A AA AA AA 88 FF B0 01 FF B0 01 0F (调光器地址-茶吧灯带, 茶吧灯带明亮)
2025-09-08 21:57:01.647 - 19 08 24 03 CC 00 D4 00 01 (调用厨房感应灯关的按键)
2025-09-08 21:57:01.684 - 55 0A 31 00 00 00 01 91 55 0A 31 00 00 00 02 92 (厨房顶灯一关, 厨房顶灯二关)
2025-09-08 21:57:29.625 - 19 08 24 03 CC 01 CD 00 01 (调用茶吧感应灯关的按键)
2025-09-08 21:57:29.656 - 1A AA AA AA 88 FF 00 01 FF 00 01 0F (调光器地址-茶吧灯带, 茶吧灯带关闭)
2025-09-08 22:04:19.935 - 19 08 24 03 CC 01 CC 00 01 (调用茶吧感应灯开的按键)
2025-09-08 22:04:19.967 - 1A AA AA AA 88 FF B0 01 FF B0 01 0F (调光器地址-茶吧灯带, 茶吧灯带明亮)
2025-09-08 22:04:22.516 - 19 08 24 03 CC 00 D3 00 01 (调用厨房感应灯开的按键)
2025-09-08 22:04:22.548 - 55 0A 32 00 00 00 01 92 55 0A 32 00 00 00 02 93 (厨房顶灯一开, 厨房顶灯二开)
