2025-09-23 11:32:52.603 - 02 13 05 17 03 32 FF
2025-09-23 11:33:05.669 - 02 AF 06 17 03 CF FF (查询门锁状态)
2025-09-23 11:33:06.914 - 1B 03 00 00 00 02 C6 31 (查询室外光线)
2025-09-23 11:33:06.933 - 1B 03 04 00 00 05 5F 02 9A (室外光线返回)
2025-09-23 11:33:07.713 - 1A EC A0 DC 02 00 00 01 0F (自保持开关地址-天花12V供电, 天花12V 供电开)
2025-09-23 11:33:08.013 - 19 08 24 03 DD 00 0C 00 01 (调用情景-信科调用进门亮)
2025-09-23 11:33:08.241 - 1A AA AA AA 88 (调光器地址-茶吧灯带)
2025-09-23 11:33:08.541 - EE 00 00 B1 00 00 00 FF FC FF FF (情景执行提示)
2025-09-23 11:33:09.135 - 09 06 00 0F 02 01 78 21 (提示音叮)
2025-09-23 11:33:09.733 - 1A EC A0 DC 02 00 00 01 0F (自保持开关地址-天花12V供电, 天花12V 供电开)
2025-09-23 11:33:10.283 - 1A EC A0 DC 04 00 01 01 0F (自保持开关地址-次卧西阳内外卫供电, 内卫外卫开)
2025-09-23 11:33:10.830 - 1A EC A0 DC 04 00 01 01 0F (自保持开关地址-次卧西阳内外卫供电, 内卫外卫开)
2025-09-23 11:33:11.377 - 1A EC A0 DC 01 00 00 01 0F (自保持开关地址-电视、设备12V供电, 12V 电视供电开)
2025-09-23 11:33:11.924 - 1A BB BB BB 01 01 00 (开水器电源开)
2025-09-23 11:33:13.471 - 1A 27 89 12 AA 00 00 01 0F (状态寄存器地址, 有人状态)
2025-09-23 11:33:14.019 - 1A 27 89 12 AA 00 00 01 0F (状态寄存器地址, 有人状态)
2025-09-23 11:33:14.573 - 1A 0C 02 08 01 FF 45 01 FF 45 01 FF 00 00 0F (调光器地址-内卫射灯, 内卫射灯微光)
2025-09-23 11:33:15.172 - 1A 0D 01 07 01 FF 45 01 FF 45 01 FF 00 00 0F (调光器地址-外卫射灯, 外卫感应灯开)
2025-09-23 11:33:15.792 - 1A FF FF FF 57 00 00 01 0F (人体感应地址-厨房, 打开厨房感应)
2025-09-23 11:33:15.876 - BF BF
2025-09-23 11:33:16.360 - 1A FF FF FF 57 00 00 01 0F (人体感应地址-厨房, 打开厨房感应)
2025-09-23 11:33:16.375 - BC BC
2025-09-23 11:33:16.960 - 1A FF FF FF 58 00 00 01 0F (人体感应地址-茶吧, 打开茶吧感应)
2025-09-23 11:33:17.012 - BC BC
2025-09-23 11:33:17.555 - 1A BE B0 DC 01 00 01 00 (继电器地址-回水泵点动, 回水泵点动)
2025-09-23 11:33:18.154 - 1A BE B0 DC 01 00 01 00 (继电器地址-回水泵点动, 回水泵点动)
2025-09-23 11:33:18.702 - 09 06 00 0F 02 01 78 21 (提示音叮)
2025-09-23 11:33:19.249 - 09 06 00 0F 02 01 78 21 (提示音叮)
2025-09-23 11:33:19.801 - EE 00 00 B1 00 00 02 FF FC FF FF (情景完成返回主页)
2025-09-23 11:33:20.394 - A1 11 11 11 50 (天花供电打开确认)
2025-09-23 11:33:20.618 - 1A EC A0 DC 02 86 86 86 0F (查询天花供电状态, 自保持开关地址-天花12V供电)
2025-09-23 11:33:21.051 - 1A EC A0 DC 02 01 00 0F (自保持开关地址-天花12V供电)
2025-09-23 11:33:22.935 - A1 11 11 11 51 (卫生供电打开确认)
2025-09-23 11:33:23.156 - 1A EC A0 DC 04 86 86 86 0F (查询卫生间供电状态, 自保持开关地址-次卧西阳内外卫供电)
2025-09-23 11:33:23.589 - 1A EC A0 DC 04 01 01 0F (自保持开关地址-次卧西阳内外卫供电)
2025-09-23 11:33:25.474 - A1 11 11 11 52 (电视供电打开确认)
2025-09-23 11:33:25.704 - 1A EC A0 DC 01 86 86 86 0F (查询电视供电状态, 自保持开关地址-电视、设备12V供电)
2025-09-23 11:33:26.136 - 1A EC A0 DC 01 01 01 0F (自保持开关地址-电视、设备12V供电)
2025-09-23 11:33:30.508 - A1 11 11 11 47 (天热回家开帘)
2025-09-23 11:33:30.736 - 1A 27 89 12 AA 86 86 86 0F (查询寄存器状态, 状态寄存器地址)
2025-09-23 11:33:31.120 - 1A 27 89 12 AA 01 00 00 00 00 00 00 00 00 00 00 01 00 00 00 00 0F (状态寄存器地址)
2025-09-23 11:33:31.742 - 19 08 24 03 DD 00 06 00 01 (调用情景-天热遮阳开帘)
2025-09-23 11:33:32.308 - EE 00 00 B1 00 00 00 FF FC FF FF (情景执行提示)
2025-09-23 11:33:32.903 - 09 06 00 0F 02 01 78 21 (提示音叮)
2025-09-23 11:33:33.449 - A5 00 A6 FE 01 AA (餐厅窗帘开)
2025-09-23 11:33:33.497 - 55 00 A6 02 01 66 01 74 AA 55 00 A6 02 01 66 01 74 AA (餐厅窗帘电机状态返回)
2025-09-23 11:33:34.546 - 55 12 12 03 01 4C 41 (主卧窗帘开)
2025-09-23 11:33:34.589 - 55 12 12 03 01 4C 41 (主卧窗帘开)
2025-09-23 11:33:35.671 - 55 11 1D 03 02 3C 07 (主卧纱帘开)
2025-09-23 11:33:35.708 - 55 11 1D 03 02 3C 07 (主卧纱帘开)
2025-09-23 11:33:36.738 - A5 00 76 FE 01 AA (次卧窗帘开)
2025-09-23 11:33:36.792 - 55 00 76 02 01 0E 01 1B AA 55 00 76 02 01 0E 01 1B AA (次卧窗帘电机状态返回)
2025-09-23 11:33:37.835 - A5 00 21 FE 01 AA (次卧纱帘开)
2025-09-23 11:33:37.888 - 55 00 21 02 01 27 01 34 AA 55 00 21 02 01 27 01 34 AA (次卧纱帘电机状态返回)
2025-09-23 11:33:38.932 - 1A BE B0 DC 04 00 01 00 (继电器地址-西阳窗帘, 西阳窗帘开)
2025-09-23 11:33:39.980 - FF FF FF FF 0E 00 01 00 (继电器地址-西阳小窗帘, 西阳小窗帘开)
2025-09-23 11:33:41.024 - A5 00 D2 FE 01 AA 22 0D (书房窗帘开)
2025-09-23 11:33:41.074 - 55 00 D2 02 00 FE 01 0B AA 55 00 D2 02 00 FE 01 0B AA (书房窗帘电机状态返回)
2025-09-23 11:33:42.120 - 09 06 00 0F 02 02 38 20 (提示音咚)
2025-09-23 11:33:42.525 - 55 00 A6 00 00 0E 01 74 AA 55 00 A6 00 00 0E 01 74 AA (餐厅窗帘电机状态返回)
2025-09-23 11:33:42.675 - EE 00 00 B1 00 00 02 FF FC FF FF (情景完成返回主页)
2025-09-23 11:33:45.434 - 55 00 21 00 00 0D 01 34 AA 55 00 21 00 00 0D 01 34 AA (次卧纱帘电机状态返回)
2025-09-23 11:33:45.485 - 55 00 76 00 00 0E 01 1B AA 55 00 76 00 FC EF FD BB FD (次卧窗帘电机状态返回)
2025-09-23 11:33:49.084 - 55 00 D2 00 00 0E 01 0B AA 55 00 D2 00 00 0E 01 0B AA (书房窗帘电机状态返回)
2025-09-23 11:34:26.271 - EE 00 00 B1 00 00 00 FF FC FF FF (情景执行提示)
2025-09-23 11:34:26.865 - 09 06 00 0F 02 02 38 20 (提示音咚)
2025-09-23 11:34:27.409 - 50 F7 01 (全屋影音全关)
2025-09-23 11:34:27.962 - 01 06 07 D0 FF 60 C8 9F (客厅空调关)
2025-09-23 11:34:27.996 - 01 06 07 D0 FF 60 C8 9F (客厅空调关)
2025-09-23 11:34:28.560 - 01 06 07 D0 FF 60 C8 9F (客厅空调关)
2025-09-23 11:34:28.591 - 01 06 07 D0 FF 60 C8 9F (客厅空调关)
2025-09-23 11:34:29.158 - 01 06 07 D3 FF 60 38 9F (餐厅空调关)
2025-09-23 11:34:29.186 - 01 06 07 D3 FF 60 38 9F (餐厅空调关)
2025-09-23 11:34:29.755 - 01 06 07 D3 FF 60 38 9F (餐厅空调关)
2025-09-23 11:34:29.783 - 01 06 07 D3 FF 60 38 9F (餐厅空调关)
2025-09-23 11:34:30.353 - 01 06 07 D6 FF 60 28 9E (主卧空调关)
2025-09-23 11:34:30.388 - 01 06 07 D6 FF 60 28 9E (主卧空调关)
2025-09-23 11:34:30.952 - 01 06 07 D6 FF 60 28 9E (主卧空调关)
2025-09-23 11:34:30.984 - 01 06 07 D6 FF 60 28 9E (主卧空调关)
2025-09-23 11:34:31.548 - 01 06 07 D9 FF 60 18 9D (次卧空调关)
2025-09-23 11:34:31.580 - 01 06 07 D9 FF 60 18 9D (次卧空调关)
2025-09-23 11:34:32.147 - 01 06 07 D9 FF 60 18 9D (次卧空调关)
2025-09-23 11:34:32.177 - 01 06 07 D9 FF 60 18 9D (次卧空调关)
2025-09-23 11:34:32.744 - 01 06 07 DC FF 60 08 9C (书房空调关)
2025-09-23 11:34:32.772 - 01 06 07 DC FF 60 08 9C (书房空调关)
2025-09-23 11:34:33.343 - 01 06 07 DC FF 60 08 9C (书房空调关)
2025-09-23 11:34:33.377 - 01 06 07 DC FF 60 08 9C (书房空调关)
2025-09-23 11:34:33.940 - 09 06 00 0F 02 02 38 20 (提示音咚)
2025-09-23 11:34:34.489 - 1A FF FF FF 56 00 00 00 0F (人体感应地址-内卫, 关闭内卫感应)
2025-09-23 11:34:34.504 - BC BC
2025-09-23 11:34:35.088 - 1A FF FF FF 55 00 00 00 0F (人体感应地址-外卫, 关闭外卫感应)
2025-09-23 11:34:35.100 - BC BC
2025-09-23 11:34:35.686 - 1A FF FF FF 57 00 00 00 0F (人体感应地址-厨房, 关闭厨房感应)
2025-09-23 11:34:35.791 - BF BF
2025-09-23 11:34:36.234 - 1A FF FF FF 58 00 00 00 0F (人体感应地址-茶吧, 关闭茶吧感应)
2025-09-23 11:34:36.287 - BC BC
2025-09-23 11:34:36.831 - 1A 20 07 00 93 00 01 00 0F (自保持开关地址-设备区顶, 设备区顶灯关)
2025-09-23 11:34:37.877 - 1A 20 07 01 40 00 01 00 0F (自保持开关地址-内卫顶灯, 内卫顶灯关)
2025-09-23 11:34:38.925 - 1A 20 07 01 55 00 01 00 0F (自保持开关地址-主卧顶灯, 主卧顶灯只关)
2025-09-23 11:34:39.971 - 1A 20 07 00 42 00 01 00 0F (自保持开关地址-外卫顶灯, 外卫顶灯关)
2025-09-23 11:34:41.015 - 55 0D 31 00 00 00 01 94 (书房顶灯只关)
2025-09-23 11:34:42.062 - 55 0A 31 00 00 00 01 91 (厨房顶灯一关)
2025-09-23 11:34:43.108 - 55 0A 31 00 00 00 02 92 (厨房顶灯二关)
2025-09-23 11:34:44.155 - 55 0B 31 00 00 00 01 92 (厨房风扇只关)
2025-09-23 11:34:45.202 - 55 0C 31 00 00 00 01 93 (餐厅顶灯关)
2025-09-23 11:34:46.249 - 1A 20 07 01 30 00 01 00 0F (自保持开关地址-西阳顶灯, 西阳顶灯关)
2025-09-23 11:34:47.295 - 1A 18 05 21 89 00 01 00 0F (自保持开关地址-客厅顶灯, 客厅顶灯一关)
2025-09-23 11:34:48.342 - 1A 18 05 01 94 00 01 00 0F (自保持开关地址-客厅顶灯, 客厅顶灯二关)
2025-09-23 11:34:49.388 - 1A 20 07 00 70 00 01 00 0F (自保持开关地址-次卧顶灯, 次卧顶灯只关)
2025-09-23 11:34:50.435 - 1A 18 05 10 31 00 01 00 0F (自保持开关地址-门厅顶灯, 门厅顶灯关)
2025-09-23 11:34:51.480 - 1A FF FF FF 04 00 03 02 (继电器地址-东阳衣架, 东阳衣架照明关)
2025-09-23 11:34:52.027 - 09 06 00 0F 02 02 38 20 (提示音咚)
2025-09-23 11:34:52.574 - A5 00 A6 FE 01 AA (餐厅窗帘开)
2025-09-23 11:34:53.125 - FF FF FF FF 0A 00 01 00 (继电器地址-东阳窗帘, 东阳窗帘开)
2025-09-23 11:34:53.673 - 1A BE B0 DC 04 00 01 00 (继电器地址-西阳窗帘, 西阳窗帘开)
2025-09-23 11:34:54.222 - FF FF FF FF 0E 00 01 00 (继电器地址-西阳小窗帘, 西阳小窗帘开)
2025-09-23 11:34:54.768 - 1A 22 33 62 0F 00 00 01 0F (正反转地址-内卫卷帘, 内卫卷帘升)
2025-09-23 11:34:55.317 - 55 12 12 03 01 4C 41 (主卧窗帘开)
2025-09-23 11:34:55.355 - 55 12 12 03 01 4C 41 (主卧窗帘开)
2025-09-23 11:34:55.912 - 55 11 1D 03 02 3C 07 (主卧纱帘开)
2025-09-23 11:34:55.961 - 55 11 1D 03 02 3C 07 (主卧纱帘开)
2025-09-23 11:34:56.511 - A5 00 76 FE 01 AA (次卧窗帘开)
2025-09-23 11:34:57.057 - A5 00 21 FE 01 AA (次卧纱帘开)
2025-09-23 11:34:57.608 - A5 00 D2 FE 01 AA 22 0D (书房窗帘开)
2025-09-23 11:34:58.159 - 1A BE B0 DC 09 00 01 00 (继电器地址-客厅窗帘, 客厅窗帘开)
2025-09-23 11:34:58.704 - 1A BE B0 DC 0A 00 02 00 (继电器地址-客厅纱帘, 客厅纱帘开)
2025-09-23 11:34:59.253 - 09 06 00 0F 02 02 38 20 (提示音咚)
2025-09-23 11:35:00.300 - 1A EC A0 DC 02 00 00 00 0F (自保持开关地址-天花12V供电, 天花12V 供电关)
2025-09-23 11:35:00.849 - 1A EC A0 DC 02 00 00 00 0F (自保持开关地址-天花12V供电, 天花12V 供电关)
2025-09-23 11:35:01.395 - 1A EC A0 DC 01 00 00 00 0F (自保持开关地址-电视、设备12V供电, 12V 电视供电关)
2025-09-23 11:35:01.943 - 1A EC A0 DC 01 00 00 00 0F (自保持开关地址-电视、设备12V供电, 12V 电视供电关)
2025-09-23 11:35:02.493 - 1A EC A0 DC 04 00 01 00 0F (自保持开关地址-次卧西阳内外卫供电, 内卫外卫关)
2025-09-23 11:35:03.040 - 1A EC A0 DC 04 00 01 00 0F (自保持开关地址-次卧西阳内外卫供电, 内卫外卫关)
2025-09-23 11:35:04.582 - 1A BB BB BB 01 02 00 (开水器电源关)
2025-09-23 11:35:17.581 - 09 06 00 0F 02 02 38 20 (提示音咚)
2025-09-23 11:35:18.130 - 1A 27 89 12 AA 00 00 00 0F (状态寄存器地址, 无人状态)
2025-09-23 11:35:18.678 - 1A 27 89 12 AA 00 00 00 0F (状态寄存器地址, 无人状态)
2025-09-23 11:35:19.226 - A1 11 11 11 4D (天花供电关闭确认)
2025-09-23 11:35:19.453 - 1A EC A0 DC 02 86 86 86 0F (查询天花供电状态, 自保持开关地址-天花12V供电)
2025-09-23 11:35:19.884 - 1A EC A0 DC 02 00 00 0F (自保持开关地址-天花12V供电)
2025-09-23 11:35:22.263 - A1 11 11 11 4E (卫生供电关闭确认)
2025-09-23 11:35:22.491 - 1A EC A0 DC 04 86 86 86 0F (查询卫生间供电状态, 自保持开关地址-次卧西阳内外卫供电)
2025-09-23 11:35:22.924 - 1A EC A0 DC 04 01 00 0F (自保持开关地址-次卧西阳内外卫供电)
2025-09-23 11:35:25.302 - A1 11 11 11 4F (电视供电关闭确认)
2025-09-23 11:35:25.529 - 1A EC A0 DC 01 86 86 86 0F (查询电视供电状态, 自保持开关地址-电视、设备12V供电)
2025-09-23 11:35:25.964 - 1A EC A0 DC 01 00 01 0F (自保持开关地址-电视、设备12V供电)
2025-09-23 11:35:28.345 - 09 06 00 0F 02 02 38 20 (提示音咚)
2025-09-23 11:35:28.893 - 09 06 00 0F 02 02 38 20 (提示音咚)
2025-09-23 11:35:29.442 - EE 00 00 B1 00 00 02 FF FC FF FF (情景完成返回主页)
2025-09-23 11:35:30.534 - BA BA EE EE BA BA (离家设置信科变量)
2025-09-23 11:35:31.580 - A1 11 11 11 46 (天热离家遮阳)
2025-09-23 11:35:31.808 - 1A 27 89 12 AA 86 86 86 0F (查询寄存器状态, 状态寄存器地址)
2025-09-23 11:35:32.191 - 1A 27 89 12 AA 00 00 00 00 00 00 00 00 00 00 00 01 00 00 00 00 0F (状态寄存器地址)
2025-09-23 11:35:32.812 - 19 08 24 03 DD 00 05 00 01 (调用情景-天热遮阳关帘)
2025-09-23 11:35:33.380 - EE 00 00 B1 00 00 00 FF FC FF FF (情景执行提示)
2025-09-23 11:35:33.974 - 09 06 00 0F 02 01 78 21 (提示音叮)
2025-09-23 11:35:34.521 - A5 00 A2 FF 00 AA (餐厅纱帘关)
2025-09-23 11:35:35.644 - A5 00 A6 FF 00 AA (餐厅窗帘关)
2025-09-23 11:35:35.700 - 55 00 A6 01 00 0E 01 74 AA 55 00 A6 01 00 0E 01 74 AA (餐厅窗帘电机状态返回)
2025-09-23 11:35:36.714 - 55 11 1D 03 01 7C 06 (主卧纱帘关)
2025-09-23 11:35:36.758 - 55 11 1D 03 01 7C 06 (主卧纱帘关)
2025-09-23 11:35:37.811 - 55 12 12 03 02 0C 40 (主卧窗帘关)
2025-09-23 11:35:37.854 - 55 12 12 03 02 0C 40 (主卧窗帘关)
2025-09-23 11:35:38.905 - A5 00 21 FF 00 AA (次卧纱帘关)
2025-09-23 11:35:38.955 - 55 00 21 01 00 0D 01 34 AA 55 00 21 01 00 0D 01 34 AA (次卧纱帘电机状态返回)
2025-09-23 11:35:40.001 - A5 00 76 FF 00 AA (次卧窗帘关)
2025-09-23 11:35:40.058 - 55 00 76 01 00 0E 01 1B AA 55 00 76 01 00 0E 01 1B FA (次卧窗帘电机状态返回)
2025-09-23 11:35:41.099 - A5 00 B7 FF 00 AA 22 0D (书房纱帘关)
2025-09-23 11:35:42.146 - A5 00 D2 FF 00 AA 22 0C (书房窗帘关)
2025-09-23 11:35:42.200 - 55 00 D2 01 00 0E 01 0B AA 55 00 D2 01 00 0E 01 0B EA (书房窗帘电机状态返回)
2025-09-23 11:35:43.742 - 1A 22 33 62 5E 00 02 01 0F (正反转地址-厨房卷帘三, 厨房卷帘一降)
2025-09-23 11:35:44.779 - 55 00 A6 00 01 66 01 74 AA 55 00 A6 00 01 66 01 74 AA (餐厅窗帘电机状态返回)
2025-09-23 11:35:44.801 - 1A 22 33 62 56 00 02 01 0F (正反转地址-厨房卷帘二, 厨房卷帘二降)
2025-09-23 11:35:45.883 - 1A 22 33 62 4F 00 00 01 0F (正反转地址-厨房卷帘一, 厨房卷帘三降)
2025-09-23 11:35:46.189 - 55 00 21 00 01 27 01 34 AA 55 00 21 00 01 27 01 34 AA (次卧纱帘电机状态返回)
2025-09-23 11:35:46.930 - 1A BE B0 DC 04 00 02 00 (继电器地址-西阳窗帘, 西阳窗帘关)
2025-09-23 11:35:47.976 - FF FF FF FF 0E 00 02 00 (继电器地址-西阳小窗帘, 西阳小窗帘关)
2025-09-23 11:35:48.032 - 55 00 76 00 01 0F 01 1B AA 55 00 76 00 01 0F 81 DB AB (次卧窗帘电机状态返回)
2025-09-23 11:35:49.072 - 1A BE B0 DC 03 00 03 00 (继电器地址-西阳天幕, 西阳天幕关)
2025-09-23 11:35:50.121 - 1A BE B0 DC 03 00 03 00 (继电器地址-西阳天幕, 西阳天幕关)
2025-09-23 11:35:51.165 - 09 06 00 0F 02 02 38 20 (提示音咚)
2025-09-23 11:35:51.715 - EE 00 00 B1 00 00 02 FF FC FF FF (情景完成返回主页)
2025-09-23 11:35:51.910 - 55 00 D2 00 00 FE 01 0B AA 55 00 D2 00 00 FE 01 0B AA (书房窗帘电机状态返回)
2025-09-23 11:53:21.462 - 01 04 07 D0 00 06 70 85
2025-09-23 11:53:21.492 - 01 04 0C 70 00 42 02 00 FA 00 00 01 18 00 00 B5 42
2025-09-23 11:53:21.609 - 01 04 07 D6 00 06 90 84
2025-09-23 11:53:21.642 - 01 04 0C 70 00 42 02 00 FA 00 00 01 0E 00 00 54 86
2025-09-23 11:53:21.766 - 01 04 07 DC 00 06 B0 86
2025-09-23 11:53:21.805 - 01 04 0C 50 00 42 02 01 04 00 00 01 0E 00 00 0B 3A
2025-09-23 11:53:21.923 - 01 04 07 E2 00 06 D1 4A
2025-09-23 11:53:21.956 - 01 04 0C 70 00 42 02 00 FA 00 00 01 0E 00 00 54 86
2025-09-23 11:53:22.080 - 01 04 07 E8 00 06 F1 48
2025-09-23 11:53:22.117 - 01 04 0C 70 00 42 02 00 FA 00 00 01 18 00 00 B5 42
2025-09-23 11:54:13.121 - 1A FF FF FF 04 (继电器地址-东阳衣架)
2025-09-23 12:09:11.839 - 1A BE B0 DC 0A FC (继电器地址-客厅纱帘)
2025-09-23 12:09:11.975 - FF
2025-09-23 13:00:41.902 - 1A BE B0 DC 04 FC (继电器地址-西阳窗帘)
2025-09-23 13:00:42.035 - FF
2025-09-23 13:08:52.743 - FF FF FF FF 0A FC (继电器地址-东阳窗帘)
2025-09-23 13:08:52.879 - FF
2025-09-23 14:27:07.344 - 1A BE B0 DC 03 (继电器地址-西阳天幕)
2025-09-23 14:27:07.481 - FF
2025-09-23 14:39:04.253 - 1A BE B0 DC 01 (继电器地址-回水泵点动)
2025-09-23 14:39:04.388 - FF
2025-09-23 14:44:41.685 - 1A BE B0 DC 02 FF (正反转地址-外卫卷帘)
2025-09-23 14:44:41.820 - FF
2025-09-23 14:47:15.617 - FF FF FF FF 0E FE (继电器地址-西阳小窗帘)
2025-09-23 14:47:15.751 - FF
2025-09-23 14:52:36.970 - 1A BE B0 DC 09 FC (继电器地址-客厅窗帘)
2025-09-23 14:52:37.106 - FF
2025-09-23 15:15:14.767 - 1A FF FF FF 04 (继电器地址-东阳衣架)
2025-09-23 15:15:14.902 - FF
2025-09-23 15:29:42.928 - 1A BE B0 DC 0A FC (继电器地址-客厅纱帘)
2025-09-23 15:29:43.062 - FF
2025-09-23 16:20:35.316 - 1A BE B0 DC 04 FC (继电器地址-西阳窗帘)
2025-09-23 16:20:35.451 - FF
2025-09-23 16:29:50.632 - FF FF FF FF 0A FC (继电器地址-东阳窗帘)
2025-09-23 16:29:50.767 - FF
2025-09-23 17:48:00.990 - 1A BE B0 DC 03 (继电器地址-西阳天幕)
2025-09-23 17:48:01.127 - FF
2025-09-23 17:59:55.033 - 1A BE B0 DC 01 FF (继电器地址-回水泵点动)
2025-09-23 17:59:55.166 - FE
2025-09-23 18:05:08.167 - 1A BE B0 DC 02 (正反转地址-外卫卷帘)
2025-09-23 18:07:15.822 - FF FF FF FF 0E (继电器地址-西阳小窗帘)
2025-09-23 18:07:15.959 - FC
2025-09-23 18:12:57.525 - 1A BE B0 DC 09 (继电器地址-客厅窗帘)
2025-09-23 18:36:15.702 - 1A FF FF FF 04 FC (继电器地址-东阳衣架)
2025-09-23 18:36:15.838 - FF
2025-09-23 18:50:14.681 - 1A BE B0 DC 0A (继电器地址-客厅纱帘)
2025-09-23 18:50:14.817 - FC
2025-09-23 19:40:24.837 - 1A BE B0 DC 04 (继电器地址-西阳窗帘)
2025-09-23 19:40:24.973 - FF
2025-09-23 19:48:42.267 - 01 04 07 D0 00 06 70 85
2025-09-23 19:48:42.305 - 01 04 0C 70 00 42 02 00 FA 00 00 01 18 00 00 B5 42
2025-09-23 19:48:42.428 - 01 04 07 D6 00 06 90 84
2025-09-23 19:48:42.466 - 01 04 0C 70 00 42 02 00 FA 00 00 01 18 00 00 B5 42
2025-09-23 19:48:42.587 - 01 04 07 DC 00 06 B0 86
2025-09-23 19:48:42.617 - 01 04 0C 50 00 42 02 01 04 00 00 01 18 00 00 EA FE
2025-09-23 19:48:42.745 - 01 04 07 E2 00 06 D1 4A
2025-09-23 19:48:42.779 - 01 04 0C 70 00 42 02 00 FA 00 00 01 18 00 00 B5 42
2025-09-23 19:48:42.904 - 01 04 07 E8 00 06 F1 48
2025-09-23 19:48:42.940 - 01 04 0C 70 00 42 02 00 FA 00 00 01 18 00 00 B5 42
2025-09-23 19:48:46.299 - 01 06 07 D0 FF 61 09 5F
2025-09-23 19:48:46.355 - 01 06 07 D0 FF 61 09 FF
2025-09-23 19:48:47.519 - 01 04 07 D0 00 06 70 85
2025-09-23 19:48:47.556 - 01 04 0C 70 01 42 02 00 FA 00 00 01 18 00 00 B1 BE
2025-09-23 19:48:50.555 - 01 06 07 D3 FF 61 F9 5F
2025-09-23 19:48:50.586 - 01 06 07 D3 FF 61 F9 5F
2025-09-23 19:48:51.751 - 01 04 07 D6 00 06 90 84
2025-09-23 19:48:51.787 - 01 04 0C 70 01 42 02 00 FA 00 00 01 18 00 00 B1 BE
2025-09-23 19:48:53.875 - 01 06 07 D6 FF 61 E9 5E
2025-09-23 19:48:53.909 - 01 06 07 D6 FF 61 E9 5E
2025-09-23 19:48:55.084 - 01 04 07 DC 00 06 B0 86
2025-09-23 19:48:55.119 - 01 04 0C 50 01 42 02 01 04 00 00 01 18 00 00 EE 02
2025-09-23 19:49:00.976 - 01 06 07 D8 00 FA 88 C6
2025-09-23 19:49:01.007 - 01 06 07 D8 00 FA 88 C6
2025-09-23 19:49:01.748 - 01 06 07 D8 00 F0 08 C1
2025-09-23 19:49:01.776 - 01 06 07 D8 00 F0 08 C1
2025-09-23 19:49:02.199 - 01 04 07 DC 00 06 B0 86
2025-09-23 19:49:02.229 - 01 04 0C 50 01 42 02 00 F0 00 00 01 18 00 00 9A 01
2025-09-23 19:49:02.345 - 01 06 07 D8 00 E6 89 0F
2025-09-23 19:49:02.381 - 01 06 07 D8 00 E6 89 0F
2025-09-23 19:49:02.963 - 01 06 07 D8 00 DC 09 1C 01 04 07 DC 00 06 B0 86
2025-09-23 19:49:02.997 - 01 06 07 D8 00 DC 09 1C
2025-09-23 19:49:03.553 - 01 04 07 DC 00 06 B0 86
2025-09-23 19:49:03.583 - 01 04 0C 50 01 42 02 00 DC 00 00 01 18 00 00 77 C3
2025-09-23 19:49:04.196 - 01 04 07 DC 00 06 B0 86
2025-09-23 19:49:04.228 - 01 04 0C 50 01 42 02 00 DC 00 00 01 18 00 00 77 C3
2025-09-23 19:49:05.864 - 01 04 07 DC 00 06 B0 86
2025-09-23 19:49:05.896 - 01 04 0C 50 01 42 02 00 DC 00 00 01 18 00 00 77 C3
2025-09-23 19:49:07.503 - 01 04 07 DC 00 06 B0 86
2025-09-23 19:49:07.531 - 01 04 0C 50 01 42 02 00 DC 00 00 01 18 00 00 77 C3
2025-09-23 19:49:14.868 - 01 04 07 D0 00 06 70 85
2025-09-23 19:49:14.902 - 01 04 0C 70 01 42 02 00 FA 00 00 01 18 00 00 B1 BE
2025-09-23 19:49:15.028 - 01 04 07 D6 00 06 90 84
2025-09-23 19:49:15.066 - 01 04 0C 70 01 42 02 00 FA 00 00 01 18 00 00 B1 BE
2025-09-23 19:49:15.186 - 01 04 07 DC 00 06 B0 86
2025-09-23 19:49:15.216 - 01 04 0C 50 01 42 02 00 DC 00 00 01 18 00 00 77 C3
2025-09-23 19:49:15.345 - 01 04 07 E2 00 06 D1 4A
2025-09-23 19:49:15.378 - 01 04 0C 70 00 42 02 00 FA 00 00 01 18 00 00 B5 42
2025-09-23 19:49:15.502 - 01 04 07 E8 00 06 F1 48
2025-09-23 19:49:15.540 - 01 04 0C 70 00 42 02 00 FA 00 00 01 18 00 00 B5 42
2025-09-23 19:50:00.826 - FF FF FF FF 0A (继电器地址-东阳窗帘)
2025-09-23 19:50:00.961 - FF
2025-09-23 20:32:48.504 - 1B 03 00 00 00 02 C6 31 (查询室外光线)
2025-09-23 20:32:48.522 - 1B 03 04 00 00 00 00 41 F2 (室外光线返回)
2025-09-23 20:32:49.300 - 1A EC A0 DC 02 00 00 01 0F (自保持开关地址-天花12V供电, 天花12V 供电开)
2025-09-23 20:32:49.879 - 1A AA AA AA 88 (调光器地址-茶吧灯带)
2025-09-23 20:32:50.005 - 1A FF 01 FF FF FF 60 01 FF 60 01 FF 00 00 0F (调光器地址-公共区域统配地址)
2025-09-23 20:32:50.997 - 19 08 24 03 DD 00 0D 00 01 (调用情景-信科调用进门暗)
2025-09-23 20:32:53.054 - 1A FF 01 FF FF FF 60 01 FF 60 01 FF 00 00 0F (调光器地址-公共区域统配地址)
2025-09-23 20:32:55.141 - 1A EC A0 DC 01 00 00 01 0F (自保持开关地址-电视、设备12V供电, 12V 电视供电开)
2025-09-23 20:32:55.690 - 1A EC A0 DC 01 00 00 01 0F (自保持开关地址-电视、设备12V供电, 12V 电视供电开)
2025-09-23 20:32:56.238 - 1A EC A0 DC 04 00 01 01 0F (自保持开关地址-次卧西阳内外卫供电, 内卫外卫开)
2025-09-23 20:32:56.786 - 1A EC A0 DC 04 00 01 01 0F (自保持开关地址-次卧西阳内外卫供电, 内卫外卫开)
2025-09-23 20:32:57.331 - 1A BB BB BB 01 01 00 (开水器电源开)
2025-09-23 20:32:58.878 - 1A 27 89 12 AA 00 00 01 0F (状态寄存器地址, 有人状态)
2025-09-23 20:32:59.426 - 1A 27 89 12 AA 00 00 01 0F (状态寄存器地址, 有人状态)
2025-09-23 20:32:59.974 - 1A BE B0 DC 01 00 01 00 (继电器地址-回水泵点动, 回水泵点动)
2025-09-23 20:33:00.524 - 1A FF FF FF 56 00 00 01 0F (人体感应地址-内卫, 打开内卫感应)
2025-09-23 20:33:00.634 - BF BF
2025-09-23 20:33:01.071 - 1A FF FF FF 55 00 00 01 0F (人体感应地址-外卫, 打开外卫感应)
2025-09-23 20:33:01.179 - BC BC
2025-09-23 20:33:01.619 - 1A FF FF FF 57 00 00 01 0F (人体感应地址-厨房, 打开厨房感应)
2025-09-23 20:33:01.727 - BF BE
2025-09-23 20:33:02.169 - 1A FF FF FF 57 00 00 01 0F (人体感应地址-厨房, 打开厨房感应)
2025-09-23 20:33:02.181 - BC BC
2025-09-23 20:33:02.765 - 1A FF FF FF 58 00 00 01 0F (人体感应地址-茶吧, 打开茶吧感应)
2025-09-23 20:33:02.816 - BC BC
2025-09-23 20:33:03.393 - 1A BE B0 DC 01 00 01 00 (继电器地址-回水泵点动, 回水泵点动)
2025-09-23 20:33:03.960 - A5 00 B7 FF 00 AA 22 0D (书房纱帘关)
2025-09-23 20:33:04.506 - A5 00 A2 FF 00 AA (餐厅纱帘关)
2025-09-23 20:33:05.058 - 09 06 00 0F 02 01 78 21 (提示音叮)
2025-09-23 20:33:05.604 - 09 06 00 0F 02 01 78 21 (提示音叮)
2025-09-23 20:33:06.156 - EE 00 00 B1 00 00 02 FF FC FF FF (情景完成返回主页)
2025-09-23 20:33:06.749 - A1 11 11 11 50 (天花供电打开确认)
2025-09-23 20:33:06.969 - 1A EC A0 DC 02 86 86 86 0F (查询天花供电状态, 自保持开关地址-天花12V供电)
2025-09-23 20:33:07.402 - 1A EC A0 DC 02 01 00 0F (自保持开关地址-天花12V供电)
2025-09-23 20:33:09.289 - A1 11 11 11 51 (卫生供电打开确认)
2025-09-23 20:33:09.516 - 1A EC A0 DC 04 86 86 86 0F (查询卫生间供电状态, 自保持开关地址-次卧西阳内外卫供电)
2025-09-23 20:33:09.947 - 1A EC A0 DC 04 01 01 0F (自保持开关地址-次卧西阳内外卫供电)
2025-09-23 20:33:11.830 - A1 11 11 11 52 (电视供电打开确认)
2025-09-23 20:33:12.052 - 1A EC A0 DC 01 86 86 86 0F (查询电视供电状态, 自保持开关地址-电视、设备12V供电)
2025-09-23 20:33:12.486 - 1A EC A0 DC 01 01 01 0F (自保持开关地址-电视、设备12V供电)
2025-09-23 20:33:16.864 - A1 11 11 11 47 (天热回家开帘)
2025-09-23 20:33:17.086 - 1A 27 89 12 AA 86 86 86 0F (查询寄存器状态, 状态寄存器地址)
2025-09-23 20:33:17.468 - 1A 27 89 12 AA 01 00 00 00 00 00 00 00 00 00 00 01 00 00 00 00 0F (状态寄存器地址)
2025-09-23 20:33:18.090 - 19 08 24 03 DD 00 06 00 01 (调用情景-天热遮阳开帘)
2025-09-23 20:33:18.613 - EE 00 00 B1 00 00 00 FF FC FF FF (情景执行提示)
2025-09-23 20:33:19.211 - 09 06 00 0F 02 01 78 21 (提示音叮)
2025-09-23 20:33:19.756 - A5 00 A6 FE 01 AA (餐厅窗帘开)
2025-09-23 20:33:19.810 - 55 00 A6 02 01 66 01 74 AA 55 00 A6 02 01 66 01 74 AA (餐厅窗帘电机状态返回)
2025-09-23 20:33:20.853 - 55 12 12 03 01 4C 41 (主卧窗帘开)
2025-09-23 20:33:20.894 - 55 12 12 03 01 4C 41 (主卧窗帘开)
2025-09-23 20:33:21.949 - 55 11 1D 03 02 3C 07 (主卧纱帘开)
2025-09-23 20:33:21.991 - 55 11 1D 03 02 3C 07 (主卧纱帘开)
2025-09-23 20:33:23.045 - A5 00 76 FE 01 AA (次卧窗帘开)
2025-09-23 20:33:23.099 - 55 00 76 02 01 0F 01 1B AA 55 00 76 02 01 0F 01 1B AA (次卧窗帘电机状态返回)
2025-09-23 20:33:24.140 - A5 00 21 FE 01 AA (次卧纱帘开)
2025-09-23 20:33:24.197 - 55 00 21 02 01 27 01 34 AA 55 00 21 02 01 27 01 34 (次卧纱帘电机状态返回)
2025-09-23 20:33:24.199 - FF
2025-09-23 20:33:25.239 - 1A BE B0 DC 04 00 01 00 (继电器地址-西阳窗帘, 西阳窗帘开)
2025-09-23 20:33:26.285 - FF FF FF FF 0E 00 01 00 (继电器地址-西阳小窗帘, 西阳小窗帘开)
2025-09-23 20:33:27.332 - A5 00 D2 FE 01 AA 22 0D (书房窗帘开)
2025-09-23 20:33:27.382 - 55 00 D2 02 00 FE 01 0B AA 55 00 D2 02 00 FE 01 0B AA (书房窗帘电机状态返回)
2025-09-23 20:33:28.428 - 09 06 00 0F 02 02 38 20 (提示音咚)
2025-09-23 20:33:28.806 - 55 00 A6 00 00 0E 01 74 AA 55 00 A6 00 00 0E 01 74 AA (餐厅窗帘电机状态返回)
2025-09-23 20:33:29.032 - EE 00 00 B1 00 00 02 FF FC FF FF (情景完成返回主页)
2025-09-23 20:33:30.837 - 55 00 76 00 00 0D 01 1B AA 55 00 76 00 00 0D 01 1B AA (次卧窗帘电机状态返回)
2025-09-23 20:33:31.815 - 55 00 21 00 00 0D 01 34 AA 55 00 21 00 00 0D 01 34 AA (次卧纱帘电机状态返回)
2025-09-23 20:33:35.365 - 55 00 D2 00 00 0E 01 0B AA 55 00 D2 00 00 0E 01 0B AA (书房窗帘电机状态返回)
2025-09-23 20:33:40.243 - 19 08 24 03 CC 01 54 00 01 (调用内卫感应灯开的按键)
2025-09-23 20:33:40.298 - 1A 0C 02 08 01 FF 45 01 FF 45 01 FF 00 00 0F (调光器地址-内卫射灯, 内卫射灯微光)
2025-09-23 20:33:53.945 - 1A 20 07 01 55 00 01 02 0F (自保持开关地址-主卧顶灯, 主卧顶灯开关)
2025-09-23 20:33:56.495 - 1A 20 07 01 55 00 01 02 0F (自保持开关地址-主卧顶灯, 主卧顶灯开关)
2025-09-23 20:33:56.956 - 1A 20 07 01 55 00 01 02 0F (自保持开关地址-主卧顶灯, 主卧顶灯开关)
2025-09-23 20:34:09.301 - 19 08 24 03 CC 01 55 00 01 (调用内卫感应灯关的按键)
2025-09-23 20:34:09.351 - 1A 0C 02 08 01 FF 00 01 FF 00 01 FF 00 00 0F (调光器地址-内卫射灯, 内卫感应灯关)
2025-09-23 20:34:45.900 - 19 08 24 03 CC 01 52 00 01 (调用外卫感应灯开的按键)
2025-09-23 20:34:45.934 - 1A 0D 01 07 01 FF 45 01 FF 45 01 FF 00 00 0F (调光器地址-外卫射灯, 外卫感应灯开)
2025-09-23 20:35:10.949 - 19 08 24 03 CC 01 53 00 01 (调用外卫感应灯关的按键)
2025-09-23 20:35:10.982 - 1A 0D 01 07 01 FF 00 01 FF 00 01 FF 00 00 0F (调光器地址-外卫射灯, 外卫感应灯关)
2025-09-23 20:35:20.020 - 19 08 24 03 CC 00 D4 00 01 (调用厨房感应灯关的按键)
2025-09-23 20:35:20.055 - 55 0A 31 00 00 00 01 91 55 0A 31 00 00 00 02 92 (厨房顶灯一关, 厨房顶灯二关)
2025-09-23 20:37:14.745 - 55 00 A6 00 00 0F 01 74 AA 55 00 A6 00 00 0F 01 74 AA (餐厅窗帘电机状态返回)
2025-09-23 20:37:20.394 - 1A 20 07 01 55 00 01 02 0F (自保持开关地址-主卧顶灯, 主卧顶灯开关)
2025-09-23 20:37:41.185 - 1A 20 07 00 70 00 01 02 0F (自保持开关地址-次卧顶灯, 次卧顶灯开关)
2025-09-23 20:37:42.638 - 1A 20 07 00 70 00 01 02 0F (自保持开关地址-次卧顶灯, 次卧顶灯开关)
2025-09-23 20:37:43.190 - 1A 20 07 00 70 00 01 02 0F (自保持开关地址-次卧顶灯, 次卧顶灯开关)
2025-09-23 20:40:01.304 - 1A AA AA AA 66 00 00 02 0F (调光器地址-东阳筒灯, 东阳筒灯开关)
2025-09-23 20:40:07.558 - 1A AA AA AA 66 00 64 01 00 64 01 0F (调光器地址-东阳筒灯)
2025-09-23 20:40:08.476 - 1A AA AA AA 66 01 0F (调光器地址-东阳筒灯)
2025-09-23 20:43:23.990 - 19 08 24 03 CC 00 D3 00 01 (调用厨房感应灯开的按键)
2025-09-23 20:43:24.045 - 55 0A 32 00 00 00 01 92 55 0A 32 00 00 00 02 93 (厨房顶灯一开, 厨房顶灯二开)
2025-09-23 20:44:52.164 - 19 08 24 03 CC 00 D4 00 01 (调用厨房感应灯关的按键)
2025-09-23 20:44:52.200 - 55 0A 31 00 00 00 01 91 55 0A 31 00 00 00 02 92 (厨房顶灯一关, 厨房顶灯二关)
2025-09-23 20:45:15.285 - 19 08 24 03 CC 01 CC 00 01 (调用茶吧感应灯开的按键)
2025-09-23 20:45:15.314 - 1A AA AA AA 88 FF B0 01 FF B0 01 0F (调光器地址-茶吧灯带, 茶吧灯带明亮)
2025-09-23 20:45:16.713 - 19 08 24 03 CC 00 D3 00 01 (调用厨房感应灯开的按键)
2025-09-23 20:45:16.748 - 55 0A 32 00 00 00 01 92 55 0A 32 00 00 00 02 93 (厨房顶灯一开, 厨房顶灯二开)
2025-09-23 20:45:41.837 - 19 08 24 03 CC 01 CD 00 01 (调用茶吧感应灯关的按键)
2025-09-23 20:45:41.867 - 1A AA AA AA 88 FF 00 01 FF 00 01 0F (调光器地址-茶吧灯带, 茶吧灯带关闭)
2025-09-23 20:45:56.867 - 19 08 24 03 CC 01 CC 00 01 (调用茶吧感应灯开的按键)
2025-09-23 20:45:56.899 - 1A AA AA AA 88 FF B0 01 FF B0 01 0F (调光器地址-茶吧灯带, 茶吧灯带明亮)
2025-09-23 20:46:09.391 - 19 08 24 03 CC 01 CD 00 01 (调用茶吧感应灯关的按键)
2025-09-23 20:46:09.422 - 1A AA AA AA 88 FF 00 01 FF 00 01 0F (调光器地址-茶吧灯带, 茶吧灯带关闭)
2025-09-23 20:46:20.913 - 19 08 24 03 CC 01 CC 00 01 (调用茶吧感应灯开的按键)
2025-09-23 20:46:20.944 - 1A AA AA AA 88 FF B0 01 FF B0 01 0F (调光器地址-茶吧灯带, 茶吧灯带明亮)
2025-09-23 20:46:32.862 - 19 08 24 03 CC 00 D4 00 01 (调用厨房感应灯关的按键)
2025-09-23 20:46:32.898 - 55 0A 31 00 00 00 01 91 55 0A 31 00 00 00 02 92 (厨房顶灯一关, 厨房顶灯二关)
2025-09-23 20:46:56.985 - 19 08 24 03 CC 01 CD 00 01 (调用茶吧感应灯关的按键)
2025-09-23 20:46:57.015 - 1A AA AA AA 88 FF 00 01 FF 00 01 0F (调光器地址-茶吧灯带, 茶吧灯带关闭)
2025-09-23 20:47:49.013 - 19 08 24 03 CC 00 D3 00 01 (调用厨房感应灯开的按键)
2025-09-23 20:47:49.047 - 55 0A 32 00 00 00 01 92 55 0A 32 00 00 00 02 93 (厨房顶灯一开, 厨房顶灯二开)
2025-09-23 20:49:46.744 - 19 08 24 03 CC 00 D4 00 01 (调用厨房感应灯关的按键)
2025-09-23 20:49:46.778 - 55 0A 31 00 00 00 01 91 55 0A 31 00 00 00 02 92 (厨房顶灯一关, 厨房顶灯二关)
2025-09-23 20:52:20.046 - 19 08 24 03 CC 00 D3 00 01 (调用厨房感应灯开的按键)
2025-09-23 20:52:20.080 - 55 0A 32 00 00 00 01 92 55 0A 32 00 00 00 02 93 (厨房顶灯一开, 厨房顶灯二开)
2025-09-23 20:53:00.625 - 19 08 24 03 CC 00 D4 00 01 (调用厨房感应灯关的按键)
2025-09-23 20:53:00.661 - 55 0A 31 00 00 00 01 91 55 0A 31 00 00 00 02 92 (厨房顶灯一关, 厨房顶灯二关)
2025-09-23 20:53:48.872 - A1 11 11 11 43 (次卧空调自动开)
2025-09-23 20:53:49.103 - 19 08 24 03 F0 BB 78 02 02 00
2025-09-23 20:53:49.155 - 23 AA 56 02 14 36 05 19 09 17 02 73 65 6F 6B 65 6E 64
2025-09-23 20:53:50.111 - 01 10 07 D9 00 03 06 70 61 00 02 00 FA BF 09 (次卧空调冷25度)
2025-09-23 20:53:50.150 - 01 10 07 D9 00 03 06 70 61 00 02 00 FA BF 09 (次卧空调冷25度)
2025-09-23 20:53:56.365 - 1A 20 07 01 55 00 01 02 0F (自保持开关地址-主卧顶灯, 主卧顶灯开关)
2025-09-23 20:53:57.390 - 1A 20 07 01 55 00 01 02 0F (自保持开关地址-主卧顶灯, 主卧顶灯开关)
2025-09-23 20:53:58.012 - 1A 20 07 01 55 00 01 02 0F (自保持开关地址-主卧顶灯, 主卧顶灯开关)
2025-09-23 20:57:02.133 - 19 08 24 03 DD 00 28 00 01 (调用情景-离开次卧)
2025-09-23 20:57:02.647 - EE 00 00 B1 00 00 00 FF FC FF FF (情景执行提示)
2025-09-23 20:57:03.241 - 09 06 00 0F 02 01 78 21 (提示音叮)
2025-09-23 20:57:03.785 - 50 F5 06 (关次卧影视)
2025-09-23 20:57:04.338 - 01 06 07 D9 FF 60 18 9D (次卧空调关)
2025-09-23 20:57:04.366 - 01 06 07 D9 FF 60 18 9D (次卧空调关)
2025-09-23 20:57:04.933 - A5 00 76 FE 01 AA (次卧窗帘开)
2025-09-23 20:57:05.979 - A5 00 21 FE 01 AA (次卧纱帘开)
2025-09-23 20:57:07.033 - 1A 20 07 00 70 00 01 00 0F (自保持开关地址-次卧顶灯, 次卧顶灯只关)
2025-09-23 20:57:07.584 - 1A 0E 03 05 FF FF 00 01 FF 00 01 FF 00 00 0F (调光器地址-次卧调光统配符, 次卧调光全关)
2025-09-23 20:57:08.175 - 09 06 00 0F 02 02 38 20 (提示音咚)
2025-09-23 20:57:10.220 - EE 00 00 B1 00 00 02 FF FC FF FF (情景完成返回主页)
2025-09-23 21:04:47.606 - 19 08 24 03 CC 01 CC 00 01 (调用茶吧感应灯开的按键)
2025-09-23 21:04:47.652 - 1A AA AA AA 88 FF B0 01 FF B0 01 0F (调光器地址-茶吧灯带, 茶吧灯带明亮)
2025-09-23 21:05:00.041 - 19 08 24 03 CC 00 D3 00 01 (调用厨房感应灯开的按键)
2025-09-23 21:05:00.077 - 55 0A 32 00 00 00 01 92 55 0A 32 00 00 00 02 93 (厨房顶灯一开, 厨房顶灯二开)
2025-09-23 21:05:18.665 - 19 08 24 03 CC 01 CD 00 01 (调用茶吧感应灯关的按键)
2025-09-23 21:05:18.697 - 1A AA AA AA 88 FF 00 01 FF 00 01 0F (调光器地址-茶吧灯带, 茶吧灯带关闭)
2025-09-23 21:06:18.195 - 19 08 24 03 CC 00 D4 00 01 (调用厨房感应灯关的按键)
2025-09-23 21:06:18.229 - 55 0A 31 00 00 00 01 91 55 0A 31 00 00 00 02 92 (厨房顶灯一关, 厨房顶灯二关)
2025-09-23 21:06:26.300 - 19 08 24 03 CC 01 CC 00 01 (调用茶吧感应灯开的按键)
2025-09-23 21:06:26.330 - 1A AA AA AA 88 FF B0 01 FF B0 01 0F (调光器地址-茶吧灯带, 茶吧灯带明亮)
2025-09-23 21:06:35.316 - 19 08 24 03 CC 01 CD 00 01 (调用茶吧感应灯关的按键)
2025-09-23 21:06:35.348 - 1A AA AA AA 88 FF 00 01 FF 00 01 0F (调光器地址-茶吧灯带, 茶吧灯带关闭)
2025-09-23 21:08:36.054 - 19 08 24 03 CC 01 CC 00 01 (调用茶吧感应灯开的按键)
2025-09-23 21:08:36.085 - 1A AA AA AA 88 FF B0 01 FF B0 01 0F (调光器地址-茶吧灯带, 茶吧灯带明亮)
2025-09-23 21:08:38.470 - 19 08 24 03 CC 00 D3 00 01 (调用厨房感应灯开的按键)
2025-09-23 21:08:38.506 - 55 0A 32 00 00 00 01 92 55 0A 32 00 00 00 02 93 (厨房顶灯一开, 厨房顶灯二开)
2025-09-23 21:08:53.519 - 1A BE B0 DC 03 FC (继电器地址-西阳天幕)
2025-09-23 21:08:53.653 - FF
2025-09-23 21:08:58.601 - 19 08 24 03 CC 01 CD 00 01 (调用茶吧感应灯关的按键)
2025-09-23 21:08:58.650 - 1A AA AA AA 88 FF 00 01 FF 00 01 0F (调光器地址-茶吧灯带, 茶吧灯带关闭)
2025-09-23 21:09:36.585 - 19 08 24 03 CC 00 D4 00 01 (调用厨房感应灯关的按键)
2025-09-23 21:09:36.638 - 55 0A 31 00 00 00 01 91 55 0A 31 00 00 00 02 92 (厨房顶灯一关, 厨房顶灯二关)
2025-09-23 21:09:56.452 - 19 08 24 03 DD 00 42 00 01 (调用情景-主卧电视空调)
2025-09-23 21:09:56.997 - EE 00 00 B1 00 00 00 FF FC FF FF (情景执行提示)
2025-09-23 21:09:57.593 - 09 06 00 0F 02 01 78 21 (提示音叮)
2025-09-23 21:09:58.185 - 50 F0 05 (开主卧影视)
2025-09-23 21:09:59.232 - 50 F0 04 (开内卫影视)
2025-09-23 21:09:59.785 - 1A FF FF FF 56 00 00 00 0F (人体感应地址-内卫, 关闭内卫感应)
2025-09-23 21:09:59.900 - BF BF
2025-09-23 21:10:00.335 - 1A 22 33 62 0F 00 02 01 0F (正反转地址-内卫卷帘, 内卫卷帘降)
2025-09-23 21:10:00.881 - 55 11 1D 03 01 7C 06 (主卧纱帘关)
2025-09-23 21:10:00.926 - 55 11 1D 03 01 7C 06 (主卧纱帘关)
2025-09-23 21:10:01.977 - 55 12 12 03 02 0C 40 (主卧窗帘关)
2025-09-23 21:10:02.016 - 55 12 12 03 02 0C 40 (主卧窗帘关)
2025-09-23 21:10:03.082 - 1A 0C 02 04 FF FF 45 01 FF 45 01 FF 00 00 0F (主卧调光微光)
2025-09-23 21:10:07.167 - 1A 0C 02 08 01 FF 45 01 FF 45 01 FF 00 00 0F (调光器地址-内卫射灯, 内卫射灯微光)
2025-09-23 21:10:07.752 - 50 F1 25 (主卧—有线2)
2025-09-23 21:10:08.302 - A1 11 11 11 42 (主卧空调自动开)
2025-09-23 21:10:08.535 - 19 08 24 03 F0 BB 78 02 02 00
2025-09-23 21:10:08.584 - 23 AA 56 02 15 0A 18 19 09 17 02 73 65 6F 6B 65 6E 64
2025-09-23 21:10:08.781 - 01 04 07 D0 00 06 70 85
2025-09-23 21:10:08.820 - 01 04 0C 70 01 42 02 00 FA 00 00 01 04 00 00 70 78
2025-09-23 21:10:08.869 - 50 F1 24 (内卫—有线2)
2025-09-23 21:10:08.935 - 01 04 07 D6 00 06 90 84
2025-09-23 21:10:08.972 - 01 04 0C 70 01 42 02 00 FA 00 00 01 0E 00 00 50 7A
2025-09-23 21:10:09.095 - 01 04 07 DC 00 06 B0 86
2025-09-23 21:10:09.123 - 01 04 0C 50 01 42 02 00 DC 00 00 01 04 00 00 B6 05
2025-09-23 21:10:09.251 - 01 04 07 E2 00 06 D1 4A
2025-09-23 21:10:09.285 - 01 04 0C 70 00 42 02 00 FA 00 00 01 0E 00 00 54 86
2025-09-23 21:10:09.409 - 01 04 07 E8 00 06 F1 48
2025-09-23 21:10:09.447 - 01 04 0C 70 00 42 02 00 FA 00 00 01 0E 00 00 54 86
2025-09-23 21:10:10.945 - AF BF CF DF C2 21 (有线2/快捷-凤凰卫视)
2025-09-23 21:10:12.990 - 1A FF FF FF 60 0B 01 01 0F (红外总线地址-主卧发射设备, 主卧电视电源)
2025-09-23 21:10:13.505 - F0 0B 01 08
2025-09-23 21:10:21.016 - 09 06 00 0F 02 02 38 20 (提示音咚)
2025-09-23 21:10:21.567 - EE 00 00 B1 00 00 02 FF FC FF FF (情景完成返回主页)
2025-09-23 21:10:27.834 - 1A 20 07 01 55 00 01 02 0F (自保持开关地址-主卧顶灯, 主卧顶灯开关)
2025-09-23 21:10:31.205 - 01 04 07 D0 00 06 70 85
2025-09-23 21:10:31.239 - 01 04 0C 70 01 42 02 00 FA 00 00 01 04 00 00 70 78
2025-09-23 21:10:31.356 - 01 04 07 D6 00 06 90 84
2025-09-23 21:10:31.391 - 01 04 0C 70 01 42 02 00 FA 00 00 01 0E 00 00 50 7A
2025-09-23 21:10:31.515 - 01 04 07 DC 00 06 B0 86
2025-09-23 21:10:31.553 - 01 04 0C 50 01 42 02 00 DC 00 00 01 04 00 00 B6 05
2025-09-23 21:10:31.672 - 01 04 07 E2 00 06 D1 4A
2025-09-23 21:10:31.705 - 01 04 0C 70 00 42 02 00 FA 00 00 01 0E 00 00 54 86
2025-09-23 21:10:31.832 - 01 04 07 E8 00 06 F1 48
2025-09-23 21:10:31.866 - 01 04 0C 70 00 42 02 00 FA 00 00 01 0E 00 00 54 86
2025-09-23 21:17:12.482 - 19 08 24 03 CC 00 D3 00 01 (调用厨房感应灯开的按键)
2025-09-23 21:17:12.535 - 55 0A 32 00 00 00 01 92 55 0A 32 00 00 00 02 93 (厨房顶灯一开, 厨房顶灯二开)
2025-09-23 21:18:44.162 - 19 08 24 03 CC 00 D4 00 01 (调用厨房感应灯关的按键)
2025-09-23 21:18:44.200 - 55 0A 31 00 00 00 01 91 55 0A 31 00 00 00 02 92 (厨房顶灯一关, 厨房顶灯二关)
2025-09-23 21:21:19.458 - 1A BE B0 DC 01 (继电器地址-回水泵点动)
2025-09-23 21:21:19.593 - FF
2025-09-23 21:21:47.523 - 19 08 24 03 CC 00 D3 00 01 (调用厨房感应灯开的按键)
2025-09-23 21:21:47.576 - 55 0A 32 00 00 00 01 92 55 0A 32 00 00 00 02 93 (厨房顶灯一开, 厨房顶灯二开)
2025-09-23 21:22:44.636 - 19 08 24 03 CC 00 D4 00 01 (调用厨房感应灯关的按键)
2025-09-23 21:22:44.689 - 55 0A 31 00 00 00 01 91 55 0A 31 00 00 00 02 92 (厨房顶灯一关, 厨房顶灯二关)
2025-09-23 21:24:51.196 - 19 08 24 03 DD 00 1B 00 01 (调用情景-外卫使用)
2025-09-23 21:24:51.716 - EE 00 00 B1 00 00 00 FF FC FF FF (情景执行提示)
2025-09-23 21:24:52.312 - 09 06 00 0F 02 01 78 21 (提示音叮)
2025-09-23 21:24:52.883 - 50 F0 03 (开外卫影视)
2025-09-23 21:24:53.458 - 1A FF FF FF 55 00 00 00 0F (人体感应地址-外卫, 关闭外卫感应)
2025-09-23 21:24:53.567 - BF BF
2025-09-23 21:24:54.014 - 1A 0D 01 07 01 FF 45 01 FF 45 01 FF 00 00 0F (调光器地址-外卫射灯, 外卫感应灯开)
2025-09-23 21:24:56.099 - 1A BE B0 DC 01 00 01 00 (继电器地址-回水泵点动, 回水泵点动)
2025-09-23 21:24:57.146 - 1A BE B0 DC 01 00 01 00 (继电器地址-回水泵点动, 回水泵点动)
2025-09-23 21:24:58.192 - 1A BE B0 DC 01 00 01 00 (继电器地址-回水泵点动, 回水泵点动)
2025-09-23 21:24:59.238 - 50 F1 43 (外卫—CH4)
2025-09-23 21:25:16.233 - A1 11 11 11 11 05 (外卫使用浴霸判断)
2025-09-23 21:25:16.466 - 13 03 00 00 00 02 C7 79 (查询外卫温湿度)
2025-09-23 21:25:16.485 - 13 03 04 01 B9 01 08 18 7D (外卫温湿度返回)
2025-09-23 21:25:18.279 - 09 06 00 0F 02 02 38 20 (提示音咚)
2025-09-23 21:25:20.325 - EE 00 00 B1 00 00 02 FF FC FF FF (情景完成返回主页)
2025-09-23 21:25:54.008 - 19 08 24 03 CC 00 D3 00 01 (调用厨房感应灯开的按键)
2025-09-23 21:25:54.063 - 55 0A 32 00 00 00 01 92 55 0A 32 00 00 00 02 93 (厨房顶灯一开, 厨房顶灯二开)
2025-09-23 21:27:15.012 - 1A BE B0 DC 02 (正反转地址-外卫卷帘)
2025-09-23 21:27:15.147 - FF
2025-09-23 21:29:13.890 - FF FF FF FF 0E FC (继电器地址-西阳小窗帘)
2025-09-23 21:29:14.023 - FC
2025-09-23 21:35:13.002 - 1A BE B0 DC 09 (继电器地址-客厅窗帘)
2025-09-23 21:36:10.648 - 19 08 24 03 DD 00 1C 00 01 (调用情景-外卫使用完毕)
2025-09-23 21:36:11.187 - EE 00 00 B1 00 00 00 FF FC FF FF (情景执行提示)
2025-09-23 21:36:11.780 - 09 06 00 0F 02 01 78 21 (提示音叮)
2025-09-23 21:36:12.336 - 1A 0D 01 07 01 FF 00 01 FF 00 01 FF 00 00 0F (调光器地址-外卫射灯, 外卫感应灯关)
2025-09-23 21:36:12.951 - 50 F5 03 (关外卫影视)
2025-09-23 21:36:13.526 - 1A 20 07 00 42 00 01 00 0F (自保持开关地址-外卫顶灯, 外卫顶灯关)
2025-09-23 21:36:14.075 - 1A FF FF FF 55 00 00 01 0F (人体感应地址-外卫, 打开外卫感应)
2025-09-23 21:36:14.146 - BC BC
2025-09-23 21:36:14.453 - 19 08 24 03 CC 01 52 00 01 (调用外卫感应灯开的按键)
2025-09-23 21:36:14.506 - 1A 0D 01 07 01 FF 45 01 FF 45 01 FF 00 00 0F (调光器地址-外卫射灯, 外卫感应灯开)
2025-09-23 21:36:16.887 - 09 06 00 0F 02 02 38 20 (提示音咚)
2025-09-23 21:36:17.439 - EE 00 00 B1 00 00 02 FF FC FF FF (情景完成返回主页)
2025-09-23 21:36:26.677 - 19 08 24 03 CC 01 53 00 01 (调用外卫感应灯关的按键)
2025-09-23 21:36:26.711 - 1A 0D 01 07 01 FF 00 01 FF 00 01 FF 00 00 0F (调光器地址-外卫射灯, 外卫感应灯关)
2025-09-23 21:37:01.925 - 19 08 24 03 CC 01 CC 00 01 (调用茶吧感应灯开的按键)
2025-09-23 21:37:01.955 - 1A AA AA AA 88 FF B0 01 FF B0 01 0F (调光器地址-茶吧灯带, 茶吧灯带明亮)
2025-09-23 21:37:13.949 - 19 08 24 03 CC 01 CD 00 01 (调用茶吧感应灯关的按键)
2025-09-23 21:37:13.979 - 1A AA AA AA 88 FF 00 01 FF 00 01 0F (调光器地址-茶吧灯带, 茶吧灯带关闭)
2025-09-23 21:37:25.473 - 19 08 24 03 CC 01 CC 00 01 (调用茶吧感应灯开的按键)
2025-09-23 21:37:25.501 - 1A AA AA AA 88 FF B0 01 FF B0 01 0F (调光器地址-茶吧灯带, 茶吧灯带明亮)
2025-09-23 21:37:46.512 - 19 08 24 03 CC 01 CD 00 01 (调用茶吧感应灯关的按键)
2025-09-23 21:37:46.544 - 1A AA AA AA 88 FF 00 01 FF 00 01 0F (调光器地址-茶吧灯带, 茶吧灯带关闭)
2025-09-23 21:38:06.451 - 19 08 24 03 CC 00 D4 00 01 (调用厨房感应灯关的按键)
2025-09-23 21:38:06.486 - 55 0A 31 00 00 00 01 91 55 0A 31 00 00 00 02 92 (厨房顶灯一关, 厨房顶灯二关)
2025-09-23 21:38:39.516 - 19 08 24 03 CC 00 D3 00 01 (调用厨房感应灯开的按键)
2025-09-23 21:38:39.549 - 55 0A 32 00 00 00 01 92 55 0A 32 00 00 00 02 93 (厨房顶灯一开, 厨房顶灯二开)
