2024-09-10 07:30:40.905 - 19 08 24 03 DD 00 00 00 01 (调用情景-离家（末）)
2024-09-10 07:30:41.411 - EE 00 00 B1 00 00 00 FF FC FF FF (情景执行提示)
2024-09-10 07:30:42.006 - 09 06 00 0F 02 02 38 20 (提示音咚)
2024-09-10 07:30:42.598 - 50 F7 01 (全屋影音全关)
2024-09-10 07:30:43.151 - 01 06 07 D0 FF 60 C8 9F (客厅空调关)
2024-09-10 07:30:43.188 - 01 06 07 D0 FF 60 C8 9F (客厅空调关)
2024-09-10 07:30:43.750 - 01 06 07 D0 FF 60 C8 9F (客厅空调关)
2024-09-10 07:30:43.784 - 01 06 07 D0 FF 60 C8 9F (客厅空调关)
2024-09-10 07:30:44.349 - 01 06 07 D3 FF 60 38 9F (餐厅空调关)
2024-09-10 07:30:44.379 - 01 06 07 D3 FF 60 38 9F (餐厅空调关)
2024-09-10 07:30:44.947 - 01 06 07 D3 FF 60 38 9F (餐厅空调关)
2024-09-10 07:30:44.975 - 01 06 07 D3 FF 60 38 9F (餐厅空调关)
2024-09-10 07:30:45.545 - 01 06 07 D6 FF 60 28 9E (主卧空调关)
2024-09-10 07:30:45.571 - 01 06 07 D6 FF 60 28 9E (主卧空调关)
2024-09-10 07:30:46.142 - 01 06 07 D6 FF 60 28 9E (主卧空调关)
2024-09-10 07:30:46.690 - 01 06 07 D9 FF 60 18 9D (次卧空调关)
2024-09-10 07:30:46.723 - 01 06 07 D9 FF 60 18 9D (次卧空调关)
2024-09-10 07:30:47.319 - 01 06 07 D9 FF 60 18 9D (次卧空调关)
2024-09-10 07:30:47.348 - 01 06 07 D9 FF 60 18 9D (次卧空调关)
2024-09-10 07:30:47.886 - 01 06 07 DC FF 60 08 9C (书房空调关)
2024-09-10 07:30:47.914 - 01 06 07 DC FF 60 08 9C (书房空调关)
2024-09-10 07:30:48.485 - 01 06 07 DC FF 60 08 9C (书房空调关)
2024-09-10 07:30:48.520 - 01 06 07 DC FF 60 08 9C (书房空调关)
2024-09-10 07:30:49.082 - 09 06 00 0F 02 02 38 20 (提示音咚)
2024-09-10 07:30:49.631 - 1A FF FF FF 56 00 00 00 0F (人体感应地址-内卫, 关闭内卫感应)
2024-09-10 07:30:50.179 - 1A FF FF FF 55 00 00 00 0F (人体感应地址-外卫, 关闭外卫感应)
2024-09-10 07:30:50.276 - BC BC
2024-09-10 07:30:50.739 - 1A FF FF FF 57 00 00 00 0F (人体感应地址-厨房, 关闭厨房感应)
2024-09-10 07:30:51.325 - 1A FF FF FF 58 00 00 00 0F (人体感应地址-茶吧, 关闭茶吧感应)
2024-09-10 07:30:51.375 - BC BC
2024-09-10 07:30:51.923 - 1A 20 07 00 93 00 01 00 0F (自保持开关地址-设备区顶, 设备区顶灯关)
2024-09-10 07:30:52.970 - 1A 20 07 01 40 00 01 00 0F (自保持开关地址-内卫顶灯, 内卫顶灯关)
2024-09-10 07:30:54.016 - 1A 20 07 01 55 00 01 00 0F (自保持开关地址-主卧顶灯, 主卧顶灯只关)
2024-09-10 07:30:55.061 - 1A 20 07 00 42 00 01 00 0F (自保持开关地址-外卫顶灯, 外卫顶灯关)
2024-09-10 07:30:56.108 - 55 0D 31 00 00 00 01 94 (书房顶灯只关)
2024-09-10 07:30:57.154 - 55 0A 31 00 00 00 01 91 (厨房顶灯一关)
2024-09-10 07:30:58.200 - 55 0A 31 00 00 00 02 92 (厨房顶灯二关)
2024-09-10 07:30:59.246 - 55 0B 31 00 00 00 01 92 (厨房风扇只关)
2024-09-10 07:31:00.293 - 55 0C 31 00 00 00 01 93 (餐厅顶灯关)
2024-09-10 07:31:01.342 - 1A 20 07 01 30 00 01 00 0F (自保持开关地址-西阳顶灯, 西阳顶灯关)
2024-09-10 07:31:02.387 - 1A 18 05 21 89 00 01 00 0F (自保持开关地址-客厅顶灯, 客厅顶灯一关)
2024-09-10 07:31:03.434 - 1A 18 05 01 94 00 01 00 0F (自保持开关地址-客厅顶灯, 客厅顶灯二关)
2024-09-10 07:31:04.479 - 1A 20 07 00 70 00 01 00 0F (自保持开关地址-次卧顶灯, 次卧顶灯只关)
2024-09-10 07:31:05.526 - 1A 18 05 10 31 00 01 00 0F (自保持开关地址-门厅顶灯, 门厅顶灯关)
2024-09-10 07:31:06.573 - 1A FF FF FF 04 00 03 02 (继电器地址-东阳衣架, 东阳衣架照明关)
2024-09-10 07:31:07.120 - 09 06 00 0F 02 02 38 20 (提示音咚)
2024-09-10 07:31:07.716 - A5 00 A6 FE 01 AA (餐厅窗帘开)
2024-09-10 07:31:07.772 - 55 00 A6 02 01 66 01 74 AA 55 00 A6 02 01 66 01 74 AA (餐厅窗帘电机状态返回)
2024-09-10 07:31:08.316 - FF FF FF FF 0A 00 01 00 (继电器地址-东阳窗帘, 东阳窗帘开)
2024-09-10 07:31:08.864 - 1A BE B0 DC 04 00 01 00 (继电器地址-西阳窗帘, 西阳窗帘开)
2024-09-10 07:31:09.413 - FF FF FF FF 0E 00 01 00 (继电器地址-西阳小窗帘, 西阳小窗帘开)
2024-09-10 07:31:09.961 - 1A 22 33 62 0F 00 00 01 0F (正反转地址-内卫卷帘, 内卫卷帘升)
2024-09-10 07:31:10.506 - A5 00 52 FE 01 AA (主卧窗帘开)
2024-09-10 07:31:11.055 - A5 00 53 FF 00 AA (主卧纱帘开)
2024-09-10 07:31:11.602 - A5 00 76 FE 01 AA (次卧窗帘开)
2024-09-10 07:31:12.151 - A5 00 21 FE 01 AA (次卧纱帘开)
2024-09-10 07:31:12.700 - A5 00 D2 FE 01 AA 22 0D (书房窗帘开)
2024-09-10 07:31:12.749 - 55 00 D2 02 00 FE 01 0B AA 55 00 D2 02 00 FE 01 0B AA (书房窗帘电机状态返回)
2024-09-10 07:31:13.299 - 1A BE B0 DC 09 00 01 00 (继电器地址-客厅窗帘, 客厅窗帘开)
2024-09-10 07:31:13.847 - 1A BE B0 DC 0A 00 02 00 (继电器地址-客厅纱帘, 客厅纱帘开)
2024-09-10 07:31:14.395 - 09 06 00 0F 02 02 38 20 (提示音咚)
2024-09-10 07:31:15.443 - 1A EC A0 DC 02 00 00 00 0F (自保持开关地址-天花12V供电, 天花12V 供电关)
2024-09-10 07:31:15.990 - 1A EC A0 DC 02 00 00 00 0F (自保持开关地址-天花12V供电, 天花12V 供电关)
2024-09-10 07:31:16.539 - 1A EC A0 DC 01 00 00 00 0F (自保持开关地址-电视、设备12V供电, 12V 电视供电关)
2024-09-10 07:31:16.738 - 55 00 A6 00 00 0E 01 74 AA 55 00 A6 00 00 0E 01 74 AA (餐厅窗帘电机状态返回)
2024-09-10 07:31:17.138 - 1A EC A0 DC 01 00 00 00 0F (自保持开关地址-电视、设备12V供电, 12V 电视供电关)
2024-09-10 07:31:17.684 - 1A EC A0 DC 04 00 01 00 0F (自保持开关地址-次卧西阳内外卫供电, 内卫外卫关)
2024-09-10 07:31:18.283 - 1A EC A0 DC 04 00 01 00 0F (自保持开关地址-次卧西阳内外卫供电, 内卫外卫关)
2024-09-10 07:31:19.856 - 1A BB BB BB 01 02 00 (开水器电源关)
2024-09-10 07:31:20.843 - 55 00 D2 00 00 0D 01 0B AA 55 00 D2 00 00 0D 01 0B AA (书房窗帘电机状态返回)
2024-09-10 07:31:32.875 - 09 06 00 0F 02 02 38 20 (提示音咚)
2024-09-10 07:31:33.473 - 1A 27 89 12 AA 00 00 00 0F (状态寄存器地址, 无人状态)
2024-09-10 07:31:34.022 - 1A 27 89 12 AA 00 00 00 0F (状态寄存器地址, 无人状态)
2024-09-10 07:31:34.566 - A1 11 11 11 4D (天花供电关闭确认)
2024-09-10 07:31:34.792 - 1A EC A0 DC 02 86 86 86 0F (查询天花供电状态, 自保持开关地址-天花12V供电)
2024-09-10 07:31:35.226 - 1A EC A0 DC 02 00 01 0F (自保持开关地址-天花12V供电)
2024-09-10 07:31:37.605 - A1 11 11 11 4E (卫生供电关闭确认)
2024-09-10 07:31:37.831 - 1A EC A0 DC 04 86 86 86 0F (查询卫生间供电状态, 自保持开关地址-次卧西阳内外卫供电)
2024-09-10 07:31:38.264 - 1A EC A0 DC 04 01 00 0F (自保持开关地址-次卧西阳内外卫供电)
2024-09-10 07:31:40.645 - A1 11 11 11 4F (电视供电关闭确认)
2024-09-10 07:31:40.870 - 1A EC A0 DC 01 86 86 86 0F (查询电视供电状态, 自保持开关地址-电视、设备12V供电)
2024-09-10 07:31:41.302 - 1A EC A0 DC 01 00 01 0F (自保持开关地址-电视、设备12V供电)
2024-09-10 07:31:43.688 - 09 06 00 0F 02 02 38 20 (提示音咚)
2024-09-10 07:31:44.235 - 09 06 00 0F 02 02 38 20 (提示音咚)
2024-09-10 07:31:44.787 - EE 00 00 B1 00 00 02 FF FC FF FF (情景完成返回主页)
2024-09-10 07:31:45.877 - BA BA EE EE BA BA (离家设置信科变量)
2024-09-10 07:31:46.923 - A1 11 11 11 46 (天热离家遮阳)
2024-09-10 07:31:47.148 - 1A 27 89 12 AA 86 86 86 0F (查询寄存器状态, 状态寄存器地址)
2024-09-10 07:31:47.533 - 1A 27 89 12 AA 00 00 00 00 00 00 00 00 00 00 00 01 00 00 00 00 0F (状态寄存器地址)
2024-09-10 07:31:48.154 - 19 08 24 03 DD 00 05 00 01 (调用情景-天热遮阳关帘)
2024-09-10 07:31:48.724 - EE 00 00 B1 00 00 00 FF FC FF FF (情景执行提示)
2024-09-10 07:31:49.318 - 09 06 00 0F 02 01 78 21 (提示音叮)
2024-09-10 07:31:49.913 - A5 00 A2 FF 00 AA (餐厅纱帘关)
2024-09-10 07:31:50.960 - A5 00 A6 FF 00 AA (餐厅窗帘关)
2024-09-10 07:31:51.016 - 55 00 A6 01 00 0E 01 74 AA 55 00 A6 01 00 0E (餐厅窗帘电机状态返回)
2024-09-10 07:31:52.056 - A5 00 53 FE 01 AA (主卧纱帘关)
2024-09-10 07:31:52.108 - 55 00 53 02 02 23 02 30 AA 55 00 53 02 02 23 02 30 AA (主卧纱帘电机状态返回)
2024-09-10 07:31:53.152 - A5 00 52 FF 00 AA (主卧窗帘关)
2024-09-10 07:31:54.199 - A5 00 21 FF 00 AA (次卧纱帘关)
2024-09-10 07:31:54.257 - 55 00 21 01 00 0D 01 34 AA 55 00 21 01 00 0D 01 34 EA (次卧纱帘电机状态返回)
2024-09-10 07:31:55.295 - A5 00 76 FF 00 AA (次卧窗帘关)
2024-09-10 07:31:55.345 - 55 00 76 01 00 0E 01 1B AA 55 00 76 01 00 0E 01 1B AA (次卧窗帘电机状态返回)
2024-09-10 07:31:56.394 - A5 00 B7 FF 00 AA 22 0D (书房纱帘关)
2024-09-10 07:31:57.439 - A5 00 D2 FF 00 AA 22 0C (书房窗帘关)
2024-09-10 07:31:57.490 - 55 00 D2 01 00 0D 01 0B AA 55 00 D2 01 00 0D 01 0B AA (书房窗帘电机状态返回)
2024-09-10 07:31:59.036 - 1A 22 33 62 5E 00 02 01 0F (正反转地址-厨房卷帘三, 厨房卷帘一降)
2024-09-10 07:31:59.479 - 55 00 A6 00 01 66 01 74 AA 55 00 A6 00 01 66 01 74 AA (餐厅窗帘电机状态返回)
2024-09-10 07:32:00.132 - 1A 22 33 62 56 00 02 01 0F (正反转地址-厨房卷帘二, 厨房卷帘二降)
2024-09-10 07:32:01.227 - 1A 22 33 62 4F 00 00 01 0F (正反转地址-厨房卷帘一, 厨房卷帘三降)
2024-09-10 07:32:01.619 - 55 00 21 00 01 27 01 34 AA 55 00 21 00 01 27 01 34 AA (次卧纱帘电机状态返回)
2024-09-10 07:32:02.285 - 55 00 76 00 01 0E 01 1B AA 55 00 76 00 01 0E 01 1B AA (次卧窗帘电机状态返回)
2024-09-10 07:32:02.323 - 1A BE B0 DC 04 00 02 00 (继电器地址-西阳窗帘, 西阳窗帘关)
2024-09-10 07:32:02.969 - 55 00 53 00 00 0C 02 30 AA 55 00 53 00 00 0C 02 30 AA (主卧纱帘电机状态返回)
2024-09-10 07:32:03.448 - FF FF FF FF 0E 00 02 00 (继电器地址-西阳小窗帘, 西阳小窗帘关)
2024-09-10 07:32:04.515 - 1A BE B0 DC 03 00 03 00 (继电器地址-西阳天幕, 西阳天幕关)
2024-09-10 07:32:04.805 - 55 20 20 00 02 09 02 16 AA 55 20 20 00 02 09 02 16 AA (主卧窗帘电机状态返回)
2024-09-10 07:32:05.561 - 1A BE B0 DC 03 00 03 00 (继电器地址-西阳天幕, 西阳天幕关)
2024-09-10 07:32:06.607 - 09 06 00 0F 02 02 38 20 (提示音咚)
2024-09-10 07:32:07.098 - 55 00 D2 00 00 FE 01 0B AA 55 00 D2 00 00 FE 01 0B AA (书房窗帘电机状态返回)
2024-09-10 07:32:07.159 - EE 00 00 B1 00 00 02 FF FC FF FF (情景完成返回主页)
2024-09-10 07:42:24.916 - 1A BE B0 DC 04 FC (继电器地址-西阳窗帘)
2024-09-10 07:42:25.050 - FF
2024-09-10 07:42:25.505 - FF FF FF FF 0E FC (继电器地址-西阳小窗帘)
2024-09-10 07:42:26.975 - 1A BE B0 DC 02 (正反转地址-外卫卷帘)
2024-09-10 07:42:28.202 - 1A BE B0 DC 01 (继电器地址-回水泵点动)
2024-09-10 07:42:28.517 - 1A BE B0 DC 03 FC (继电器地址-西阳天幕)
2024-09-10 07:42:28.652 - FF
2024-09-10 07:42:29.552 - FF FF FF FF 0A FE (继电器地址-东阳窗帘)
2024-09-10 07:42:29.861 - 1A BE B0 DC 09 FC (继电器地址-客厅窗帘)
2024-09-10 07:42:29.996 - FE
2024-09-10 07:42:30.453 - 1A BE B0 DC 0A FE (继电器地址-客厅纱帘)
