2024-09-09 21:18:12.874 - 1A BB BB BB 01 02 00 (开水器电源关)
2024-09-09 21:18:15.336 - 1A BB BB BB 01 01 00 (开水器电源开)
2024-09-09 21:18:57.161 - 19 08 24 03 CC 01 CC 00 01 (调用茶吧感应灯开的按键)
2024-09-09 21:18:57.210 - 1A AA AA AA 88 FF B0 01 FF B0 01 0F (调光器地址-茶吧灯带, 茶吧灯带明亮)
2024-09-09 21:20:09.303 - 19 08 24 03 CC 01 CD 00 01 (调用茶吧感应灯关的按键)
2024-09-09 21:20:09.373 - 1A AA AA AA 88 FF 00 01 FF 00 01 0F (调光器地址-茶吧灯带, 茶吧灯带关闭)
2024-09-09 21:20:24.334 - 19 08 24 03 CC 01 CC 00 01 (调用茶吧感应灯开的按键)
2024-09-09 21:20:24.364 - 1A AA AA AA 88 FF B0 01 FF B0 01 0F (调光器地址-茶吧灯带, 茶吧灯带明亮)
2024-09-09 21:20:27.961 - 19 08 24 03 CC 00 D3 00 01 (调用厨房感应灯开的按键)
2024-09-09 21:20:27.997 - 55 0A 32 00 00 00 01 92 55 0A 32 00 00 00 02 93 (厨房顶灯一开, 厨房顶灯二开)
2024-09-09 21:20:37.860 - 19 08 24 03 CC 01 CD 00 01 (调用茶吧感应灯关的按键)
2024-09-09 21:20:37.890 - 1A AA AA AA 88 FF 00 01 FF 00 01 0F (调光器地址-茶吧灯带, 茶吧灯带关闭)
2024-09-09 21:21:08.421 - 19 08 24 03 CC 01 CC 00 01 (调用茶吧感应灯开的按键)
2024-09-09 21:21:08.451 - 1A AA AA AA 88 FF B0 01 FF B0 01 0F (调光器地址-茶吧灯带, 茶吧灯带明亮)
2024-09-09 21:22:06.034 - 19 08 24 03 CC 01 CD 00 01 (调用茶吧感应灯关的按键)
2024-09-09 21:22:06.065 - 1A AA AA AA 88 FF 00 01 FF 00 01 0F (调光器地址-茶吧灯带, 茶吧灯带关闭)
2024-09-09 21:22:09.160 - 19 08 24 03 CC 00 D4 00 01 (调用厨房感应灯关的按键)
2024-09-09 21:22:09.195 - 55 0A 31 00 00 00 01 91 55 0A 31 00 00 00 02 92 (厨房顶灯一关, 厨房顶灯二关)
2024-09-09 21:24:38.836 - 19 08 24 03 CC 01 CC 00 01 (调用茶吧感应灯开的按键)
2024-09-09 21:24:38.866 - 1A AA AA AA 88 FF B0 01 FF B0 01 0F (调光器地址-茶吧灯带, 茶吧灯带明亮)
2024-09-09 21:24:51.948 - 19 08 24 03 CC 01 54 00 01 (调用内卫感应灯开的按键)
2024-09-09 21:24:51.981 - 1A 0C 02 08 01 FF 45 01 FF 45 01 FF 00 00 0F (调光器地址-内卫射灯, 内卫射灯微光)
2024-09-09 21:24:55.369 - 19 08 24 03 CC 01 CD 00 01 (调用茶吧感应灯关的按键)
2024-09-09 21:24:55.399 - 1A AA AA AA 88 FF 00 01 FF 00 01 0F (调光器地址-茶吧灯带, 茶吧灯带关闭)
2024-09-09 21:25:44.049 - 19 08 24 03 CC 01 55 00 01 (调用内卫感应灯关的按键)
2024-09-09 21:25:44.084 - 1A 0C 02 08 01 FF 00 01 FF 00 01 FF 00 00 0F (调光器地址-内卫射灯, 内卫感应灯关)
2024-09-09 21:25:44.551 - 19 08 24 03 CC 01 54 00 01 (调用内卫感应灯开的按键)
2024-09-09 21:25:44.586 - 1A 0C 02 08 01 FF 45 01 FF 45 01 FF 00 00 0F (调光器地址-内卫射灯, 内卫射灯微光)
2024-09-09 21:25:54.483 - 1A 20 07 00 93 00 01 02 0F (自保持开关地址-设备区顶, 设备区顶灯开关)
2024-09-09 21:26:18.117 - 19 08 24 03 CC 01 55 00 01 (调用内卫感应灯关的按键)
2024-09-09 21:26:18.152 - 1A 0C 02 08 01 FF 00 01 FF 00 01 FF 00 00 0F (调光器地址-内卫射灯, 内卫感应灯关)
2024-09-09 21:27:00.149 - 19 08 24 03 DD 00 42 00 01 (调用情景-主卧电视空调)
2024-09-09 21:27:00.657 - EE 00 00 B1 00 00 00 FF FC FF FF (情景执行提示)
2024-09-09 21:27:01.252 - 09 06 00 0F 02 01 78 21 (提示音叮)
2024-09-09 21:27:01.795 - 50 F0 05 (开主卧影视)
2024-09-09 21:27:02.343 - 50 F0 04 (开内卫影视)
2024-09-09 21:27:02.899 - 1A FF FF FF 56 00 00 00 0F (人体感应地址-内卫, 关闭内卫感应)
2024-09-09 21:27:03.445 - 1A 22 33 62 0F 00 02 01 0F (正反转地址-内卫卷帘, 内卫卷帘降)
2024-09-09 21:27:03.992 - A5 00 53 FE 01 AA (主卧纱帘关)
2024-09-09 21:27:04.043 - 55 00 53 02 02 22 02 30 AA 55 00 53 02 02 22 02 30 AA (主卧纱帘电机状态返回)
2024-09-09 21:27:05.087 - A5 00 52 FF 00 AA (主卧窗帘关)
2024-09-09 21:27:06.144 - 1A 0C 02 04 FF FF 45 01 FF 45 01 FF 00 00 0F (主卧调光微光)
2024-09-09 21:27:10.230 - 1A 0C 02 08 01 FF 45 01 FF 45 01 FF 00 00 0F (调光器地址-内卫射灯, 内卫射灯微光)
2024-09-09 21:27:10.815 - 50 F1 25 (主卧—有线2)
2024-09-09 21:27:11.415 - A1 11 11 11 42 (主卧空调自动开)
2024-09-09 21:27:11.645 - 19 08 24 03 F0 BB 78 02 02 00
2024-09-09 21:27:11.696 - 23 AA 56 02 15 1B 12 18 09 09 01 73 65 6F 6B 65 6E 64
2024-09-09 21:27:11.960 - 50 F1 24 (内卫—有线2)
2024-09-09 21:27:12.656 - 01 10 07 D6 00 03 06 70 61 00 02 00 F0 0F 3E (主卧空调冷24度)
2024-09-09 21:27:12.690 - 01 10 07 D6 00 03 06 70 61 00 02 00 F0 0F 3E (主卧空调冷24度)
2024-09-09 21:27:14.007 - AF BF CF DF C2 21 (有线2/快捷-凤凰卫视)
2024-09-09 21:27:14.998 - 55 00 53 00 00 0C 02 30 AA 55 00 53 00 00 0C 02 30 AA (主卧纱帘电机状态返回)
2024-09-09 21:27:16.103 - 1A FF FF FF 60 0B 01 01 0F (红外总线地址-主卧发射设备, 主卧电视电源)
2024-09-09 21:27:16.576 - 55 20 20 00 02 09 02 16 AA 55 20 20 00 02 09 02 16 AA (主卧窗帘电机状态返回)
2024-09-09 21:27:16.619 - F0 0B 01 08
2024-09-09 21:27:19.485 - EE 00 6E B1 01 00 02 FF FC FF FF
2024-09-09 21:27:20.146 - EE 00 6E B1 01 00 03 FF FC FF FF
2024-09-09 21:27:20.846 - EE 00 6E B1 01 00 08 FF FC FF FF
2024-09-09 21:27:21.359 - 1A BE B0 DC 0A 00 01 00 (继电器地址-客厅纱帘, 客厅纱帘关)
2024-09-09 21:27:24.177 - 09 06 00 0F 02 02 38 20 (提示音咚)
2024-09-09 21:27:24.728 - EE 00 00 B1 00 00 02 FF FC FF FF (情景完成返回主页)
2024-09-09 21:27:41.696 - 19 08 24 03 CC 01 CC 00 01 (调用茶吧感应灯开的按键)
2024-09-09 21:27:41.745 - 1A AA AA AA 88 FF B0 01 FF B0 01 0F (调光器地址-茶吧灯带, 茶吧灯带明亮)
2024-09-09 21:28:00.387 - 19 08 24 03 CC 00 D3 00 01 (调用厨房感应灯开的按键)
2024-09-09 21:28:00.421 - 55 0A 32 00 00 00 01 92 55 0A 32 00 00 00 02 93 (厨房顶灯一开, 厨房顶灯二开)
2024-09-09 21:28:01.659 - FF
2024-09-09 21:28:13.259 - 19 08 24 03 CC 01 CD 00 01 (调用茶吧感应灯关的按键)
2024-09-09 21:28:13.307 - 1A AA AA AA 88 FF 00 01 FF 00 01 0F (调光器地址-茶吧灯带, 茶吧灯带关闭)
2024-09-09 21:28:40.813 - 19 08 24 03 CC 01 CC 00 01 (调用茶吧感应灯开的按键)
2024-09-09 21:28:40.864 - 1A AA AA AA 88 FF B0 01 FF B0 01 0F (调光器地址-茶吧灯带, 茶吧灯带明亮)
2024-09-09 21:28:57.346 - 19 08 24 03 CC 01 CD 00 01 (调用茶吧感应灯关的按键)
2024-09-09 21:28:57.377 - 1A AA AA AA 88 FF 00 01 FF 00 01 0F (调光器地址-茶吧灯带, 茶吧灯带关闭)
2024-09-09 21:31:10.609 - 19 08 24 03 CC 01 CC 00 01 (调用茶吧感应灯开的按键)
2024-09-09 21:31:10.639 - 1A AA AA AA 88 FF B0 01 FF B0 01 0F (调光器地址-茶吧灯带, 茶吧灯带明亮)
2024-09-09 21:31:40.669 - 19 08 24 03 CC 01 CD 00 01 (调用茶吧感应灯关的按键)
2024-09-09 21:31:40.699 - 1A AA AA AA 88 FF 00 01 FF 00 01 0F (调光器地址-茶吧灯带, 茶吧灯带关闭)
2024-09-09 21:36:47.773 - 19 08 24 03 CC 01 CC 00 01 (调用茶吧感应灯开的按键)
2024-09-09 21:36:47.804 - 1A AA AA AA 88 FF B0 01 FF B0 01 0F (调光器地址-茶吧灯带, 茶吧灯带明亮)
2024-09-09 21:36:58.445 - 19 08 24 03 CC 00 D4 00 01 (调用厨房感应灯关的按键)
2024-09-09 21:36:58.480 - 55 0A 31 00 00 00 01 91 55 0A 31 00 00 00 02 92 (厨房顶灯一关, 厨房顶灯二关)
2024-09-09 21:37:14.977 - 19 08 24 03 CC 00 D3 00 01 (调用厨房感应灯开的按键)
2024-09-09 21:37:15.013 - 55 0A 32 00 00 00 01 92 55 0A 32 00 00 00 02 93 (厨房顶灯一开, 厨房顶灯二开)
2024-09-09 21:37:41.380 - 19 08 24 03 CC 01 CD 00 01 (调用茶吧感应灯关的按键)
2024-09-09 21:37:41.410 - 1A AA AA AA 88 FF 00 01 FF 00 01 0F (调光器地址-茶吧灯带, 茶吧灯带关闭)
2024-09-09 21:37:41.880 - 19 08 24 03 CC 01 CC 00 01 (调用茶吧感应灯开的按键)
2024-09-09 21:37:41.912 - 1A AA AA AA 88 FF B0 01 FF B0 01 0F (调光器地址-茶吧灯带, 茶吧灯带明亮)
2024-09-09 21:37:49.397 - 19 08 24 03 CC 01 CD 00 01 (调用茶吧感应灯关的按键)
2024-09-09 21:37:49.428 - 1A AA AA AA 88 FF 00 01 FF 00 01 0F (调光器地址-茶吧灯带, 茶吧灯带关闭)
2024-09-09 21:38:40.999 - 19 08 24 03 CC 01 CC 00 01 (调用茶吧感应灯开的按键)
2024-09-09 21:38:41.030 - 1A AA AA AA 88 FF B0 01 FF B0 01 0F (调光器地址-茶吧灯带, 茶吧灯带明亮)
2024-09-09 21:38:56.028 - 19 08 24 03 CC 01 CD 00 01 (调用茶吧感应灯关的按键)
2024-09-09 21:38:56.060 - 1A AA AA AA 88 FF 00 01 FF 00 01 0F (调光器地址-茶吧灯带, 茶吧灯带关闭)
2024-09-09 21:39:25.234 - 19 08 24 03 CC 00 D4 00 01 (调用厨房感应灯关的按键)
2024-09-09 21:39:25.268 - 55 0A 31 00 00 00 01 91 55 0A 31 00 00 00 02 92 (厨房顶灯一关, 厨房顶灯二关)
2024-09-09 21:44:02.632 - 19 08 24 03 CC 01 CC 00 01 (调用茶吧感应灯开的按键)
2024-09-09 21:44:02.663 - 1A AA AA AA 88 FF B0 01 FF B0 01 0F (调光器地址-茶吧灯带, 茶吧灯带明亮)
2024-09-09 21:44:04.281 - 19 08 24 03 CC 00 D3 00 01 (调用厨房感应灯开的按键)
2024-09-09 21:44:04.317 - 55 0A 32 00 00 00 01 92 55 0A 32 00 00 00 02 93 (厨房顶灯一开, 厨房顶灯二开)
2024-09-09 21:44:15.156 - 19 08 24 03 CC 01 CD 00 01 (调用茶吧感应灯关的按键)
2024-09-09 21:44:15.188 - 1A AA AA AA 88 FF 00 01 FF 00 01 0F (调光器地址-茶吧灯带, 茶吧灯带关闭)
2024-09-09 21:44:50.226 - 19 08 24 03 CC 01 CC 00 01 (调用茶吧感应灯开的按键)
2024-09-09 21:44:50.256 - 1A AA AA AA 88 FF B0 01 FF B0 01 0F (调光器地址-茶吧灯带, 茶吧灯带明亮)
2024-09-09 21:45:17.280 - 19 08 24 03 CC 01 CD 00 01 (调用茶吧感应灯关的按键)
2024-09-09 21:45:17.310 - 1A AA AA AA 88 FF 00 01 FF 00 01 0F (调光器地址-茶吧灯带, 茶吧灯带关闭)
2024-09-09 21:45:23.293 - 19 08 24 03 CC 01 CC 00 01 (调用茶吧感应灯开的按键)
2024-09-09 21:45:23.339 - 1A AA AA AA 88 FF B0 01 FF B0 01 0F (调光器地址-茶吧灯带, 茶吧灯带明亮)
2024-09-09 21:45:32.956 - 19 08 24 03 CC 00 D4 00 01 (调用厨房感应灯关的按键)
2024-09-09 21:45:32.991 - 55 0A 31 00 00 00 01 91 55 0A 31 00 00 00 02 92 (厨房顶灯一关, 厨房顶灯二关)
2024-09-09 21:45:37.821 - 19 08 24 03 CC 01 CD 00 01 (调用茶吧感应灯关的按键)
2024-09-09 21:45:37.852 - 1A AA AA AA 88 FF 00 01 FF 00 01 0F (调光器地址-茶吧灯带, 茶吧灯带关闭)
2024-09-09 21:59:13.609 - FF
2024-09-09 22:25:42.374 - 19 08 24 03 DD 00 3A 00 01 (调用情景-离开书房)
2024-09-09 22:25:42.937 - EE 00 00 B1 00 00 00 FF FC FF FF (情景执行提示)
2024-09-09 22:25:43.532 - 09 06 00 0F 02 01 78 21 (提示音叮)
2024-09-09 22:25:44.081 - 01 06 07 DC FF 60 08 9C (书房空调关)
2024-09-09 22:25:44.117 - 01 06 07 DC FF 60 08 9C (书房空调关)
2024-09-09 22:25:44.673 - 50 F5 07 (关书房影视)
2024-09-09 22:25:45.226 - A5 00 D2 FE 01 AA 22 0D (书房窗帘开)
2024-09-09 22:25:45.283 - 55 00 D2 02 00 FE 01 0B AA 55 00 D2 02 00 FE 01 FF (书房窗帘电机状态返回)
2024-09-09 22:25:46.323 - A5 00 B7 FF 00 AA 22 0D (书房纱帘关)
2024-09-09 22:25:47.370 - 55 0D 31 00 00 00 01 94 (书房顶灯只关)
2024-09-09 22:25:48.423 - 1A 0A 04 06 01 FF 00 01 FF 00 01 FF 00 00 0F (调光器地址-书房射灯, 书房射灯关闭)
2024-09-09 22:25:52.500 - 09 06 00 0F 02 02 38 20 (提示音咚)
2024-09-09 22:25:52.556 - FF
2024-09-09 22:25:53.054 - EE 00 00 B1 00 00 02 FF FC FF FF (情景完成返回主页)
2024-09-09 22:31:52.439 - FF
2024-09-09 22:35:21.902 - 1A 20 07 01 40 00 01 01 0F (自保持开关地址-内卫顶灯, 内卫顶灯开)
2024-09-09 22:37:30.560 - 1A 20 07 01 40 00 01 00 0F (自保持开关地址-内卫顶灯, 内卫顶灯关)
2024-09-09 22:41:03.910 - 19 08 24 03 DD 00 1B 00 01 (调用情景-外卫使用)
2024-09-09 22:41:04.454 - EE 00 00 B1 00 00 00 FF FC FF FF (情景执行提示)
2024-09-09 22:41:05.049 - 09 06 00 0F 02 01 78 21 (提示音叮)
2024-09-09 22:41:05.596 - 1A BE B0 DC 02 00 01 00 (正反转地址-外卫卷帘, 外卫卷帘降)
2024-09-09 22:41:06.140 - 50 F0 03 (开外卫影视)
2024-09-09 22:41:06.693 - 1A FF FF FF 55 00 00 00 0F (人体感应地址-外卫, 关闭外卫感应)
2024-09-09 22:41:07.247 - 1A 0D 01 07 01 FF 45 01 FF 45 01 FF 00 00 0F (调光器地址-外卫射灯, 外卫感应灯开)
2024-09-09 22:41:09.334 - 1A BE B0 DC 01 00 01 00 (继电器地址-回水泵点动, 回水泵点动)
2024-09-09 22:41:10.381 - 1A BE B0 DC 01 00 01 00 (继电器地址-回水泵点动, 回水泵点动)
2024-09-09 22:41:11.427 - 1A BE B0 DC 01 00 01 00 (继电器地址-回水泵点动, 回水泵点动)
2024-09-09 22:41:12.467 - 50 F1 43 (外卫—CH4)
2024-09-09 22:41:29.466 - A1 11 11 11 11 05 (外卫使用浴霸判断)
2024-09-09 22:41:29.687 - 13 03 00 00 00 02 C7 79 (查询外卫温湿度)
2024-09-09 22:41:29.706 - 13 03 04 01 A9 01 08 19 B8 (外卫温湿度返回)
2024-09-09 22:41:31.512 - 09 06 00 0F 02 02 38 20 (提示音咚)
2024-09-09 22:41:33.557 - EE 00 00 B1 00 00 02 FF FC FF FF (情景完成返回主页)
2024-09-09 22:54:25.863 - 19 08 24 03 DD 00 1C 00 01 (调用情景-外卫使用完毕)
2024-09-09 22:54:26.430 - EE 00 00 B1 00 00 00 FF FC FF FF (情景执行提示)
2024-09-09 22:54:27.025 - 09 06 00 0F 02 01 78 21 (提示音叮)
2024-09-09 22:54:27.581 - 1A 0D 01 07 01 FF 00 01 FF 00 01 FF 00 00 0F (调光器地址-外卫射灯, 外卫感应灯关)
2024-09-09 22:54:28.165 - 50 F5 03 (关外卫影视)
2024-09-09 22:54:28.719 - 1A 20 07 00 42 00 01 00 0F (自保持开关地址-外卫顶灯, 外卫顶灯关)
2024-09-09 22:54:29.319 - 1A FF FF FF 55 00 00 01 0F (人体感应地址-外卫, 打开外卫感应)
2024-09-09 22:54:29.411 - BC BC
2024-09-09 22:54:29.718 - 19 08 24 03 CC 01 52 00 01 (调用外卫感应灯开的按键)
2024-09-09 22:54:29.771 - 1A 0D 01 07 01 FF 45 01 FF 45 01 FF 00 00 0F (调光器地址-外卫射灯, 外卫感应灯开)
2024-09-09 22:54:32.160 - 09 06 00 0F 02 02 38 20 (提示音咚)
2024-09-09 22:54:32.762 - EE 00 00 B1 00 00 02 FF FC FF FF (情景完成返回主页)
2024-09-09 22:54:38.437 - 19 08 24 03 CC 01 53 00 01 (调用外卫感应灯关的按键)
2024-09-09 22:54:38.471 - 1A 0D 01 07 01 FF 00 01 FF 00 01 FF 00 00 0F (调光器地址-外卫射灯, 外卫感应灯关)
2024-09-09 22:55:58.153 - 19 08 24 03 CC 01 CC 00 01 (调用茶吧感应灯开的按键)
2024-09-09 22:55:58.184 - 1A AA AA AA 88 FF B0 01 FF B0 01 0F (调光器地址-茶吧灯带, 茶吧灯带明亮)
2024-09-09 22:56:53.262 - 19 08 24 03 CC 01 CD 00 01 (调用茶吧感应灯关的按键)
2024-09-09 22:56:53.293 - 1A AA AA AA 88 FF 00 01 FF 00 01 0F (调光器地址-茶吧灯带, 茶吧灯带关闭)
2024-09-09 23:15:31.578 - 1A FF FF FF 04 FC (继电器地址-东阳衣架)
2024-09-09 23:32:36.954 - 03 00 00 13 0E E0 00 00 00 00 00 01 00 08 00 03 00 00 00
2024-09-09 23:36:02.611 - FF
2024-09-09 23:37:54.574 - FF
2024-09-09 23:39:18.886 - FF
2024-09-09 23:45:20.530 - FF
2024-09-09 23:58:00.160 - FF
2024-09-10 00:02:31.536 - 19 08 24 03 CC 01 CC 00 01 (调用茶吧感应灯开的按键)
2024-09-10 00:02:31.586 - 1A AA AA AA 88 FF B0 01 FF B0 01 0F (调光器地址-茶吧灯带, 茶吧灯带明亮)
2024-09-10 00:02:33.104 - 19 08 24 03 DD 00 13 00 01 (调用情景-公共区域关)
2024-09-10 00:02:33.645 - EE 00 00 B1 00 00 00 FF FC FF FF (情景执行提示)
2024-09-10 00:02:34.240 - 09 06 00 0F 02 01 78 21 (提示音叮)
2024-09-10 00:02:34.788 - 55 0B 31 00 00 00 01 92 (厨房风扇只关)
2024-09-10 00:02:35.835 - 01 06 07 D3 FF 60 38 9F (餐厅空调关)
2024-09-10 00:02:35.869 - 01 06 07 D3 FF 60 38 9F (餐厅空调关)
2024-09-10 00:02:36.930 - 01 06 07 D0 FF 60 C8 9F (客厅空调关)
2024-09-10 00:02:36.961 - 01 06 07 D0 FF 60 C8 9F (客厅空调关)
2024-09-10 00:02:41.014 - 50 F5 02 (关厨房影视)
2024-09-10 00:02:42.062 - 50 F5 01 (关餐厅影视)
2024-09-10 00:02:43.108 - 50 F5 08 (关客厅影视)
2024-09-10 00:02:44.154 - 50 F5 03 (关外卫影视)
2024-09-10 00:02:45.206 - 55 0A 31 00 00 00 01 91 (厨房顶灯一关)
2024-09-10 00:02:46.253 - 55 0A 31 00 00 00 02 92 (厨房顶灯二关)
2024-09-10 00:02:47.299 - 55 0C 31 00 00 00 01 93 (餐厅顶灯关)
2024-09-10 00:02:48.345 - 1A 18 05 10 31 00 01 00 0F (自保持开关地址-门厅顶灯, 门厅顶灯关)
2024-09-10 00:02:49.392 - 1A 20 07 00 42 00 01 00 0F (自保持开关地址-外卫顶灯, 外卫顶灯关)
2024-09-10 00:02:50.438 - 1A 18 05 21 89 00 01 00 0F (自保持开关地址-客厅顶灯, 客厅顶灯一关)
2024-09-10 00:02:51.486 - 1A 18 05 01 94 00 01 00 0F (自保持开关地址-客厅顶灯, 客厅顶灯二关)
2024-09-10 00:02:52.583 - 1A 20 07 01 30 00 01 00 0F (自保持开关地址-西阳顶灯, 西阳顶灯关)
2024-09-10 00:02:53.635 - 1A FF 01 FF FF FF 00 01 FF 00 01 FF 00 00 0F (调光器地址-公共区域统配地址, 公共区域灯光全关)
2024-09-10 00:02:54.724 - 09 06 00 0F 02 02 38 20 (提示音咚)
2024-09-10 00:02:56.770 - EE 00 00 B1 00 00 02 FF FC FF FF (情景完成返回主页)
2024-09-10 00:03:23.728 - 19 08 24 03 CC 00 D3 00 01 (调用厨房感应灯开的按键)
2024-09-10 00:03:23.782 - 55 0A 32 00 00 00 01 92 55 0A 32 00 00 00 02 93 (厨房顶灯一开, 厨房顶灯二开)
2024-09-10 00:03:36.665 - 19 08 24 03 CC 01 CD 00 01 (调用茶吧感应灯关的按键)
2024-09-10 00:03:36.696 - 1A AA AA AA 88 FF 00 01 FF 00 01 0F (调光器地址-茶吧灯带, 茶吧灯带关闭)
2024-09-10 00:04:39.442 - FF
2024-09-10 00:05:57.945 - 19 08 24 03 CC 01 CC 00 01 (调用茶吧感应灯开的按键)
2024-09-10 00:05:57.993 - 1A AA AA AA 88 FF B0 01 FF B0 01 0F (调光器地址-茶吧灯带, 茶吧灯带明亮)
2024-09-10 00:06:28.004 - 19 08 24 03 CC 01 CD 00 01 (调用茶吧感应灯关的按键)
2024-09-10 00:06:28.053 - 1A AA AA AA 88 FF 00 01 FF 00 01 0F (调光器地址-茶吧灯带, 茶吧灯带关闭)
2024-09-10 00:06:54.141 - 19 08 24 03 CC 00 D4 00 01 (调用厨房感应灯关的按键)
2024-09-10 00:06:54.175 - 55 0A 31 00 00 00 01 91 55 0A 31 00 00 00 02 92 (厨房顶灯一关, 厨房顶灯二关)
2024-09-10 00:07:17.671 - 19 08 24 03 DD 00 4F 00 01 (调用情景-内卫使用完毕)
2024-09-10 00:07:18.177 - EE 00 00 B1 00 00 00 FF FC FF FF (情景执行提示)
2024-09-10 00:07:18.772 - 09 06 00 0F 02 01 78 21 (提示音叮)
2024-09-10 00:07:19.326 - 1A 0C 02 08 01 FF 00 01 FF 00 01 FF 00 00 0F (调光器地址-内卫射灯, 内卫感应灯关)
2024-09-10 00:07:23.400 - 50 F5 04 (关内卫影视)
2024-09-10 00:07:23.957 - 1A 20 07 01 40 00 01 00 0F (自保持开关地址-内卫顶灯, 内卫顶灯关)
2024-09-10 00:07:24.503 - 1A FF FF FF 56 00 00 01 0F (人体感应地址-内卫, 打开内卫感应)
2024-09-10 00:07:24.607 - BC BC
2024-09-10 00:07:24.914 - 19 08 24 03 CC 01 54 00 01 (调用内卫感应灯开的按键)
2024-09-10 00:07:24.967 - 1A 0C 02 08 01 FF 45 01 FF 45 01 FF 00 00 0F (调光器地址-内卫射灯, 内卫射灯微光)
2024-09-10 00:07:27.346 - 09 06 00 0F 02 02 38 20 (提示音咚)
2024-09-10 00:07:27.948 - EE 00 00 B1 00 00 02 FF FC FF FF (情景完成返回主页)
2024-09-10 00:13:36.349 - 19 08 24 03 CC 01 55 00 01 (调用内卫感应灯关的按键)
2024-09-10 00:13:36.381 - 1A 0C 02 08 01 FF 00 01 FF 00 01 FF 00 00 0F (调光器地址-内卫射灯, 内卫感应灯关)
2024-09-10 00:18:47.080 - FF
2024-09-10 00:24:31.136 - 19 08 24 03 CC 01 54 00 01 (调用内卫感应灯开的按键)
2024-09-10 00:24:31.188 - 1A 0C 02 08 01 FF 45 01 FF 45 01 FF 00 00 0F (调光器地址-内卫射灯, 内卫射灯微光)
2024-09-10 00:25:21.435 - FF FF FF FF 0E (继电器地址-西阳小窗帘)
2024-09-10 00:25:21.569 - FF
2024-09-10 00:26:20.161 - 1A BE B0 DC 04 (继电器地址-西阳窗帘)
2024-09-10 00:26:22.655 - 1A BE B0 DC 09 (继电器地址-客厅窗帘)
2024-09-10 00:26:22.791 - FF
2024-09-10 00:27:23.514 - 1A BE B0 DC 02 (正反转地址-外卫卷帘)
2024-09-10 00:27:23.821 - 1A BE B0 DC 0A (继电器地址-客厅纱帘)
2024-09-10 00:28:25.525 - 1A BE B0 DC 01 (继电器地址-回水泵点动)
2024-09-10 00:28:26.197 - 1A BE B0 DC 03 (继电器地址-西阳天幕)
2024-09-10 00:33:34.799 - FF
2024-09-10 00:36:31.888 - 2B 2E 85 4C BE 85 8D 52 2C 9D 08 FA C1 22 C1 09 BB 78 CC 91 F6 F9 A0 0E 7B 3B A1 C7 C7 16 B9 93
2024-09-10 00:36:31.922 - 84 11 9D 56 99 E7 7E 38 7C 75 42 7C F3 B7 73 FF 07 F1 FA B1 0F 34 37 9E A7 D4 0D 64 A1 37 B2 78
2024-09-10 00:36:31.955 - 93 6A 8C 8C D8 FE 05 78 C9 4A 93 B8 58 7E C6 74 02 0F C8 CB FE 32 CC 6F D2 17 20 2A BF 4B C0 10
2024-09-10 00:36:31.984 - F4 70 32 8C 7A F4 25 03 BC 50 99 EE 80 9E FE C7 63 35 8A 2A B9 3F C4 E6 A5 2B A4
2024-09-10 00:36:34.561 - 19 08 24 03 CC 01 55 00 01 (调用内卫感应灯关的按键)
2024-09-10 00:36:34.613 - 1A 0C 02 08 01 FF 00 01 FF 00 01 FF 00 00 0F (调光器地址-内卫射灯, 内卫感应灯关)
2024-09-10 00:37:20.038 - FF FF FF FF 0A (继电器地址-东阳窗帘)
2024-09-10 00:37:20.174 - FF
2024-09-10 00:47:17.042 - FF
2024-09-10 00:51:10.282 - 19 08 24 03 CC 01 54 00 01 (调用内卫感应灯开的按键)
2024-09-10 00:51:10.335 - 1A 0C 02 08 01 FF 45 01 FF 45 01 FF 00 00 0F (调光器地址-内卫射灯, 内卫射灯微光)
2024-09-10 00:59:16.321 - 19 08 24 03 DD 00 4B 00 01 (调用情景-主卧睡觉)
2024-09-10 00:59:16.869 - EE 00 00 B1 00 00 00 FF FC FF FF (情景执行提示)
2024-09-10 00:59:17.463 - 09 06 00 0F 02 01 78 21 (提示音叮)
2024-09-10 00:59:18.007 - 50 F5 04 (关内卫影视)
2024-09-10 00:59:18.557 - A5 00 53 FE 01 AA (主卧纱帘关)
2024-09-10 00:59:19.604 - A5 00 52 FF 00 AA (主卧窗帘关)
2024-09-10 00:59:20.654 - 1A 22 33 62 0F 00 02 01 0F (正反转地址-内卫卷帘, 内卫卷帘降)
2024-09-10 00:59:21.699 - 1A 20 07 01 40 00 01 00 0F (自保持开关地址-内卫顶灯, 内卫顶灯关)
2024-09-10 00:59:22.747 - 1A 20 07 01 55 00 01 00 0F (自保持开关地址-主卧顶灯, 主卧顶灯只关)
2024-09-10 00:59:23.296 - 1A FF FF FF 56 00 00 01 0F (人体感应地址-内卫, 打开内卫感应)
2024-09-10 00:59:23.308 - BC BC
2024-09-10 00:59:26.891 - 1A 0C 02 08 01 FF 00 01 FF 00 01 FF 00 00 0F (调光器地址-内卫射灯, 内卫感应灯关)
2024-09-10 00:59:27.489 - 1A 0C 02 04 01 FF 00 01 FF 00 01 FF 00 00 0F (调光器地址-主卧筒灯, 主卧筒灯关闭)
2024-09-10 00:59:28.086 - 1A 0C 02 04 03 FF 00 01 FF 00 01 FF 00 00 0F (调光器地址-主卧灯带, 主卧灯带关闭)
2024-09-10 00:59:28.686 - 1A 0C 02 04 04 FF 00 01 FF 00 01 FF 00 00 0F (调光器地址-主卧南阅, 主卧南阅关闭)
2024-09-10 00:59:29.283 - 1A 0C 02 04 05 FF 00 01 FF 00 01 FF 00 00 0F (调光器地址-主卧北阅, 主卧北阅关闭)
2024-09-10 00:59:29.881 - 1A 0C 02 04 02 FF 00 01 FF 00 01 FF 00 00 0F (调光器地址-主卧过道, 主卧过道关闭)
2024-09-10 00:59:30.471 - 09 06 00 0F 02 02 38 20 (提示音咚)
2024-09-10 00:59:31.024 - EE 00 00 B1 00 00 02 FF FC FF FF (情景完成返回主页)
2024-09-10 00:59:42.830 - 19 08 24 03 CC 01 55 00 01 (调用内卫感应灯关的按键)
2024-09-10 00:59:42.883 - 1A 0C 02 08 01 FF 00 01 FF 00 01 FF 00 00 0F (调光器地址-内卫射灯, 内卫感应灯关)
2024-09-10 00:59:59.864 - 19 08 24 03 CC 01 54 00 01 (调用内卫感应灯开的按键)
2024-09-10 00:59:59.897 - 1A 0C 02 08 01 FF 45 01 FF 45 01 FF 00 00 0F (调光器地址-内卫射灯, 内卫射灯微光)
2024-09-10 01:02:07.614 - 19 08 24 03 CC 01 55 00 01 (调用内卫感应灯关的按键)
2024-09-10 01:02:07.649 - 1A 0C 02 08 01 FF 00 01 FF 00 01 FF 00 00 0F (调光器地址-内卫射灯, 内卫感应灯关)
2024-09-10 01:49:53.019 - FF
2024-09-10 02:06:53.947 - FF
2024-09-10 02:37:29.178 - 1A FF FF FF 04 (继电器地址-东阳衣架)
2024-09-10 02:37:29.314 - C0
2024-09-10 02:45:14.790 - 19 08 24 03 CC 01 54 00 01 (调用内卫感应灯开的按键)
2024-09-10 02:45:14.843 - 1A 0C 02 08 01 FF 45 01 FF 45 01 FF 00 00 0F (调光器地址-内卫射灯, 内卫射灯微光)
2024-09-10 02:46:26.518 - FF
2024-09-10 02:47:53.603 - 19 08 24 03 CC 01 55 00 01 (调用内卫感应灯关的按键)
2024-09-10 02:47:53.636 - 1A 0C 02 08 01 FF 00 01 FF 00 01 FF 00 00 0F (调光器地址-内卫射灯, 内卫感应灯关)
2024-09-10 02:49:02.238 - 19 08 24 03 CC 01 54 00 01 (调用内卫感应灯开的按键)
2024-09-10 02:49:02.320 - 1A 0C 02 08 01 FF 45 01 FF 45 01 FF 00 00 0F (调光器地址-内卫射灯, 内卫射灯微光)
2024-09-10 02:49:28.791 - 19 08 24 03 CC 01 55 00 01 (调用内卫感应灯关的按键)
2024-09-10 02:49:28.825 - 1A 0C 02 08 01 FF 00 01 FF 00 01 FF 00 00 0F (调光器地址-内卫射灯, 内卫感应灯关)
2024-09-10 02:59:54.013 - 50 F7 01 (全屋影音全关)
2024-09-10 03:45:39.284 - FF FF FF FF 0E FC (继电器地址-西阳小窗帘)
2024-09-10 03:45:39.417 - FF
2024-09-10 03:46:29.277 - 1A BE B0 DC 04 FC (继电器地址-西阳窗帘)
2024-09-10 03:46:29.410 - FF
2024-09-10 03:46:52.950 - 1A BE B0 DC 09 FE (继电器地址-客厅窗帘)
2024-09-10 03:46:53.084 - FF
2024-09-10 03:48:00.731 - 1A BE B0 DC 02 (正反转地址-外卫卷帘)
2024-09-10 03:48:01.962 - 1A BE B0 DC 0A (继电器地址-客厅纱帘)
2024-09-10 03:48:08.472 - FF
2024-09-10 03:50:17.646 - 1A BE B0 DC 01 (继电器地址-回水泵点动)
2024-09-10 03:50:17.782 - FF
2024-09-10 03:50:23.422 - 1A BE B0 DC 03 (继电器地址-西阳天幕)
2024-09-10 03:50:23.559 - FF
2024-09-10 03:57:46.657 - FF FF FF FF 0A FC (继电器地址-东阳窗帘)
2024-09-10 04:14:16.891 - 19 08 24 03 CC 01 CC 00 01 (调用茶吧感应灯开的按键)
2024-09-10 04:14:16.939 - 1A AA AA AA 88 FF B0 01 FF B0 01 0F (调光器地址-茶吧灯带, 茶吧灯带明亮)
2024-09-10 04:14:23.905 - 19 08 24 03 CC 01 CD 00 01 (调用茶吧感应灯关的按键)
2024-09-10 04:14:23.955 - 1A AA AA AA 88 FF 00 01 FF 00 01 0F (调光器地址-茶吧灯带, 茶吧灯带关闭)
2024-09-10 04:19:54.366 - 1A EC A0 DC 01 00 01 00 0F (自保持开关地址-电视、设备12V供电, 12V 设备供电关)
2024-09-10 04:19:54.914 - 1A EC A0 DC 01 00 01 00 0F (自保持开关地址-电视、设备12V供电, 12V 设备供电关)
2024-09-10 04:20:04.979 - 1A EC A0 DC 01 00 01 01 0F (自保持开关地址-电视、设备12V供电, 12V 设备供电开)
2024-09-10 04:20:05.211 - 0A 00
2024-09-10 04:20:05.347 - FF
2024-09-10 04:20:05.373 - 1A 27 89 12
2024-09-10 04:20:05.383 - FF
2024-09-10 04:20:05.408 - EE 00 7E 07 FF FC FF
2024-09-10 04:20:05.566 - EF
2024-09-10 04:20:05.570 - E3 FB 0A
2024-09-10 04:20:05.584 - 1A BE B0 DC 02 FE (正反转地址-外卫卷帘)
2024-09-10 04:20:05.604 - EE 00 71 B1 01 00 02 FF FC FF FF
2024-09-10 04:20:05.628 - FC
2024-09-10 04:20:05.705 - FE
2024-09-10 04:20:05.719 - FC
2024-09-10 04:20:05.922 - FF
2024-09-10 04:20:06.025 - 1A EC A0 DC 01 00 01 01 0F (自保持开关地址-电视、设备12V供电, 12V 设备供电开)
2024-09-10 04:20:06.632 - FF
2024-09-10 04:20:06.820 - 6F E7 FF
2024-09-10 04:20:06.861 - 68 86
2024-09-10 04:20:06.942 - 86 FF
2024-09-10 04:20:06.955 - 68 86 FF
2024-09-10 04:20:07.146 - F7
2024-09-10 04:20:08.060 - F7
2024-09-10 04:20:08.384 - 68 86
2024-09-10 04:20:14.451 - 19 08 24 03 CC 01 CC 00 01 (调用茶吧感应灯开的按键)
2024-09-10 04:20:14.501 - 1A AA AA AA 88 FF B0 01 FF B0 01 0F (调光器地址-茶吧灯带, 茶吧灯带明亮)
2024-09-10 04:20:22.456 - 19 08 24 03 CC 01 CD 00 01 (调用茶吧感应灯关的按键)
2024-09-10 04:20:22.487 - 1A AA AA AA 88 FF 00 01 FF 00 01 0F (调光器地址-茶吧灯带, 茶吧灯带关闭)
2024-09-10 04:47:40.147 - 19 08 24 03 CC 01 54 00 01 (调用内卫感应灯开的按键)
2024-09-10 04:47:40.182 - 1A 0C 02 08 01 FF 45 01 FF 45 01 FF 00 00 0F (调光器地址-内卫射灯, 内卫射灯微光)
2024-09-10 04:48:32.750 - 19 08 24 03 CC 01 55 00 01 (调用内卫感应灯关的按键)
2024-09-10 04:48:32.785 - 1A 0C 02 08 01 FF 00 01 FF 00 01 FF 00 00 0F (调光器地址-内卫射灯, 内卫感应灯关)
2024-09-10 04:49:54.185 - EE 00 00 B1 00 00 00 FF FC FF FF (情景执行提示)
2024-09-10 04:49:54.809 - A5 00 A2 FF 00 AA (餐厅纱帘关)
2024-09-10 04:49:55.874 - A5 00 A6 FF 00 AA (餐厅窗帘关)
2024-09-10 04:49:55.932 - 55 00 A6 01 00 0E 01 74 AA 55 00 A6 01 00 0E 01 F4 (餐厅窗帘电机状态返回)
2024-09-10 04:49:56.972 - A5 00 B7 FF 00 AA 22 0D (书房纱帘关)
2024-09-10 04:49:58.018 - A5 00 D2 FF 00 AA 22 0C (书房窗帘关)
2024-09-10 04:49:58.073 - 55 00 D2 01 00 0D 01 0B AA 55 00 D2 01 00 0D 01 0B EA (书房窗帘电机状态返回)
2024-09-10 04:49:59.119 - EE 00 00 B1 00 00 02 FF FC FF FF (情景完成返回主页)
2024-09-10 04:50:04.535 - 55 00 A6 00 01 66 01 74 AA 55 00 A6 00 01 66 01 74 AA (餐厅窗帘电机状态返回)
2024-09-10 04:50:07.742 - 55 00 D2 00 00 FE 01 0B AA 55 00 D2 00 00 FE 01 0B AA (书房窗帘电机状态返回)
2024-09-10 04:56:55.297 - 19 08 24 03 CC 01 CC 00 01 (调用茶吧感应灯开的按键)
2024-09-10 04:56:55.345 - 1A AA AA AA 88 FF B0 01 FF B0 01 0F (调光器地址-茶吧灯带, 茶吧灯带明亮)
2024-09-10 04:57:02.811 - 19 08 24 03 CC 01 CD 00 01 (调用茶吧感应灯关的按键)
2024-09-10 04:57:02.842 - 1A AA AA AA 88 FF 00 01 FF 00 01 0F (调光器地址-茶吧灯带, 茶吧灯带关闭)
2024-09-10 04:57:40.328 - 19 08 24 03 CC 01 54 00 01 (调用内卫感应灯开的按键)
2024-09-10 04:57:40.362 - 1A 0C 02 08 01 FF 45 01 FF 45 01 FF 00 00 0F (调光器地址-内卫射灯, 内卫射灯微光)
2024-09-10 04:58:10.388 - 19 08 24 03 CC 01 55 00 01 (调用内卫感应灯关的按键)
2024-09-10 04:58:10.423 - 1A 0C 02 08 01 FF 00 01 FF 00 01 FF 00 00 0F (调光器地址-内卫射灯, 内卫感应灯关)
2024-09-10 05:03:33.997 - FF
2024-09-10 05:06:19.337 - FF
2024-09-10 05:45:36.453 - FF
2024-09-10 05:57:23.533 - FF
2024-09-10 05:58:32.795 - 1A FF FF FF 04 FC (继电器地址-东阳衣架)
2024-09-10 05:58:32.930 - 00
2024-09-10 06:44:54.627 - EE 00 00 B1 00 00 00 FF FC FF FF (情景执行提示)
2024-09-10 06:44:55.223 - 09 06 00 0F 02 01 78 21 (提示音叮)
2024-09-10 06:44:55.814 - 50 F0 04 (开内卫影视)
2024-09-10 06:44:56.363 - 50 F0 05 (开主卧影视)
2024-09-10 06:44:56.914 - A5 00 53 FE 01 AA (主卧纱帘关)
2024-09-10 06:44:57.462 - A5 00 53 FE 01 AA (主卧纱帘关)
2024-09-10 06:44:58.011 - A5 00 52 FE 01 AA (主卧窗帘开)
2024-09-10 06:44:59.057 - A5 00 52 FE 01 AA (主卧窗帘开)
2024-09-10 06:45:00.105 - 1A 22 33 62 0F 00 02 01 0F (正反转地址-内卫卷帘, 内卫卷帘降)
2024-09-10 06:45:00.654 - 1A FF FF FF 56 00 00 00 0F (人体感应地址-内卫, 关闭内卫感应)
2024-09-10 06:45:00.760 - BC BC
2024-09-10 06:45:01.203 - 1A 20 07 01 55 00 01 00 0F (自保持开关地址-主卧顶灯, 主卧顶灯只关)
2024-09-10 06:45:01.898 - FF
2024-09-10 06:45:02.254 - 1A 0C 02 08 01 FF F0 01 FF F0 01 FF 00 00 0F (调光器地址-内卫射灯, 内卫射灯明亮)
2024-09-10 06:45:02.853 - 1A 0C 02 04 01 FF 00 01 FF 00 01 FF 00 00 0F (调光器地址-主卧筒灯, 主卧筒灯关闭)
2024-09-10 06:45:03.450 - 1A 0C 02 04 03 FF 45 01 FF 45 01 FF 00 00 0F (调光器地址-主卧灯带, 主卧灯带微光)
2024-09-10 06:45:04.047 - 1A 0C 02 04 02 FF F0 01 FF 00 01 FF 00 00 0F (调光器地址-主卧过道, 主卧过道暖光)
2024-09-10 06:45:04.646 - 1A 0C 02 04 05 FF 00 01 FF 00 01 FF 00 00 0F (调光器地址-主卧北阅, 主卧北阅关闭)
2024-09-10 06:45:05.245 - 1A 0C 02 04 04 FF 00 01 FF 00 01 FF 00 00 0F (调光器地址-主卧南阅, 主卧南阅关闭)
2024-09-10 06:45:06.328 - 50 F1 24 (内卫—有线2)
2024-09-10 06:45:07.374 - 50 F1 25 (主卧—有线2)
2024-09-10 06:45:08.424 - AF BF CF DF C2 21 (有线2/快捷-凤凰卫视)
2024-09-10 06:45:08.974 - 1A FF FF FF 60 0B 01 01 0F (红外总线地址-主卧发射设备, 主卧电视电源)
2024-09-10 06:45:09.485 - F0 0B 01 08
2024-09-10 06:45:10.021 - 1A BE B0 DC 01 00 01 00 (继电器地址-回水泵点动, 回水泵点动)
2024-09-10 06:45:11.598 - 55 20 20 00 00 0F 02 16 AA 55 20 20 00 00 0F 02 16 AA (主卧窗帘电机状态返回)
2024-09-10 06:45:14.080 - 09 06 00 0F 02 02 38 20 (提示音咚)
2024-09-10 06:45:14.730 - EE 00 00 B1 00 00 02 FF FC FF FF (情景完成返回主页)
2024-09-10 06:45:15.823 - A1 11 11 11 11 01 (内卫浴霸取暖判断)
2024-09-10 06:45:16.042 - 14 03 00 00 00 02 C6 CE (查询内卫温湿度)
2024-09-10 06:45:16.067 - 14 03 04 01 BE 00 FD 1E AB (内卫温湿度返回)
2024-09-10 07:19:57.240 - 19 08 24 03 CC 01 CC 00 01 (调用茶吧感应灯开的按键)
2024-09-10 07:19:57.290 - 1A AA AA AA 88 FF B0 01 FF B0 01 0F (调光器地址-茶吧灯带, 茶吧灯带明亮)
2024-09-10 07:20:04.253 - 19 08 24 03 CC 01 CD 00 01 (调用茶吧感应灯关的按键)
2024-09-10 07:20:04.284 - 1A AA AA AA 88 FF 00 01 FF 00 01 0F (调光器地址-茶吧灯带, 茶吧灯带关闭)
2024-09-10 07:21:18.140 - 19 08 24 03 DD 00 40 00 01 (调用情景-离开主卧)
2024-09-10 07:21:18.659 - EE 00 00 B1 00 00 00 FF FC FF FF (情景执行提示)
2024-09-10 07:21:19.254 - 09 06 00 0F 02 01 78 21 (提示音叮)
2024-09-10 07:21:19.846 - 50 F5 05 (关主卧影视)
2024-09-10 07:21:20.394 - 50 F5 04 (关内卫影视)
2024-09-10 07:21:20.947 - 01 06 07 D6 FF 60 28 9E (主卧空调关)
2024-09-10 07:21:20.978 - 01 06 07 D6 FF 60 28 9E (主卧空调关)
2024-09-10 07:21:21.543 - A5 00 52 FE 01 AA (主卧窗帘开)
2024-09-10 07:21:22.590 - A5 00 52 FE 01 AA (主卧窗帘开)
2024-09-10 07:21:23.637 - A5 00 53 FF 00 AA (主卧纱帘开)
2024-09-10 07:21:23.685 - 55 00 53 01 00 0C 02 30 AA 55 00 53 01 00 0C 02 30 AA (主卧纱帘电机状态返回)
2024-09-10 07:21:24.234 - A5 00 53 FF 00 AA (主卧纱帘开)
2024-09-10 07:21:24.785 - 1A 22 33 62 0F 00 00 01 0F (正反转地址-内卫卷帘, 内卫卷帘升)
2024-09-10 07:21:24.902 - 91 FD
2024-09-10 07:21:25.832 - 1A 20 07 01 40 00 01 00 0F (自保持开关地址-内卫顶灯, 内卫顶灯关)
2024-09-10 07:21:26.878 - 1A 20 07 01 55 00 01 00 0F (自保持开关地址-主卧顶灯, 主卧顶灯只关)
2024-09-10 07:21:27.432 - 1A 0C 02 08 01 FF 00 01 FF 00 01 FF 00 00 0F (调光器地址-内卫射灯, 内卫感应灯关)
2024-09-10 07:21:28.025 - 1A FF FF FF 56 00 00 01 0F (人体感应地址-内卫, 打开内卫感应)
2024-09-10 07:21:28.436 - 19 08 24 03 CC 01 54 00 01 (调用内卫感应灯开的按键)
2024-09-10 07:21:28.488 - 1A 0C 02 08 01 FF 45 01 FF 45 01 FF 00 00 0F (调光器地址-内卫射灯, 内卫射灯微光)
2024-09-10 07:21:30.958 - 19 08 24 03 CC 01 CC 00 01 (调用茶吧感应灯开的按键)
2024-09-10 07:21:30.988 - 1A AA AA AA 88 FF B0 01 FF B0 01 0F (调光器地址-茶吧灯带, 茶吧灯带明亮)
2024-09-10 07:21:31.920 - 1A 0C 02 04 FF FF 00 01 FF 00 01 FF 00 00 0F (主卧调光全关)
2024-09-10 07:21:33.009 - 09 06 00 0F 02 02 38 20 (提示音咚)
2024-09-10 07:21:33.609 - EE 00 00 B1 00 00 02 FF FC FF FF (情景完成返回主页)
2024-09-10 07:21:34.307 - 55 00 53 00 02 23 02 30 AA 55 00 53 00 02 23 02 30 AA (主卧纱帘电机状态返回)
2024-09-10 07:22:09.373 - 19 08 24 03 CC 00 D3 00 01 (调用厨房感应灯开的按键)
2024-09-10 07:22:09.427 - 55 0A 32 00 00 00 01 92 55 0A 32 00 00 00 02 93 (厨房顶灯一开, 厨房顶灯二开)
2024-09-10 07:22:15.228 - 19 08 24 03 CC 01 55 00 01 (调用内卫感应灯关的按键)
2024-09-10 07:22:15.262 - 1A 0C 02 08 01 FF 00 01 FF 00 01 FF 00 00 0F (调光器地址-内卫射灯, 内卫感应灯关)
2024-09-10 07:22:53.961 - 19 08 24 03 CC 00 D4 00 01 (调用厨房感应灯关的按键)
2024-09-10 07:22:53.995 - 55 0A 31 00 00 00 01 91 55 0A 31 00 00 00 02 92 (厨房顶灯一关, 厨房顶灯二关)
2024-09-10 07:23:15.848 - 19 08 24 03 CC 01 54 00 01 (调用内卫感应灯开的按键)
2024-09-10 07:23:15.882 - 1A 0C 02 08 01 FF 45 01 FF 45 01 FF 00 00 0F (调光器地址-内卫射灯, 内卫射灯微光)
2024-09-10 07:23:17.259 - 19 08 24 03 CC 01 2E 00 01
2024-09-10 07:23:17.284 - 1A BB BB BB 01 01 00 (开水器电源开)
2024-09-10 07:23:41.398 - 19 08 24 03 CC 01 55 00 01 (调用内卫感应灯关的按键)
2024-09-10 07:23:41.431 - 1A 0C 02 08 01 FF 00 01 FF 00 01 FF 00 00 0F (调光器地址-内卫射灯, 内卫感应灯关)
2024-09-10 07:24:26.643 - 19 08 24 03 CC 00 D3 00 01 (调用厨房感应灯开的按键)
2024-09-10 07:24:26.678 - 55 0A 32 00 00 00 01 92 55 0A 32 00 00 00 02 93 (厨房顶灯一开, 厨房顶灯二开)
2024-09-10 07:24:39.832 - 19 08 24 03 CC 01 CD 00 01 (调用茶吧感应灯关的按键)
2024-09-10 07:24:39.863 - 1A AA AA AA 88 FF 00 01 FF 00 01 0F (调光器地址-茶吧灯带, 茶吧灯带关闭)
2024-09-10 07:27:55.219 - 19 08 24 03 CC 01 CC 00 01 (调用茶吧感应灯开的按键)
2024-09-10 07:27:55.250 - 1A AA AA AA 88 FF B0 01 FF B0 01 0F (调光器地址-茶吧灯带, 茶吧灯带明亮)
2024-09-10 07:28:08.245 - 19 08 24 03 CC 01 CD 00 01 (调用茶吧感应灯关的按键)
2024-09-10 07:28:08.290 - 1A AA AA AA 88 FF 00 01 FF 00 01 0F (调光器地址-茶吧灯带, 茶吧灯带关闭)
2024-09-10 07:28:36.635 - 19 08 24 03 CC 00 D4 00 01 (调用厨房感应灯关的按键)
2024-09-10 07:28:36.668 - 55 0A 31 00 00 00 01 91 55 0A 31 00 00 00 02 92 (厨房顶灯一关, 厨房顶灯二关)
