2024-08-18 13:50:22.044 - 1B 03 00 00 00 02 C6 31 (查询室外光线)
2024-08-18 13:50:22.076 - 1B 03 04 00 00 03 D9 80 98 (室外光线返回)
2024-08-18 13:51:02.118 - 19 08 24 03 DD 00 3A 00 01 (调用情景-离开书房)
2024-08-18 13:51:02.662 - EE 00 00 B1 00 00 00 FF FC FF FF (情景执行提示)
2024-08-18 13:51:03.258 - 09 06 00 0F 02 01 78 21 (提示音叮)
2024-08-18 13:51:03.806 - 01 06 07 DC FF 60 08 9C (书房空调关)
2024-08-18 13:51:03.838 - 01 06 07 DC FF 60 08 9C (书房空调关)
2024-08-18 13:51:04.432 - 50 F5 07 (关书房影视)
2024-08-18 13:51:05.002 - A5 00 D2 FE 01 AA 22 0D (书房窗帘开)
2024-08-18 13:51:05.061 - 55 00 D2 02 00 E5 00 F2 AA 55 00 D2 02 00 E5 00 F2 AA (书房窗帘电机状态返回)
2024-08-18 13:51:06.098 - A5 00 B7 FF 00 AA 22 0D (书房纱帘关)
2024-08-18 13:51:07.140 - 55 0D 31 00 00 00 01 94 (书房顶灯只关)
2024-08-18 13:51:08.198 - 1A 0A 04 06 01 FF 00 01 FF 00 01 FF 00 00 0F (调光器地址-书房射灯, 书房射灯关闭)
2024-08-18 13:51:11.892 - 55 00 D2 00 00 0E 00 F2 AA 55 00 D2 00 00 0E 00 F2 AA (书房窗帘电机状态返回)
2024-08-18 13:51:12.275 - 09 06 00 0F 02 02 38 20 (提示音咚)
2024-08-18 13:51:12.833 - EE 00 00 B1 00 00 02 FF FC FF FF (情景完成返回主页)
2024-08-18 13:52:22.435 - 19 08 24 03 CC 01 54 00 01 (调用内卫感应灯开的按键)
2024-08-18 13:52:22.491 - 1A 0C 02 08 01 FF 45 01 FF 45 01 FF 00 00 0F (调光器地址-内卫射灯, 内卫射灯微光)
2024-08-18 13:53:00.014 - 19 08 24 03 CC 01 55 00 01 (调用外卫感应灯关的按键)
2024-08-18 13:53:00.039 - 1A 0C 02 08 01 FF 00 01 FF 00 01 FF 00 00 0F (调光器地址-内卫射灯, 内卫感应灯关)
2024-08-18 13:54:37.697 - 19 08 24 03 CC 01 54 00 01 (调用内卫感应灯开的按键)
2024-08-18 13:54:37.729 - 1A 0C 02 08 01 FF 45 01 FF 45 01 FF 00 00 0F (调光器地址-内卫射灯, 内卫射灯微光)
2024-08-18 13:55:03.745 - 19 08 24 03 CC 01 55 00 01 (调用外卫感应灯关的按键)
2024-08-18 13:55:03.792 - 1A 0C 02 08 01 FF 00 01 FF 00 01 FF 00 00 0F (调光器地址-内卫射灯, 内卫感应灯关)
2024-08-18 13:55:27.304 - 19 08 24 03 CC 01 54 00 01 (调用内卫感应灯开的按键)
2024-08-18 13:55:27.358 - 1A 0C 02 08 01 FF 45 01 FF 45 01 FF 00 00 0F (调光器地址-内卫射灯, 内卫射灯微光)
2024-08-18 13:55:55.354 - 19 08 24 03 CC 01 55 00 01 (调用外卫感应灯关的按键)
2024-08-18 13:55:55.388 - 1A 0C 02 08 01 FF 00 01 FF 00 01 FF 00 00 0F (调光器地址-内卫射灯, 内卫感应灯关)
2024-08-18 13:56:17.653 - 19 08 24 03 DD 00 00 00 01 (调用情景-离家（末）)
2024-08-18 13:56:18.191 - EE 00 00 B1 00 00 00 FF FC FF FF (情景执行提示)
2024-08-18 13:56:18.786 - 09 06 00 0F 02 02 38 20 (提示音咚)
2024-08-18 13:56:19.375 - 50 F7 01 (全屋影音全关)
2024-08-18 13:56:19.933 - 01 06 07 D0 FF 60 C8 9F (客厅空调关)
2024-08-18 13:56:19.966 - 01 06 07 D0 FF 60 C8 9F (客厅空调关)
2024-08-18 13:56:20.524 - 01 06 07 D0 FF 60 C8 9F (客厅空调关)
2024-08-18 13:56:20.556 - 01 06 07 D0 FF 60 C8 9F (客厅空调关)
2024-08-18 13:56:21.131 - 01 06 07 D3 FF 60 38 9F (餐厅空调关)
2024-08-18 13:56:21.151 - 01 06 07 D3 FF 60 38 9F (餐厅空调关)
2024-08-18 13:56:21.729 - 01 06 07 D3 FF 60 38 9F (餐厅空调关)
2024-08-18 13:56:21.763 - 01 06 07 D3 FF 60 38 9F (餐厅空调关)
2024-08-18 13:56:22.325 - 01 06 07 D6 FF 60 28 9E (主卧空调关)
2024-08-18 13:56:22.360 - 01 06 07 D6 FF 60 28 9E (主卧空调关)
2024-08-18 13:56:22.920 - 01 06 07 D6 FF 60 28 9E (主卧空调关)
2024-08-18 13:56:22.954 - 01 06 07 D6 FF 60 28 9E (主卧空调关)
2024-08-18 13:56:23.516 - 01 06 07 D9 FF 60 18 9D (次卧空调关)
2024-08-18 13:56:23.550 - 01 06 07 D9 FF 60 18 9D (次卧空调关)
2024-08-18 13:56:24.116 - 01 06 07 D9 FF 60 18 9D (次卧空调关)
2024-08-18 13:56:24.148 - 01 06 07 D9 FF 60 18 9D (次卧空调关)
2024-08-18 13:56:24.707 - 01 06 07 DC FF 60 08 9C (书房空调关)
2024-08-18 13:56:24.753 - 01 06 07 DC FF 60 08 9C (书房空调关)
2024-08-18 13:56:25.319 - 01 06 07 DC FF 60 08 9C (书房空调关)
2024-08-18 13:56:25.344 - 01 06 07 DC FF 60 08 9C (书房空调关)
2024-08-18 13:56:25.914 - 09 06 00 0F 02 02 38 20 (提示音咚)
2024-08-18 13:56:26.460 - 1A FF FF FF 56 00 00 00 0F (人体红外感应地址-内卫, 关闭内卫感应)
2024-08-18 13:56:27.003 - 1A FF FF FF 55 00 00 00 0F (人体红外感应地址-外卫, 关闭外卫感应)
2024-08-18 13:56:27.105 - BC BC
2024-08-18 13:56:27.561 - 1A FF FF FF 57 00 00 00 0F (关闭厨房感应)
2024-08-18 13:56:28.108 - 1A 20 07 00 93 00 01 00 0F (自保持开关地址-设备区顶, 设备区顶灯关)
2024-08-18 13:56:29.156 - 1A 20 07 01 40 00 01 00 0F (自保持开关地址-内卫顶灯, 内卫顶灯关)
2024-08-18 13:56:30.200 - 1A 20 07 01 55 00 01 00 0F (自保持开关地址-主卧顶灯, 主卧顶灯只关)
2024-08-18 13:56:31.245 - 1A 20 07 00 42 00 01 00 0F (自保持开关地址-外卫顶灯, 外卫顶灯关)
2024-08-18 13:56:32.293 - 55 0D 31 00 00 00 01 94 (书房顶灯只关)
2024-08-18 13:56:33.336 - 55 0A 31 00 00 00 01 91 (厨房顶灯一关)
2024-08-18 13:56:34.388 - 55 0A 31 00 00 00 02 92 (厨房顶灯二关)
2024-08-18 13:56:35.425 - 55 0B 31 00 00 00 01 92 (厨房风扇只关)
2024-08-18 13:56:36.478 - 55 0C 31 00 00 00 01 93 (餐厅顶灯关)
2024-08-18 13:56:37.516 - 1A 20 07 01 30 00 01 00 0F (自保持开关地址-西阳顶灯, 西阳顶灯关)
2024-08-18 13:56:38.571 - 1A 18 05 21 89 00 01 00 0F (自保持开关地址-客厅顶灯, 客厅顶灯一关)
2024-08-18 13:56:39.623 - 1A 18 05 01 94 00 01 00 0F (自保持开关地址-客厅顶灯, 客厅顶灯二关)
2024-08-18 13:56:40.664 - 1A 20 07 00 70 00 01 00 0F (自保持开关地址-次卧顶灯, 次卧顶灯只关)
2024-08-18 13:56:41.713 - 1A 18 05 10 31 00 01 00 0F (自保持开关地址-门厅顶灯, 门厅顶灯关)
2024-08-18 13:56:42.757 - 1A FF FF FF 04 00 03 02 (继电器地址-东阳衣架, 东阳衣架照明关)
2024-08-18 13:56:43.308 - 09 06 00 0F 02 02 38 20 (提示音咚)
2024-08-18 13:56:43.851 - A5 00 A6 FE 01 AA (餐厅窗帘开)
2024-08-18 13:56:44.393 - FF FF FF FF 0A 00 01 00 (继电器地址-东阳窗帘, 东阳窗帘开)
2024-08-18 13:56:44.952 - 1A BE B0 DC 04 00 01 00 (继电器地址-西阳窗帘, 西阳窗帘开)
2024-08-18 13:56:45.547 - FF FF FF FF 0E 00 01 00 (继电器地址-西阳小窗帘, 西阳小窗帘开)
2024-08-18 13:56:46.099 - 1A 22 33 62 0F 00 00 01 0F (正反转地址-内卫卷帘, 内卫卷帘升)
2024-08-18 13:56:46.641 - A5 00 52 FE 01 AA (主卧窗帘开)
2024-08-18 13:56:47.184 - A5 00 53 FF 00 AA (主卧纱帘开)
2024-08-18 13:56:47.743 - A5 00 76 FE 01 AA (次卧窗帘开)
2024-08-18 13:56:48.285 - A5 00 21 FE 01 AA (次卧纱帘开)
2024-08-18 13:56:48.829 - A5 00 D2 FE 01 AA 22 0D (书房窗帘开)
2024-08-18 13:56:49.390 - 1A BE B0 DC 09 00 01 00 (继电器地址-客厅窗帘, 客厅窗帘开)
2024-08-18 13:56:49.934 - 1A BE B0 DC 0A 00 02 00 (继电器地址-客厅纱帘, 客厅纱帘开)
2024-08-18 13:56:50.486 - 09 06 00 0F 02 02 38 20 (提示音咚)
2024-08-18 13:56:51.533 - 1A EC A0 DC 02 00 00 00 0F (自保持开关地址-天花12V供电, 天花12V 供电关)
2024-08-18 13:56:52.082 - 1A EC A0 DC 02 00 00 00 0F (自保持开关地址-天花12V供电, 天花12V 供电关)
2024-08-18 13:56:52.624 - 1A EC A0 DC 01 00 00 00 0F (自保持开关地址-电视、设备12V供电, 12V 电视供电关)
2024-08-18 13:56:53.166 - 1A EC A0 DC 01 00 00 00 0F (自保持开关地址-电视、设备12V供电, 12V 电视供电关)
2024-08-18 13:56:53.727 - 1A EC A0 DC 04 00 01 00 0F (自保持开关地址-次卧西阳内外卫供电, 内卫外卫关)
2024-08-18 13:56:54.272 - 1A EC A0 DC 04 00 01 00 0F (自保持开关地址-次卧西阳内外卫供电, 内卫外卫关)
2024-08-18 13:57:12.267 - 09 06 00 0F 02 02 38 20 (提示音咚)
2024-08-18 13:57:12.810 - 1A 27 89 12 AA 00 00 00 0F (状态寄存器地址, 无人状态)
2024-08-18 13:57:13.361 - 1A 27 89 12 AA 00 00 00 0F (状态寄存器地址, 无人状态)
2024-08-18 13:57:13.951 - A1 11 11 11 4D (天花供电关闭确认)
2024-08-18 13:57:14.175 - 1A EC A0 DC 02 86 86 86 0F (查询天花供电状态, 自保持开关地址-天花12V供电)
2024-08-18 13:57:14.614 - 1A EC A0 DC 02 00 01 0F (自保持开关地址-天花12V供电)
2024-08-18 13:57:16.998 - A1 11 11 11 4E (卫生供电关闭确认)
2024-08-18 13:57:17.222 - 1A EC A0 DC 04 86 86 86 0F (查询卫生间供电状态, 自保持开关地址-次卧西阳内外卫供电)
2024-08-18 13:57:17.653 - 1A EC A0 DC 04 01 00 0F (自保持开关地址-次卧西阳内外卫供电)
2024-08-18 13:57:20.029 - A1 11 11 11 4F (电视供电关闭确认)
2024-08-18 13:57:20.252 - 1A EC A0 DC 01 86 86 86 0F (查询电视供电状态, 自保持开关地址-电视、设备12V供电)
2024-08-18 13:57:20.686 - 1A EC A0 DC 01 00 01 0F (自保持开关地址-电视、设备12V供电)
2024-08-18 13:57:23.077 - 09 06 00 0F 02 02 38 20 (提示音咚)
2024-08-18 13:57:23.629 - 09 06 00 0F 02 02 38 20 (提示音咚)
2024-08-18 13:57:24.178 - EE 00 00 B1 00 00 02 FF FC FF FF (情景完成返回主页)
2024-08-18 13:57:25.262 - BA BA EE EE BA BA (离家设置信科变量)
2024-08-18 13:57:26.316 - A1 11 11 11 46 (天热离家遮阳)
2024-08-18 13:57:26.539 - 1A 27 89 12 AA 86 86 86 0F (查询寄存器状态, 状态寄存器地址)
2024-08-18 13:57:26.921 - 1A 27 89 12 AA 00 00 00 00 00 00 00 00 00 00 00 01 00 00 00 00 0F (状态寄存器地址)
2024-08-18 13:57:27.544 - 19 08 24 03 DD 00 05 00 01 (调用情景-天热遮阳关帘)
2024-08-18 13:57:28.086 - EE 00 00 B1 00 00 00 FF FC FF FF (情景执行提示)
2024-08-18 13:57:28.664 - 09 06 00 0F 02 01 78 21 (提示音叮)
2024-08-18 13:57:29.209 - A5 00 A2 FF 00 AA (餐厅纱帘关)
2024-08-18 13:57:30.255 - A5 00 A6 FF 00 AA (餐厅窗帘关)
2024-08-18 13:57:30.303 - 55 00 A6 01 00 0E 01 75 AA 55 00 A6 01 00 0E 01 75 AA (餐厅窗帘电机状态返回)
2024-08-18 13:57:31.356 - A5 00 53 FE 01 AA (主卧纱帘关)
2024-08-18 13:57:31.404 - 55 00 53 02 02 22 02 30 AA 55 00 53 02 02 22 02 30 AA (主卧纱帘电机状态返回)
2024-08-18 13:57:32.441 - A5 00 52 FF 00 AA (主卧窗帘关)
2024-08-18 13:57:33.496 - A5 00 21 FF 00 AA (次卧纱帘关)
2024-08-18 13:57:33.547 - 55 00 21 01 00 0D 01 34 AA 55 00 21 01 00 0D 01 34 AA (次卧纱帘电机状态返回)
2024-08-18 13:57:34.584 - A5 00 76 FF 00 AA (次卧窗帘关)
2024-08-18 13:57:34.643 - 55 00 76 01 00 0E 01 1B AA 55 00 76 01 00 0E 01 1B AA (次卧窗帘电机状态返回)
2024-08-18 13:57:35.689 - A5 00 B7 FF 00 AA 22 0D (书房纱帘关)
2024-08-18 13:57:36.732 - A5 00 D2 FF 00 AA 22 0C (书房窗帘关)
2024-08-18 13:57:36.780 - 55 00 D2 01 00 0E 00 F2 AA 55 00 D2 01 00 0E 00 F2 AA (书房窗帘电机状态返回)
2024-08-18 13:57:38.327 - 1A 22 33 62 5E 00 02 01 0F (正反转地址-厨房卷帘三, 厨房卷帘一降)
2024-08-18 13:57:38.839 - 55 00 A6 00 01 67 01 75 AA 55 00 A6 00 01 67 01 75 AA (餐厅窗帘电机状态返回)
2024-08-18 13:57:39.380 - 1A 22 33 62 56 00 02 01 0F (正反转地址-厨房卷帘二, 厨房卷帘二降)
2024-08-18 13:57:40.420 - 1A 22 33 62 4F 00 00 01 0F (正反转地址-厨房卷帘一, 厨房卷帘三降)
2024-08-18 13:57:40.726 - 55 00 21 00 01 27 01 34 AA 55 00 21 00 01 27 01 34 AA (次卧纱帘电机状态返回)
2024-08-18 13:57:41.470 - 1A BE B0 DC 04 00 02 00 (继电器地址-西阳窗帘, 西阳窗帘关)
2024-08-18 13:57:42.060 - 55 00 53 00 00 0C 02 30 AA 55 00 53 00 00 0C 02 30 AA (主卧纱帘电机状态返回)
2024-08-18 13:57:42.512 - FF FF FF FF 0E 00 02 00 (继电器地址-西阳小窗帘, 西阳小窗帘关)
2024-08-18 13:57:43.566 - 1A BE B0 DC 03 00 03 00 (继电器地址-西阳天幕, 西阳天幕关)
2024-08-18 13:57:44.093 - 55 20 20 00 02 09 02 16 AA 55 20 20 00 02 09 02 16 AA (主卧窗帘电机状态返回)
2024-08-18 13:57:44.611 - 1A BE B0 DC 03 00 03 00 (继电器地址-西阳天幕, 西阳天幕关)
2024-08-18 13:57:44.723 - 3E B5 15
2024-08-18 13:57:44.738 - D2 00 00 E5 00 F2 AA
2024-08-18 13:57:45.658 - 09 06 00 0F 02 02 38 20 (提示音咚)
2024-08-18 13:57:46.207 - EE 00 00 B1 00 00 02 FF FC FF FF (情景完成返回主页)
2024-08-18 14:22:00.499 - 1A BE B0 DC 04 (继电器地址-西阳窗帘)
2024-08-18 14:22:00.642 - FE
2024-08-18 14:25:04.086 - 1A BE B0 DC 02 FC (正反转地址-外卫卷帘)
2024-08-18 14:25:04.210 - FF
2024-08-18 14:25:07.912 - 1A BE B0 DC 0A (继电器地址-客厅纱帘)
2024-08-18 14:25:08.049 - FE
2024-08-18 14:31:04.636 - 1A BE B0 DC 09 (继电器地址-客厅窗帘)
2024-08-18 14:44:57.997 - FF FF FF FF 0A (继电器地址-东阳窗帘)
2024-08-18 14:44:58.130 - FF
2024-08-18 15:00:46.812 - 1A FF 03 00 00 86 86 86 0F (调用查询模块-主卧空调开关查询, 主卧空调虚拟地址)
2024-08-18 15:00:47.034 - 01 04 07 DC 00 01 F1 44 (查询主卧空调开关状态)
2024-08-18 15:00:47.068 - 01 04 02 70 00 9C F0
2024-08-18 15:00:48.039 - 1A FF 03 00 00 00 00 0F (主卧空调虚拟地址)
2024-08-18 15:00:48.190 - 1A FF 04 00 00 86 86 86 0F (调用查询模块-次卧空调开关查询, 次卧空调虚拟地址)
2024-08-18 15:00:48.421 - 01 04 07 E2 00 01 90 88 (查询次卧空调开关状态)
2024-08-18 15:00:48.446 - 01 04 02 70 00 9C F0
2024-08-18 15:00:49.425 - 1A FF 04 00 00 00 00 0F (次卧空调虚拟地址)
2024-08-18 15:00:49.537 - 1A FF 05 00 00 86 86 86 0F (调用查询模块-书房空调开关查询, 书房空调虚拟地址)
2024-08-18 15:00:49.772 - 01 04 07 E8 00 01 B0 8A (查询书房空调开关状态)
2024-08-18 15:00:49.792 - 01 04 02 70 00 9C F0
2024-08-18 15:00:50.775 - 1A FF 05 00 00 00 00 0F (书房空调虚拟地址)
2024-08-18 15:00:50.911 - 1A FF 02 00 00 86 86 86 0F (调用查询模块-餐厅空调开关查询, 餐厅空调虚拟地址)
2024-08-18 15:00:51.132 - 01 04 07 D6 00 01 D1 46 (查询餐厅空调开关状态)
2024-08-18 15:00:51.163 - 01 04 02 70 00 9C F0
2024-08-18 15:00:52.135 - 1A FF 02 00 00 00 00 0F (餐厅空调虚拟地址)
2024-08-18 15:00:52.288 - 1A FF 01 00 00 86 86 86 0F (调用查询模块-客厅空调开关查询, 客厅空调虚拟地址)
2024-08-18 15:00:52.509 - 01 04 07 D0 00 01 31 47 (查询客厅空调开关状态)
2024-08-18 15:00:52.533 - 01 04 02 70 00 9C F0
2024-08-18 15:00:53.511 - 1A FF 01 00 00 00 00 0F (客厅空调虚拟地址)
2024-08-18 15:00:53.634 - 1A 10 00 00 00 86 86 86 0F (调用查询模块-主卧测温转换, 主卧温湿度虚拟地址)
2024-08-18 15:00:53.857 - 1D 03 00 00 00 02 C6 57 (查询主卧温湿度)
2024-08-18 15:00:53.886 - 1D 03 04 02 38 01 19 67 DD (主卧温湿度返回)
2024-08-18 15:00:54.878 - 1A 10 00 00 00 00 00 01 00 00 01 00 00 01 01 19 01 02 38 01 00 00 01 00 00 01 0F (主卧温湿度虚拟地址)
2024-08-18 15:00:55.008 - 1A 11 00 00 00 86 86 86 0F (调用查询模块-次卧测温转换, 次卧温湿度虚拟地址)
2024-08-18 15:00:55.229 - 11 03 00 00 00 02 C6 9B (查询次卧温湿度)
2024-08-18 15:00:55.260 - 11 03 04 02 18 01 1D AB D4 (次卧温湿度返回)
2024-08-18 15:00:56.250 - 1A 11 00 00 00 00 00 01 00 00 01 00 00 01 01 1D 01 02 18 01 00 00 01 00 00 01 0F (次卧温湿度虚拟地址)
2024-08-18 15:00:56.384 - 1A 12 00 00 00 86 86 86 0F (调用查询模块-书房测温转换, 书房温湿度虚拟地址)
2024-08-18 15:00:56.605 - 12 03 00 00 00 02 C6 A8 (查询书房温湿度)
2024-08-18 15:00:56.622 - 12 03 04 02 1D 01 2C 49 01 (书房温湿度返回)
2024-08-18 15:00:57.625 - 1A 12 00 00 00 00 00 01 00 00 01 00 00 01 01 2C 01 02 1D 01 00 00 01 00 00 01 0F (书房温湿度虚拟地址)
2024-08-18 15:00:57.761 - 1A 13 00 00 00 86 86 86 0F (调用查询模块-外卫测温转换, 外卫温湿度虚拟地址)
2024-08-18 15:00:57.982 - 13 03 00 00 00 02 C7 79 (查询外卫温湿度)
2024-08-18 15:00:58.005 - 13 03 04 01 F4 01 1F C8 64 (外卫温湿度返回)
2024-08-18 15:00:59.002 - 1A 13 00 00 00 00 00 01 00 00 01 00 00 01 01 1F 01 01 F4 01 00 00 01 00 00 01 0F (外卫温湿度虚拟地址)
2024-08-18 15:00:59.138 - 1A 14 00 00 00 86 86 86 0F (调用查询模块-内卫测温转换, 内卫温湿度虚拟地址)
2024-08-18 15:00:59.359 - 14 03 00 00 00 02 C6 CE (查询内卫温湿度)
2024-08-18 15:00:59.391 - 14 03 04 02 18 01 20 3F 05 (内卫温湿度返回)
2024-08-18 15:01:00.381 - 1A 14 00 00 00 00 00 01 00 00 01 00 00 01 01 20 01 02 18 01 00 00 01 00 00 01 0F (内卫温湿度虚拟地址)
2024-08-18 15:01:00.517 - 1A 15 00 00 00 86 86 86 0F (调用查询模块-客厅测温转换, 客厅温湿度虚拟地址)
2024-08-18 15:01:00.738 - 15 03 00 00 00 02 C7 1F (查询客厅温湿度)
2024-08-18 15:01:00.755 - 15 03 04 02 40 01 15 6E 01 (客厅温湿度返回)
2024-08-18 15:01:01.759 - 1A 15 00 00 00 00 00 01 00 00 01 00 00 01 01 15 01 02 40 01 00 00 01 00 00 01 0F (客厅温湿度虚拟地址)
2024-08-18 15:01:01.880 - 1A 16 00 00 00 86 86 86 0F (调用查询模块-机柜测温转换, 机柜温湿度虚拟地址)
2024-08-18 15:01:02.104 - 16 03 00 00 00 02 C7 2C (查询机柜温湿度)
2024-08-18 15:01:02.136 - 16 03 04 01 D0 01 49 5D 51 (机柜温湿度返回)
2024-08-18 15:01:03.137 - 1A 16 00 00 00 00 00 01 00 00 01 00 00 01 01 49 01 01 D0 01 00 00 01 00 00 01 0F (机柜温湿度虚拟地址)
2024-08-18 15:01:03.256 - 1A 0E 00 00 00 86 86 86 0F (调用查询模块-厨房测温转换, 厨房温湿度虚拟地址)
2024-08-18 15:01:03.477 - 0E 03 00 00 00 02 C4 F4 (查询厨房温湿度)
2024-08-18 15:01:03.507 - 0E 03 04 01 E1 01 35 95 7E (厨房温湿度返回)
2024-08-18 15:01:04.511 - 1A 0E 00 00 00 00 00 01 00 00 01 00 00 01 01 35 01 01 E1 01 00 00 01 00 00 01 0F (厨房温湿度虚拟地址)
2024-08-18 15:01:04.640 - 1A 0F 00 00 00 86 86 86 0F (调用查询模块-餐厅测温转换, 餐厅温湿度虚拟地址)
2024-08-18 15:01:04.855 - 1C 03 00 00 00 02 C7 86 (查询餐厅温湿度)
2024-08-18 15:01:04.879 - 1C 03 04 02 0C 01 2A 76 C6 (餐厅温湿度返回)
2024-08-18 15:01:05.884 - 1A 0F 00 00 00 00 00 01 00 00 01 00 00 01 01 2A 01 02 0C 01 00 00 01 00 00 01 0F (餐厅温湿度虚拟地址)
2024-08-18 15:01:05.997 - 1A 20 00 00 00 86 86 86 0F (调用查询模块-阳台测温湿气压转换, 阳台温湿气压虚拟地址)
2024-08-18 15:01:06.233 - 20 03 00 00 00 03 03 7A (查询阳台温湿度气压)
2024-08-18 15:01:06.252 - 20 03 06 01 86 01 4B 26 E1 96 E9 (阳台温湿度返回)
2024-08-18 15:01:06.746 - 1A 20 00 00 00 00 00 01 00 00 01 00 00 01 01 86 01 01 4B 01 26 E1 01 00 00 01 0F (阳台温湿气压虚拟地址)
2024-08-18 15:01:06.879 - 1A 21 00 00 00 86 86 86 0F (调用查询模块-储藏室测温湿气压转换, 储藏室温湿气压虚拟地址)
2024-08-18 15:01:07.100 - 21 03 00 00 00 03 02 AB (查询储藏室温湿度气压)
2024-08-18 15:01:07.117 - 21 03 06 01 48 02 43 26 E3 F2 EE (储藏室温湿度返回)
2024-08-18 15:01:07.628 - 1A 21 00 00 00 00 00 01 00 00 01 00 00 01 01 48 01 02 43 01 26 E3 01 00 00 01 0F (储藏室温湿气压虚拟地址)
2024-08-18 15:01:07.753 - 1A 22 00 00 00 86 86 86 0F (调用查询模块-室外测温湿气压转换, 室外温湿气压虚拟地址)
2024-08-18 15:01:07.974 - 22 03 00 00 00 03 02 98 (查询室外温湿度气压)
2024-08-18 15:01:07.990 - 22 03 06 01 55 02 38 26 E2 BB C5 (阳台温湿度返回)
2024-08-18 15:01:08.501 - 1A 22 00 00 00 00 00 01 00 00 01 00 00 01 01 55 01 02 38 01 26 E2 01 00 00 01 0F (室外温湿气压虚拟地址)
2024-08-18 15:01:37.444 - 1A 22 00 00 00 86 86 86 0F (调用查询模块-室外测温湿气压转换, 室外温湿气压虚拟地址)
2024-08-18 15:01:37.682 - 22 03 00 00 00 03 02 98 (查询室外温湿度气压)
2024-08-18 15:01:37.699 - 22 03 06 01 55 02 38 26 E2 BB C5 (阳台温湿度返回)
2024-08-18 15:01:38.193 - 1A 22 00 00 00 00 00 01 00 00 01 00 00 01 01 55 01 02 38 01 26 E2 01 00 00 01 0F (室外温湿气压虚拟地址)
2024-08-18 15:01:39.485 - 1A 21 00 00 00 86 86 86 0F (调用查询模块-储藏室测温湿气压转换, 储藏室温湿气压虚拟地址)
2024-08-18 15:01:39.708 - 21 03 00 00 00 03 02 AB (查询储藏室温湿度气压)
2024-08-18 15:01:39.724 - 21 03 06 01 48 02 43 26 E3 F2 EE (储藏室温湿度返回)
2024-08-18 15:01:40.235 - 1A 21 00 00 00 00 00 01 00 00 01 00 00 01 01 48 01 02 43 01 26 E3 01 00 00 01 0F (储藏室温湿气压虚拟地址)
2024-08-18 15:01:43.379 - 1A 20 00 00 00 86 86 86 0F (调用查询模块-阳台测温湿气压转换, 阳台温湿气压虚拟地址)
2024-08-18 15:01:43.600 - 20 03 00 00 00 03 03 7A (查询阳台温湿度气压)
2024-08-18 15:01:43.617 - 20 03 06 01 86 01 4C 26 E1 27 28 (阳台温湿度返回)
2024-08-18 15:01:44.127 - 1A 20 00 00 00 00 00 01 00 00 01 00 00 01 01 86 01 01 4C 01 26 E1 01 00 00 01 0F (阳台温湿气压虚拟地址)
2024-08-18 15:01:46.487 - 1A 20 00 00 00 86 86 86 0F (调用查询模块-阳台测温湿气压转换, 阳台温湿气压虚拟地址)
2024-08-18 15:01:46.714 - 20 03 00 00 00 03 03 7A (查询阳台温湿度气压)
2024-08-18 15:01:46.731 - 20 03 06 01 86 01 4C 26 E1 27 28 (阳台温湿度返回)
2024-08-18 15:01:47.236 - 1A 20 00 00 00 00 00 01 00 00 01 00 00 01 01 86 01 01 4C 01 26 E1 01 00 00 01 0F (阳台温湿气压虚拟地址)
2024-08-18 15:06:46.942 - 1A FF FF FF 60 (红外总线地址-主卧发射设备)
2024-08-18 15:18:44.600 - FF FF FF FF 0E (继电器地址-西阳小窗帘)
2024-08-18 15:18:44.728 - FE
2024-08-18 15:20:06.892 - 1A BE B0 DC 03 FC (继电器地址-西阳天幕)
2024-08-18 15:20:07.032 - FF
2024-08-18 15:38:22.890 - 16 03 01 00 EE 01 00 00 EA 03 03 0E 87 68 5B DE 64 19 C8 1F 04 31 C4 61 60 08 A3 9D D5 37 D2 E2
2024-08-18 15:38:22.938 - A1 74 E3 DF 59 8A 5B A9 AC B9 5D 20 D1 17 16 C8 F8 6D 94 26 B1 15 FD FB FC 53 27 D8 E8 CF 81 7A
2024-08-18 15:38:22.970 - FD FF 70 70 72 5E F4 63 07 FF DB E1 00 26 CC A8 CC A9 C0 2F C0 30 C0 2B C0 2C C0 13 C0 09 C0 14
2024-08-18 15:38:23.002 - C0 0A 00 9C 00 9D 00 2F 00 35 C0 12 00 0A 13 03 13 01 13 02 01 00 00 7B 00 05 00 05 01 00 00 00
2024-08-18 15:38:23.034 - 00 00 0A 00 0A 00 08 00 1D 00 17 00 18 00 19 00 0B 00 02 01 00 00 0D 00 1A 00 18 08 04 04 03 08
2024-08-18 15:38:23.066 - 07 08 05 08 06 04 01 05 01 06 01 05 03 06 03 02 01 02 03 FF 01 00 01 00 00 12 00 00 00 2B 00 09
2024-08-18 15:38:23.098 - 08 03 04 03 03 03 02 03 01 00 33 00 26 00 24 00 1D 00 20 2A B1 37 9E B7 76 D2 A0 DA 99 CF 70 77
2024-08-18 15:38:23.114 - 22 61 A8 FB 74 41 5E 34 11 29 15 73 B7 C9 9A 0F 47 F7 14
2024-08-18 15:38:34.831 - 47 45 54 20 2F 20 48 54 54 50 2F 31 2E 31 0D 0A 48 6F 73 74 3A 20 31 31 35 2E 32 33 39 2E 32 33
2024-08-18 15:38:34.846 - 33 2E 31 34 32 3A 34 32 32 31 0D 0A 0D 0A
2024-08-18 16:21:20.342 - 1A FF FF FF 04 (继电器地址-东阳衣架)
2024-08-18 16:21:20.485 - 00
2024-08-18 16:45:08.569 - 1A BE B0 DC 01 (继电器地址-回水泵点动)
2024-08-18 16:45:08.710 - FF
2024-08-18 17:42:06.880 - 1A BE B0 DC 04 FC (继电器地址-西阳窗帘)
2024-08-18 17:42:07.012 - FF
2024-08-18 17:45:38.861 - 1A BE B0 DC 02 FC (正反转地址-外卫卷帘)
2024-08-18 17:45:39.002 - FF
2024-08-18 17:45:44.087 - 1A BE B0 DC 0A FC (继电器地址-客厅纱帘)
2024-08-18 17:45:44.231 - FF
2024-08-18 17:51:29.664 - 1A BE B0 DC 09 (继电器地址-客厅窗帘)
2024-08-18 17:51:29.792 - FF
2024-08-18 18:03:13.233 - 1A FF 03 00 00 86 86 86 0F (调用查询模块-主卧空调开关查询, 主卧空调虚拟地址)
2024-08-18 18:03:13.456 - 01 04 07 DC 00 01 F1 44 (查询主卧空调开关状态)
2024-08-18 18:03:13.488 - 01 04 02 70 00 9C F0
2024-08-18 18:03:14.462 - 1A FF 03 00 00 00 00 0F (主卧空调虚拟地址)
2024-08-18 18:03:14.610 - 1A FF 04 00 00 86 86 86 0F (调用查询模块-次卧空调开关查询, 次卧空调虚拟地址)
2024-08-18 18:03:14.831 - 01 04 07 E2 00 01 90 88 (查询次卧空调开关状态)
2024-08-18 18:03:14.860 - 01 04 02 70 00 9C F0
2024-08-18 18:03:15.835 - 1A FF 04 00 00 00 00 0F (次卧空调虚拟地址)
2024-08-18 18:03:16.009 - 1A FF 05 00 00 86 86 86 0F (调用查询模块-书房空调开关查询, 书房空调虚拟地址)
2024-08-18 18:03:16.233 - 01 04 07 E8 00 01 B0 8A (查询书房空调开关状态)
2024-08-18 18:03:16.249 - 01 04 02 70 00 9C F0
2024-08-18 18:03:17.230 - 1A FF 05 00 00 00 00 0F (书房空调虚拟地址)
2024-08-18 18:03:17.477 - 1A FF 02 00 00 86 86 86 0F (调用查询模块-餐厅空调开关查询, 餐厅空调虚拟地址)
2024-08-18 18:03:17.706 - 01 04 07 D6 00 01 D1 46 (查询餐厅空调开关状态)
2024-08-18 18:03:17.732 - 01 04 02 70 00 9C F0
2024-08-18 18:03:18.709 - 1A FF 02 00 00 00 00 0F (餐厅空调虚拟地址)
2024-08-18 18:03:18.981 - 1A FF 01 00 00 86 86 86 0F (调用查询模块-客厅空调开关查询, 客厅空调虚拟地址)
2024-08-18 18:03:19.202 - 01 04 07 D0 00 01 31 47 (查询客厅空调开关状态)
2024-08-18 18:03:19.236 - 01 04 02 70 00 9C F0
2024-08-18 18:03:20.206 - 1A FF 01 00 00 00 00 0F (客厅空调虚拟地址)
2024-08-18 18:03:20.333 - 1A 10 00 00 00 86 86 86 0F (调用查询模块-主卧测温转换, 主卧温湿度虚拟地址)
2024-08-18 18:03:20.563 - 1D 03 00 00 00 02 C6 57 (查询主卧温湿度)
2024-08-18 18:03:20.580 - 1D 03 04 02 6B 01 21 96 1E (主卧温湿度返回)
2024-08-18 18:03:21.583 - 1A 10 00 00 00 00 00 01 00 00 01 00 00 01 01 21 01 02 6B 01 00 00 01 00 00 01 0F (主卧温湿度虚拟地址)
2024-08-18 18:03:21.804 - 1A 11 00 00 00 86 86 86 0F (调用查询模块-次卧测温转换, 次卧温湿度虚拟地址)
2024-08-18 18:03:22.025 - 11 03 00 00 00 02 C6 9B (查询次卧温湿度)
2024-08-18 18:03:22.042 - 11 03 04 02 60 01 29 2A 1A (次卧温湿度返回)
2024-08-18 18:03:23.046 - 1A 11 00 00 00 00 00 01 00 00 01 00 00 01 01 29 01 02 60 01 00 00 01 00 00 01 0F (次卧温湿度虚拟地址)
2024-08-18 18:03:23.267 - 1A 12 00 00 00 86 86 86 0F (调用查询模块-书房测温转换, 书房温湿度虚拟地址)
2024-08-18 18:03:23.491 - 12 03 00 00 00 02 C6 A8 (查询书房温湿度)
2024-08-18 18:03:23.507 - 12 03 04 02 58 01 33 19 1C (书房温湿度返回)
2024-08-18 18:03:23.625 - EE 00 00 B1 00 00 00 FF FC FF FF (情景执行提示)
2024-08-18 18:03:24.220 - 09 06 00 0F 02 01 78 21 (提示音叮)
2024-08-18 18:03:24.512 - 1A 12 00 00 00 00 00 01 00 00 01 00 00 01 01 78 01 0F 02 01 00 00 01 00 00 01 0F (书房温湿度虚拟地址)
2024-08-18 18:03:24.646 - 1A 13 00 00 00 86 86 86 0F (调用查询模块-外卫测温转换, 外卫温湿度虚拟地址)
2024-08-18 18:03:24.767 - A1 11 11 11 40 (客厅空调自动开)
2024-08-18 18:03:24.867 - 13 03 00 00 00 02 C7 79 (查询外卫温湿度)
2024-08-18 18:03:24.901 - 13 03 04 02 18 01 27 08 07 (外卫温湿度返回)
2024-08-18 18:03:25.900 - 1A 13 00 00 00 00 00 01 00 00 01 00 00 01 01 27 01 02 18 01 00 00 01 00 00 01 0F (外卫温湿度虚拟地址)
2024-08-18 18:03:26.126 - 1A 14 00 00 00 86 86 86 0F (调用查询模块-内卫测温转换, 内卫温湿度虚拟地址)
2024-08-18 18:03:26.347 - 14 03 00 00 00 02 C6 CE (查询内卫温湿度)
2024-08-18 18:03:26.364 - 14 03 04 02 34 01 25 3E CF (内卫温湿度返回)
2024-08-18 18:03:27.368 - 1A 14 00 00 00 00 00 01 00 00 01 00 00 01 01 25 01 02 34 01 00 00 01 00 00 01 0F (内卫温湿度虚拟地址)
2024-08-18 18:03:27.559 - 1A 15 00 00 00 86 86 86 0F (调用查询模块-客厅测温转换, 客厅温湿度虚拟地址)
2024-08-18 18:03:27.782 - 15 03 00 00 00 02 C7 1F (查询客厅温湿度)
2024-08-18 18:03:27.798 - 15 03 04 02 78 01 24 2E 18 (客厅温湿度返回)
2024-08-18 18:03:28.803 - 1A 15 00 00 00 00 00 01 00 00 01 00 00 01 01 24 01 02 78 01 00 00 01 00 00 01 0F (客厅温湿度虚拟地址)
2024-08-18 18:03:28.813 - A1 11 11 11 41 (餐厅空调自动开)
2024-08-18 18:03:29.042 - 19 08 24 03 F0 BB 78 02 02 00
2024-08-18 18:03:29.090 - 23 AA 56 02 12 03 1C 18 08 12 07 73 65 6F 6B 65 6E 64
2024-08-18 18:03:29.584 - 1A 16 00 00 00 86 86 86 0F (调用查询模块-机柜测温转换, 机柜温湿度虚拟地址)
2024-08-18 18:03:30.047 - 01 10 07 D3 00 03 06 70 61 00 01 00 FA 6F 29 (餐厅空调热25度)
2024-08-18 18:03:30.089 - 01 10 07 D3 00 03 06 70 61 00 01 00 FA 6F 29 (餐厅空调热25度)
2024-08-18 18:03:31.569 - 1A 0E 00 00 00 86 86 86 0F (调用查询模块-厨房测温转换, 厨房温湿度虚拟地址)
2024-08-18 18:03:31.790 - 0E 03 00 00 00 02 C4 F4 (查询厨房温湿度)
2024-08-18 18:03:31.817 - 0E 03 04 02 13 01 3D 35 0F (厨房温湿度返回)
2024-08-18 18:03:32.810 - 1A 0E 00 00 00 00 00 01 00 00 01 00 00 01 01 3D 01 02 13 01 00 00 01 00 00 01 0F (厨房温湿度虚拟地址)
2024-08-18 18:03:32.887 - A1 11 11 11 42 (主卧空调自动开)
2024-08-18 18:03:33.014 - 1A 0F 00 00 00 86 86 86 0F (调用查询模块-餐厅测温转换, 餐厅温湿度虚拟地址)
2024-08-18 18:03:33.540 - 09 06 00 0F 02 02 38 20 (提示音咚)
2024-08-18 18:03:34.121 - 01 10 07 D6 00 03 06 70 61 00 01 00 FA 7F 39 (主卧空调热25度)
2024-08-18 18:03:34.155 - 01 10 07 D6 00 03 06 70 61 00 01 00 FA 7F 39 (主卧空调热25度)
2024-08-18 18:03:34.580 - EE 00 00 B1 00 00 02 FF FC FF FF (情景完成返回主页)
2024-08-18 18:03:35.009 - 1A 20 00 00 00 86 86 86 0F (调用查询模块-阳台测温湿气压转换, 阳台温湿气压虚拟地址)
2024-08-18 18:03:35.232 - 20 03 00 00 00 03 03 7A (查询阳台温湿度气压)
2024-08-18 18:03:35.249 - 20 03 06 01 6F 01 B3 26 DB CA DC (阳台温湿度返回)
2024-08-18 18:03:35.758 - 1A 20 00 00 00 00 00 01 00 00 01 00 00 01 01 6F 01 01 B3 01 26 DB 01 00 00 01 0F (阳台温湿气压虚拟地址)
2024-08-18 18:03:36.029 - 1A 21 00 00 00 86 86 86 0F (调用查询模块-储藏室测温湿气压转换, 储藏室温湿气压虚拟地址)
2024-08-18 18:03:36.254 - 21 03 00 00 00 03 02 AB (查询储藏室温湿度气压)
2024-08-18 18:03:36.269 - 21 03 06 01 49 02 63 26 DD 4F 34 (储藏室温湿度返回)
2024-08-18 18:03:36.780 - 1A 21 00 00 00 00 00 01 00 00 01 00 00 01 01 49 01 02 63 01 26 DD 01 00 00 01 0F (储藏室温湿气压虚拟地址)
2024-08-18 18:03:36.987 - 1A 22 00 00 00 86 86 86 0F (调用查询模块-室外测温湿气压转换, 室外温湿气压虚拟地址)
2024-08-18 18:03:37.217 - 22 03 00 00 00 03 02 98 (查询室外温湿度气压)
2024-08-18 18:03:37.242 - 22 03 06 01 4D 02 6B 26 DD 2B C6 (阳台温湿度返回)
2024-08-18 18:03:37.744 - 1A 22 00 00 00 00 00 01 00 00 01 00 00 01 01 4D 01 02 6B 01 26 DD 01 00 00 01 0F (室外温湿气压虚拟地址)
2024-08-18 18:03:37.960 - 1A 15 00 00 00 86 86 86 0F (调用查询模块-客厅测温转换, 客厅温湿度虚拟地址)
2024-08-18 18:03:38.183 - 15 03 00 00 00 02 C7 1F (查询客厅温湿度)
2024-08-18 18:03:38.204 - 15 03 04 02 78 01 24 2E 18 (客厅温湿度返回)
2024-08-18 18:03:39.207 - 1A 15 00 00 00 00 00 01 00 00 01 00 00 01 01 24 01 02 78 01 00 00 01 00 00 01 0F (客厅温湿度虚拟地址)
2024-08-18 18:03:39.507 - 1A 16 00 00 00 86 86 86 0F (调用查询模块-机柜测温转换, 机柜温湿度虚拟地址)
2024-08-18 18:03:39.717 - 16 03 00 00 00 02 C7 2C (查询机柜温湿度)
2024-08-18 18:03:39.751 - 16 03 04 01 F4 01 5C DC 95 (机柜温湿度返回)
2024-08-18 18:03:40.754 - 1A 16 00 00 00 00 00 01 00 00 01 00 00 01 01 5C 01 01 F4 01 00 00 01 00 00 01 0F (机柜温湿度虚拟地址)
2024-08-18 18:03:40.928 - 1A 0F 00 00 00 86 86 86 0F (调用查询模块-餐厅测温转换, 餐厅温湿度虚拟地址)
2024-08-18 18:03:41.162 - 1C 03 00 00 00 02 C7 86 (查询餐厅温湿度)
2024-08-18 18:03:41.183 - 1C 03 04 02 3D 01 34 A7 01 (餐厅温湿度返回)
2024-08-18 18:03:42.183 - 1A 0F 00 00 00 00 00 01 00 00 01 00 00 01 01 34 01 02 3D 01 00 00 01 00 00 01 0F (餐厅温湿度虚拟地址)
2024-08-18 18:03:43.974 - 1A FF 03 00 00 00 00 02 0F (主卧空调虚拟地址)
2024-08-18 18:03:44.920 - 1A FF 03 00 00 86 86 86 0F (调用查询模块-主卧空调开关查询, 主卧空调虚拟地址)
2024-08-18 18:03:45.154 - 01 04 07 DC 00 01 F1 44 (查询主卧空调开关状态)
2024-08-18 18:03:45.176 - 01 04 02 70 01 5D 30
2024-08-18 18:03:46.159 - 1A FF 03 00 00 01 00 0F (主卧空调虚拟地址)
2024-08-18 18:03:48.648 - 1A FF 02 00 00 00 00 02 0F (餐厅空调虚拟地址)
2024-08-18 18:03:49.652 - 1A FF 02 00 00 86 86 86 0F (调用查询模块-餐厅空调开关查询, 餐厅空调虚拟地址)
2024-08-18 18:03:49.887 - 01 04 07 D6 00 01 D1 46 (查询餐厅空调开关状态)
2024-08-18 18:03:49.907 - 01 04 02 70 01 5D 30
2024-08-18 18:03:50.891 - 1A FF 02 00 00 01 00 0F (餐厅空调虚拟地址)
2024-08-18 18:03:51.998 - 1A FF 01 00 00 00 00 02 0F (客厅空调虚拟地址)
2024-08-18 18:03:52.986 - 1A FF 01 00 00 86 86 86 0F (调用查询模块-客厅空调开关查询, 客厅空调虚拟地址)
2024-08-18 18:03:53.210 - 01 04 07 D0 00 01 31 47 (查询客厅空调开关状态)
2024-08-18 18:03:53.238 - 01 04 02 70 00 9C F0
2024-08-18 18:03:54.214 - 1A FF 01 00 00 00 00 0F (客厅空调虚拟地址)
2024-08-18 18:03:56.095 - 1A FF 01 00 00 00 00 02 0F (客厅空调虚拟地址)
2024-08-18 18:03:57.116 - 1A FF 01 00 00 86 86 86 0F (调用查询模块-客厅空调开关查询, 客厅空调虚拟地址)
2024-08-18 18:03:57.339 - 01 04 07 D0 00 01 31 47 (查询客厅空调开关状态)
2024-08-18 18:03:57.369 - 01 04 02 70 00 9C F0
2024-08-18 18:03:58.344 - 1A FF 01 00 00 00 00 0F (客厅空调虚拟地址)
2024-08-18 18:03:59.617 - 1A FF 01 00 00 00 00 02 0F (客厅空调虚拟地址)
2024-08-18 18:04:00.615 - 1A FF 01 00 00 86 86 86 0F (调用查询模块-客厅空调开关查询, 客厅空调虚拟地址)
2024-08-18 18:04:00.836 - 01 04 07 D0 00 01 31 47 (查询客厅空调开关状态)
2024-08-18 18:04:00.860 - 01 04 02 70 00 9C F0
2024-08-18 18:04:01.838 - 1A FF 01 00 00 00 00 0F (客厅空调虚拟地址)
2024-08-18 18:04:03.251 - 1A FF 01 00 00 00 00 02 0F (客厅空调虚拟地址)
2024-08-18 18:04:04.239 - 1A FF 01 00 00 86 86 86 0F (调用查询模块-客厅空调开关查询, 客厅空调虚拟地址)
2024-08-18 18:04:04.462 - 01 04 07 D0 00 01 31 47 (查询客厅空调开关状态)
2024-08-18 18:04:04.490 - 01 04 02 70 00 9C F0
2024-08-18 18:04:05.466 - 1A FF 01 00 00 00 00 0F (客厅空调虚拟地址)
2024-08-18 18:04:06.887 - 1A FF 01 00 00 00 00 02 0F (客厅空调虚拟地址)
2024-08-18 18:04:07.909 - 1A FF 01 00 00 86 86 86 0F (调用查询模块-客厅空调开关查询, 客厅空调虚拟地址)
2024-08-18 18:04:08.131 - 01 04 07 D0 00 01 31 47 (查询客厅空调开关状态)
2024-08-18 18:04:08.163 - 01 04 02 70 00 9C F0
2024-08-18 18:04:09.137 - 1A FF 01 00 00 00 00 0F (客厅空调虚拟地址)
2024-08-18 18:04:14.422 - A1 11 11 11 40 (客厅空调自动开)
2024-08-18 18:04:14.643 - 19 08 24 03 F0 BB 78 02 02 00
2024-08-18 18:04:14.867 - 23 AA 56 02 12 04 0E 18 08 12 07 73 65 6F 6B 65 6E 64
2024-08-18 18:04:15.649 - 01 10 07 D0 00 03 06 70 61 00 02 00 FA 6F 26 (客厅空调冷25度)
2024-08-18 18:04:15.697 - 01 10 07 D0 00 03 06 70 61 00 02 00 FA 6F 26 (客厅空调冷25度)
2024-08-18 18:04:16.703 - 1A 27 89 12 AA 86 86 86 0F (查询寄存器状态, 状态寄存器地址)
2024-08-18 18:04:17.093 - 1A 27 89 12 AA 00 00 00 00 00 00 00 00 00 00 00 01 00 00 00 00 0F (状态寄存器地址)
2024-08-18 18:04:17.263 - 1A EC A0 DC 02 86 86 86 0F (查询天花供电状态, 自保持开关地址-天花12V供电)
2024-08-18 18:04:17.693 - 1A EC A0 DC 02 00 01 0F (自保持开关地址-天花12V供电)
2024-08-18 18:04:17.852 - 1A EC A0 DC 01 86 86 86 0F (查询电视供电状态, 自保持开关地址-电视、设备12V供电)
2024-08-18 18:04:18.284 - 1A EC A0 DC 01 00 01 0F (自保持开关地址-电视、设备12V供电)
2024-08-18 18:04:18.403 - 1A EC A0 DC 03 86 86 86 0F (自保持开关地址-书房餐厅厨房供电)
2024-08-18 18:04:18.829 - 1A EC A0 DC 03 01 01 0F (自保持开关地址-书房餐厅厨房供电)
2024-08-18 18:04:20.257 - 1A FF 01 00 00 00 00 02 0F (客厅空调虚拟地址)
2024-08-18 18:04:21.266 - 1A FF 01 00 00 86 86 86 0F (调用查询模块-客厅空调开关查询, 客厅空调虚拟地址)
2024-08-18 18:04:21.489 - 01 04 07 D0 00 01 31 47 (查询客厅空调开关状态)
2024-08-18 18:04:21.505 - 01 04 02 70 01 5D 30
2024-08-18 18:04:22.485 - 1A FF 01 00 00 01 00 0F (客厅空调虚拟地址)
2024-08-18 18:10:16.522 - FF FF FF FF 0A (继电器地址-东阳窗帘)
2024-08-18 18:10:16.660 - FF
2024-08-18 18:32:36.321 - 1B 03 00 00 00 02 C6 31 (查询室外光线)
2024-08-18 18:32:36.337 - 1B 03 04 00 00 00 18 41 F8 (室外光线返回)
2024-08-18 18:32:36.659 - 1A EC A0 DC 02 00 00 01 0F (自保持开关地址-天花12V供电, 天花12V 供电开)
2024-08-18 18:32:37.373 - 1A FF 01 FF FF FF 60 01 FF 60 01 FF 00 00 0F (调光器地址-公共区域统配地址)
2024-08-18 18:32:38.363 - 19 08 24 03 DD 00 0D 00 01 (调用情景-信科调用进门暗)
2024-08-18 18:32:39.431 - 1A EC A0 DC 01 00 00 01 0F (自保持开关地址-电视、设备12V供电, 12V 电视供电开)
2024-08-18 18:32:39.975 - 1A EC A0 DC 01 00 00 01 0F (自保持开关地址-电视、设备12V供电, 12V 电视供电开)
2024-08-18 18:32:40.536 - 1A EC A0 DC 04 00 01 01 0F (自保持开关地址-次卧西阳内外卫供电, 内卫外卫开)
2024-08-18 18:32:41.080 - 1A EC A0 DC 04 00 01 01 0F (自保持开关地址-次卧西阳内外卫供电, 内卫外卫开)
2024-08-18 18:32:46.114 - 1A 27 89 12 AA 00 00 01 0F (状态寄存器地址, 有人状态)
2024-08-18 18:32:46.659 - 1A 27 89 12 AA 00 00 01 0F (状态寄存器地址, 有人状态)
2024-08-18 18:32:47.215 - 1A BE B0 DC 01 00 01 00 (继电器地址-回水泵点动, 回水泵点动)
2024-08-18 18:32:47.764 - 1A FF FF FF 56 00 00 01 0F (人体红外感应地址-内卫, 打开内卫感应)
2024-08-18 18:32:48.316 - 1A FF FF FF 55 00 00 01 0F (人体红外感应地址-外卫, 打开外卫感应)
2024-08-18 18:32:48.411 - BC BC
2024-08-18 18:32:48.858 - 1A FF FF FF 57 00 00 01 0F (打开厨房感应)
2024-08-18 18:32:49.400 - 1A BE B0 DC 01 00 01 00 (继电器地址-回水泵点动, 回水泵点动)
2024-08-18 18:32:49.959 - A5 00 B7 FF 00 AA 22 0D (书房纱帘关)
2024-08-18 18:32:50.502 - A5 00 A2 FF 00 AA (餐厅纱帘关)
2024-08-18 18:32:51.046 - 09 06 00 0F 02 01 78 21 (提示音叮)
2024-08-18 18:32:51.601 - 09 06 00 0F 02 01 78 21 (提示音叮)
2024-08-18 18:32:52.151 - EE 00 00 B1 00 00 02 FF FC FF FF (情景完成返回主页)
2024-08-18 18:32:52.747 - A1 11 11 11 50 (天花供电打开确认)
2024-08-18 18:32:52.893 - 19 08 24 03 CC 01 54 00 01 (调用内卫感应灯开的按键)
2024-08-18 18:32:52.942 - 1A 0C 02 08 01 FF 45 01 FF 45 01 FF 00 00 0F (调光器地址-内卫射灯, 内卫射灯微光)
2024-08-18 18:32:55.287 - A1 11 11 11 51 (卫生供电打开确认)
2024-08-18 18:32:55.509 - 1A EC A0 DC 04 86 86 86 0F (查询卫生间供电状态, 自保持开关地址-次卧西阳内外卫供电)
2024-08-18 18:32:55.944 - 1A EC A0 DC 04 01 01 0F (自保持开关地址-次卧西阳内外卫供电)
2024-08-18 18:32:57.823 - A1 11 11 11 52 (电视供电打开确认)
2024-08-18 18:32:58.046 - 1A EC A0 DC 01 86 86 86 0F (查询电视供电状态, 自保持开关地址-电视、设备12V供电)
2024-08-18 18:32:58.478 - 1A EC A0 DC 01 01 01 0F (自保持开关地址-电视、设备12V供电)
2024-08-18 18:33:01.492 - 19 08 24 03 CC 00 D3 00 01 (调用厨房感应灯开的按键)
2024-08-18 18:33:01.555 - 55 0A 32 00 00 00 01 92 55 0A 32 00 00 00 02 93 (厨房顶灯一开, 厨房顶灯二开)
2024-08-18 18:33:02.861 - A1 11 11 11 47 (天热回家开帘)
2024-08-18 18:33:03.085 - 1A 27 89 12 AA 86 86 86 0F (查询寄存器状态, 状态寄存器地址)
2024-08-18 18:33:03.468 - 1A 27 89 12 AA 01 00 00 00 00 00 00 00 00 00 00 01 00 00 00 00 0F (状态寄存器地址)
2024-08-18 18:33:04.089 - 19 08 24 03 DD 00 06 00 01 (调用情景-天热遮阳开帘)
2024-08-18 18:33:04.603 - EE 00 00 B1 00 00 00 FF FC FF FF (情景执行提示)
2024-08-18 18:33:05.206 - 09 06 00 0F 02 01 78 21 (提示音叮)
2024-08-18 18:33:05.749 - A5 00 A6 FE 01 AA (餐厅窗帘开)
2024-08-18 18:33:05.796 - 55 00 A6 02 01 67 01 75 AA 55 00 A6 02 01 67 01 75 AA (餐厅窗帘电机状态返回)
2024-08-18 18:33:06.849 - A5 00 52 FE 01 AA (主卧窗帘开)
2024-08-18 18:33:07.887 - A5 00 53 FF 00 AA (主卧纱帘开)
2024-08-18 18:33:07.953 - 55 00 53 01 00 0C 02 30 AA 55 00 53 01 00 0C E2 (主卧纱帘电机状态返回)
2024-08-18 18:33:08.991 - A5 00 76 FE 01 AA (次卧窗帘开)
2024-08-18 18:33:09.050 - 55 00 76 02 01 0E 01 1B AA 55 00 76 02 01 0E 01 1B EA (次卧窗帘电机状态返回)
2024-08-18 18:33:10.087 - A5 00 21 FE 01 AA (次卧纱帘开)
2024-08-18 18:33:10.147 - 55 00 21 02 01 27 01 34 AA 55 00 21 02 01 27 01 F4 (次卧纱帘电机状态返回)
2024-08-18 18:33:11.188 - 1A BE B0 DC 04 00 01 00 (继电器地址-西阳窗帘, 西阳窗帘开)
2024-08-18 18:33:12.226 - FF FF FF FF 0E 00 01 00 (继电器地址-西阳小窗帘, 西阳小窗帘开)
2024-08-18 18:33:13.277 - A5 00 D2 FE 01 AA 22 0D (书房窗帘开)
2024-08-18 18:33:13.329 - 55 00 D2 02 00 E5 00 F2 AA 55 00 D2 02 00 E5 00 F2 AA (书房窗帘电机状态返回)
2024-08-18 18:33:14.362 - 55 00 A6 00 00 0E 01 75 AA 55 00 A6 00 00 0E 01 75 AA (餐厅窗帘电机状态返回)
2024-08-18 18:33:14.383 - 09 06 00 0F 02 02 38 20 (提示音咚)
2024-08-18 18:33:14.978 - EE 00 00 B1 00 00 02 FF FC FF FF (情景完成返回主页)
2024-08-18 18:33:16.099 - 55 00 76 00 00 0E 01 1B AA 55 00 76 00 00 0E 01 1B AA (次卧窗帘电机状态返回)
2024-08-18 18:33:17.487 - 55 00 21 00 00 0D 01 34 AA 55 00 21 00 00 0D 01 34 AA (次卧纱帘电机状态返回)
2024-08-18 18:33:18.891 - 55 20 20 00 00 0E 02 16 AA 55 20 20 00 00 0E 02 16 AA (主卧窗帘电机状态返回)
2024-08-18 18:33:18.991 - 55 00 53 00 02 22 02 30 AA 55 00 53 00 02 22 02 30 AA (主卧纱帘电机状态返回)
2024-08-18 18:33:20.837 - 55 00 D2 00 00 0E 00 F2 AA 55 00 D2 00 00 0E 00 F2 AA (书房窗帘电机状态返回)
2024-08-18 18:33:33.469 - 19 08 24 03 CC 01 55 00 01 (调用外卫感应灯关的按键)
2024-08-18 18:33:33.516 - 1A 0C 02 08 01 FF 00 01 FF 00 01 FF 00 00 0F (调光器地址-内卫射灯, 内卫感应灯关)
2024-08-18 18:34:53.718 - 19 08 24 03 CC 00 D4 00 01 (调用厨房感应灯关的按键)
2024-08-18 18:34:53.749 - 55 0A 31 00 00 00 01 91 55 0A 31 00 00 00 02 92 (厨房顶灯一关, 厨房顶灯二关)
2024-08-18 18:35:07.145 - 19 08 24 03 CC 01 54 00 01 (调用内卫感应灯开的按键)
2024-08-18 18:35:07.192 - 1A 0C 02 08 01 FF 45 01 FF 45 01 FF 00 00 0F (调光器地址-内卫射灯, 内卫射灯微光)
2024-08-18 18:35:32.699 - 19 08 24 03 CC 01 55 00 01 (调用外卫感应灯关的按键)
2024-08-18 18:35:32.731 - 1A 0C 02 08 01 FF 00 01 FF 00 01 FF 00 00 0F (调光器地址-内卫射灯, 内卫感应灯关)
2024-08-18 18:35:39.209 - 19 08 24 03 CC 01 54 00 01 (调用内卫感应灯开的按键)
2024-08-18 18:35:39.243 - 1A 0C 02 08 01 FF 45 01 FF 45 01 FF 00 00 0F (调光器地址-内卫射灯, 内卫射灯微光)
2024-08-18 18:35:56.249 - 19 08 24 03 CC 01 55 00 01 (调用外卫感应灯关的按键)
2024-08-18 18:35:56.281 - 1A 0C 02 08 01 FF 00 01 FF 00 01 FF 00 00 0F (调光器地址-内卫射灯, 内卫感应灯关)
2024-08-18 18:36:13.285 - 19 08 24 03 CC 01 54 00 01 (调用内卫感应灯开的按键)
2024-08-18 18:36:13.319 - 1A 0C 02 08 01 FF 45 01 FF 45 01 FF 00 00 0F (调光器地址-内卫射灯, 内卫射灯微光)
2024-08-18 18:36:25.885 - 19 08 24 03 CC 01 52 00 01 (调用外卫感应灯开的按键)
2024-08-18 18:36:25.919 - 1A 0D 01 07 01 FF 45 01 FF 45 01 FF 00 00 0F (调光器地址-外卫射灯, 外卫感应灯开)
2024-08-18 18:36:36.829 - 19 08 24 03 CC 01 55 00 01 (调用外卫感应灯关的按键)
2024-08-18 18:36:36.861 - 1A 0C 02 08 01 FF 00 01 FF 00 01 FF 00 00 0F (调光器地址-内卫射灯, 内卫感应灯关)
2024-08-18 18:36:42.418 - 19 08 24 03 CC 01 53 00 01 (调用外卫感应灯关的按键)
2024-08-18 18:36:42.452 - 1A 0D 01 07 01 FF 00 01 FF 00 01 FF 00 00 0F (调光器地址-外卫射灯, 外卫感应灯关)
2024-08-18 18:38:05.091 - 19 08 24 03 CC 00 D3 00 01 (调用厨房感应灯开的按键)
2024-08-18 18:38:05.125 - 55 0A 32 00 00 00 01 92 55 0A 32 00 00 00 02 93 (厨房顶灯一开, 厨房顶灯二开)
2024-08-18 18:39:42.041 - FF FF FF FF 0E (继电器地址-西阳小窗帘)
2024-08-18 18:39:42.180 - FF
2024-08-18 18:40:39.898 - 19 08 24 03 CC 00 D4 00 01 (调用厨房感应灯关的按键)
2024-08-18 18:40:39.952 - 55 0A 31 00 00 00 01 91 55 0A 31 00 00 00 02 92 (厨房顶灯一关, 厨房顶灯二关)
2024-08-18 18:41:44.520 - 1A BE B0 DC 03 FD (继电器地址-西阳天幕)
2024-08-18 18:41:44.648 - FF
2024-08-18 18:42:04.312 - EE 00 00 B1 00 00 00 FF FC FF FF (情景执行提示)
2024-08-18 18:42:04.907 - 09 06 00 0F 02 01 78 21 (提示音叮)
2024-08-18 18:42:05.451 - 01 06 07 D0 FF 60 C8 9F (客厅空调关)
2024-08-18 18:42:05.485 - 01 06 07 D0 FF 60 C8 9F (客厅空调关)
2024-08-18 18:42:09.535 - 01 06 07 D3 FF 60 38 9F (餐厅空调关)
2024-08-18 18:42:09.584 - 01 06 07 D3 FF 60 38 9F (餐厅空调关)
2024-08-18 18:42:13.619 - 01 06 07 D6 FF 60 28 9E (主卧空调关)
2024-08-18 18:42:13.652 - 01 06 07 D6 FF 60 28 9E (主卧空调关)
2024-08-18 18:42:14.225 - 09 06 00 0F 02 02 38 20 (提示音咚)
2024-08-18 18:42:14.775 - EE 00 00 B1 00 00 02 FF FC FF FF (情景完成返回主页)
2024-08-18 18:42:19.162 - EE 00 00 B1 00 00 00 FF FC FF FF (情景执行提示)
2024-08-18 18:42:19.758 - 09 06 00 0F 02 01 78 21 (提示音叮)
2024-08-18 18:42:20.303 - A1 11 11 11 40 (客厅空调自动开)
2024-08-18 18:42:20.525 - 19 08 24 03 F0 BB 78 02 02 00
2024-08-18 18:42:20.574 - 23 AA 56 02 12 2A 14 18 08 12 07 73 65 6F 6B 65 6E 64
2024-08-18 18:42:21.529 - 01 10 07 D0 00 03 06 70 61 00 02 00 FA 6F 26 (客厅空调冷25度)
2024-08-18 18:42:21.578 - 01 10 07 D0 00 03 06 70 61 00 02 00 FA 6F 26 (客厅空调冷25度)
2024-08-18 18:42:24.335 - A1 11 11 11 41 (餐厅空调自动开)
2024-08-18 18:42:24.559 - 19 08 24 03 F0 BB 78 02 02 00
2024-08-18 18:42:24.607 - 23 AA 56 02 12 2A 18 18 08 12 07 73 65 6F 6B 65 6E 64
2024-08-18 18:42:25.573 - 01 10 07 D3 00 03 06 70 61 00 02 00 FA 9F 29 (餐厅空调冷25度)
2024-08-18 18:42:25.611 - 01 10 07 D3 00 03 06 70 61 00 02 00 FA 9F 29 (餐厅空调冷25度)
2024-08-18 18:42:28.417 - A1 11 11 11 42 (主卧空调自动开)
2024-08-18 18:42:28.650 - 19 08 24 03 F0 BB 78 02 02 00
2024-08-18 18:42:28.705 - 23 AA 56 02 12 2A 1C 18 08 12 07 73 65 6F 6B 65 6E 64
2024-08-18 18:42:28.976 - 09 06 00 0F 02 02 38 20 (提示音咚)
2024-08-18 18:42:29.661 - 01 10 07 D6 00 03 06 70 61 00 02 00 F0 0F 3E (主卧空调冷24度)
2024-08-18 18:42:29.693 - 01 10 07 D6 00 03 06 70 61 00 02 00 F0 0F 3E (主卧空调冷24度)
2024-08-18 18:42:30.012 - EE 00 00 B1 00 00 02 FF FC FF FF (情景完成返回主页)
2024-08-18 18:43:25.744 - 19 08 24 03 CC 00 D3 00 01 (调用厨房感应灯开的按键)
2024-08-18 18:43:25.808 - 55 0A 32 00 00 00 01 92 55 0A 32 00 00 00 02 93 (厨房顶灯一开, 厨房顶灯二开)
2024-08-18 18:44:54.222 - EE 00 71 B1 01 00 03 FF FC FF FF
2024-08-18 18:45:21.823 - EE 00 6E B1 01 00 03 FF FC FF FF
2024-08-18 18:45:23.231 - EE 00 6E B1 01 00 08 FF FC FF FF
2024-08-18 18:45:23.758 - 1A BE B0 DC 0A 00 01 00 (继电器地址-客厅纱帘, 客厅纱帘关)
2024-08-18 18:45:39.917 - 19 08 24 03 CC 01 54 00 01 (调用内卫感应灯开的按键)
2024-08-18 18:45:39.968 - 1A 0C 02 08 01 FF 45 01 FF 45 01 FF 00 00 0F (调光器地址-内卫射灯, 内卫射灯微光)
2024-08-18 18:45:44.015 - 1A 20 07 00 93 00 01 02 0F (自保持开关地址-设备区顶, 设备区顶灯开关)
2024-08-18 18:46:15.478 - 19 08 24 03 CC 01 55 00 01 (调用外卫感应灯关的按键)
2024-08-18 18:46:15.512 - 1A 0C 02 08 01 FF 00 01 FF 00 01 FF 00 00 0F (调光器地址-内卫射灯, 内卫感应灯关)
2024-08-18 18:46:29.286 - 1A BE B0 DC 01 00 01 00 (继电器地址-回水泵点动, 回水泵点动)
2024-08-18 18:46:35.910 - 1A BE B0 DC 01 00 01 00 (继电器地址-回水泵点动, 回水泵点动)
2024-08-18 18:46:37.029 - 19 08 24 03 CC 01 54 00 01 (调用内卫感应灯开的按键)
2024-08-18 18:46:37.063 - 1A 0C 02 08 01 FF 45 01 FF 45 01 FF 00 00 0F (调光器地址-内卫射灯, 内卫射灯微光)
2024-08-18 18:46:57.068 - 19 08 24 03 CC 01 55 00 01 (调用外卫感应灯关的按键)
2024-08-18 18:46:57.102 - 1A 0C 02 08 01 FF 00 01 FF 00 01 FF 00 00 0F (调光器地址-内卫射灯, 内卫感应灯关)
2024-08-18 18:47:49.671 - 19 08 24 03 CC 01 54 00 01 (调用内卫感应灯开的按键)
2024-08-18 18:47:49.705 - 1A 0C 02 08 01 FF 45 01 FF 45 01 FF 00 00 0F (调光器地址-内卫射灯, 内卫射灯微光)
2024-08-18 18:48:15.717 - 19 08 24 03 CC 01 55 00 01 (调用外卫感应灯关的按键)
2024-08-18 18:48:15.748 - 1A 0C 02 08 01 FF 00 01 FF 00 01 FF 00 00 0F (调光器地址-内卫射灯, 内卫感应灯关)
2024-08-18 18:48:55.293 - 19 08 24 03 CC 01 54 00 01 (调用内卫感应灯开的按键)
2024-08-18 18:48:55.326 - 1A 0C 02 08 01 FF 45 01 FF 45 01 FF 00 00 0F (调光器地址-内卫射灯, 内卫射灯微光)
2024-08-18 18:49:12.302 - 1A 20 07 00 93 00 01 02 0F (自保持开关地址-设备区顶, 设备区顶灯开关)
2024-08-18 18:49:13.402 - 1A 22 33 62 0F 00 02 01 0F (正反转地址-内卫卷帘, 内卫卷帘降)
2024-08-18 18:49:15.940 - 19 08 24 03 CC 00 D4 00 01 (调用厨房感应灯关的按键)
2024-08-18 18:49:15.974 - 55 0A 31 00 00 00 01 91 55 0A 31 00 00 00 02 92 (厨房顶灯一关, 厨房顶灯二关)
2024-08-18 18:49:43.566 - 1A FF 03 00 00 86 86 86 0F (调用查询模块-主卧空调开关查询, 主卧空调虚拟地址)
2024-08-18 18:49:43.787 - 01 04 07 DC 00 01 F1 44 (查询主卧空调开关状态)
2024-08-18 18:49:43.806 - 01 04 02 70 01 5D 30
2024-08-18 18:49:44.411 - 1A 20 00 00 00 86 86 86 0F (调用查询模块-阳台测温湿气压转换, 阳台温湿气压虚拟地址)
2024-08-18 18:49:44.791 - 1A FF 03 00 00 00 00 0F (主卧空调虚拟地址)
2024-08-18 18:49:44.927 - 1A FF 04 00 00 86 86 86 0F (调用查询模块-次卧空调开关查询, 次卧空调虚拟地址)
2024-08-18 18:49:45.148 - 01 04 07 E2 00 01 90 88 (查询次卧空调开关状态)
2024-08-18 18:49:45.165 - 01 04 02 70 00 9C F0
2024-08-18 18:49:46.152 - 1A FF 04 00 00 00 00 0F (次卧空调虚拟地址)
2024-08-18 18:49:46.373 - 1A FF 05 00 00 86 86 86 0F (调用查询模块-书房空调开关查询, 书房空调虚拟地址)
2024-08-18 18:49:46.597 - 01 04 07 E8 00 01 B0 8A (查询书房空调开关状态)
2024-08-18 18:49:46.613 - 01 04 02 70 00 9C F0
2024-08-18 18:49:47.615 - 1A FF 05 00 00 34 21 00 00 00 86 86 86 0F (书房空调虚拟地址)
2024-08-18 18:49:49.818 - 1A FF 01 00 00 86 86 86 0F (调用查询模块-客厅空调开关查询, 客厅空调虚拟地址)
2024-08-18 18:49:50.014 - 1A 22 00 00 00 86 86 86 0F (调用查询模块-室外测温湿气压转换, 室外温湿气压虚拟地址)
2024-08-18 18:49:50.042 - 01 04 07 D0 00 01 31 47 (查询客厅空调开关状态)
2024-08-18 18:49:50.065 - 01 04 02 70 E1
2024-08-18 18:49:51.045 - 1A FF 01 00 00 E1 00 0F (客厅空调虚拟地址)
2024-08-18 18:49:52.089 - 1A 20 00 00 00 86 86 86 0F 19 08 24 03 CD B8 B4 AB 1A 10 00 00 00 86 86 86 0F (调用查询模块-主卧测温转换, 主卧温湿度虚拟地址, 调用查询模块-阳台测温湿气压转换, 阳台温湿气压虚拟地址)
2024-08-18 18:49:52.310 - 20 03 00 00 00 03 03 7A (查询阳台温湿度气压)
2024-08-18 18:49:52.327 - 20 03 06 01 5F 01 F0 26 E2 BB 1E (阳台温湿度返回)
2024-08-18 18:49:52.831 - 1A 20 00 00 00 00 00 01 00 00 01 00 00 01 01 5F 01 01 F0 01 26 E2 01 00 00 01 0F (阳台温湿气压虚拟地址)
2024-08-18 18:49:53.161 - 1A 11 00 00 00 86 86 86 0F (调用查询模块-次卧测温转换, 次卧温湿度虚拟地址)
2024-08-18 18:49:53.390 - 11 03 00 00 00 02 C6 9B (查询次卧温湿度)
2024-08-18 18:49:53.407 - 11 03 04 02 6C 01 29 EA 19 (次卧温湿度返回)
2024-08-18 18:49:53.741 - 1A 21 00 00 00 86 86 86 0F (调用查询模块-储藏室测温湿气压转换, 储藏室温湿气压虚拟地址)
2024-08-18 18:49:54.411 - 1A 11 00 00 00 00 00 01 00 00 01 00 00 01 86 86 01 00 00 01 00 00 01 00 00 01 0F (次卧温湿度虚拟地址)
2024-08-18 18:49:54.556 - 1A 12 00 00 00 86 86 86 0F (调用查询模块-书房测温转换, 书房温湿度虚拟地址)
2024-08-18 18:49:54.779 - 12 03 00 00 00 02 C6 A8 (查询书房温湿度)
2024-08-18 18:49:54.795 - 12 03 04 02 5B 01 34 A8 DE (书房温湿度返回)
2024-08-18 18:49:55.800 - 1A 12 00 00 00 00 00 01 00 00 01 00 00 01 01 34 01 02 5B 01 00 00 01 00 00 01 0F (书房温湿度虚拟地址)
2024-08-18 18:49:56.001 - 1A 13 00 00 00 86 86 86 0F (调用查询模块-外卫测温转换, 外卫温湿度虚拟地址)
2024-08-18 18:49:56.222 - 13 03 00 00 00 02 C7 79 (查询外卫温湿度)
2024-08-18 18:49:56.239 - 13 03 04 02 80 01 27 89 E8 (外卫温湿度返回)
2024-08-18 18:49:57.242 - 1A 13 00 00 00 00 00 01 00 00 01 00 00 01 01 27 01 02 80 01 00 00 01 00 00 01 0F (外卫温湿度虚拟地址)
2024-08-18 18:49:57.446 - 1A 14 00 00 00 86 86 86 0F (调用查询模块-内卫测温转换, 内卫温湿度虚拟地址)
2024-08-18 18:49:57.666 - 14 03 00 00 00 02 C6 CE (查询内卫温湿度)
2024-08-18 18:49:57.684 - 14 03 04 02 6A 01 24 9E DD (内卫温湿度返回)
2024-08-18 18:49:58.687 - 1A 14 00 00 00 00 00 01 00 00 01 00 00 01 01 24 01 02 6A 01 00 00 01 00 00 01 0F (内卫温湿度虚拟地址)
2024-08-18 18:49:58.875 - 1A 15 00 00 00 86 86 86 0F (调用查询模块-客厅测温转换, 客厅温湿度虚拟地址)
2024-08-18 18:49:59.096 - 15 03 00 00 00 02 C7 1F (查询客厅温湿度)
2024-08-18 18:49:59.118 - 15 03 04 02 7F 01 21 5F DA (客厅温湿度返回)
2024-08-18 18:50:00.123 - 1A 15 00 00 00 00 00 01 00 00 01 00 00 01 01 21 01 02 7F 01 00 00 01 00 00 01 0F (客厅温湿度虚拟地址)
2024-08-18 18:50:02.403 - 1A 0E 00 00 00 86 86 86 0F (调用查询模块-厨房测温转换, 厨房温湿度虚拟地址)
2024-08-18 18:50:02.627 - 0E 03 00 00 00 02 C4 F4 (查询厨房温湿度)
2024-08-18 18:50:02.650 - 0E 03 04 02 3A 01 3C 25 07 (厨房温湿度返回)
2024-08-18 18:50:03.653 - 1A 0E 00 00 00 00 00 01 00 00 01 00 00 01 01 3C 01 02 3A 01 00 00 01 00 00 01 0F (厨房温湿度虚拟地址)
2024-08-18 18:50:03.840 - 1A 0F 00 00 00 86 86 86 0F (调用查询模块-餐厅测温转换, 餐厅温湿度虚拟地址)
2024-08-18 18:50:04.061 - 1C 03 00 00 00 02 C7 86 (查询餐厅温湿度)
2024-08-18 18:50:04.092 - 1C 03 04 02 58 01 34 B7 1E (餐厅温湿度返回)
2024-08-18 18:50:05.096 - 1A 0F 00 00 00 00 00 01 00 00 01 00 00 01 01 34 01 02 58 01 00 00 01 00 00 01 0F (餐厅温湿度虚拟地址)
2024-08-18 18:50:05.256 - 1A 20 00 00 00 86 86 86 0F (调用查询模块-阳台测温湿气压转换, 阳台温湿气压虚拟地址)
2024-08-18 18:50:05.473 - 20 03 00 00 00 03 03 7A (查询阳台温湿度气压)
2024-08-18 18:50:05.495 - 20 03 06 01 5F 01 F0 26 E2 BB 1E (阳台温湿度返回)
2024-08-18 18:50:06.001 - 1A 20 00 00 00 00 00 01 00 00 01 00 00 01 01 5F 01 01 F0 01 26 E2 01 00 00 01 0F (阳台温湿气压虚拟地址)
2024-08-18 18:50:06.239 - 1A 21 00 00 00 86 86 86 0F (调用查询模块-储藏室测温湿气压转换, 储藏室温湿气压虚拟地址)
2024-08-18 18:50:06.460 - 21 03 00 00 00 03 02 AB (查询储藏室温湿度气压)
2024-08-18 18:50:06.477 - 21 03 06 01 48 02 5E 26 E4 23 2A (储藏室温湿度返回)
2024-08-18 18:50:06.980 - 1A 21 00 00 00 00 00 01 00 00 01 00 00 01 01 48 01 02 5E 01 26 E4 01 00 00 01 0F (储藏室温湿气压虚拟地址)
2024-08-18 18:50:07.191 - 1A 22 00 00 00 86 86 86 0F (调用查询模块-室外测温湿气压转换, 室外温湿气压虚拟地址)
2024-08-18 18:50:07.412 - 22 03 00 00 00 03 02 98 (查询室外温湿度气压)
2024-08-18 18:50:07.442 - 22 03 06 01 32 02 A6 26 E3 2E 23 (阳台温湿度返回)
2024-08-18 18:50:07.940 - 1A 22 00 00 00 00 00 01 00 00 01 00 00 01 01 32 01 02 A6 01 26 E3 01 00 00 01 0F (室外温湿气压虚拟地址)
2024-08-18 18:50:08.161 - 1A FF 02 00 00 86 86 86 0F (调用查询模块-餐厅空调开关查询, 餐厅空调虚拟地址)
2024-08-18 18:50:08.385 - 01 04 07 D6 00 01 D1 46 (查询餐厅空调开关状态)
2024-08-18 18:50:08.416 - 01 04 02 70 01 5D 30
2024-08-18 18:50:09.389 - 1A FF 02 00 00 01 00 0F (餐厅空调虚拟地址)
2024-08-18 18:50:09.612 - 1A FF 01 00 00 86 86 86 0F (调用查询模块-客厅空调开关查询, 客厅空调虚拟地址)
2024-08-18 18:50:09.836 - 01 04 07 D0 00 01 31 47 (查询客厅空调开关状态)
2024-08-18 18:50:09.861 - 01 04 02 70 01 5D 30
2024-08-18 18:50:10.842 - 1A FF 01 00 00 01 00 0F (客厅空调虚拟地址)
2024-08-18 18:50:11.209 - 1A 16 00 00 00 86 86 86 0F (调用查询模块-机柜测温转换, 机柜温湿度虚拟地址)
2024-08-18 18:50:11.432 - 16 03 00 00 00 02 C7 2C (查询机柜温湿度)
2024-08-18 18:50:11.448 - 16 03 04 01 F7 01 59 EC 96 (机柜温湿度返回)
2024-08-18 18:50:12.453 - 1A 16 00 00 00 00 00 01 00 00 01 00 00 01 01 59 01 01 F7 01 00 00 01 00 00 01 0F (机柜温湿度虚拟地址)
2024-08-18 18:50:13.876 - 1A 16 00 00 00 86 86 86 0F (调用查询模块-机柜测温转换, 机柜温湿度虚拟地址)
2024-08-18 18:50:14.097 - 16 03 00 00 00 02 C7 2C (查询机柜温湿度)
2024-08-18 18:50:14.114 - 16 03 04 01 F7 01 59 EC 96 (机柜温湿度返回)
2024-08-18 18:50:15.118 - 1A 16 00 00 00 00 00 01 00 00 01 00 00 01 01 59 01 01 F7 01 00 00 01 00 00 01 0F (机柜温湿度虚拟地址)
2024-08-18 18:50:16.711 - 1A 11 00 00 00 86 86 86 0F (调用查询模块-次卧测温转换, 次卧温湿度虚拟地址)
2024-08-18 18:50:16.938 - 11 03 00 00 00 02 C6 9B (查询次卧温湿度)
2024-08-18 18:50:16.955 - 11 03 04 02 6B 01 29 5B D8 (次卧温湿度返回)
2024-08-18 18:50:17.958 - 1A 11 00 00 00 00 00 01 00 00 01 00 00 01 01 29 01 02 6B 01 00 00 01 00 00 01 0F (次卧温湿度虚拟地址)
2024-08-18 18:50:19.440 - 1A FF 03 00 00 00 00 02 0F (主卧空调虚拟地址)
2024-08-18 18:50:20.460 - 1A FF 03 00 00 86 86 86 0F (调用查询模块-主卧空调开关查询, 主卧空调虚拟地址)
2024-08-18 18:50:20.679 - 01 04 07 DC 00 01 F1 44 (查询主卧空调开关状态)
2024-08-18 18:50:20.700 - 01 04 02 70 01 5D 30
2024-08-18 18:50:21.682 - 1A FF 03 00 00 01 00 0F (主卧空调虚拟地址)
2024-08-18 18:50:36.054 - 1A 13 00 00 00 86 86 86 0F (调用查询模块-外卫测温转换, 外卫温湿度虚拟地址)
2024-08-18 18:50:36.284 - 13 03 00 00 00 02 C7 79 (查询外卫温湿度)
2024-08-18 18:50:36.300 - 13 03 04 02 7E 01 27 E8 18 (外卫温湿度返回)
2024-08-18 18:50:37.305 - 1A 13 00 00 00 00 00 01 00 00 01 00 00 01 01 27 01 02 7E 01 00 00 01 00 00 01 0F (外卫温湿度虚拟地址)
2024-08-18 18:50:38.894 - 1A 20 00 00 00 86 86 86 0F (调用查询模块-阳台测温湿气压转换, 阳台温湿气压虚拟地址)
2024-08-18 18:50:39.124 - 20 03 00 00 00 03 03 7A (查询阳台温湿度气压)
2024-08-18 18:50:39.140 - 20 03 06 01 5F 01 ED 26 E3 EA D8 (阳台温湿度返回)
2024-08-18 18:50:39.643 - 1A 20 00 00 00 00 00 01 00 00 01 00 00 01 01 5F 01 01 ED 01 26 E3 01 00 00 01 0F (阳台温湿气压虚拟地址)
2024-08-18 18:50:44.388 - 1A 20 00 00 00 86 86 86 0F (调用查询模块-阳台测温湿气压转换, 阳台温湿气压虚拟地址)
2024-08-18 18:50:44.615 - 20 03 00 00 00 03 03 7A (查询阳台温湿度气压)
2024-08-18 18:50:44.631 - 20 03 06 01 5F 01 EC 26 E2 7A D8 (阳台温湿度返回)
2024-08-18 18:50:45.141 - 1A 20 00 00 00 00 00 01 00 00 01 00 00 01 01 5F 01 01 EC 01 26 E2 01 00 00 01 0F (阳台温湿气压虚拟地址)
2024-08-18 18:50:46.194 - 1A 21 00 00 00 86 86 86 0F (调用查询模块-储藏室测温湿气压转换, 储藏室温湿气压虚拟地址)
2024-08-18 18:50:46.417 - 21 03 00 00 00 03 02 AB (查询储藏室温湿度气压)
2024-08-18 18:50:46.433 - 21 03 06 01 48 02 57 26 E3 B2 EA (储藏室温湿度返回)
2024-08-18 18:50:46.944 - 1A 21 00 00 00 00 00 01 00 00 01 00 00 01 01 48 01 02 57 01 26 E3 01 00 00 01 0F (储藏室温湿气压虚拟地址)
2024-08-18 18:50:48.318 - 1A 22 00 00 00 86 86 86 0F (调用查询模块-室外测温湿气压转换, 室外温湿气压虚拟地址)
2024-08-18 18:50:48.538 - 22 03 00 00 00 03 02 98 (查询室外温湿度气压)
2024-08-18 18:50:48.557 - 22 03 06 01 33 02 9D 26 E3 62 2E (阳台温湿度返回)
2024-08-18 18:50:49.050 - 1A 22 00 00 00 00 00 01 00 00 01 00 00 01 01 33 01 02 9D 01 26 E3 01 00 00 01 0F (室外温湿气压虚拟地址)
2024-08-18 18:50:54.027 - 1A 20 00 00 00 86 86 86 0F (调用查询模块-阳台测温湿气压转换, 阳台温湿气压虚拟地址)
2024-08-18 18:50:54.250 - 20 03 00 00 00 03 03 7A (查询阳台温湿度气压)
2024-08-18 18:50:54.273 - 20 03 06 01 5F 01 EB 26 E2 CB 19 (阳台温湿度返回)
2024-08-18 18:50:54.777 - 1A 20 00 00 00 00 00 01 00 00 01 00 00 01 01 5F 01 01 EB 01 26 E2 01 00 00 01 0F (阳台温湿气压虚拟地址)
2024-08-18 18:50:56.372 - 1A 21 00 00 00 86 86 86 0F (调用查询模块-储藏室测温湿气压转换, 储藏室温湿气压虚拟地址)
2024-08-18 18:50:56.597 - 21 03 00 00 00 03 02 AB (查询储藏室温湿度气压)
2024-08-18 18:50:56.619 - 21 03 06 01 48 02 56 26 E3 E3 2A (储藏室温湿度返回)
2024-08-18 18:50:57.122 - 1A 21 00 00 00 00 00 01 00 00 01 00 00 01 01 48 01 02 56 01 26 E3 01 00 00 01 0F (储藏室温湿气压虚拟地址)
2024-08-18 18:50:58.832 - 1A 22 00 00 00 86 86 86 0F (调用查询模块-室外测温湿气压转换, 室外温湿气压虚拟地址)
2024-08-18 18:50:59.068 - 22 03 00 00 00 03 02 98 (查询室外温湿度气压)
2024-08-18 18:50:59.087 - 22 03 06 01 33 02 9D 26 E3 62 2E (阳台温湿度返回)
2024-08-18 18:50:59.581 - 1A 22 00 00 00 00 00 01 00 00 01 00 00 01 01 33 01 02 9D 01 26 E3 01 00 00 01 0F (室外温湿气压虚拟地址)
2024-08-18 18:51:01.979 - 1A 21 00 00 00 86 86 86 0F F0 BB 78 52 12 33 02 18 08 12 07 23 E8 (调用查询模块-储藏室测温湿气压转换, 储藏室温湿气压虚拟地址)
2024-08-18 18:51:02.200 - 21 03 00 00 00 03 02 AB (查询储藏室温湿度气压)
2024-08-18 18:51:02.227 - 21 03 06 01 48 02 55 26 E3 13 2A (储藏室温湿度返回)
2024-08-18 18:51:02.727 - 1A 21 00 00 00 00 00 01 00 00 01 00 00 01 01 48 01 02 55 01 26 E3 01 00 00 01 0F (储藏室温湿气压虚拟地址)
2024-08-18 18:51:04.635 - 1A 20 00 00 00 86 86 86 0F (调用查询模块-阳台测温湿气压转换, 阳台温湿气压虚拟地址)
2024-08-18 18:51:04.859 - 20 03 00 00 00 03 03 7A (查询阳台温湿度气压)
2024-08-18 18:51:04.887 - 20 03 06 01 5F 01 EA 26 E2 9A D9 (阳台温湿度返回)
2024-08-18 18:51:05.386 - 1A 20 00 00 00 00 00 01 00 00 01 00 00 01 01 5F 01 01 EA 01 26 E2 01 00 00 01 0F (阳台温湿气压虚拟地址)
2024-08-18 18:51:16.374 - 1A BE B0 DC 0A 00 02 00 (继电器地址-客厅纱帘, 客厅纱帘开)
2024-08-18 18:51:18.559 - 1A 20 00 00 00 86 86 86 0F (调用查询模块-阳台测温湿气压转换, 阳台温湿气压虚拟地址)
2024-08-18 18:51:18.781 - 20 03 00 00 00 03 03 7A (查询阳台温湿度气压)
2024-08-18 18:51:18.799 - 20 03 06 01 5F 01 E9 26 E2 6A D9 (阳台温湿度返回)
2024-08-18 18:51:19.293 - 1A 20 00 00 00 00 00 01 00 00 01 00 00 01 01 5F 01 01 E9 01 26 E2 01 00 00 01 0F (阳台温湿气压虚拟地址)
2024-08-18 18:51:21.452 - 1A 21 00 00 00 86 86 86 0F (调用查询模块-储藏室测温湿气压转换, 储藏室温湿气压虚拟地址)
2024-08-18 18:51:21.673 - 21 03 00 00 00 03 02 AB (查询储藏室温湿度气压)
2024-08-18 18:51:21.690 - 21 03 06 01 47 02 52 26 E2 37 2A (储藏室温湿度返回)
2024-08-18 18:51:22.201 - 1A 21 00 00 00 00 00 01 00 00 01 00 00 01 01 47 01 02 52 01 26 E2 01 00 00 01 0F (储藏室温湿气压虚拟地址)
2024-08-18 18:51:22.900 - 1A 22 00 00 00 86 86 86 0F (调用查询模块-室外测温湿气压转换, 室外温湿气压虚拟地址)
2024-08-18 18:51:23.123 - 22 03 00 00 00 03 02 98 (查询室外温湿度气压)
2024-08-18 18:51:23.155 - 22 03 06 01 33 02 94 26 E3 B2 2C (阳台温湿度返回)
2024-08-18 18:51:23.649 - 1A 22 00 00 00 00 00 01 00 00 01 00 00 01 01 33 01 02 94 01 26 E3 01 00 00 01 0F (室外温湿气压虚拟地址)
2024-08-18 18:51:28.004 - 1A 22 00 00 00 86 86 86 0F (调用查询模块-室外测温湿气压转换, 室外温湿气压虚拟地址)
2024-08-18 18:51:28.228 - 22 03 00 00 00 03 02 98 (查询室外温湿度气压)
2024-08-18 18:51:28.260 - 22 03 06 01 33 02 96 26 E3 13 EC (阳台温湿度返回)
2024-08-18 18:51:28.755 - 1A 22 00 00 00 00 00 01 00 00 01 00 00 01 01 33 01 02 96 01 26 E3 01 00 00 01 0F (室外温湿气压虚拟地址)
2024-08-18 18:51:30.303 - 1A 21 00 00 00 86 86 86 0F (调用查询模块-储藏室测温湿气压转换, 储藏室温湿气压虚拟地址)
2024-08-18 18:51:30.526 - 21 03 00 00 00 03 02 AB (查询储藏室温湿度气压)
2024-08-18 18:51:30.552 - 21 03 06 01 47 02 52 26 E3 F6 EA (储藏室温湿度返回)
2024-08-18 18:51:31.052 - 1A 21 00 00 00 00 00 01 00 00 01 00 00 01 01 47 01 02 52 01 26 E3 01 00 00 01 0F (储藏室温湿气压虚拟地址)
2024-08-18 18:51:32.678 - 1A 20 00 00 00 86 86 86 0F (调用查询模块-阳台测温湿气压转换, 阳台温湿气压虚拟地址)
2024-08-18 18:51:32.899 - 20 03 00 00 00 03 03 7A (查询阳台温湿度气压)
2024-08-18 18:51:32.918 - 20 03 06 01 5F 01 E8 26 E2 3B 19 (阳台温湿度返回)
2024-08-18 18:51:33.412 - 1A 20 00 00 00 00 00 01 00 00 01 00 00 01 01 5F 01 01 E8 01 26 E2 01 00 00 01 0F (阳台温湿气压虚拟地址)
2024-08-18 18:51:35.791 - 1A 20 00 00 00 86 86 86 0F (调用查询模块-阳台测温湿气压转换, 阳台温湿气压虚拟地址)
2024-08-18 18:51:36.013 - 20 03 00 00 00 03 03 7A (查询阳台温湿度气压)
2024-08-18 18:51:36.030 - 20 03 06 01 5F 01 E8 26 E2 3B 19 (阳台温湿度返回)
2024-08-18 18:51:36.540 - 1A 20 00 00 00 00 00 01 00 00 01 00 00 01 01 5F 01 01 E8 01 26 E2 01 00 00 01 0F (阳台温湿气压虚拟地址)
2024-08-18 18:51:39.635 - 1A 20 00 00 00 86 86 86 0F (调用查询模块-阳台测温湿气压转换, 阳台温湿气压虚拟地址)
2024-08-18 18:51:39.857 - 20 03 00 00 00 03 03 7A (查询阳台温湿度气压)
2024-08-18 18:51:39.873 - 20 03 06 01 5F 01 E7 26 E2 0B 1A (阳台温湿度返回)
2024-08-18 18:51:40.367 - 1A 20 00 00 00 00 00 01 00 00 01 00 00 01 01 5F 01 01 E7 01 26 E2 01 00 00 01 0F (阳台温湿气压虚拟地址)
2024-08-18 18:51:47.974 - 1A 20 00 00 00 86 86 86 0F (调用查询模块-阳台测温湿气压转换, 阳台温湿气压虚拟地址)
2024-08-18 18:51:48.197 - 20 03 00 00 00 03 03 7A (查询阳台温湿度气压)
2024-08-18 18:51:48.224 - 20 03 06 01 5F 01 E2 26 E2 1B 1B (阳台温湿度返回)
2024-08-18 18:51:48.724 - 1A 20 00 00 00 00 00 01 00 00 01 00 00 01 01 5F 01 01 E2 01 26 E2 01 00 00 01 0F (阳台温湿气压虚拟地址)
2024-08-18 18:51:52.203 - 1A 20 00 00 00 86 86 86 0F (调用查询模块-阳台测温湿气压转换, 阳台温湿气压虚拟地址)
2024-08-18 18:51:52.424 - 20 03 00 00 00 03 03 7A (查询阳台温湿度气压)
2024-08-18 18:51:52.441 - 20 03 06 01 5F 01 DD 26 E2 2B 17 (阳台温湿度返回)
2024-08-18 18:51:52.934 - 1A 20 00 00 00 00 00 01 00 00 01 00 00 01 01 5F 01 01 DD 01 26 E2 01 00 00 01 0F (阳台温湿气压虚拟地址)
2024-08-18 18:51:59.903 - 1A 20 00 00 00 86 86 86 0F (调用查询模块-阳台测温湿气压转换, 阳台温湿气压虚拟地址)
2024-08-18 18:52:00.125 - 20 03 00 00 00 03 03 7A (查询阳台温湿度气压)
2024-08-18 18:52:00.145 - 20 03 06 01 5F 01 DA 26 E2 9A D6 (阳台温湿度返回)
2024-08-18 18:52:00.639 - 1A 20 00 00 00 00 00 01 00 00 01 00 00 01 01 5F 01 01 DA 01 26 E2 01 00 00 01 0F (阳台温湿气压虚拟地址)
2024-08-18 18:52:07.783 - 1A 20 00 00 00 86 86 86 0F (调用查询模块-阳台测温湿气压转换, 阳台温湿气压虚拟地址)
2024-08-18 18:52:08.007 - 20 03 00 00 00 03 03 7A (查询阳台温湿度气压)
2024-08-18 18:52:08.023 - 20 03 06 01 5F 01 D7 26 E2 0B 15 (阳台温湿度返回)
2024-08-18 18:52:08.534 - 1A 20 00 00 00 00 00 01 00 00 01 00 00 01 01 5F 01 01 D7 01 26 E2 01 00 00 01 0F (阳台温湿气压虚拟地址)
2024-08-18 18:52:12.563 - 1A BE B0 DC 0A 00 01 00 (继电器地址-客厅纱帘, 客厅纱帘关)
2024-08-18 18:53:18.882 - AF BF CF DF C2 21 (有线2/快捷-凤凰卫视)
2024-08-18 18:53:21.754 - AF BF CF DF C2 22 (有线2/快捷-国家地理)
2024-08-18 18:53:32.896 - AF BF CF DF C2 23 (有线2/快捷-DISCOVERY)
2024-08-18 18:53:44.884 - AF BF CF DF C2 21 (有线2/快捷-凤凰卫视)
2024-08-18 18:53:48.918 - AF BF CF DF C2 22 (有线2/快捷-国家地理)
2024-08-18 18:53:56.590 - AF BF CF DF C2 11 (有线2/数字1)
2024-08-18 18:53:56.977 - AF BF CF DF C2 15 (有线2/数字5)
2024-08-18 18:53:57.916 - AF BF CF DF C2 15 (有线2/数字5)
2024-08-18 18:54:00.627 - AF BF CF DF C2 11 (有线2/数字1)
2024-08-18 18:54:01.280 - AF BF CF DF C2 15 (有线2/数字5)
2024-08-18 18:54:01.934 - AF BF CF DF C2 18 (有线2/数字8)
2024-08-18 18:54:15.056 - AF BF CF DF C1 11 (有线1/数字1)
2024-08-18 18:54:15.515 - AF BF CF DF C1 15 (有线1/数字5)
2024-08-18 18:54:16.145 - AF BF CF DF C1 15 (有线1/数字5)
2024-08-18 18:54:16.846 - AF BF CF DF C1 18 (有线1/数字8)
2024-08-18 18:54:19.035 - AF BF CF DF C1 11 (有线1/数字1)
2024-08-18 18:54:19.767 - AF BF CF DF C1 15 (有线1/数字5)
2024-08-18 18:54:20.380 - AF BF CF DF C1 18 (有线1/数字8)
2024-08-18 18:54:31.534 - AF BF CF DF C4 06 (盒子CH4/下)
2024-08-18 18:54:33.830 - AF BF CF DF C4 08 (盒子CH4/右)
2024-08-18 19:04:36.755 - 19 08 24 03 DD 00 1B 00 01 (调用情景-外卫使用)
2024-08-18 19:04:37.328 - EE 00 00 B1 00 00 00 FF FC FF FF (情景执行提示)
2024-08-18 19:04:37.886 - 09 06 00 0F 02 01 78 21 (提示音叮)
2024-08-18 19:04:38.428 - 1A BE B0 DC 02 00 01 00 (正反转地址-外卫卷帘, 外卫卷帘降)
2024-08-18 19:04:38.970 - 50 F0 03 (开外卫影视)
2024-08-18 19:04:39.528 - 1A FF FF FF 55 00 00 00 0F (人体红外感应地址-外卫, 关闭外卫感应)
2024-08-18 19:04:40.087 - 1A 0D 01 07 01 FF 45 01 FF 45 01 FF 00 00 0F (调光器地址-外卫射灯, 外卫感应灯开)
2024-08-18 19:04:42.175 - 1A BE B0 DC 01 00 01 00 (继电器地址-回水泵点动, 回水泵点动)
2024-08-18 19:04:43.217 - 1A BE B0 DC 01 00 01 00 (继电器地址-回水泵点动, 回水泵点动)
2024-08-18 19:04:44.263 - 1A BE B0 DC 01 00 01 00 (继电器地址-回水泵点动, 回水泵点动)
2024-08-18 19:04:45.308 - 50 F1 43 (外卫—CH4)
2024-08-18 19:05:02.321 - A1 11 11 11 11 05 (外卫使用浴霸判断)
2024-08-18 19:05:02.545 - 13 03 00 00 00 02 C7 79 (查询外卫温湿度)
2024-08-18 19:05:02.572 - 13 03 04 02 17 01 1E F8 16 (外卫温湿度返回)
2024-08-18 19:05:04.396 - 09 06 00 0F 02 02 38 20 (提示音咚)
2024-08-18 19:05:06.472 - EE 00 00 B1 00 00 02 FF FC FF FF (情景完成返回主页)
2024-08-18 19:05:39.252 - 19 08 24 03 DD 00 1A 00 01 (调用情景-客厅电视播放)
2024-08-18 19:05:39.811 - EE 00 00 B1 00 00 00 FF FC FF FF (情景执行提示)
2024-08-18 19:05:40.402 - 09 06 00 0F 02 01 78 21 (提示音叮)
2024-08-18 19:05:40.944 - 50 F0 08 (开客厅影视)
2024-08-18 19:05:49.973 - 50 F1 28 (客厅—有线2)
2024-08-18 19:05:50.520 - 09 06 00 0F 02 01 78 21 (提示音叮)
2024-08-18 19:05:51.073 - EE 00 00 B1 00 00 02 FF FC FF FF (情景完成返回主页)
2024-08-18 19:11:02.028 - 19 08 24 03 CC 01 55 00 01 (调用外卫感应灯关的按键)
2024-08-18 19:11:02.068 - 1A 0C 02 08 01 FF 00 01 FF 00 01 FF 00 00 0F (调光器地址-内卫射灯, 内卫感应灯关)
2024-08-18 19:14:15.415 - 19 08 24 03 CC 01 54 00 01 (调用内卫感应灯开的按键)
2024-08-18 19:14:15.449 - 1A 0C 02 08 01 FF 45 01 FF 45 01 FF 00 00 0F (调光器地址-内卫射灯, 内卫射灯微光)
2024-08-18 19:16:46.207 - 19 08 24 03 CC 01 55 00 01 (调用外卫感应灯关的按键)
2024-08-18 19:16:46.238 - 1A 0C 02 08 01 FF 00 01 FF 00 01 FF 00 00 0F (调光器地址-内卫射灯, 内卫感应灯关)
2024-08-18 19:17:17.648 - 19 08 24 03 DD 00 1C 00 01 (调用情景-外卫使用完毕)
2024-08-18 19:17:18.192 - EE 00 00 B1 00 00 00 FF FC FF FF (情景执行提示)
2024-08-18 19:17:18.761 - 09 06 00 0F 02 01 78 21 (提示音叮)
2024-08-18 19:17:19.315 - 1A 0D 01 07 01 FF 00 01 FF 00 01 FF 00 00 0F (调光器地址-外卫射灯, 外卫感应灯关)
2024-08-18 19:17:19.894 - 50 F5 03 (关外卫影视)
2024-08-18 19:17:20.455 - 1A 20 07 00 42 00 01 00 0F (自保持开关地址-外卫顶灯, 外卫顶灯关)
2024-08-18 19:17:20.999 - 1A FF FF FF 55 00 00 01 0F (人体红外感应地址-外卫, 打开外卫感应)
2024-08-18 19:17:21.089 - BC BC
2024-08-18 19:17:21.408 - 19 08 24 03 CC 01 52 00 01 (调用外卫感应灯开的按键)
2024-08-18 19:17:21.459 - 1A 0D 01 07 01 FF 45 01 FF 45 01 FF 00 00 0F (调光器地址-外卫射灯, 外卫感应灯开)
2024-08-18 19:17:23.838 - 09 06 00 0F 02 02 38 20 (提示音咚)
2024-08-18 19:17:24.399 - EE 00 00 B1 00 00 02 FF FC FF FF (情景完成返回主页)
2024-08-18 19:17:31.121 - 19 08 24 03 CC 01 53 00 01 (调用外卫感应灯关的按键)
2024-08-18 19:17:31.153 - 1A 0D 01 07 01 FF 00 01 FF 00 01 FF 00 00 0F (调光器地址-外卫射灯, 外卫感应灯关)
2024-08-18 19:19:32.978 - 19 08 24 03 DD 00 3B 00 01 (调用情景-书房照明关帘)
2024-08-18 19:19:33.522 - EE 00 00 B1 00 00 00 FF FC FF FF (情景执行提示)
2024-08-18 19:19:34.117 - 09 06 00 0F 02 01 78 21 (提示音叮)
2024-08-18 19:19:34.661 - 1A 0A 04 06 01 FF F0 01 FF F0 01 FF 00 00 0F (调光器地址-书房射灯, 书房射灯明亮)
2024-08-18 19:19:38.743 - A5 00 B7 FF 00 AA 22 0D (书房纱帘关)
2024-08-18 19:19:39.798 - A5 00 D2 FF 00 AA 22 0C (书房窗帘关)
2024-08-18 19:19:39.849 - 55 00 D2 01 00 0E 00 F2 AA 55 00 D2 01 00 0E 00 F2 (书房窗帘电机状态返回)
2024-08-18 19:19:40.896 - 09 06 00 0F 02 02 38 20 (提示音咚)
2024-08-18 19:19:41.439 - EE 00 00 B1 00 00 02 FF FC FF FF (情景完成返回主页)
2024-08-18 19:19:43.561 - 19 08 24 03 CC 01 54 00 01 (调用内卫感应灯开的按键)
2024-08-18 19:19:43.609 - 1A 0C 02 08 01 FF 45 01 FF 45 01 FF 00 00 0F (调光器地址-内卫射灯, 内卫射灯微光)
2024-08-18 19:19:47.809 - 55 00 D2 00 00 E5 00 F2 AA 55 00 D2 00 00 E5 00 F2 AA (书房窗帘电机状态返回)
2024-08-18 19:20:17.539 - 19 08 24 03 DD 00 3A 00 01 (调用情景-离开书房)
2024-08-18 19:20:18.066 - EE 00 00 B1 00 00 00 FF FC FF FF (情景执行提示)
2024-08-18 19:20:18.671 - 09 06 00 0F 02 01 78 21 (提示音叮)
2024-08-18 19:20:19.213 - 01 06 07 DC FF 60 08 9C (书房空调关)
2024-08-18 19:20:19.245 - 01 06 07 DC FF 60 08 9C (书房空调关)
2024-08-18 19:20:19.804 - 50 F5 07 (关书房影视)
2024-08-18 19:20:20.363 - A5 00 D2 FE 01 AA 22 0D (书房窗帘开)
2024-08-18 19:20:20.414 - 55 00 D2 02 00 E5 00 F2 AA 55 00 D2 02 00 E5 00 F2 AA (书房窗帘电机状态返回)
2024-08-18 19:20:21.463 - A5 00 B7 FF 00 AA 22 0D (书房纱帘关)
2024-08-18 19:20:22.504 - 55 0D 31 00 00 00 01 94 (书房顶灯只关)
2024-08-18 19:20:23.559 - 1A 0A 04 06 01 FF 00 01 FF 00 01 FF 00 00 0F (调光器地址-书房射灯, 书房射灯关闭)
2024-08-18 19:20:27.253 - 55 00 D2 00 00 0D 00 F2 AA 55 00 D2 00 00 0D 00 F2 AA (书房窗帘电机状态返回)
2024-08-18 19:20:27.641 - 09 06 00 0F 02 02 38 20 (提示音咚)
2024-08-18 19:20:28.185 - EE 00 00 B1 00 00 02 FF FC FF FF (情景完成返回主页)
2024-08-18 19:20:54.703 - 19 08 24 03 CC 01 55 00 01 (调用外卫感应灯关的按键)
2024-08-18 19:20:54.766 - 1A 0C 02 08 01 FF 00 01 FF 00 01 FF 00 00 0F (调光器地址-内卫射灯, 内卫感应灯关)
2024-08-18 19:22:31.901 - 19 08 24 03 CC 00 D4 00 01 (调用厨房感应灯关的按键)
2024-08-18 19:22:31.949 - 55 0A 31 00 00 00 01 91 55 0A 31 00 00 00 02 92 (厨房顶灯一关, 厨房顶灯二关)
2024-08-18 19:24:23.119 - 19 08 24 03 CC 01 54 00 01 (调用内卫感应灯开的按键)
2024-08-18 19:24:23.158 - 1A 0C 02 08 01 FF 45 01 FF 45 01 FF 00 00 0F (调光器地址-内卫射灯, 内卫射灯微光)
2024-08-18 19:44:24.050 - 1A FF FF FF 04 (继电器地址-东阳衣架)
2024-08-18 19:44:24.193 - FF
2024-08-18 19:47:29.350 - 19 08 24 03 CC 01 55 00 01 (调用外卫感应灯关的按键)
2024-08-18 19:47:29.398 - 1A 0C 02 08 01 FF 00 01 FF 00 01 FF 00 00 0F (调光器地址-内卫射灯, 内卫感应灯关)
2024-08-18 19:47:54.904 - 19 08 24 03 CC 01 54 00 01 (调用内卫感应灯开的按键)
2024-08-18 19:47:54.955 - 1A 0C 02 08 01 FF 45 01 FF 45 01 FF 00 00 0F (调光器地址-内卫射灯, 内卫射灯微光)
2024-08-18 19:48:59.026 - 19 08 24 03 CC 01 55 00 01 (调用外卫感应灯关的按键)
2024-08-18 19:48:59.060 - 1A 0C 02 08 01 FF 00 01 FF 00 01 FF 00 00 0F (调光器地址-内卫射灯, 内卫感应灯关)
2024-08-18 19:49:31.088 - 19 08 24 03 CC 01 54 00 01 (调用内卫感应灯开的按键)
2024-08-18 19:49:31.119 - 1A 0C 02 08 01 FF 45 01 FF 45 01 FF 00 00 0F (调光器地址-内卫射灯, 内卫射灯微光)
2024-08-18 19:49:42.311 - 01 10 07 D0 00 03 06 70 61 00 02 00 FA 6F 26 (客厅空调冷25度)
2024-08-18 19:49:42.359 - 01 10 07 D0 00 03 06 70 61 00 02 00 FA 6F 26 (客厅空调冷25度)
2024-08-18 19:51:15.817 - 1A 22 33 62 0F 00 00 01 0F (正反转地址-内卫卷帘, 内卫卷帘升)
2024-08-18 19:51:24.609 - 1A 20 07 00 93 00 01 02 0F (自保持开关地址-设备区顶, 设备区顶灯开关)
2024-08-18 19:52:04.890 - 19 08 24 03 CC 01 55 00 01 (调用外卫感应灯关的按键)
2024-08-18 19:52:04.921 - 1A 0C 02 08 01 FF 00 01 FF 00 01 FF 00 00 0F (调光器地址-内卫射灯, 内卫感应灯关)
2024-08-18 19:52:50.981 - 19 08 24 03 CC 01 54 00 01 (调用内卫感应灯开的按键)
2024-08-18 19:52:51.022 - 1A 0C 02 08 01 FF 45 01 FF 45 01 FF 00 00 0F (调光器地址-内卫射灯, 内卫射灯微光)
2024-08-18 19:53:08.520 - 19 08 24 03 CC 01 55 00 01 (调用外卫感应灯关的按键)
2024-08-18 19:53:08.554 - 1A 0C 02 08 01 FF 00 01 FF 00 01 FF 00 00 0F (调光器地址-内卫射灯, 内卫感应灯关)
2024-08-18 19:53:17.031 - 19 08 24 03 CC 01 54 00 01 (调用内卫感应灯开的按键)
2024-08-18 19:53:17.063 - 1A 0C 02 08 01 FF 45 01 FF 45 01 FF 00 00 0F (调光器地址-内卫射灯, 内卫射灯微光)
2024-08-18 19:53:39.362 - 19 08 24 03 DD 00 10 00 01 (调用情景-客餐厅空调开)
2024-08-18 19:53:39.872 - EE 00 00 B1 00 00 00 FF FC FF FF (情景执行提示)
2024-08-18 19:53:40.463 - 09 06 00 0F 02 01 78 21 (提示音叮)
2024-08-18 19:53:41.058 - A1 11 11 11 40 (客厅空调自动开)
2024-08-18 19:53:41.294 - 19 08 24 03 F0 BB 78 02 02 00
2024-08-18 19:53:41.342 - 23 AA 56 02 13 35 29 18 08 12 07 73 65 6F 6B 65 6E 64
2024-08-18 19:53:42.301 - 01 10 07 D0 00 03 06 70 61 00 02 00 FA 6F 26 (客厅空调冷25度)
2024-08-18 19:53:42.335 - 01 10 07 D0 00 03 06 70 61 00 02 00 FA 6F 26 (客厅空调冷25度)
2024-08-18 19:53:45.090 - A1 11 11 11 41 (餐厅空调自动开)
2024-08-18 19:53:45.330 - 19 08 24 03 F0 BB 78 02 02 00
2024-08-18 19:53:45.378 - 23 AA 56 02 13 35 2D 18 08 12 07 73 65 6F 6B 65 6E 64
2024-08-18 19:53:46.336 - 01 10 07 D3 00 03 06 70 61 00 02 00 FA 9F 29 (餐厅空调冷25度)
2024-08-18 19:53:46.382 - 01 10 07 D3 00 03 06 70 61 00 02 00 FA 9F 29 (餐厅空调冷25度)
2024-08-18 19:53:49.102 - 19 08 24 03 CC 01 55 00 01 (调用外卫感应灯关的按键)
2024-08-18 19:53:49.153 - 1A 0C 02 08 01 FF 00 01 FF 00 01 FF 00 00 0F (调光器地址-内卫射灯, 内卫感应灯关)
2024-08-18 19:53:49.546 - 09 06 00 0F 02 02 38 20 (提示音咚)
2024-08-18 19:53:50.140 - EE 00 00 B1 00 00 02 FF FC FF FF (情景完成返回主页)
2024-08-18 19:54:02.115 - 19 08 24 03 CC 01 54 00 01 (调用内卫感应灯开的按键)
2024-08-18 19:54:02.161 - 1A 0C 02 08 01 FF 45 01 FF 45 01 FF 00 00 0F (调光器地址-内卫射灯, 内卫射灯微光)
2024-08-18 19:54:56.111 - 1A 22 33 62 0F 00 02 01 0F (正反转地址-内卫卷帘, 内卫卷帘降)
2024-08-18 19:54:57.282 - 1A 20 07 00 93 00 01 02 0F (自保持开关地址-设备区顶, 设备区顶灯开关)
2024-08-18 19:55:44.319 - 19 08 24 03 CC 00 D3 00 01 (调用厨房感应灯开的按键)
2024-08-18 19:55:44.366 - 55 0A 32 00 00 00 01 92 55 0A 32 00 00 00 02 93 (厨房顶灯一开, 厨房顶灯二开)
2024-08-18 19:56:44.947 - 19 08 24 03 CC 01 55 00 01 (调用外卫感应灯关的按键)
2024-08-18 19:56:44.979 - 1A 0C 02 08 01 FF 00 01 FF 00 01 FF 00 00 0F (调光器地址-内卫射灯, 内卫感应灯关)
2024-08-18 19:57:14.494 - 19 08 24 03 CC 01 54 00 01 (调用内卫感应灯开的按键)
2024-08-18 19:57:14.525 - 1A 0C 02 08 01 FF 45 01 FF 45 01 FF 00 00 0F (调光器地址-内卫射灯, 内卫射灯微光)
2024-08-18 19:57:45.568 - 19 08 24 03 CC 01 55 00 01 (调用外卫感应灯关的按键)
2024-08-18 19:57:45.600 - 1A 0C 02 08 01 FF 00 01 FF 00 01 FF 00 00 0F (调光器地址-内卫射灯, 内卫感应灯关)
2024-08-18 19:58:11.113 - 19 08 24 03 CC 00 D4 00 01 (调用厨房感应灯关的按键)
2024-08-18 19:58:11.156 - 55 0A 31 00 00 00 01 91 55 0A 31 00 00 00 02 92 (厨房顶灯一关, 厨房顶灯二关)
2024-08-18 20:02:22.645 - 55 F5 40 00 00 00 00 8A 22 07 40 00 00 00 00 69
2024-08-18 20:02:22.645 - 00 00
2024-08-18 20:02:22.657 - FF
2024-08-18 20:02:22.661 - 00 00 00 00 68
2024-08-18 20:02:22.677 - 00 00 00 00 64
2024-08-18 20:02:32.122 - 01 67 00 00 00 00 34 02
2024-08-18 20:02:45.244 - 07 67 00 00 00 00 34 64 07 67 36 00 00 00 6A AD 79 00 00 14 9B 00 17 00 0A 00 00 00 00 00 00 00 (区域高光指令（AD+区域+暖光+冷光+AE）)
2024-08-18 20:02:45.278 - 00 14 8B 00 00 1C 10 10 01 01 06 AF BF CF DF C1 01 D3 D0 CF DF 31 20 2F 20 B5 E7 D4 FC (有线1/电源开关)
2024-08-18 20:02:45.397 - 20 92 52 CE
2024-08-18 20:02:45.426 - 80 80 01 00 8E 8B CD C6 03 00 8D A5 8E 8B 1D 16 22 7C 07 00 8D 09 86
2024-08-18 20:02:45.461 - 07 67 00 01 00 00 65 A4 07 67 36 00 03 00 6A F8 8D A5 01 00 CD B2 8D F9 01 00 0D 18 0C 10
2024-08-18 20:02:45.618 - 9D D9 00 05 00 6A D2 F4 C1 BF 2B 2C 80 09 01 01 26 02 24 26 CD C6 80 80 01 00 8E 8B CD C7 03 00
2024-08-18 20:02:45.648 - 8D A5 8E 8B 1D 16 62 7C 06 00 8D F8 8D A5 01 00 CD B1 8D F9 01 00 0D 19 3C 0D
2024-08-18 20:02:45.680 - 07 67 00 01 00 00 65 A4 07 67 36 00 06 00 6A 0D 10 01 01 06 AF BF CF DF C1 05 D3 D0 CF DF 31 20 (有线1/音量-)
2024-08-18 20:02:45.713 - 2F 20 D2 F4 C1 BF 2D 2C 80 09 01 01 26 02 24 26 CD C6 80 80 01 00 8E 8B CD C7 03 00 FD
2024-08-18 20:02:45.859 - F8 8E A4 01 00 CD B1 8E F9 01 00 0D 16 0A 10 01 01 06 AF BF CF DF C1 07 D3 D0 0D 98 (有线1/上)
2024-08-18 20:02:45.893 - 07 67 00 01 00 00 65 A4 07 67 36 00 09 00 6A CF DF 31 20 2F 20 C9 CF 2C 80 09 01 01 26 F2
2024-08-18 20:02:46.017 - D0 96 13
2024-08-18 20:02:46.047 - 0B 00 6A 16 22 7F 01 00 8E F8 8D A5 01 00 CD B2 8E F8 01 00 0D 16 0A 10 01 01 06 AF BF CF DF C1
2024-08-18 20:02:46.078 - 09 D3 D0 CF DF 31 20 2F 20 D7 F3 2C 80 09 01 01 26 02 24 26 CD 79 D3
2024-08-18 20:02:46.112 - 07 67 00 01 00 00 65 A4 07 67 36 00 0C 00 6A C6 80 80 01 00 8E 8C CD C7 03 00 8E A4 8E 8C 1D 16
2024-08-18 20:02:46.146 - 22 7E 03 00 8D F8 8E A4 01 00 CD B2 8D F8 01 00 0D 16 0A 10 01 01 06 AF BF CF DF C1 FA
2024-08-18 20:02:46.270 - 09
2024-08-18 20:02:46.299 - 09 01 01 26 02 24 26 CD C6 80 80 01 00 8D 8C CD C6 03 00 8D A5 8D 8C 1D C0 AE
2024-08-18 20:02:46.333 - 07 67 00 01 00 00 65 A4 07 67 36 00 0F 00 6A 16 22 70 1F 00 8D F8 8D A5 01 00 CD B2 8D F9
2024-08-18 20:02:46.461 - D0 96 13
2024-08-18 20:02:46.493 - 11 00 6A CF DF 31 20 2F 20 CA FD D7 D6 31 2C 80 09 01 01 26 02 24 26 CD C6 80 80 01 00 8E 8B CD
2024-08-18 20:02:46.515 - C6 03 00 8D A4 8E 8B 1D 16 22 77 11 00 8E F8 8D A4 01 00 CD B2 84 09
2024-08-18 20:02:46.588 - 01 00 8E 8B CD C6 03 C7 4D
2024-08-18 20:02:46.623 - 07 67 00 01 00 00 65 A4 07 67 36 00 13 00 6A 00 8D A4 8E 8B 1D 16 62 76 12 00 8D F8 8D A4 01 00
2024-08-18 20:02:46.642 - CD B2 8D F9 01 00 0D 19 0D 10 01 01 06 AF BF CF FF
2024-08-18 20:02:46.796 - 02 52 FD D7 D6 34 2C 80 09 01 01 26 02 24 26 CD C6 80 80 01 00 8E 8B CD C7 03 00 8D A5 8E 8B 1D
2024-08-18 20:02:46.810 - 16 62 75 14 00 8D 76 31
2024-08-18 20:02:46.828 - 07 67 00 01 00 00 65 A4 07 67 36 00 16 00 6A F8 8D FF
2024-08-18 20:02:46.954 - 3A FF
2024-08-18 20:02:46.986 - 07 67 00 01 00 00 65 A4 07 67 36 00 18 00 6A 20 CA FD D7 D6 36 2C 80 09 01 01 26 02 24 26 CD C6
2024-08-18 20:02:47.018 - 80 80 01 00 8E 8C CD C7 03 00 8E A4 8E 8C 1D 16 62 74 16 00 8D F8 8E A4 01 00 CD B2 8D F9 01 00
2024-08-18 20:02:47.018 - 0D 75 4C
2024-08-18 20:02:47.050 - 07 67 00 01 00 00 65 A4 07 67 36 00 19 00 6A 19 0D 10 01 01 06 AF BF CF DF C1 17 D3 D0 CF DF 31 (有线1/数字7)
2024-08-18 20:02:47.078 - 20 2F 20 CA FD D7 D6 37 2C 80 09 01 01 26 FA
2024-08-18 20:02:47.234 - 5B CD C7 03 00 8E A4 8F 8B 1D 16 62 73 18 00 8E F8 8E A4 01 00 CD B1 8E F8 01 00 0D 19 0D 10 01
2024-08-18 20:02:47.241 - 01 06 AF BF CF DF C1 19 90 81 (有线1/数字9)
2024-08-18 20:02:47.265 - 07 67 00 01 00 00 65 A4 07 67 36 00 1C 00 6A FF
2024-08-18 20:02:47.390 - CD D5 B3
2024-08-18 20:02:47.424 - 07 67 00 01 00 00 65 A4 07 67 36 00 1E 00 6A C7 03 00 8E A4 8E 8C 1D 16 62 77 10 00 8E F8 8E A4
2024-08-18 20:02:47.448 - 01 00 CD B2 8E F8 01 00 0D 28 1C 10 01 01 06 AF BF CF DF C1 21 D3 FF (有线1/快捷-凤凰卫视)
2024-08-18 20:02:56.910 - 07 67 00 00 00 00 34 64 07 67 36 00 00 00 6A AD 79 00 00 14 9B 00 17 00 0A 00 00 00 00 00 00 00 (区域高光指令（AD+区域+暖光+冷光+AE）)
2024-08-18 20:02:56.944 - 00 14 8B 00 00 1C 10 10 01 01 06 AF BF CF DF C1 01 D3 D0 CF DF 31 20 2F 20 B5 E7 D4 FC (有线1/电源开关)
2024-08-18 20:02:57.097 - 02 24 26 CD C6 80 80 01 00 8E 8B CD C6 03 00 8D A5 8E 8B 1D 16 22 7C 07 00 8D 09 86
2024-08-18 20:02:57.131 - 07 67 00 01 00 00 65 A4 07 67 36 00 03 00 6A F8 8D A5 01 00 CD B2 8D F9 01 00 0D 18 0C F0
2024-08-18 20:02:57.286 - E8 D9 00 05 00 6A D2 F4 C1 BF 2B 2C 80 09 01 01 26 02 24 26 CD C6 80 80 01 00 8E 8B CD C7 03 00
2024-08-18 20:02:57.312 - 8D A5 8E 8B 1D 16 62 7C 06 00 8D F8 8D A5 01 00 CD B1 8D F9 01 00 0D 19 3C 0D
2024-08-18 20:02:57.344 - 07 67 00 01 00 00 65 A4 07 67 36 00 06 00 6A 0D 10 01 01 06 AF BF CF DF C1 05 D3 D0 CF DF 31 20 (有线1/音量-)
2024-08-18 20:02:57.377 - 2F 20 D2 F4 C1 BF 2D 2C 80 09 01 01 26 02 24 26 CD C6 80 80 01 00 8E 8B CD C7 03 00 FD
2024-08-18 20:02:57.504 - FC
2024-08-18 20:02:57.521 - 8C 0B 00 CD B1 8E F9 01 00 0D 16 0A 10 01 01 06 AF BF CF DF C1 07 D3 D0 0D 98 (有线1/上)
2024-08-18 20:02:57.555 - 07 67 00 01 00 00 65 A4 07 67 36 00 09 00 6A CF DF 31 20 2F 20 C9 CF 2C 80 09 01 01 26 E2
2024-08-18 20:02:57.712 - E8 D9 00 0B 00 6A 16 22 7F 01 00 8E F8 8D A5 01 00 CD B2 8E F8 01 00 0D 16 0A 10 01 01 06 AF BF
2024-08-18 20:02:57.744 - CF DF C1 09 D3 D0 CF DF 31 20 2F 20 D7 F3 2C 80 09 01 01 26 02 24 26 CD 79 D3
2024-08-18 20:02:57.810 - 17 0A D3 D0 CF DF 16 5B
2024-08-18 20:02:57.856 - 07 67 00 01 00 00 65 A4 07 67 36 00 0D 00 6A 31 20 2F 20 D3 D2 2C 80 09 01 01 26 02 24 26 CD C6
2024-08-18 20:02:57.872 - 80 80 01 00 8D 8C CD C7 03 00 8D A4 8D 8C 1D 16 62 FE
2024-08-18 20:02:58.001 - C6 7E 40
2024-08-18 20:02:58.031 - 0D 18 0C 10 01 01 06 AF BF CF DF C1 0C D3 D0 CF DF 31 20 2F 20 B7 B5 BB D8 2C 80 09 01 01 26 02 (有线1/返回)
2024-08-18 20:02:58.031 - 24 22 A5
2024-08-18 20:02:58.062 - 07 67 00 01 00 00 65 A4 07 67 36 00 10 00 6A 26 CD C6 E0
2024-08-18 20:02:58.218 - 07 67 00 01 00 00 65 A4 07 67 36 00 12 00 6A 8E F8 01 00 0D 19 0D 10 01 01 06 AF BF CF DF C1 12 (有线1/数字2)
2024-08-18 20:02:58.239 - D3 D0 CF DF 31 20 2F 20 CA FD D7 D6 32 2C 80 09 01 01 26 02 24 26 CD C6 80 80 01 00 FE
2024-08-18 20:02:58.398 - 64 24 B2 4D 00 8E F8 8E A4 01 00 CD B2 8E F8 01 00 0D 19 0D 10 01 01 06 AF 3F D8
2024-08-18 20:02:58.430 - 07 67 00 01 00 00 65 A4 07 67 36 00 15 00 6A BF CF DF C1 14 D3 D0 CF DF 31 20 2F 20 CA FD FF
2024-08-18 20:02:58.589 - 67 36 00 17 00 6A 01 00 8E 8B CD C7 03 00 8D A4 8E 8B 1D 16 22 75 15 00 8E F8 8D A4 01 00 CD B2
2024-08-18 20:02:58.611 - 8E F8 01 00 0D 19 0D 10 01 01 06 AF BF CF DF C1 16 D3 D0 CF DF 31 20 2F 00 67 (有线1/数字6)
2024-08-18 20:02:58.626 - 07 67 00 01 00 00 65 A4
2024-08-18 20:03:01.758 - 07 67 00 00 00 00 34 64 07 67 36 00 00 00 6A AD 79 00 00 14 9B 00 17 00 0A 00 00 00 00 00 00 00 (区域高光指令（AD+区域+暖光+冷光+AE）)
2024-08-18 20:03:01.791 - 00 14 8B 00 00 1C 10 10 01 01 06 AF BF CF DF C1 01 D3 D0 CF DF 31 20 2F 20 B5 E7 D4 F4 (有线1/电源开关)
2024-08-18 20:03:07.896 - 07 67 00 00 00 00 34 64 07 67 36 00 00 00 6A AD 79 00 00 14 9B 00 17 00 0A 00 00 00 00 00 00 00 (区域高光指令（AD+区域+暖光+冷光+AE）)
2024-08-18 20:03:07.930 - 00 14 8B 00 00 1C 10 10 01 01 06 AF BF CF DF C1 01 D3 D0 CF DF 31 20 2F 20 B5 E7 D4 FC (有线1/电源开关)
2024-08-18 20:03:08.078 - 22 32 6A C6 80 80 01 00 8E 8B CD C6 03 00 8D A5 8E 8B 1D 16 22 7C 07 00 8D 09 86
2024-08-18 20:03:08.113 - 07 67 00 01 00 00 65 A4 07 67 36 00 03 00 6A F8 8D A5 01 00 CD B2 8D F9 01 00 0D 18 0C 10 FF
2024-08-18 20:03:08.235 - 96 13
2024-08-18 20:03:08.269 - 05 00 6A D2 F4 C1 BF 2B 2C 80 09 01 01 26 02 24 26 CD C6 80 80 01 00 8E 8B CD C7 03 00 8D A5 8E
2024-08-18 20:03:08.296 - 8B 1D 16 62 7C 06 00 8D F8 8D A5 01 00 CD B1 8D F9 01 00 0D 19 3C 0D
2024-08-18 20:03:08.370 - 00 8D A4 8E 8B 1D 07 0C
2024-08-18 20:03:08.404 - 07 67 00 01 00 00 65 A4 07 67 36 00 07 00 6A 16 22 7A 0B 00 8E F8 8D A4 01 00 CD B2 8E F8 01 00
2024-08-18 20:03:08.438 - 0D 18 0C 10 01 01 06 AF BF CF DF C1 06 D3 D0 CF DF 31 20 2F 20 BE B2 D2 F4 2C 80 09 01 01 26 02 (有线1/静音)
2024-08-18 20:03:08.438 - 24 35 83
2024-08-18 20:03:08.472 - 07 67 00 01 00 00 65 A4 07 67 36 00 08 00 6A 26 CD C6 80 80 01 00 8E 8C CD C7 03 00 8E A4 8E 8C
2024-08-18 20:03:08.506 - 1D 16 62 79 0C 00 8E F8 8E A4 01 00 CD B1 8E F9 01 00 0D 16 0A 10 01 01 06 AF BF CF DF C1 07 D3 (有线1/上)
2024-08-18 20:03:08.515 - D0 0D 98
2024-08-18 20:03:08.547 - 07 67 00 01 00 00 65 A4 07 67 36 00 09 00 6A CF DF 31 20 2F 20 C9 CF 2C 80 09 01 01 26 02 24 26
2024-08-18 20:03:08.580 - CD C6 80 80 01 00 8D 8C CD C6 03 00 8E A4 8D 8C 1D 16 62 7F 00 00 8D F8 8E A4 01 00 CD B2 8D F9
2024-08-18 20:03:08.580 - 01 78 65
2024-08-18 20:03:08.622 - 07 67 00 01 00 00 65 A4 07 67 36 00 0A 00 6A 00 0D 16 0A 10 01 01 06 AF BF CF DF C1 08 D3 D0 CF (有线1/下)
2024-08-18 20:03:08.654 - DF 31 20 2F 20 CF C2 2C 80 09 01 01 26 02 24 26 CD C6 80 80 01 00 8E 8B CD C6 03 00 8D A5 8E 8B
2024-08-18 20:03:08.659 - 1D 1F 82
2024-08-18 20:03:08.693 - 07 67 00 01 00 00 65 A4 07 67 36 00 0B 00 6A 16 22 7F 01 00 8E F8 8D A5 01 00 CD B2 8E F8 01 00
2024-08-18 20:03:08.727 - 0D 16 0A 10 01 01 06 AF BF CF DF C1 09 D3 D0 CF DF 31 20 2F 20 D7 F3 2C 80 09 01 01 26 02 24 26 (有线1/左)
2024-08-18 20:03:08.727 - CD 79 D3
2024-08-18 20:03:12.828 - 07 67 00 00 00 00 34 64 07 67 36 00 00 00 6A AD 79 00 00 14 9B 00 17 00 0A 00 00 00 00 00 00 00 (区域高光指令（AD+区域+暖光+冷光+AE）)
2024-08-18 20:03:12.859 - 00 14 8B 00 00 1C 10 10 01 01 06 AF BF CF DF C1 01 D3 D0 CF DF 31 20 2F 20 B5 E7 D4 FC (有线1/电源开关)
2024-08-18 20:03:12.987 - 20 92 52 CE
2024-08-18 20:03:13.004 - 80 80 01 00 8E 8B CD C6 03 00 8D A5 8E 8B 1D 16 22 7C 07 00 8D 09 86
2024-08-18 20:03:13.046 - 07 67 00 01 00 00 65 A4 07 67 36 00 03 00 6A F8 8D A5 01 00 CD B2 8D F9 01 00 0D 18 0C F0
2024-08-18 20:03:13.173 - D0 96 13
2024-08-18 20:03:13.205 - 05 00 6A D2 F4 C1 BF 2B 2C 80 09 01 01 26 02 24 26 CD C6 80 80 01 00 8E 8B CD C7 03 00 8D A5 8E
2024-08-18 20:03:13.225 - 8B 1D 16 62 7C 06 00 8D F8 8D A5 01 00 CD B1 8D F9 01 00 0D 19 3C 0D
2024-08-18 20:03:13.293 - 20
2024-08-18 20:03:13.301 - 8D A4 8E 8B 1D 07 0C
2024-08-18 20:03:13.333 - 07 67 00 01 00 00 65 A4 07 67 36 00 07 00 6A 16 22 7A 0B 00 8E F8 8D A4 01 00 CD B2 8E F8 01 00
2024-08-18 20:03:13.350 - 0D 18 0C 10 01 01 06 AF BF CF DF C1 06 D3 D0 CF DF (有线1/静音)
2024-08-18 20:03:13.507 - 99 02 24 26 CD C6 80 80 01 00 8D 8C CD C6 03 00 8E A4 8D 8C 1D 16 62 7F 00 00 8D F8 8E A4 01 00
2024-08-18 20:03:13.515 - CD B2 8D F9 01 78 65
2024-08-18 20:03:13.555 - 07 67 00 01 00 00 65 A4 07 67 36 00 0A 00 6A 00 0D 16 0A 10 01 01 06 AF BF CF DF C1 08 D3 D0 CF (有线1/下)
2024-08-18 20:03:13.587 - DF 31 20 2F 20 CF C2 2C 80 09 01 01 26 02 24 26 CD C6 80 80 01 00 8E 8B CD C6 03 00 8D A5 8E 8B
2024-08-18 20:03:13.587 - 1D 1F 82
2024-08-18 20:03:13.619 - 07 67 00 01 00 00 65 A4 07 67 36 00 0B 00 6A 16 22 7F 01 00 8E F8 8D A5 01 00 CD B2 8E F8 01 00
2024-08-18 20:03:13.651 - 0D 16 0A 10 01 01 06 AF BF CF DF C1 09 D3 D0 CF DF 31 20 2F 20 D7 F3 2C 80 09 01 01 26 02 24 26 (有线1/左)
2024-08-18 20:03:13.666 - CD 79 D3
2024-08-18 20:03:13.730 - EE 17
2024-08-18 20:03:13.737 - 0A D3 D0 CF DF 16 5B
2024-08-18 20:03:13.768 - 07 67 00 01 00 00 65 A4 07 67 36 00 0D 00 6A 31 20 2F 20 D3 D2 2C 80 09 01 01 26 02 24 26 CD C6
2024-08-18 20:03:13.785 - 80 80 01 00 8D 8C CD C7 03 00 8D A4 8D 8C 1D 16
2024-08-18 20:03:23.693 - 07 67 00 00 00 00 34 64 07 67 36 00 00 00 6A AD 79 00 00 14 9B 00 17 00 0A 00 00 00 00 00 00 00 (区域高光指令（AD+区域+暖光+冷光+AE）)
2024-08-18 20:03:23.727 - 00 14 8B 00 00 1C 10 10 01 01 06 AF BF CF DF C1 01 D3 D0 CF DF 31 20 2F 20 B5 E7 D4 FC (有线1/电源开关)
2024-08-18 20:03:23.848 - 10 92 52 CE
2024-08-18 20:03:23.864 - 80 80 01 00 8E 8B CD C6 03 00 8D A5 8E 8B 1D 16 22 7C 07 00 8D 09 86
2024-08-18 20:03:23.911 - 07 67 00 01 00 00 65 A4 07 67 36 00 03 00 6A F8 8D A5 01 00 CD B2 8D F9 01 00 0D 18 0C 10
2024-08-18 20:03:24.067 - 67 36 00 05 00 6A D2 F4 C1 BF 2B 2C 80 09 01 01 26 02 24 26 CD C6 80 80 01 00 8E 8B CD C7 03 00
2024-08-18 20:03:24.087 - 8D A5 8E 8B 1D 16 62 7C 06 00 8D F8 8D A5 01 00 CD B1 8D F9 01 00 0D 19 3C 0D
2024-08-18 20:03:24.169 - 01 8D A4 8E 8B 1D 07 0C
2024-08-18 20:03:24.203 - 07 67 00 01 00 00 65 A4 07 67 36 00 07 00 6A 16 22 7A 0B 00 8E F8 8D A4 01 00 CD B2 8E F8 01 00
2024-08-18 20:03:24.222 - 0D 18 0C 10 01 01 06 AF BF CF DF C1 06 D3 D0 CF DF FD (有线1/静音)
2024-08-18 20:03:24.342 - 92
2024-08-18 20:03:24.373 - 24 26 CD C6 80 80 01 00 8D 8C CD C6 03 00 8E A4 8D 8C 1D 16 62 7F 00 00 8D F8 8E A4 01 00 CD B2
2024-08-18 20:03:24.373 - 8D F9 01 78 65
2024-08-18 20:03:24.406 - 07 67 00 01 00 00 65 A4 07 67 36 00 0A 00 6A 00 0D 16 0A
2024-08-18 20:03:24.501 - E8 D9 00 0B 00 6A 16 22 7F 01 00 8E F8 8D A5 01 00 CD B2 8E F8 01 00 0D 16 0A 10 01 01 06 AF BF
2024-08-18 20:03:24.525 - CF DF C1 09 D3 D0 CF DF 31 20 2F 20 D7 F3 2C 80 09 01 01 26 02 24 26 CD 79 D3
2024-08-18 20:03:24.596 - 17 0A D3 D0 CF DF 16 5B
2024-08-18 20:03:24.628 - 07 67 00 01 00 00 65 A4 07 67 36 00 0D 00 6A 31 20 2F 20 D3 D2 2C 80 09 01 01 26 02 24 26 CD C6
2024-08-18 20:03:24.644 - 80 80 01 00 8D 8C CD C7 03 00 8D A4 8D 8C 1D 16 62
2024-08-18 20:03:24.803 - 8D F9 01 00 0D 18 0C 10 01 01 06 AF BF CF DF C1 0C D3 D0 CF DF 31 20 2F 20 B7 B5 BB D8 2C 80 09 (有线1/返回)
2024-08-18 20:03:24.819 - 01 01 26 02 24 22 A5
2024-08-18 20:03:24.851 - 07 67 00 01 00 00 65 A4 07 67 36 00 10 00 6A 26 CD C6 90 80 01 00 8E 8C CD C7 03 00 8E A4 8E 8C
2024-08-18 20:03:24.883 - 1D 16 62 71 1C 00 8D F8 8E A4 01 00 CD B1 8D F8 01 00 0D 19 0D 10 01 01 06 AF BF CF DF C1 11 D3 (有线1/数字1)
2024-08-18 20:03:24.890 - D0 A6 02
2024-08-18 20:03:24.922 - 07 67 00 01 00 00 65 A4 27 67 36 00 11 00 6A CF DF 31 20 2F 20 CA FD D7 D6 31 2C 80 09 01 01 26
2024-08-18 20:03:24.953 - 02 24 26 CD C6 80 80 01 00 8E 8B CD C6 03 00 8D A4 8E 8B 1D 16 22 77 11 00 8E F8 8D A4 01 00 CD
2024-08-18 20:03:24.962 - B2 84 09
2024-08-18 20:03:28.243 - 07 67 00 00 00 00 34 64 07 67 36 00 00 00 6A AD 79 00 00 14 9B 00 17 00 0A 00 00 00 00 00 00 00 (区域高光指令（AD+区域+暖光+冷光+AE）)
2024-08-18 20:03:28.277 - 00 14 8B 00 00 1C 10 10 01 01 06 AF BF CF DF C1 01 D3 D0 CF DF 31 20 2F 20 B5 E7 D4 FC (有线1/电源开关)
2024-08-18 20:03:28.396 - 20 92 52 CE
2024-08-18 20:03:28.428 - 80 80 01 00 8E 8B CD C6 03 00 8D A5 8E 8B 1D 16 22 7C 07 00 8D 09 86
2024-08-18 20:03:28.430 - 07 67 00 01 00 00 65 A4
2024-08-18 20:03:32.862 - 07 67 00 00 00 00 34 64 07 67 36 00 00 00 6A AD 79 00 00 14 9B 00 17 00 0A 00 00 00 00 00 00 00 (区域高光指令（AD+区域+暖光+冷光+AE）)
2024-08-18 20:03:32.894 - 00 14 8B 00 00 1C 10 10 01 01 06 AF BF CF DF C1 01 D3 D0 CF DF 31 20 2F 20 B5 E7 D4 F4 (有线1/电源开关)
2024-08-18 20:03:33.016 - 20 92 52 CE
2024-08-18 20:03:33.032 - 80 80 01 00 8E 8B CD C6 03 00 8D A5 8E 8B 1D 16 22 7C 07 00 8D 09 86
2024-08-18 20:03:33.080 - 07 67 00 01 00 00 65 A4 07 67 36 00 03 00 6A F8 8D A5 01 00 CD B2 8D F9 01 00 0D 18 0C 90
2024-08-18 20:03:33.234 - 74 D9 00 05 00 6A D2 F4 C1 BF 2B 2C 80 09 01 01 26 02 24 26 CD C6 80 80 01 00 8E 8B CD C7 03 00
2024-08-18 20:03:33.255 - 8D A5 8E 8B 1D 16 62 7C 06 00 8D F8 8D A5 01 00 CD B1 8D F9 01 00 0D 19 3C 0D
2024-08-18 20:03:36.897 - 07 67 00 00 00 00 34 64 07 67 36 00 00 00 6A AD 79 00 00 14 9B 00 17 00 0A 00 00 00 00 00 00 00 (区域高光指令（AD+区域+暖光+冷光+AE）)
2024-08-18 20:03:36.929 - 00 14 8B 00 00 1C 10 10 01 01 06 AF BF CF DF C1 01 D3 D0 CF DF 31 20 2F 20 B5 E7 D4 FC (有线1/电源开关)
2024-08-18 20:03:37.078 - 02 24 26 CD C6 80 80 01 00 8E 8B CD C6 03 00 8D A5 8E 8B 1D 16 22 7C 07 00 8D 09 86
2024-08-18 20:03:37.109 - 07 67 00 01 00 00 65 A4 07 67 36 00 03 00 6A F8 8D A5 01 00 CD B2 8D F9 01 00 0D 18 0C F0
2024-08-18 20:03:37.265 - 3A D9 00 05 00 6A D2 F4 C1 BF 2B 2C 80 09 01 01 26 02 24 26 CD C6 80 80 01 00 8E 8B CD C7 03 00
2024-08-18 20:03:37.297 - 8D A5 8E 8B 1D 16 62 7C 06 00 8D F8 8D A5 01 00 CD B1 8D F9 01 00 0D 19 3C 0D
2024-08-18 20:03:37.329 - 07 67 00 01 00 00 65 A4 07 67 36 00 06 00 6A 0D 10 01 01 06 AF BF CF DF C1 05 D3 D0 CF DF 31 20 (有线1/音量-)
2024-08-18 20:03:37.361 - 2F 20 D2 F4 C1 BF 2D 2C 80 09 01 01 26 02 24 26 CD C6 80 80 01 00 8E 8B CD C7 03 00 FD
2024-08-18 20:03:37.515 - F8 8E A4 01 00 CD B1 8E F9 01 00 0D 16 0A 10 01 01 06 AF BF CF DF C1 07 D3 D0 0D 98 (有线1/上)
2024-08-18 20:03:37.548 - 07 67 00 01 00 00 65 A4 07 67 36 00 09 00 6A CF DF 31 20 2F 20 C9 CF 2C 80 09 01 01 26 C2
2024-08-18 20:03:37.703 - 3A D9 00 0B 00 6A 16 22 7F 01 00 8E F8 8D A5 01 00 CD B2 8E F8 01 00 0D 16 0A 10 01 01 06 AF BF
2024-08-18 20:03:37.727 - CF DF C1 09 D3 D0 CF DF 31 20 2F 20 D7 F3 2C 80 09 01 01 26 02 24 26 CD 79 D3
2024-08-18 20:03:37.765 - 07 67 00 01 00 00 65 A4 07 67 36 00 0C 00 6A C6 80 80 01 00 8E 8C CD C7 03 00 8E A4 8E 8C 1D 16
2024-08-18 20:03:37.796 - 22 7E 03 00 8D F8 8E A4 01 00 CD B2 8D F8 01 00 0D 16 0A 10 01 01 06 AF BF CF DF C1 FA
2024-08-18 20:03:37.921 - 96
2024-08-18 20:03:37.939 - 09 01 01 26 02 24 26 CD C6 80 80 01 00 8D 8C CD C6 03 00 8D A5 8D 8C 1D C0 AE
2024-08-18 20:03:37.984 - 07 67 00 01 00 00 65 A4 07 67 36 00 0F 00 6A 16 22 70 1F 00 8D F8 8D A5 01 00 CD B2 8D F9
2024-08-18 20:03:38.126 - E8 D9 00 11 00 6A CF DF 31 20 2F 20 CA FD D7 D6 31 2C 80 09 01 01 26 02 24 26 CD C6 80 80 01 00
2024-08-18 20:03:38.160 - 8E 8B CD C6 03 00 8D A4 8E 8B 1D 16 22 77 11 00 8E F8 8D A4 01 00 CD B2 84 09
2024-08-18 20:03:38.229 - 40
2024-08-18 20:03:38.237 - 8E 8B CD C6 03 C7 4D
2024-08-18 20:03:38.269 - 07 67 00 01 00 00 65 A4 07 67 36 00 13 00 6A 00 8D A4 8E 8B 1D 16 62 76 12 00 8D F8 8D A4 01 00
2024-08-18 20:03:38.285 - CD B2 8D F9 01 00 0D 19 0D 10 01 01 06 AF BF CF FF
2024-08-18 20:03:38.415 - 90 B9
2024-08-18 20:03:38.449 - D7 D6 34 2C 80 09 01 01 26 02 24 26 CD C6 80 80 01 00 8E 8B CD C7 03 00 8D A5 8E 8B 1D 16 62 75
2024-08-18 20:03:38.453 - 14 00 8D 76 31
2024-08-18 20:03:38.476 - 07 67 00 01 00 00 65 A4 07 67 36 00 16 00 6A F8 8D FD
2024-08-18 20:03:38.603 - 9D FF
2024-08-18 20:03:38.636 - 07 67 00 01 00 00 65 A4 07 67 36 00 18 00 6A 20 CA FD D7 D6 36 2C 80 09 01 01 26 02 24 26 CD C6
2024-08-18 20:03:38.653 - 80 80 01 00 8E 8C CD C7 03 00 8E A4 8E 8C 1D 16 62 74 16 00 8D F8 8E A4 E1
2024-08-18 20:03:41.911 - 07 67 00 00 00 00 34 64 07 67 36 00 00 00 6A AD 79 00 00 14 9B 00 17 00 0A 00 00 00 00 00 00 00 (区域高光指令（AD+区域+暖光+冷光+AE）)
2024-08-18 20:03:41.930 - 00 14 8B 00 00 1C 10 10 01 01 06 AF BF CF DF C1 01 D3 D0 CF DF 31 20 2F 20 B5 E7 D4 FC (有线1/电源开关)
2024-08-18 20:03:42.063 - 20 92 52 CE
2024-08-18 20:03:42.089 - 80 80 01 00 8E 8B CD C6 03 00 8D A5 8E 8B 1D 16 22 7C 07 00 8D 09 86
2024-08-18 20:03:42.121 - 07 67 00 01 00 00 65 A4 07 67 36 00 03 00 6A F8 8D A5 01 00 CD B2 8D F9 01 00 0D 18 0C 10
2024-08-18 20:03:42.185 - DC
2024-08-18 20:03:42.217 - 00 8D A5 8E 8C 1D 16 22 7D 05 00 8E F8 8D A5 01 00 CD B2 8E F8 01 00 0D 19 0D 10 01 01 06 AF BF
2024-08-18 20:03:42.234 - CF DF C1 04 D3 D0 CF DF 31 20 2F 20 16 67
2024-08-18 20:03:42.251 - 07 67 00 01 00 00 65 A4 07 67 9B
2024-08-18 20:03:42.287 - 05 00 6A D2 F4 C1 BF 2B 2C 80 09 01 01 26 02 24 26 CD C6 80 80 01 00 8E 8B CD C7 03 00 8D A5 8E
2024-08-18 20:03:42.313 - 8B 1D 16 62 7C 06 00 8D F8 8D A5 01 00 CD B1 8D F9 01 00 0D 19 3C 0D
2024-08-18 20:03:42.313 - C7
2024-08-18 20:03:42.440 - 4C
2024-08-18 20:03:42.456 - 7A 02 F2 93 93 F4 2C 80 09 01 01 26 02 24 35 83
2024-08-18 20:03:42.488 - 07 67 00 01 00 00 65 A4 07 67 36 00 08 00 6A 26 CD C6 80 80 01 00 8E 8C CD C7 03 00 8E A4 8E 8C
2024-08-18 20:03:42.488 - 1D 16 62 79 0C 00 8E F8
2024-08-18 20:03:42.647 - 08 14 01 06 AF BF CF DF C1 08 D3 D0 CF DF 31 20 2F 20 CF C2 2C 80 09 01 01 26 02 24 26 CD C6 80 (有线1/下)
2024-08-18 20:03:42.675 - 80 01 00 8E 8B CD C6 03 00 8D A5 8E 8B 1D 1F 82
2024-08-18 20:03:42.679 - 07 67 00 01 00 00 65 A4 07
2024-08-18 20:03:42.811 - EE 17 0A D3 D0 CF DF 16 5B
2024-08-18 20:03:42.855 - 07 67 00 01 00 00 65 A4 07 67 36 00 0D 00 6A 31 20 2F 20 D3 D2 2C 80 09 01 01 26 02 24 26 CD C6
2024-08-18 20:03:42.887 - 80 80 01 00 8D 8C CD C7 03 00 8D A4 8D 8C 1D 16 62 7E 02 00 8E F8 8D A4 01 00 CD B2 8E F8 01 00
2024-08-18 20:03:42.890 - 0D 98 49
2024-08-18 20:03:42.921 - 07 67 00 01 00 00 65 A4 07 67 36 00 0E 00 6A 18 0C 10 01 01 06 AF BF CF DF C1 0B D3 D0 CF DF 31 (有线1/确认)
2024-08-18 20:03:42.955 - 20 2F 20 C8 B7 C8 CF 2C 80 09 01 01 26 02 24 26 CD C6 80 80 01 00 8D 8C CD C6 03 00 8D A5 8D 8C
2024-08-18 20:03:42.966 - 1D C0 AE
2024-08-18 20:03:42.999 - 07 67 00 01 00 00 65 A4 07 67 36 00 0F 00 6A 16 22 70 1F 00 8D F8 8D A5 01 00 CD B2 8D F9 01 00
2024-08-18 20:03:43.033 - 0D 18 0C 10 01 01 06 AF BF CF DF C1 0C D3 D0 CF DF 31 20 2F 20 B7 B5 BB D8 2C 80 09 01 01 26 02 (有线1/返回)
2024-08-18 20:03:43.038 - 24 22 A5
2024-08-18 20:03:43.073 - 07 67 00 01 00 00 65 A4 07 67 36 00 10 00 6A 26 CD C6 80 80 01 00 8E 8C CD C7 03 00 8E A4 8E 8C
2024-08-18 20:03:43.101 - 1D 16 62 71 1C 00 8D F8 8E A4 01 00 CD B1 8D F8 01 00 0D 19 0D 10 01 01 06 AF BF CF DF C1 11 D3 (有线1/数字1)
2024-08-18 20:03:43.110 - D0 A6 02
2024-08-18 20:03:43.118 - 07 67 00 01 00 00 65 A4
2024-08-18 20:03:43.254 - 80 80 01 00 8E 8B CD C6 03 C7 4D
2024-08-18 20:03:43.288 - 07 67 00 01 00 00 65 A4 07 67 36 00 13 00 6A 00 8D A4 8E 8B 1D 16 62 76 12 00 8D F8 8D A4 01 00
2024-08-18 20:03:43.322 - CD B2 8D F9 01 00 0D 19 0D 10 01 01 06 AF BF CF DF C1 13 D3 D0 CF DF 31 20 2F 20 CA FD D7 D6 33 (有线1/数字3)
2024-08-18 20:03:43.328 - 2C A1 B6
2024-08-18 20:03:43.365 - 07 67 00 01 00 00 65 A4 07 67 36 00 14 00 6A 80 09 01 01 26 02 24 26 CD C6 80 80 01 00 8E 8B CD
2024-08-18 20:03:43.397 - C7 03 00 8E A4 8E 8B 1D 16 22 76 13 00 8E F8 8E A4 01 00 CD B2 8E F8 01 00 0D 19 0D 10 01 01 06
2024-08-18 20:03:43.397 - AF 3F D8
2024-08-18 20:03:43.438 - 07 67 00 01 00 00 65 A4 07 67 36 00 15 00 6A BF CF DF C1 14 D3 D0 CF DF 31 20 2F 20 CA FD D7 D6
2024-08-18 20:03:43.469 - 34 2C 80 09 01 01 26 02 24 26 CD C6 80 80 01 00 8E 8B CD C7 03 00 8D A5 8E 8B 1D 16 62 75 14 00
2024-08-18 20:03:43.474 - 8D 76 31
2024-08-18 20:03:43.508 - 07 67 00 01 00 00 65 A4 07 67 36 00 16 00 6A F8 8D A5 01 00 CD B2 8D F9 01 00 0D 19 0D 10 01 01
2024-08-18 20:03:43.542 - 06 AF BF CF DF C1 15 D3 D0 CF DF 31 20 2F 20 CA FD D7 D6 35 2C 80 09 01 01 26 02 24 26 CD C6 80 (有线1/数字5)
2024-08-18 20:03:43.546 - 80 30 56
2024-08-18 20:03:43.578 - 07 67 00 01 00 00 65 A4 07 67 36 00 17 00 6A 01 00 8E 8B CD C7 03 00 8D A4 8E 8B 1D 16 22 75 15
2024-08-18 20:03:43.610 - 00 8E F8 8D A4 01 00 CD B2 8E F8 01 00 0D 19 0D 10 01 01 06 AF BF CF DF C1 16 D3 D0 CF DF 31 20 (有线1/数字6)
2024-08-18 20:03:43.620 - 2F 00 F7
2024-08-18 20:03:43.765 - 26 02 24 26 CD C6 80 80 01 00 8E 8C CD C7 03 00 8E A4 8E 8C 3E 17
2024-08-18 20:03:43.799 - 07 67 00 01 00 00 65 A4 07 67 36 00 1A 00 6A 1D 16 22 74 17 00 8D F8 8E A4 01 00 CD B2 8D F9 01
2024-08-18 20:03:43.799 - 00 0D 19 ED
2024-08-18 20:03:43.924 - B5 3A F7
2024-08-18 20:03:43.955 - DF 31 20 2F 20 CA FD D7 D6 39 2C 80 09 01 01 26 02 24 26 CD C6 80 80 01 00 8D 8C CD C6 03 00 8E
2024-08-18 20:03:43.985 - A4 8D 8C 1D 16 22 73 19 00 8D F8 8E A4 01 00 FE C9
2024-08-18 20:03:43.987 - 07 67 00 01 FF
2024-08-18 20:03:44.130 - 9A D0 CF DF 31 20 2F 20 BF EC BD DD E5 BD
2024-08-18 20:03:44.162 - 07 67 00 01 00 00 65 A4 07 67 36 00 1F 00 6A A3 BA B7 EF BB CB CE C0 CA D3 37 33 C6 B5 B5 C0 2C
2024-08-18 20:03:44.194 - 80 09 01 01 26 02 24 26 CD C6 80 80 01 00 8E 8C CD C7 03 00 8E A4 8E 8C 1D 16 22 74 17 00 8D F8
2024-08-18 20:03:44.203 - 8E FE 2E
2024-08-18 20:03:44.237 - 07 67 00 01 00 00 65 A4 07 67 36 00 20 00 6A A4 01 00 CD B2 8D F9 01 00 0D 09 80 11 01 01 00 00
2024-08-18 20:03:44.267 - 00 64 2C 80 09 01 01 26 02 24 26 CD C6 80 80 01 00 8E 8B CD C7 03 00 8E A4 8E 8B 1D 16 22 76 13
2024-08-18 20:03:44.273 - 00 B9 5F
2024-08-18 20:03:44.273 - 07 67 00 01 00 00 65 A4
2024-08-18 20:03:47.796 - 07 67 00 00 00 00 34 64 07 67 36 00 00 00 6A AD 79 00 00 14 9B 00 17 00 0A 00 00 00 00 00 00 00 (区域高光指令（AD+区域+暖光+冷光+AE）)
2024-08-18 20:03:47.828 - 00 14 8B 00 00 1C 10 10 01 01 06 AF BF CF DF C1 01 D3 D0 CF DF 31 20 2F 20 B5 E7 D4 FC (有线1/电源开关)
2024-08-18 20:03:47.954 - 10 92 52 CE
2024-08-18 20:03:47.970 - 80 80 01 00 8E 8B CD C6 03 00 8D A5 8E 8B 1D 16 22 7C 07 00 8D 09 86
2024-08-18 20:03:48.013 - 07 67 00 01 00 00 65 A4 07 67 36 00 03 00 6A F8 8D A5 01 00 CD B2 8D F9 01 00 0D 18 0C 10
2024-08-18 20:03:48.157 - 74 D9 00 05 00 6A D2 F4 C1 BF 2B 2C 80 09 01 01 26 02 24 26 CD C6 80 80 01 00 8E 8B CD C7 03 00
2024-08-18 20:03:48.191 - 8D A5 8E 8B 1D 16 62 7C 06 00 8D F8 8D A5 01 00 CD B1 8D F9 01 00 0D 19 3C 0D
2024-08-18 20:03:51.261 - 07 67 00 00 00 00 34 64 07 67 36 00 00 00 6A AD 79 00 00 14 9B 00 17 00 0A 00 00 00 00 00 00 00 (区域高光指令（AD+区域+暖光+冷光+AE）)
2024-08-18 20:03:51.293 - 00 14 8B 00 00 1C 10 10 01 01 06 AF BF CF DF C1 01 D3 D0 CF DF 31 20 2F 20 B5 E7 D4 FC (有线1/电源开关)
2024-08-18 20:03:51.419 - 10 92 52 CE
2024-08-18 20:03:51.438 - 80 80 01 00 8E 8B CD C6 03 00 8D A5 8E 8B 1D 16 22 7C 07 00 8D 09 86
2024-08-18 20:03:51.470 - 07 67 00 01 00 00 65 A4 07 67 36 00 03 00 6A F8 8D A5 01 00 CD B2 8D F9 01 00 0D 18 0C 10 FF
2024-08-18 20:03:51.630 - 67 36 00 05 00 6A D2 F4 C1 BF 2B 2C 80 09 01 01 26 02 24 26 CD C6 80 80 01 00 8E 8B CD C7 03 00
2024-08-18 20:03:51.661 - 8D A5 8E 8B 1D 16 62 7C 06 00 8D F8 8D A5 01 00 CD B1 8D F9 01 00 0D 19 3C 0D
2024-08-18 20:03:51.693 - 07 67 00 01 00 00 65 A4 07 67 36 00 06 00 6A 0D 10 01 01 06 AF BF CF DF C1 05 D3 D0 CF DF 31 20 (有线1/音量-)
2024-08-18 20:03:51.725 - 2F 20 D2 F4 C1 BF 2D 2C 80 09 01 01 26 02 24 26 CD C6 80 80 01 00 8E 8B CD C7 03 00 FD
2024-08-18 20:03:51.878 - F8 8E A4 01 00 CD B1 8E F9 01 00 0D 16 0A 10 01 01 06 AF BF CF DF C1 07 D3 D0 0D 98 (有线1/上)
2024-08-18 20:03:51.890 - 07 67 00 01 00 00 65 A4
2024-08-18 20:03:55.372 - 07 67 00 00 00 00 34 64 07 67 36 00 00 00 6A AD 79 00 00 14 9B 00 17 00 0A 00 00 00 00 00 00 00 (区域高光指令（AD+区域+暖光+冷光+AE）)
2024-08-18 20:03:55.406 - 00 14 8B 00 00 1C 10 10 01 01 06 AF BF CF DF C1 01 D3 D0 CF DF 31 20 2F 20 B5 E7 D4 FC (有线1/电源开关)
2024-08-18 20:03:55.524 - 10 92 52 CE
2024-08-18 20:03:55.559 - 80 80 01 00 8E 8B CD C6 03 00 8D A5 8E 8B 1D 16 22 7C 07 00 8D 09 86
2024-08-18 20:03:55.593 - 07 67 00 01 00 00 65 A4 07 67 36 00 03 00 6A F8 8D A5 01 00 CD B2 8D F9 01 00 0D 18 0C 10
2024-08-18 20:03:55.748 - 67 36 00 05 00 6A D2 F4 C1 BF 2B 2C 80 09 01 01 26 02 24 26 CD C6 80 80 01 00 8E 8B CD C7 03 00
2024-08-18 20:03:55.768 - 8D A5 8E 8B 1D 16 62 7C 06 00 8D F8 8D A5 01 00 CD B1 8D F9 01 00 0D 19 3C 0D
2024-08-18 20:03:55.847 - 02 8D A4 8E 8B 1D 07 0C
2024-08-18 20:03:55.881 - 07 67 00 01 00 00 65 A4 07 67 36 00 07 00 6A 16 22 7A 0B 00 8E F8 8D A4 01 00 CD B2 8E F8 01 00
2024-08-18 20:03:55.906 - 0D 18 0C 10 01 01 06 AF BF CF DF C1 06 D3 D0 CF DF FF (有线1/静音)
2024-08-18 20:03:56.050 - 26 02 24 26 CD C6 80 80 01 00 8D 8C CD C6 03 00 8E A4 8D 8C 1D 16 62 7F 00 00 8D F8 8E A4 01 00
2024-08-18 20:03:56.067 - CD B2 8D F9 01 78 65
2024-08-18 20:03:56.084 - 07 67 00 01 00 00 65 A4 07 67 36 00 0A 00 6A 00 0D 16 EA
2024-08-18 20:03:56.242 - 07 67 00 01 00 00 65 A4 07 67 36 00 0C 00 6A C6 80 80 01 00 8E 8C CD C7 03 00 8E A4 8E 8C 1D 16
2024-08-18 20:03:56.272 - 22 7E 03 00 8D F8 8E A4 01 00 CD B2 8D F8 01 00 0D 16 0A 10 01 01 06 AF BF CF DF C1 FA
2024-08-18 20:03:56.400 - 09
2024-08-18 20:03:56.424 - 09 01 01 26 02 24 26 CD C6 80 80 01 00 8D 8C CD C6 03 00 8D A5 8D 8C 1D C0 AE
2024-08-18 20:03:56.464 - 07 67 00 01 00 00 65 A4 07 67 36 00 0F 00 6A 16 22 70 1F 00 8D F8 8D A5 01 00 CD B2 8D F9
2024-08-18 20:03:56.591 - D0 96 13
2024-08-18 20:03:56.624 - 11 00 6A CF DF 31 20 2F 20 CA FD D7 D6 31 2C 80 09 01 01 26 02 24 26 CD C6 80 80 01 00 8E 8B CD
2024-08-18 20:03:56.646 - C6 03 00 8D A4 8E 8B 1D 16 22 77 11 00 8E F8 8D A4 01 00 CD B2 84 09
2024-08-18 20:03:56.722 - 01 00 8E 8B CD C6 03 C7 4D
2024-08-18 20:03:56.752 - 07 67 00 01 00 00 65 A4 07 67 36 00 13 00 6A 00 8D A4 8E 8B 1D 16 62 76 12 00 8D F8 8D A4 01 00
2024-08-18 20:03:56.768 - CD B2 8D F9 01 00 0D 19 0D 10 01 01 06 AF BF CF FF
2024-08-18 20:03:56.928 - 02 52 FD D7 D6 34 2C 80 09 01 01 26 02 24 26 CD C6 80 80 01 00 8E 8B CD C7 03 00 8D A5 8E 8B 1D
2024-08-18 20:03:56.935 - 16 62 75 14 00 8D 76 31
2024-08-18 20:03:56.963 - 07 67 00 01 00 00 65 A4 07 67 36 00 16 00 6A F8 8D FF
2024-08-18 20:03:57.078 - E8 FF
2024-08-18 20:03:57.119 - 07 67 00 01 00 00 65 A4 07 67 36 00 18 00 6A 20 CA FD D7 D6 36 2C 80 09 01 01 26 02 24 26 CD C6
2024-08-18 20:03:57.151 - 80 80 01 00 8E 8C CD C7 03 00 8E A4 8E 8C 1D 16 62 74 16 00 8D F8 8E A4 01 00 CD B2 8D F9 01 00
2024-08-18 20:03:57.155 - 0D 75 4C
2024-08-18 20:03:57.189 - 07 67 00 01 00 00 65 A4 07 67 36 00 19 00 6A 19 0D 10 01 01 06 AF BF CF DF C1 17 D3 D0 CF DF 31 (有线1/数字7)
2024-08-18 20:03:57.206 - 20 2F 20 CA FD D7 D6 37 2C 80 09 01 01 26 F2
2024-08-18 20:03:57.327 - 6C AC EE
2024-08-18 20:03:57.362 - 03 00 8E A4 8F 8B 1D 16 62 73 18 00 8E F8 8E A4 01 00 CD B1 8E F8 01 00 0D 19 0D 10 01 01 06 AF
2024-08-18 20:03:57.376 - BF CF DF C1 19 90 81
2024-08-18 20:03:57.393 - 07 67 00 01 00 00 65 A4 07 67 36 00 1C 00 6A
2024-08-18 20:03:57.519 - AC AE 37 FF
2024-08-18 20:03:57.550 - 07 67 00 01 00 00 65 A4 07 67 36 00 1E 00 6A C7 03 00 8E A4 8E 8C 1D 16 62 77 10 00 8E F8 8E A4
2024-08-18 20:03:57.591 - 01 00 CD B2 8E F8 01 00 0D 28 1C 10 01 01 06 AF BF CF DF C1 21 D3 D0 CF DF 31 20 2F 20 BF EC BD (有线1/快捷-凤凰卫视)
2024-08-18 20:03:57.594 - DD E5 BD
2024-08-18 20:03:57.630 - 07 67 00 01 00 00 65 A4 07 67 36 00 1F 00 6A A3 BA B7 EF BB CB CE C0 CA D3 37 33 C6 B5 B5 C0 2C
2024-08-18 20:03:57.662 - 80 09 01 01 26 02 24 26 CD C6 80 84 01 00 8E 8C CD C7 03 00 8E A4 8E 8C 1D 16 22 74 17 00 8D F8
2024-08-18 20:03:57.666 - 8E FE 2E
2024-08-18 20:03:57.703 - 07 67 00 01 00 00 65 A4 07 67 36 00 20 00 6A A4 01 00 CD B2 8D F9 01 00 0D 09 80 11 01 01 00 00
2024-08-18 20:03:57.736 - 00 64 2C 80 09 01 01 26 02 24 26 CD C6 80 80 01 00 8E 8B CD C7 03 00 8E A4 8E 8B 1D 16 22 76 13
2024-08-18 20:03:57.741 - 00 B9 5F
2024-08-18 20:03:57.773 - 07 67 00 01 00 00 65 A4 07 67 36 00 21 00 6A 8E F8 8E A4 01 00 CD B2 8E F8 01 00 0D 28 1C 10 01
2024-08-18 20:03:57.805 - 01 06 AF BF CF DF C1 22 D3 D0 CF DF 31 20 2F 20 BF EC BD DD A3 BA B9 FA BC D2 B5 D8 C0 ED 36 36 (有线1/快捷-国家地理)
2024-08-18 20:03:57.805 - C6 D2 C1
2024-08-18 20:03:57.836 - 07 67 00 01 00 00 65 A4 07 67 36 00 22 00 6A B5 B5 C0 2C 80 09 01 01 26 02 24 26 CD C6 80 80 01
2024-08-18 20:03:57.870 - 00 8E 8C CD C7 03 00 8E A4 8E 8C 1D 16 62 74 16 00 8D F8 8E A4 01 00 CD B2 8D F9 01 00 0D 09 80
2024-08-18 20:03:57.887 - 11 85 76
2024-08-18 20:03:57.922 - 07 67 00 11 00 00 65 A4 07 67 36 00 23 00 6A 01 01 00 00 00 64 2C 80 09 01 01 26 02 24 26 CD C6
2024-08-18 20:03:57.955 - 80 80 01 00 8E 8C CD C7 03 00 8E A4 8E 8C 1D 16 62 74 16 00 8D F8 8E A4 01 00 CD B2 8D F9 01 F0
2024-08-18 20:03:58.092 - A0 4E 73 F8 01 00 0D 09 80 11 01 01 00 00 00 64 2C 80 09 01 01 26 02 3B 93
2024-08-18 20:03:58.141 - 07 67 00 01 00 00 65 A4 07 67 36 00 26 00 6A 24 26 CD C6 80 80 01 00 8E 8B CD C7 03 00 8E A4 FE
2024-08-18 20:03:58.296 - D9 00 28 00 6A 01 00 CD B2 8D F9 01 00 0D 18 0C 10 01 01 06 AF BF CF DF C2 02 D3 D0 CF DF 32 20 (有线2/菜单)
2024-08-18 20:03:58.315 - 2F 20 B2 CB B5 A5 2C 80 09 01 02 26 02 24 26 CD C6 80 80 01 00 8E 8B EA 0F
2024-08-18 20:03:58.359 - 07 67 00 01 00 00 65 A4 07 67 36 00 29 00 6A CD C6 03 00 8D A5 8E 8B 1D 16 22 7C 07 00 8D F8 8D
2024-08-18 20:03:58.390 - A5 01 00 CD B2 8D F9 01 00 0D 18 0C 10 01 01 06 AF BF CF DF C2 03 D3 D0 CF DF 32 20 FF (有线2/主页)
2024-08-18 20:03:58.516 - 20 20 92
2024-08-18 20:03:58.538 - 24 26 CD C6 80 80 01 00 8E 8B CD C7 03 00 8D A5 8E 8B 1D 16 62 7C 06 D0 EF
2024-08-18 20:03:58.569 - 07 67 00 01 00 00 65 A4 07 67 36 00 2C 00 6A 00 8D F8 8D A5 01 00 CD B1 8D F9 01 00 FD
2024-08-18 20:03:58.702 - 16 DA D0 96 13
2024-08-18 20:03:58.737 - 2E 00 6A 20 2F 20 BE B2 D2 F4 2C 80 09 01 02 26 02 24 26 CD C6 80 80 01 00 8E 8C CD C7 03 00 8E
2024-08-18 20:03:58.761 - A4 8E 8C 1D 16 62 79 0C 00 8E F8 8E A4 01 00 CD B1 8E F9 01 00 74 0A
2024-08-18 20:03:58.907 - D0 CF DF 32 20 2F 20 CF C2 2C 80 09 01 02 26 02 24 26 CD C6 D8 CF
2024-08-18 20:03:58.941 - 07 67 00 01 00 00 65 A4 07 67 36 00 31 00 6A 80 80 01 00 8E 8B CD C6 03 00 8D A5 8E 8B 1D 16 22
2024-08-18 20:03:58.941 - 7F 01 00 FE
2024-08-18 20:03:59.096 - 90 4B 08 14 01 06 AF BF CF DF C2 0A D3 D0 CF DF 32 20 2F 20 D3 D2 2C 80 09 01 02 26 02 24 26 CD (有线2/右)
2024-08-18 20:03:59.112 - C6 80 80 01 00 8D 8C CD C7 03 00 8D A4 8D 8C 1D 16 62 7E 21 24
2024-08-18 20:03:59.128 - 07 67 00 F1
2024-08-18 20:03:59.272 - 0A 06 AF BF CF DF C2 0C D3 D0 CF DF 32 A0 B1 (有线2/返回)
2024-08-18 20:03:59.304 - 07 67 00 01 00 00 65 A4 07 67 36 00 36 00 6A 20 2F 20 B7 B5 BB D8 2C 80 09 01 02 26 02 24 26 CD
2024-08-18 20:03:59.321 - C6 80 80 01 00 8E 8C CD C7 83
2024-08-18 20:03:59.467 - 02 8E F8 8D A4 01 00 CD B2 8E F8 01 00 0D 19 0D 10 01 01 06 AF BF CF DF C2 12 D3 D0 CF DF 32 20 (有线2/数字2)
2024-08-18 20:03:59.484 - 2F 20 CA FD D7 D6 32 2C 80 09 01 02 26 18 C5
2024-08-18 20:03:59.505 - 07 67 00 01 00 00 65 A4 07 E7
2024-08-18 20:03:59.637 - 00 8E F8 8E A4 01 00 B0 8B
2024-08-18 20:03:59.671 - 07 67 00 01 00 00 65 A4 07 67 36 00 3B 00 6A CD B2 8E F8 01 00 0D 19 0D 10 01 01 06 AF BF CF DF
2024-08-18 20:03:59.705 - C2 14 D3 D0 CF DF 32 20 2F 20 CA FD D7 D6 34 2C 80 09 01 02 26 02 24 26 CD C6 80 80 01 00 8E 8B
2024-08-18 20:03:59.705 - CD 2E 32
2024-08-18 20:03:59.739 - 07 67 00 01 00 00 65 A4 07 67 36 00 3C 00 6A C7 03 00 8D A5 8E 8B 1D 16 62 75 14 00 8D F8 8D A5
2024-08-18 20:03:59.756 - 01 00 CD B2 8D F9 40
2024-08-18 20:03:59.781 - 0D 19 0D 10 01 01 06 AF BF CF DF C2 15 D3 D0 CF DF 32 20 2F 20 CA FD D7 D6 CB BD (有线2/数字5)
2024-08-18 20:03:59.813 - 07 67 00 01 00 00 65 A4 07 67 36 00 3D 00 6A 35 2C 80 09 01 02 26 02 24 26 CD C6 E0
2024-08-18 20:03:59.960 - 01 65 A4 07 67 36 00 3F 00 6A 00 8D F8 8E A4 01 00 CD B2 8D F9 01 00 0D 19 0D 10 01 01 06 AF BF
2024-08-18 20:03:59.994 - CF DF C2 17 D3 D0 CF DF 32 20 2F 20 CA FD D7 D6 37 2C 80 09 01 02 26 02 24 26 CD C6 FF
2024-08-18 20:04:00.117 - 20
2024-08-18 20:04:00.149 - 8E A4 8F 8B 1D 16 62 73 18 00 8E F8 8E A4 01 00 CD B1 8E F8 01 72 38
2024-08-18 20:04:00.181 - 07 67 00 01 00 00 65 A4 07 67 36 00 42 00 6A 00 0D 19 0D 10 01 01 06 AF BF CF DF C2 19 D3 D0 CF (有线2/数字9)
2024-08-18 20:04:00.181 - FF
2024-08-18 20:04:00.341 - CB 02 44 00 6A 02 26 02 24 26 CD C6 80 80 01 00 8E 8C CD C7 03 00 8E A4 8E 8C 1D 16 62 77 10 00
2024-08-18 20:04:00.371 - 8E F8 8E A4 01 00 CD B2 8E F8 01 00 0D 28 1C 10 01 01 06 AF BF CF DF 35 2A
2024-08-18 20:04:00.403 - 07 67 00 01 00 00 65 A4 07 67 36 00 45 00 6A C2 21 D3 D0 CF DF 32 20 2F 20 BF EC BD DD A3 BA B7
2024-08-18 20:04:00.436 - EF BB CB CE C0 CA D3 37 33 C6 B5 B5 C0 2C 80 09 01 02 26 02 24 26 CD C6 80 80 01 00 FE
2024-08-18 20:04:00.589 - 73 F8 01 00 0D 28 1C 10 01 01 06 AF BF CF DF C2 22 D3 D0 CF DF 32 20 2F 20 BF EC BD 5F FE (有线2/快捷-国家地理)
2024-08-18 20:04:00.623 - 07 67 00 01 00 00 65 A4 07 67 36 00 48 00 6A DD A3 BA B9 FA BC D2 B5 D8 C0 ED FE
2024-08-18 20:04:00.775 - 00 00 65 A4 07 67 36 00 4A 00 6A 00 8D F8 8E A4 01 00 CD B2 8D F9 01 00 0D 28 1C 10 01 01 06 AF
2024-08-18 20:04:00.809 - BF CF DF C2 23 D3 D0 CF DF 32 20 2F 20 BF EC BD DD A3 BA CC BD CB F7 B7 A2 CF D6 33 FB
2024-08-18 20:04:00.928 - 40
2024-08-18 20:04:00.955 - 8C 73 8B 1D 16 22 76 13 00 8E F8 8E A4 01 00 CD B2 8E F8 01 00 44 9E
2024-08-18 20:04:00.992 - 07 67 00 01 00 00 65 A4 07 67 36 00 4D 00 6A 0D 1A 0E 10 01 01 06 AF BF CF DF C4 01 4D 45 43 CF (盒子CH4/电源)
2024-08-18 20:04:01.120 - D0 96 13
2024-08-18 20:04:01.152 - 4F 00 6A 00 8D 8C CD C6 03 00 8D A5 8D 8C 1D 0E 22 6F 21 00 0C 1B 0F 10 01 01 06 AF BF CF DF C4
2024-08-18 20:04:01.172 - 03 4D 45 43 4F 4F 4C 34 20 2F 20 D2 F4 C1 BF 2D 20 80 09 01 04 BF CA
2024-08-18 20:04:01.251 - EA 8A 8A 02 7A 02 F2 33 D7
2024-08-18 20:04:01.285 - 07 67 00 01 00 00 65 A4 07 67 36 00 51 00 6A B2 D2 F4 2C 80 09 01 04 26 02 24 26 CD C6 80 80 01
2024-08-18 20:04:01.302 - 00 8D 8C CD C6 03 00 8D A5 8D 8C 1D 0E 22 6D FD
2024-08-18 20:04:01.455 - FB 7B DF C4 06 4D 45 43 4F 4F 4C 34 20 2F 20 CF C2 20 80 09 01 04 1A 02 18 26 CD C6 80 80 01 00
2024-08-18 20:04:01.472 - 8D 8C CD C6 03 00 8E A4 2B EF
2024-08-18 20:04:01.489 - 07 67 00 01 00 00 65 A4 07 67 36 00 54 00 EA
2024-08-18 20:04:01.614 - 09 9A F3 54
2024-08-18 20:04:01.646 - 07 67 00 01 00 00 65 A4 07 67 36 00 56 00 6A D2 20 80 09 01 04 1A 02 18 26 CD C6 80 80 01 00 8D
2024-08-18 20:04:01.678 - 8C CD C6 03 00 8E A4 8D 8C 1D 0E 62 73 18 00 0C 18 0C 10 01 F9
2024-08-18 20:04:01.829 - 07 02 09 01 04 1A 02 18 26 CD C6 80 80 01 00 8E 8C CD C7 03 00 8E A4 8E 8C 1D 0E 62 5B 48 00 0D
2024-08-18 20:04:01.837 - 1A 0E 10 24 8D
2024-08-18 20:04:01.863 - 07 67 00 01 00 00 65 A4 07 67 36 00 59 00 6A 01 01 06 AF FF
2024-08-18 20:04:02.016 - 07 67 00 01 00 00 65 A4 07 67 36 00 5B 00 6A 03 00 8D A5 8E 8B 1D 0E 22 78 0F 00 0C 1A 0E 10 01
2024-08-18 20:04:02.050 - 01 06 AF BF CF DF C5 01 4D 45 43 4F 4F 4C 35 20 2F 20 B5 E7 D4 B4 20 80 09 01 05 1A F2 (盒子CH5/电源)
2024-08-18 20:04:02.206 - 1D 0E 22 6F 21 00 0C 1B 0F 10 01 01 06 AF BF CF DF C5 03 4D 45 43 4F 4F 4C 35 20 1B 5C (盒子CH5/音量-)
