2024-09-19 20:31:22.804 - 1A 20 00 00 00 86 86 86 0F (调用查询模块-阳台测温湿气压转换, 阳台温湿气压虚拟地址)
2024-09-19 20:31:23.025 - 20 03 00 00 00 03 03 7A (查询阳台温湿度气压)
2024-09-19 20:31:23.048 - 20 03 06 01 2E 02 C7 26 DD 36 8F (阳台温湿度返回)
2024-09-19 20:31:23.548 - 1A 20 00 00 00 00 00 01 00 00 01 00 00 01 01 2E 01 02 C7 01 26 DD 01 00 00 01 0F (阳台温湿气压虚拟地址)
2024-09-19 20:31:23.675 - 1A 21 00 00 00 86 86 86 0F (调用查询模块-储藏室测温湿气压转换, 储藏室温湿气压虚拟地址)
2024-09-19 20:31:23.898 - 21 03 00 00 00 03 02 AB (查询储藏室温湿度气压)
2024-09-19 20:31:23.918 - 21 03 06 01 31 03 05 26 DE 4E DC (储藏室温湿度返回)
2024-09-19 20:31:24.420 - 1A 21 00 00 00 00 00 01 00 00 01 00 00 01 01 31 01 03 05 01 26 DE 01 00 00 01 0F (储藏室温湿气压虚拟地址)
2024-09-19 20:31:24.588 - 1A 22 00 00 00 86 86 86 0F (调用查询模块-室外测温湿气压转换, 室外温湿气压虚拟地址)
2024-09-19 20:31:24.812 - 22 03 00 00 00 03 02 98 (查询室外温湿度气压)
2024-09-19 20:31:24.833 - 22 03 06 01 2A 03 28 26 DD EE 26 (室外温湿度返回)
2024-09-19 20:31:25.334 - 1A 22 00 00 00 00 00 01 00 00 01 00 00 01 01 2A 01 03 28 01 26 DD 01 00 00 01 0F (室外温湿气压虚拟地址)
2024-09-19 20:31:25.507 - 1A 23 00 00 00 86 86 86 0F (调用查询模块-客厅测温湿气压转换, 客厅温湿气压虚拟地址)
2024-09-19 20:31:25.733 - 23 03 00 00 00 03 03 49 (查询客厅温湿度气压)
2024-09-19 20:31:25.757 - 23 03 06 01 2F 02 CB 26 DE 9F BD (客厅温湿度返回)
2024-09-19 20:31:26.256 - 1A 23 00 00 00 00 00 01 00 00 01 00 00 01 01 2F 01 02 CB 01 26 DE 01 00 00 01 0F (客厅温湿气压虚拟地址)
2024-09-19 20:31:26.363 - 1A 24 00 00 00 86 86 86 0F (调用查询模块-餐厅测温湿气压转换, 餐厅温湿气压虚拟地址)
2024-09-19 20:31:26.587 - 24 03 00 00 00 03 02 FE (查询餐厅温湿度气压)
2024-09-19 20:31:26.608 - 24 03 06 01 35 02 CD 26 DD 40 4F (餐厅温湿度返回)
2024-09-19 20:31:27.110 - 1A 24 00 00 00 00 00 01 00 00 01 00 00 01 01 35 01 02 CD 01 26 DD 01 00 00 01 0F (餐厅温湿气压虚拟地址)
2024-09-19 20:31:29.292 - 1A 25 00 00 00 86 86 86 0F (调用查询模块-主卧测温湿气压转换, 主卧温湿气压虚拟地址)
2024-09-19 20:31:29.516 - 25 03 00 00 00 03 03 2F (查询主卧温湿度气压)
2024-09-19 20:31:29.537 - 25 03 06 01 38 02 8F 26 DB 40 08 (主卧温湿度返回)
2024-09-19 20:31:30.038 - 1A 25 00 00 00 00 00 01 00 00 01 00 00 01 01 38 01 02 8F 01 26 DB 01 00 00 01 0F (主卧温湿气压虚拟地址)
2024-09-19 20:31:42.477 - 02 AF 06 17 02 CE FF (门锁关锁指令)
2024-09-19 20:31:45.888 - 1B 03 00 00 00 02 C6 31 (查询室外光线)
2024-09-19 20:31:45.908 - 1B 03 04 00 00 00 00 41 F2 (室外光线返回)
2024-09-19 20:31:46.687 - 1A EC A0 DC 02 00 00 01 0F (自保持开关地址-天花12V供电, 天花12V 供电开)
2024-09-19 20:31:47.212 - 1A AA AA AA 88 (调光器地址-茶吧灯带)
2024-09-19 20:31:47.391 - 1A FF 01 FF FF FF 60 01 FF 60 01 FF 00 00 0F (调光器地址-公共区域统配地址)
2024-09-19 20:31:48.383 - 19 08 24 03 DD 00 0D 00 01 (调用情景-信科调用进门暗)
2024-09-19 20:31:50.444 - 1A FF 01 FF FF FF 60 01 FF 60 01 FF 00 00 0F (调光器地址-公共区域统配地址)
2024-09-19 20:31:52.530 - 1A EC A0 DC 01 00 00 01 0F (自保持开关地址-电视、设备12V供电, 12V 电视供电开)
2024-09-19 20:31:53.078 - 1A EC A0 DC 01 00 00 01 0F (自保持开关地址-电视、设备12V供电, 12V 电视供电开)
2024-09-19 20:31:53.625 - 1A EC A0 DC 04 00 01 01 0F (自保持开关地址-次卧西阳内外卫供电, 内卫外卫开)
2024-09-19 20:31:54.174 - 1A EC A0 DC 04 00 01 01 0F (自保持开关地址-次卧西阳内外卫供电, 内卫外卫开)
2024-09-19 20:31:54.720 - 1A BB BB BB 01 01 00 (开水器电源开)
2024-09-19 20:31:56.267 - 1A 27 89 12 AA 00 00 01 0F (状态寄存器地址, 有人状态)
2024-09-19 20:31:56.815 - 1A 27 89 12 AA 00 00 01 0F (状态寄存器地址, 有人状态)
2024-09-19 20:31:57.362 - 1A BE B0 DC 01 00 01 00 (继电器地址-回水泵点动, 回水泵点动)
2024-09-19 20:31:57.910 - 1A FF FF FF 56 00 00 01 0F (人体感应地址-内卫, 打开内卫感应)
2024-09-19 20:31:58.458 - 1A FF FF FF 55 00 00 01 0F (人体感应地址-外卫, 打开外卫感应)
2024-09-19 20:31:58.553 - BC BC
2024-09-19 20:31:59.006 - 1A FF FF FF 57 00 00 01 0F (人体感应地址-厨房, 打开厨房感应)
2024-09-19 20:31:59.555 - 1A FF FF FF 58 00 00 01 0F (人体感应地址-茶吧, 打开茶吧感应)
2024-09-19 20:31:59.605 - BC BC
2024-09-19 20:32:00.151 - 1A BE B0 DC 01 00 01 00 (继电器地址-回水泵点动, 回水泵点动)
2024-09-19 20:32:00.729 - A5 00 B7 FF 00 AA 22 0D (书房纱帘关)
2024-09-19 20:32:01.295 - A5 00 A2 FF 00 AA (餐厅纱帘关)
2024-09-19 20:32:01.845 - 09 06 00 0F 02 01 78 21 (提示音叮)
2024-09-19 20:32:02.394 - 09 06 00 0F 02 01 78 21 (提示音叮)
2024-09-19 20:32:02.944 - EE 00 00 B1 00 00 02 FF FC FF FF (情景完成返回主页)
2024-09-19 20:32:03.535 - A1 11 11 11 50 (天花供电打开确认)
2024-09-19 20:32:03.764 - 1A EC A0 DC 02 86 86 86 0F (查询天花供电状态, 自保持开关地址-天花12V供电)
2024-09-19 20:32:04.198 - 1A EC A0 DC 02 01 01 0F (自保持开关地址-天花12V供电)
2024-09-19 20:32:06.077 - A1 11 11 11 51 (卫生供电打开确认)
2024-09-19 20:32:06.304 - 1A EC A0 DC 04 86 86 86 0F (查询卫生间供电状态, 自保持开关地址-次卧西阳内外卫供电)
2024-09-19 20:32:06.735 - 1A EC A0 DC 04 01 01 0F (自保持开关地址-次卧西阳内外卫供电)
2024-09-19 20:32:08.617 - A1 11 11 11 52 (电视供电打开确认)
2024-09-19 20:32:08.840 - 1A EC A0 DC 01 86 86 86 0F (查询电视供电状态, 自保持开关地址-电视、设备12V供电)
2024-09-19 20:32:09.002 - 19 08 24 03 CC 01 54 00 01 (调用内卫感应灯开的按键)
2024-09-19 20:32:09.065 - 1A 0C 02 08 01 FF 45 01 FF 45 01 FF 00 00 0F (调光器地址-内卫射灯, 内卫射灯微光)
2024-09-19 20:32:09.276 - 1A EC A0 DC 01 01 01 0F (自保持开关地址-电视、设备12V供电)
2024-09-19 20:32:13.650 - A1 11 11 11 47 (天热回家开帘)
2024-09-19 20:32:13.877 - 1A 27 89 12 AA 86 86 86 0F (查询寄存器状态, 状态寄存器地址)
2024-09-19 20:32:14.261 - 1A 27 89 12 AA 01 00 00 00 00 00 00 00 00 00 00 01 00 00 00 00 0F (状态寄存器地址)
2024-09-19 20:32:14.882 - 19 08 24 03 DD 00 06 00 01 (调用情景-天热遮阳开帘)
2024-09-19 20:32:15.449 - EE 00 00 B1 00 00 00 FF FC FF FF (情景执行提示)
2024-09-19 20:32:16.045 - 09 06 00 0F 02 01 78 21 (提示音叮)
2024-09-19 20:32:16.590 - A5 00 A6 FE 01 AA (餐厅窗帘开)
2024-09-19 20:32:16.647 - 55 00 A6 02 01 66 01 74 AA 55 00 A6 02 01 66 01 74 AA (餐厅窗帘电机状态返回)
2024-09-19 20:32:17.686 - A5 00 52 FE 01 AA (主卧窗帘开)
2024-09-19 20:32:18.732 - A5 00 53 FF 00 AA (主卧纱帘开)
2024-09-19 20:32:18.783 - 55 00 53 01 00 0C 02 2F AA 55 00 53 01 00 0C 02 2F AA (主卧纱帘电机状态返回)
2024-09-19 20:32:19.828 - A5 00 76 FE 01 AA (次卧窗帘开)
2024-09-19 20:32:19.884 - 55 00 76 02 01 0E 01 1B AA 55 00 76 02 01 0E 01 1B AA (次卧窗帘电机状态返回)
2024-09-19 20:32:20.925 - A5 00 21 FE 01 AA (次卧纱帘开)
2024-09-19 20:32:20.982 - 55 00 21 02 01 27 01 34 AA 55 00 21 02 01 27 01 34 AA (次卧纱帘电机状态返回)
2024-09-19 20:32:22.052 - 1A BE B0 DC 04 00 01 00 (继电器地址-西阳窗帘, 西阳窗帘开)
2024-09-19 20:32:23.119 - FF FF FF FF 0E 00 01 00 (继电器地址-西阳小窗帘, 西阳小窗帘开)
2024-09-19 20:32:24.166 - A5 00 D2 FE 01 AA 22 0D (书房窗帘开)
2024-09-19 20:32:24.220 - 55 00 D2 02 00 FE 01 0B AA 55 00 D2 02 00 FE 01 0B EA (书房窗帘电机状态返回)
2024-09-19 20:32:25.262 - 09 06 00 0F 02 02 38 20 (提示音咚)
2024-09-19 20:32:25.379 - 97 FD
2024-09-19 20:32:25.823 - EE 00 00 B1 00 00 02 FF FC FF FF (情景完成返回主页)
2024-09-19 20:32:27.025 - 55 00 76 00 00 0E 01 1B AA 55 00 76 00 00 0E 01 1B AA (次卧窗帘电机状态返回)
2024-09-19 20:32:28.506 - 55 00 21 00 00 0D 01 34 AA 55 00 21 00 00 0D 01 34 AA (次卧纱帘电机状态返回)
2024-09-19 20:32:29.800 - 55 00 53 00 02 22 02 2F AA 55 00 53 00 02 22 02 2F AA 05 02 02 00 0E 02 16 AA (主卧纱帘电机状态返回)
2024-09-19 20:32:31.039 - 55 20 20 00 00 0F 02 16 AA 55 20 20 00 00 0F 02 16 AA (主卧窗帘电机状态返回)
2024-09-19 20:32:32.415 - 55 00 D2 00 00 0D 01 0B AA 55 00 D2 00 00 0D 01 0B AA (书房窗帘电机状态返回)
2024-09-19 20:32:46.577 - 19 08 24 03 CC 01 55 00 01 (调用内卫感应灯关的按键)
2024-09-19 20:32:46.629 - 1A 0C 02 08 01 FF 00 01 FF 00 01 FF 00 00 0F (调光器地址-内卫射灯, 内卫感应灯关)
2024-09-19 20:33:36.493 - 02 AF 06 17 02 CE FF (门锁关锁指令)
2024-09-19 20:33:56.139 - EE 00 00 B1 00 00 00 FF FC FF FF (情景执行提示)
2024-09-19 20:33:56.736 - 09 06 00 0F 02 02 38 20 (提示音咚)
2024-09-19 20:33:57.277 - 50 F7 01 (全屋影音全关)
2024-09-19 20:33:57.879 - 01 06 07 D0 FF 60 C8 9F (客厅空调关)
2024-09-19 20:33:57.915 - 01 06 07 D0 FF 60 C8 9F (客厅空调关)
2024-09-19 20:33:58.478 - 01 06 07 D0 FF 60 C8 9F (客厅空调关)
2024-09-19 20:33:58.510 - 01 06 07 D0 FF 60 C8 9F (客厅空调关)
2024-09-19 20:33:59.076 - 01 06 07 D3 FF 60 38 9F (餐厅空调关)
2024-09-19 20:33:59.106 - 01 06 07 D3 FF 60 38 9F (餐厅空调关)
2024-09-19 20:33:59.674 - 01 06 07 D3 FF 60 38 9F (餐厅空调关)
2024-09-19 20:33:59.703 - 01 06 07 D3 FF 60 38 9F (餐厅空调关)
2024-09-19 20:34:00.271 - 01 06 07 D6 FF 60 28 9E (主卧空调关)
2024-09-19 20:34:00.389 - 28 9E
2024-09-19 20:34:00.820 - 01 06 07 D6 FF 60 28 9E (主卧空调关)
2024-09-19 20:34:00.854 - 01 06 07 D6 FF 60 28 9E (主卧空调关)
2024-09-19 20:34:01.419 - 01 06 07 D9 FF 60 18 9D (次卧空调关)
2024-09-19 20:34:01.450 - 01 06 07 D9 FF 60 18 9D (次卧空调关)
2024-09-19 20:34:02.015 - 01 06 07 D9 FF 60 18 9D (次卧空调关)
2024-09-19 20:34:02.045 - 01 06 07 D9 FF 60 18 9D (次卧空调关)
2024-09-19 20:34:02.614 - 01 06 07 DC FF 60 08 9C (书房空调关)
2024-09-19 20:34:02.642 - 01 06 07 DC FF 60 08 9C (书房空调关)
2024-09-19 20:34:03.210 - 01 06 07 DC FF 60 08 9C (书房空调关)
2024-09-19 20:34:03.247 - 01 06 07 DC FF 60 08 9C (书房空调关)
2024-09-19 20:34:03.809 - 09 06 00 0F 02 02 38 20 (提示音咚)
2024-09-19 20:34:04.357 - 1A FF FF FF 56 00 00 00 0F (人体感应地址-内卫, 关闭内卫感应)
2024-09-19 20:34:04.906 - 1A FF FF FF 55 00 00 00 0F (人体感应地址-外卫, 关闭外卫感应)
2024-09-19 20:34:05.000 - BC BC
2024-09-19 20:34:05.454 - 1A FF FF FF 57 00 00 00 0F (人体感应地址-厨房, 关闭厨房感应)
2024-09-19 20:34:06.003 - 1A FF FF FF 58 00 00 00 0F (人体感应地址-茶吧, 关闭茶吧感应)
2024-09-19 20:34:06.049 - BC BC
2024-09-19 20:34:06.599 - 1A 20 07 00 93 00 01 00 0F (自保持开关地址-设备区顶, 设备区顶灯关)
2024-09-19 20:34:07.647 - 1A 20 07 01 40 00 01 00 0F (自保持开关地址-内卫顶灯, 内卫顶灯关)
2024-09-19 20:34:08.694 - 1A 20 07 01 55 00 01 00 0F (自保持开关地址-主卧顶灯, 主卧顶灯只关)
2024-09-19 20:34:09.739 - 1A 20 07 00 42 00 01 00 0F (自保持开关地址-外卫顶灯, 外卫顶灯关)
2024-09-19 20:34:10.784 - 55 0D 31 00 00 00 01 94 (书房顶灯只关)
2024-09-19 20:34:11.829 - 55 0A 31 00 00 00 01 91 (厨房顶灯一关)
2024-09-19 20:34:12.876 - 55 0A 31 00 00 00 02 92 (厨房顶灯二关)
2024-09-19 20:34:13.922 - 55 0B 31 00 00 00 01 92 (厨房风扇只关)
2024-09-19 20:34:14.969 - 55 0C 31 00 00 00 01 93 (餐厅顶灯关)
2024-09-19 20:34:16.016 - 1A 20 07 01 30 00 01 00 0F (自保持开关地址-西阳顶灯, 西阳顶灯关)
2024-09-19 20:34:17.063 - 1A 18 05 21 89 00 01 00 0F (自保持开关地址-客厅顶灯, 客厅顶灯一关)
2024-09-19 20:34:18.108 - 1A 18 05 01 94 00 01 00 0F (自保持开关地址-客厅顶灯, 客厅顶灯二关)
2024-09-19 20:34:19.156 - 1A 20 07 00 70 00 01 00 0F (自保持开关地址-次卧顶灯, 次卧顶灯只关)
2024-09-19 20:34:20.201 - 1A 18 05 10 31 00 01 00 0F (自保持开关地址-门厅顶灯, 门厅顶灯关)
2024-09-19 20:34:21.247 - 1A FF FF FF 04 00 03 02 (继电器地址-东阳衣架, 东阳衣架照明关)
2024-09-19 20:34:21.794 - 09 06 00 0F 02 02 38 20 (提示音咚)
2024-09-19 20:34:22.339 - A5 00 A6 FE 01 AA (餐厅窗帘开)
2024-09-19 20:34:22.889 - FF FF FF FF 0A 00 01 00 (继电器地址-东阳窗帘, 东阳窗帘开)
2024-09-19 20:34:23.438 - 1A BE B0 DC 04 00 01 00 (继电器地址-西阳窗帘, 西阳窗帘开)
2024-09-19 20:34:24.036 - FF FF FF FF 0E 00 01 00 (继电器地址-西阳小窗帘, 西阳小窗帘开)
2024-09-19 20:34:24.607 - 1A 22 33 62 0F 00 00 01 0F (正反转地址-内卫卷帘, 内卫卷帘升)
2024-09-19 20:34:25.179 - A5 00 52 FE 01 AA (主卧窗帘开)
2024-09-19 20:34:25.729 - A5 00 53 FF 00 AA (主卧纱帘开)
2024-09-19 20:34:26.276 - A5 00 76 FE 01 AA (次卧窗帘开)
2024-09-19 20:34:26.823 - A5 00 21 FE 01 AA (次卧纱帘开)
2024-09-19 20:34:27.374 - A5 00 D2 FE 01 AA 22 0D (书房窗帘开)
2024-09-19 20:34:27.922 - 1A BE B0 DC 09 00 01 00 (继电器地址-客厅窗帘, 客厅窗帘开)
2024-09-19 20:34:28.470 - 1A BE B0 DC 0A 00 02 00 (继电器地址-客厅纱帘, 客厅纱帘开)
2024-09-19 20:34:29.018 - 09 06 00 0F 02 02 38 20 (提示音咚)
2024-09-19 20:34:30.065 - 1A EC A0 DC 02 00 00 00 0F (自保持开关地址-天花12V供电, 天花12V 供电关)
2024-09-19 20:34:30.613 - 1A EC A0 DC 02 00 00 00 0F (自保持开关地址-天花12V供电, 天花12V 供电关)
2024-09-19 20:34:31.162 - 1A EC A0 DC 01 00 00 00 0F (自保持开关地址-电视、设备12V供电, 12V 电视供电关)
2024-09-19 20:34:31.709 - 1A EC A0 DC 01 00 00 00 0F (自保持开关地址-电视、设备12V供电, 12V 电视供电关)
2024-09-19 20:34:32.258 - 1A EC A0 DC 04 00 01 00 0F (自保持开关地址-次卧西阳内外卫供电, 内卫外卫关)
2024-09-19 20:34:32.806 - 1A EC A0 DC 04 00 01 00 0F (自保持开关地址-次卧西阳内外卫供电, 内卫外卫关)
2024-09-19 20:34:34.347 - 1A BB BB BB 01 02 00 (开水器电源关)
2024-09-19 20:34:47.445 - 09 06 00 0F 02 02 38 20 (提示音咚)
2024-09-19 20:34:47.994 - 1A 27 89 12 AA 00 00 00 0F (状态寄存器地址, 无人状态)
2024-09-19 20:34:48.542 - 1A 27 89 12 AA 00 00 00 0F (状态寄存器地址, 无人状态)
2024-09-19 20:34:49.087 - A1 11 11 11 4D (天花供电关闭确认)
2024-09-19 20:34:49.317 - 1A EC A0 DC 02 86 86 86 0F (查询天花供电状态, 自保持开关地址-天花12V供电)
2024-09-19 20:34:49.748 - 1A EC A0 DC 02 00 01 0F (自保持开关地址-天花12V供电)
2024-09-19 20:34:52.125 - A1 11 11 11 4E (卫生供电关闭确认)
2024-09-19 20:34:52.345 - 1A EC A0 DC 04 86 86 86 0F (查询卫生间供电状态, 自保持开关地址-次卧西阳内外卫供电)
2024-09-19 20:34:52.776 - 1A EC A0 DC 04 01 00 0F (自保持开关地址-次卧西阳内外卫供电)
2024-09-19 20:34:55.163 - A1 11 11 11 4F (电视供电关闭确认)
2024-09-19 20:34:55.385 - 1A EC A0 DC 01 86 86 86 0F (查询电视供电状态, 自保持开关地址-电视、设备12V供电)
2024-09-19 20:34:55.820 - 1A EC A0 DC 01 00 01 0F (自保持开关地址-电视、设备12V供电)
2024-09-19 20:34:58.205 - 09 06 00 0F 02 02 38 20 (提示音咚)
2024-09-19 20:34:58.754 - 09 06 00 0F 02 02 38 20 (提示音咚)
2024-09-19 20:34:59.306 - EE 00 00 B1 00 00 02 FF FC FF FF (情景完成返回主页)
2024-09-19 20:35:00.395 - BA BA EE EE BA BA (离家设置信科变量)
2024-09-19 20:35:01.442 - A1 11 11 11 46 (天热离家遮阳)
2024-09-19 20:35:01.665 - 1A 27 89 12 AA 86 86 86 0F (查询寄存器状态, 状态寄存器地址)
2024-09-19 20:35:02.048 - 1A 27 89 12 AA 00 00 00 00 00 00 00 00 00 00 00 01 00 00 00 00 0F (状态寄存器地址)
2024-09-19 20:35:02.669 - 19 08 24 03 DD 00 05 00 01 (调用情景-天热遮阳关帘)
2024-09-19 20:35:03.240 - EE 00 00 B1 00 00 00 FF FC FF FF (情景执行提示)
2024-09-19 20:35:03.836 - 09 06 00 0F 02 01 78 21 (提示音叮)
2024-09-19 20:35:04.431 - A5 00 A2 FF 00 AA (餐厅纱帘关)
2024-09-19 20:35:05.478 - A5 00 A6 FF 00 AA (餐厅窗帘关)
2024-09-19 20:35:05.529 - 55 00 A6 01 00 0E 01 74 AA 55 00 A6 01 00 0E 01 74 AA (餐厅窗帘电机状态返回)
2024-09-19 20:35:06.574 - A5 00 53 FE 01 AA (主卧纱帘关)
2024-09-19 20:35:06.623 - 55 00 53 02 02 22 02 2F AA 55 00 53 02 02 22 02 2F AA (主卧纱帘电机状态返回)
2024-09-19 20:35:07.669 - A5 00 52 FF 00 AA (主卧窗帘关)
2024-09-19 20:35:08.715 - A5 00 21 FF 00 AA (次卧纱帘关)
2024-09-19 20:35:08.770 - 55 00 21 01 00 0D 01 34 AA 55 00 21 01 00 0D 01 34 AA (次卧纱帘电机状态返回)
2024-09-19 20:35:09.812 - A5 00 76 FF 00 AA (次卧窗帘关)
2024-09-19 20:35:09.861 - 55 00 76 01 00 0E 01 1B AA 55 00 76 01 00 0E 01 1B AA (次卧窗帘电机状态返回)
2024-09-19 20:35:10.910 - A5 00 B7 FF 00 AA 22 0D (书房纱帘关)
2024-09-19 20:35:11.957 - A5 00 D2 FF 00 AA 22 0C (书房窗帘关)
2024-09-19 20:35:12.005 - 55 00 D2 01 00 0D 01 0B AA 55 00 D2 01 00 0D 01 0B AA (书房窗帘电机状态返回)
2024-09-19 20:35:13.552 - 1A 22 33 62 5E 00 02 01 0F (正反转地址-厨房卷帘三, 厨房卷帘一降)
2024-09-19 20:35:14.171 - 55 00 A6 00 01 66 01 74 AA 55 00 A6 00 01 66 01 74 AA (餐厅窗帘电机状态返回)
2024-09-19 20:35:14.598 - 1A 22 33 62 56 00 02 01 0F (正反转地址-厨房卷帘二, 厨房卷帘二降)
2024-09-19 20:35:15.645 - 1A 22 33 62 4F 00 00 01 0F (正反转地址-厨房卷帘一, 厨房卷帘三降)
2024-09-19 20:35:16.032 - 55 00 21 00 01 27 01 34 AA 55 00 21 00 01 27 01 34 AA (次卧纱帘电机状态返回)
2024-09-19 20:35:16.689 - 1A BE B0 DC 04 00 02 00 (继电器地址-西阳窗帘, 西阳窗帘关)
2024-09-19 20:35:17.267 - 55 00 76 00 01 0F 01 1B AA 55 00 76 00 01 0F 01 1B AA (次卧窗帘电机状态返回)
2024-09-19 20:35:17.457 - 55 00 53 00 00 0C 02 2F AA 55 00 53 00 00 0C 02 2F AA (主卧纱帘电机状态返回)
2024-09-19 20:35:17.735 - FF FF FF FF 0E 00 02 00 (继电器地址-西阳小窗帘, 西阳小窗帘关)
2024-09-19 20:35:18.782 - 1A BE B0 DC 03 00 03 00 (继电器地址-西阳天幕, 西阳天幕关)
2024-09-19 20:35:19.169 - 55 20 20 00 02 09 02 16 AA 55 20 20 00 02 09 02 16 AA (主卧窗帘电机状态返回)
2024-09-19 20:35:19.828 - 1A BE B0 DC 03 00 03 00 (继电器地址-西阳天幕, 西阳天幕关)
2024-09-19 20:35:20.873 - 09 06 00 0F 02 02 38 20 (提示音咚)
2024-09-19 20:35:21.426 - EE 00 00 B1 00 00 02 FF FC FF FF (情景完成返回主页)
2024-09-19 20:35:21.672 - 55 00 D2 00 00 FE 01 0B AA 55 00 D2 00 00 FE 01 0B AA (书房窗帘电机状态返回)
2024-09-19 21:39:21.333 - 1A 20 00 00 00 86 86 86 0F (调用查询模块-阳台测温湿气压转换, 阳台温湿气压虚拟地址)
2024-09-19 21:39:21.554 - 20 03 00 00 00 03 03 7A (查询阳台温湿度气压)
2024-09-19 21:39:21.574 - 20 03 06 01 2E 02 CE 26 D8 26 8E (阳台温湿度返回)
2024-09-19 21:39:22.076 - 1A 20 00 00 00 00 00 01 00 00 01 00 00 01 01 2E 01 02 CE 01 26 D8 01 00 00 01 0F (阳台温湿气压虚拟地址)
2024-09-19 21:39:22.219 - 1A 21 00 00 00 86 86 86 0F (调用查询模块-储藏室测温湿气压转换, 储藏室温湿气压虚拟地址)
2024-09-19 21:39:22.446 - 21 03 00 00 00 03 02 AB (查询储藏室温湿度气压)
2024-09-19 21:39:22.467 - 21 03 06 01 32 02 FD 26 D9 CB 13 (储藏室温湿度返回)
2024-09-19 21:39:22.969 - 1A 21 00 00 00 00 00 01 00 00 01 00 00 01 01 32 01 02 FD 01 26 D9 01 00 00 01 0F (储藏室温湿气压虚拟地址)
2024-09-19 21:39:23.100 - 1A 22 00 00 00 86 86 86 0F (调用查询模块-室外测温湿气压转换, 室外温湿气压虚拟地址)
2024-09-19 21:39:23.319 - 22 03 00 00 00 03 02 98 (查询室外温湿度气压)
2024-09-19 21:39:23.340 - 22 03 06 01 26 03 39 26 D8 6E 21 (室外温湿度返回)
2024-09-19 21:39:23.842 - 1A 22 00 00 00 00 00 01 00 00 01 00 00 01 01 26 01 03 39 01 26 D8 01 00 00 01 0F (室外温湿气压虚拟地址)
2024-09-19 21:39:23.964 - 1A 23 00 00 00 86 86 86 0F (调用查询模块-客厅测温湿气压转换, 客厅温湿气压虚拟地址)
2024-09-19 21:39:24.192 - 23 03 00 00 00 03 03 49 (查询客厅温湿度气压)
2024-09-19 21:39:24.213 - 23 03 06 01 30 02 CC 26 DB 7B BD (客厅温湿度返回)
2024-09-19 21:39:24.714 - 1A 23 00 00 00 00 00 01 00 00 01 00 00 01 01 30 01 02 CC 01 26 DB 01 00 00 01 0F (客厅温湿气压虚拟地址)
2024-09-19 21:39:24.839 - 1A 24 00 00 00 86 86 86 0F (调用查询模块-餐厅测温湿气压转换, 餐厅温湿气压虚拟地址)
2024-09-19 21:39:25.064 - 24 03 00 00 00 03 02 FE (查询餐厅温湿度气压)
2024-09-19 21:39:25.086 - 24 03 06 01 35 02 CE 26 D9 B1 8C (餐厅温湿度返回)
2024-09-19 21:39:25.588 - 1A 24 00 00 00 00 00 01 00 00 01 00 00 01 01 35 01 02 CE 01 26 D9 01 00 00 01 0F (餐厅温湿气压虚拟地址)
2024-09-19 21:39:25.758 - 1A 25 00 00 00 86 86 86 0F (调用查询模块-主卧测温湿气压转换, 主卧温湿气压虚拟地址)
2024-09-19 21:39:25.978 - 25 03 00 00 00 03 03 2F (查询主卧温湿度气压)
2024-09-19 21:39:25.998 - 25 03 06 01 39 02 8F 26 D6 BC 0D (主卧温湿度返回)
2024-09-19 21:39:26.499 - 1A 25 00 00 00 00 00 01 00 00 01 00 00 01 01 39 01 02 8F 01 26 D6 01 00 00 01 0F (主卧温湿气压虚拟地址)
2024-09-19 21:39:39.662 - 1A 25 00 00 00 86 86 86 0F (调用查询模块-主卧测温湿气压转换, 主卧温湿气压虚拟地址)
2024-09-19 21:39:39.890 - 25 03 00 00 00 03 03 2F (查询主卧温湿度气压)
2024-09-19 21:39:39.911 - 25 03 06 01 39 02 90 26 D7 4C 0B (主卧温湿度返回)
2024-09-19 21:39:40.412 - 1A 25 00 00 00 00 00 01 00 00 01 00 00 01 01 39 01 02 90 01 26 D7 01 00 00 01 0F (主卧温湿气压虚拟地址)
2024-09-19 21:39:43.755 - 1A 22 00 00 00 86 86 86 0F (调用查询模块-室外测温湿气压转换, 室外温湿气压虚拟地址)
2024-09-19 21:39:43.982 - 22 03 00 00 00 03 02 98 (查询室外温湿度气压)
2024-09-19 21:39:44.004 - 22 03 06 01 26 03 3A 26 D8 9E 21 (室外温湿度返回)
2024-09-19 21:39:44.504 - 1A 22 00 00 00 00 00 01 00 00 01 00 00 01 01 26 01 03 3A 01 26 D8 01 00 00 01 0F (室外温湿气压虚拟地址)
2024-09-19 21:39:49.705 - EE 00 00 B1 00 00 00 FF FC FF FF (情景执行提示)
2024-09-19 21:39:50.299 - 09 06 00 0F 02 01 78 21 (提示音叮)
2024-09-19 21:39:50.845 - A1 11 11 11 40 (客厅空调自动开)
2024-09-19 21:39:51.074 - 19 08 24 03 F0 BB 78 02 02 00
2024-09-19 21:39:51.126 - 23 AA 56 02 15 27 3B 18 09 13 04 73 65 6F 6B 65 6E 64
2024-09-19 21:39:52.084 - 01 10 07 D0 00 03 06 70 61 00 02 00 FA 6F 26 (客厅空调冷25度)
2024-09-19 21:39:52.127 - 01 10 07 D0 00 03 06 70 61 00 02 00 FA 6F 26 (客厅空调冷25度)
2024-09-19 21:39:54.979 - A1 11 11 11 41 (餐厅空调自动开)
2024-09-19 21:39:55.208 - 19 08 24 03 F0 BB 78 02 02 00
2024-09-19 21:39:55.259 - 23 AA 56 02 15 28 03 18 09 13 04 73 65 6F 6B 65 6E 64
2024-09-19 21:39:56.216 - 01 10 07 D3 00 03 06 70 61 00 02 00 FA 9F 29 (餐厅空调冷25度)
2024-09-19 21:39:56.256 - 01 10 07 D3 00 03 06 70 61 00 02 00 FA 9F 29 (餐厅空调冷25度)
2024-09-19 21:39:59.017 - A1 11 11 11 42 (主卧空调自动开)
2024-09-19 21:39:59.240 - 19 08 24 03 F0 BB 78 02 02 00
2024-09-19 21:39:59.290 - 23 AA 56 02 15 28 07 18 09 13 04 73 65 6F 6B 65 6E 64
2024-09-19 21:40:00.249 - 01 10 07 D6 00 03 06 70 61 00 02 00 F0 0F 3E (主卧空调冷24度)
2024-09-19 21:40:00.297 - 01 10 07 D6 00 FF
2024-09-19 21:40:01.062 - 09 06 00 0F 02 02 38 20 (提示音咚)
2024-09-19 21:40:01.614 - EE 00 00 B1 00 00 02 FF FC FF FF (情景完成返回主页)
2024-09-19 22:11:08.546 - 1A BE B0 DC 04 (继电器地址-西阳窗帘)
2024-09-19 22:11:08.684 - FF
2024-09-19 22:11:14.808 - FF FF FF FF 0E FC (继电器地址-西阳小窗帘)
2024-09-19 22:11:14.942 - FF
2024-09-19 22:12:21.005 - 1B 03 00 00 00 02 C6 31 (查询室外光线)
2024-09-19 22:12:21.026 - 1B 03 04 00 00 00 00 41 F2 (室外光线返回)
2024-09-19 22:12:21.805 - 1A EC A0 DC 02 00 00 01 0F (自保持开关地址-天花12V供电, 天花12V 供电开)
2024-09-19 22:12:22.437 - 1A AA AA AA 88 (调光器地址-茶吧灯带)
2024-09-19 22:12:22.495 - F6
2024-09-19 22:12:22.497 - E4
2024-09-19 22:12:22.502 - FF FF F5 A2
2024-09-19 22:12:22.506 - B0 52
2024-09-19 22:12:22.507 - 88 80
2024-09-19 22:12:22.511 - FC
2024-09-19 22:12:23.500 - 19 08 24 03 DD 00 0D 00 01 (调用情景-信科调用进门暗)
2024-09-19 22:12:25.554 - 1A FF 01 FF FF FF 60 01 FF 60 01 FF 00 00 0F (调光器地址-公共区域统配地址)
2024-09-19 22:12:27.642 - 1A EC A0 DC 01 00 00 01 0F (自保持开关地址-电视、设备12V供电, 12V 电视供电开)
2024-09-19 22:12:28.190 - 1A EC A0 DC 01 00 00 01 0F (自保持开关地址-电视、设备12V供电, 12V 电视供电开)
2024-09-19 22:12:28.737 - 1A EC A0 DC 04 00 01 01 0F (自保持开关地址-次卧西阳内外卫供电, 内卫外卫开)
2024-09-19 22:12:29.285 - 1A EC A0 DC 04 00 01 01 0F (自保持开关地址-次卧西阳内外卫供电, 内卫外卫开)
2024-09-19 22:12:29.833 - 1A BB BB BB 01 01 00 (开水器电源开)
2024-09-19 22:12:31.078 - FF
2024-09-19 22:12:31.378 - 1A 27 89 12 AA 00 00 01 0F (状态寄存器地址, 有人状态)
2024-09-19 22:12:31.925 - 1A 27 89 12 AA 00 00 01 0F (状态寄存器地址, 有人状态)
2024-09-19 22:12:32.473 - 1A BE B0 DC 01 00 01 00 (继电器地址-回水泵点动, 回水泵点动)
2024-09-19 22:12:33.022 - 1A FF FF FF 56 00 00 01 0F (人体感应地址-内卫, 打开内卫感应)
2024-09-19 22:12:33.570 - 1A FF FF FF 55 00 00 01 0F (人体感应地址-外卫, 打开外卫感应)
2024-09-19 22:12:33.664 - BC BC
2024-09-19 22:12:34.118 - 1A FF FF FF 57 00 00 01 0F (人体感应地址-厨房, 打开厨房感应)
2024-09-19 22:12:34.667 - 1A FF FF FF 58 00 00 01 0F (人体感应地址-茶吧, 打开茶吧感应)
2024-09-19 22:12:34.716 - BC BC
2024-09-19 22:12:35.263 - 1A BE B0 DC 01 00 01 00 (继电器地址-回水泵点动, 回水泵点动)
2024-09-19 22:12:35.811 - A5 00 B7 FF 00 AA 22 0D (书房纱帘关)
2024-09-19 22:12:36.357 - A5 00 A2 FF 00 AA (餐厅纱帘关)
2024-09-19 22:12:36.907 - 09 06 00 0F 02 01 78 21 (提示音叮)
2024-09-19 22:12:37.506 - 09 06 00 0F 02 01 78 21 (提示音叮)
2024-09-19 22:12:38.057 - EE 00 00 B1 00 00 02 FF FC FF FF (情景完成返回主页)
2024-09-19 22:12:38.648 - A1 11 11 11 50 (天花供电打开确认)
2024-09-19 22:12:38.875 - 1A EC A0 DC 02 86 86 86 0F (查询天花供电状态, 自保持开关地址-天花12V供电)
2024-09-19 22:12:39.307 - 1A EC A0 DC 02 01 01 0F (自保持开关地址-天花12V供电)
2024-09-19 22:12:41.189 - A1 11 11 11 51 (卫生供电打开确认)
2024-09-19 22:12:41.412 - 1A EC A0 DC 04 86 86 86 0F (查询卫生间供电状态, 自保持开关地址-次卧西阳内外卫供电)
2024-09-19 22:12:41.843 - 1A EC A0 DC 04 01 01 0F (自保持开关地址-次卧西阳内外卫供电)
2024-09-19 22:12:43.730 - A1 11 11 11 52 (电视供电打开确认)
2024-09-19 22:12:43.959 - 1A EC A0 DC 01 86 86 86 0F (查询电视供电状态, 自保持开关地址-电视、设备12V供电)
2024-09-19 22:12:44.390 - 1A EC A0 DC 01 01 01 0F (自保持开关地址-电视、设备12V供电)
2024-09-19 22:12:44.658 - 19 08 24 03 CC 01 54 00 01 (调用内卫感应灯开的按键)
2024-09-19 22:12:44.711 - 1A 0C 02 08 01 FF 45 01 FF 45 01 FF 00 00 0F (调光器地址-内卫射灯, 内卫射灯微光)
2024-09-19 22:12:48.762 - 19 08 24 03 CC 01 EC A1 11 11 11 47 (天热回家开帘)
2024-09-19 22:12:48.899 - 1A AA AA AA 88 FF B0 01 FF B0 01 0F (调光器地址-茶吧灯带, 茶吧灯带明亮)
2024-09-19 22:13:21.730 - 19 08 24 03 CC 01 55 00 01 (调用内卫感应灯关的按键)
2024-09-19 22:13:21.785 - 1A 0C 02 08 01 FF 00 01 FF 00 01 FF 00 00 0F (调光器地址-内卫射灯, 内卫感应灯关)
2024-09-19 22:13:30.865 - 19 08 24 03 CC 00 D3 00 01 (调用厨房感应灯开的按键)
2024-09-19 22:13:30.899 - 55 0A 32 00 00 00 01 92 55 0A 32 00 00 00 02 93 (厨房顶灯一开, 厨房顶灯二开)
2024-09-19 22:14:10.442 - 19 08 24 03 CC 00 D4 00 01 (调用厨房感应灯关的按键)
2024-09-19 22:14:10.477 - 55 0A 31 00 00 00 01 91 55 0A 31 00 00 00 02 92 (厨房顶灯一关, 厨房顶灯二关)
2024-09-19 22:14:28.957 - FF
2024-09-19 22:14:29.480 - 19 08 24 03 CC 00 D3 00 01 (调用厨房感应灯开的按键)
2024-09-19 22:14:29.532 - 55 0A 32 00 00 00 01 92 55 0A 32 00 00 00 02 93 (厨房顶灯一开, 厨房顶灯二开)
2024-09-19 22:14:36.472 - 19 08 24 03 CC 01 CD 00 01 (调用茶吧感应灯关的按键)
2024-09-19 22:14:36.522 - 1A AA AA AA 88 FF 00 01 FF 00 01 0F (调光器地址-茶吧灯带, 茶吧灯带关闭)
2024-09-19 22:14:40.980 - 19 08 24 03 CC 01 CC 00 01 (调用茶吧感应灯开的按键)
2024-09-19 22:14:41.050 - 1A AA AA AA 88 FF B0 01 FF B0 01 0F (调光器地址-茶吧灯带, 茶吧灯带明亮)
2024-09-19 22:15:19.578 - 19 08 24 03 CC 00 D4 00 01 (调用厨房感应灯关的按键)
2024-09-19 22:15:19.613 - 55 0A 31 00 00 00 01 91 55 0A 31 00 00 00 02 92 (厨房顶灯一关, 厨房顶灯二关)
2024-09-19 22:15:35.677 - 1A FF FF FF 04 (继电器地址-东阳衣架)
2024-09-19 22:15:35.812 - FF
2024-09-19 22:15:56.650 - 19 08 24 03 CC 00 D3 00 01 (调用厨房感应灯开的按键)
2024-09-19 22:15:56.703 - 55 0A 32 00 00 00 01 92 55 0A 32 00 00 00 02 93 (厨房顶灯一开, 厨房顶灯二开)
2024-09-19 22:16:26.189 - 19 08 24 03 CC 01 CD 00 01 (调用茶吧感应灯关的按键)
2024-09-19 22:16:26.238 - 1A AA AA AA 88 FF 00 01 FF 00 01 0F (调光器地址-茶吧灯带, 茶吧灯带关闭)
2024-09-19 22:17:28.016 - 1A BE B0 DC 02 FC (正反转地址-外卫卷帘)
2024-09-19 22:17:28.149 - FF
2024-09-19 22:18:07.389 - 19 08 24 03 CC 01 CC 00 01 (调用茶吧感应灯开的按键)
2024-09-19 22:18:07.436 - 1A AA AA AA 88 FF B0 01 FF B0 01 0F (调光器地址-茶吧灯带, 茶吧灯带明亮)
2024-09-19 22:18:49.992 - 19 08 24 03 CC 00 D4 00 01 (调用厨房感应灯关的按键)
2024-09-19 22:18:50.045 - 55 0A 31 00 00 00 01 91 55 0A 31 00 00 00 02 92 (厨房顶灯一关, 厨房顶灯二关)
2024-09-19 22:18:53.499 - 19 08 24 03 CC 00 D3 00 01 (调用厨房感应灯开的按键)
2024-09-19 22:18:53.533 - 55 0A 32 00 00 00 01 92 55 0A 32 00 00 00 02 93 (厨房顶灯一开, 厨房顶灯二开)
2024-09-19 22:19:06.004 - 19 08 24 03 CC 01 CD 00 01 (调用茶吧感应灯关的按键)
2024-09-19 22:19:06.035 - 1A AA AA AA 88 FF 00 01 FF 00 01 0F (调光器地址-茶吧灯带, 茶吧灯带关闭)
2024-09-19 22:19:35.563 - 19 08 24 03 CC 01 CC 00 01 (调用茶吧感应灯开的按键)
2024-09-19 22:19:35.592 - 1A AA AA AA 88 FF B0 01 FF B0 01 0F (调光器地址-茶吧灯带, 茶吧灯带明亮)
2024-09-19 22:20:00.611 - 19 08 24 03 CC 01 CD 00 01 (调用茶吧感应灯关的按键)
2024-09-19 22:20:00.641 - 1A AA AA AA 88 FF 00 01 FF 00 01 0F (调光器地址-茶吧灯带, 茶吧灯带关闭)
2024-09-19 22:20:39.689 - 19 08 24 03 CC 01 CC 00 01 (调用茶吧感应灯开的按键)
2024-09-19 22:20:39.719 - 1A AA AA AA 88 FF B0 01 FF B0 01 0F (调光器地址-茶吧灯带, 茶吧灯带明亮)
2024-09-19 22:20:49.080 - EE 00 6E B1 01 00 03 FF FC FF FF
2024-09-19 22:20:49.651 - EE 00 6E B1 01 00 08 FF FC FF FF
2024-09-19 22:20:50.154 - 1A BE B0 DC 0A 00 01 00 (继电器地址-客厅纱帘, 客厅纱帘关)
2024-09-19 22:20:52.715 - 19 08 24 03 CC 01 CD 00 01 (调用茶吧感应灯关的按键)
2024-09-19 22:20:52.764 - 1A AA AA AA 88 FF 00 01 FF 00 01 0F (调光器地址-茶吧灯带, 茶吧灯带关闭)
2024-09-19 22:21:07.963 - 19 08 24 03 DD 00 42 00 01 (调用情景-主卧电视空调)
2024-09-19 22:21:08.479 - EE 00 00 B1 00 00 00 FF FC FF FF (情景执行提示)
2024-09-19 22:21:09.074 - 09 06 00 0F 02 01 78 21 (提示音叮)
2024-09-19 22:21:09.617 - 50 F0 05 (开主卧影视)
2024-09-19 22:21:10.662 - 50 F0 04 (开内卫影视)
2024-09-19 22:21:11.217 - 1A FF FF FF 56 00 00 00 0F (人体感应地址-内卫, 关闭内卫感应)
2024-09-19 22:21:11.765 - 1A 22 33 62 0F 00 02 01 0F (正反转地址-内卫卷帘, 内卫卷帘降)
2024-09-19 22:21:12.311 - A5 00 53 FE 01 AA (主卧纱帘关)
2024-09-19 22:21:13.356 - A5 00 52 FF 00 AA (主卧窗帘关)
2024-09-19 22:21:14.412 - 1A 0C 02 04 FF FF 45 01 FF 45 01 FF 00 00 0F (主卧调光微光)
2024-09-19 22:21:17.296 - 19 08 24 03 CC 00 D4 00 01 (调用厨房感应灯关的按键)
2024-09-19 22:21:17.359 - 55 0A 31 00 00 00 01 91 55 0A 31 00 00 00 02 92 (厨房顶灯一关, 厨房顶灯二关)
2024-09-19 22:21:18.498 - 1A 0C 02 08 01 FF 45 01 FF 45 01 FF 00 00 0F (调光器地址-内卫射灯, 内卫射灯微光)
2024-09-19 22:21:19.083 - 50 F1 25 (主卧—有线2)
2024-09-19 22:21:19.634 - A1 11 11 11 42 (主卧空调自动开)
2024-09-19 22:21:19.859 - 19 08 24 03 F0 BB 78 02 02 00
2024-09-19 22:21:19.909 - 23 AA 56 02 16 15 1C 18 09 13 04 73 65 6F 6B 65 6E 64
2024-09-19 22:21:20.181 - 50 F1 24 (内卫—有线2)
2024-09-19 22:21:20.712 - 1A BE B0 DC 09 (继电器地址-客厅窗帘)
2024-09-19 22:21:20.873 - 01 10 07 D6 00 03 06 70 61 00 02 00 F0 0F 3E (主卧空调冷24度)
2024-09-19 22:21:20.911 - 01 10 07 D6 00 03 06 70 61 00 02 E0
2024-09-19 22:21:22.226 - AF BF CF DF C2 21 (有线2/快捷-凤凰卫视)
2024-09-19 22:21:24.271 - 1A FF FF FF 60 0B 01 01 0F (红外总线地址-主卧发射设备, 主卧电视电源)
2024-09-19 22:21:24.786 - F0 0B 01 08
2024-09-19 22:21:32.296 - 09 06 00 0F 02 02 38 20 (提示音咚)
2024-09-19 22:21:32.897 - EE 00 00 B1 00 00 02 FF FC FF FF (情景完成返回主页)
2024-09-19 22:23:17.450 - 19 08 24 03 DD 00 1B 00 01 (调用情景-外卫使用)
2024-09-19 22:23:17.984 - EE 00 00 B1 00 00 00 FF FC FF FF (情景执行提示)
2024-09-19 22:23:18.578 - 09 06 00 0F 02 01 78 21 (提示音叮)
2024-09-19 22:23:19.125 - 1A BE B0 DC 02 00 01 00 (正反转地址-外卫卷帘, 外卫卷帘降)
2024-09-19 22:23:19.719 - 50 F0 03 (开外卫影视)
2024-09-19 22:23:20.274 - 1A FF FF FF 55 00 00 00 0F (人体感应地址-外卫, 关闭外卫感应)
2024-09-19 22:23:20.828 - 1A 0D 01 07 01 FF 45 01 FF 45 01 FF 00 00 0F (调光器地址-外卫射灯, 外卫感应灯开)
2024-09-19 22:23:22.914 - 1A BE B0 DC 01 00 01 00 (继电器地址-回水泵点动, 回水泵点动)
2024-09-19 22:23:23.959 - 1A BE B0 DC 01 00 01 00 (继电器地址-回水泵点动, 回水泵点动)
2024-09-19 22:23:25.006 - 1A BE B0 DC 01 00 01 00 (继电器地址-回水泵点动, 回水泵点动)
2024-09-19 22:23:26.046 - 50 F1 43 (外卫—CH4)
2024-09-19 22:23:31.175 - 1A BE B0 DC 01 (继电器地址-回水泵点动)
2024-09-19 22:23:31.310 - FF
2024-09-19 22:23:43.044 - A1 11 11 11 11 05 (外卫使用浴霸判断)
2024-09-19 22:23:43.270 - 13 03 00 00 00 02 C7 79 (查询外卫温湿度)
2024-09-19 22:23:43.293 - 13 03 04 01 D5 01 10 D8 6A (外卫温湿度返回)
2024-09-19 22:23:45.140 - 09 06 00 0F 02 02 38 20 (提示音咚)
2024-09-19 22:23:47.235 - EE 00 00 B1 00 00 02 FF FC FF FF (情景完成返回主页)
2024-09-19 22:25:41.826 - 1A BE B0 DC 0A (继电器地址-客厅纱帘)
2024-09-19 22:25:41.961 - FE
2024-09-19 22:25:41.982 - 1A BE B0 DC 03 FC (继电器地址-西阳天幕)
2024-09-19 22:25:46.104 - 1A 20 07 01 40 00 01 01 0F (自保持开关地址-内卫顶灯, 内卫顶灯开)
2024-09-19 22:28:44.835 - 1A 20 07 01 40 00 01 00 0F (自保持开关地址-内卫顶灯, 内卫顶灯关)
2024-09-19 22:38:38.342 - FF FF FF FF 0A FD (继电器地址-东阳窗帘)
2024-09-19 22:38:38.476 - FF
2024-09-19 22:46:36.026 - 19 08 24 03 DD 00 1C 00 01 (调用情景-外卫使用完毕)
2024-09-19 22:46:36.561 - EE 00 00 B1 00 00 00 FF FC FF FF (情景执行提示)
2024-09-19 22:46:37.156 - 09 06 00 0F 02 01 78 21 (提示音叮)
2024-09-19 22:46:37.712 - 1A 0D 01 07 01 FF 00 01 FF 00 01 FF 00 00 0F (调光器地址-外卫射灯, 外卫感应灯关)
2024-09-19 22:46:38.296 - 50 F5 03 (关外卫影视)
2024-09-19 22:46:38.852 - 1A 20 07 00 42 00 01 00 0F (自保持开关地址-外卫顶灯, 外卫顶灯关)
2024-09-19 22:46:39.399 - 1A FF FF FF 55 00 00 01 0F (人体感应地址-外卫, 打开外卫感应)
2024-09-19 22:46:39.454 - BC BC
2024-09-19 22:46:39.762 - 19 08 24 03 CC 01 52 00 01 (调用外卫感应灯开的按键)
2024-09-19 22:46:39.815 - 1A 0D 01 07 01 FF 45 01 FF 45 01 FF 00 00 0F (调光器地址-外卫射灯, 外卫感应灯开)
2024-09-19 22:46:42.242 - 09 06 00 0F 02 02 38 20 (提示音咚)
2024-09-19 22:46:42.842 - EE 00 00 B1 00 00 02 FF FC FF FF (情景完成返回主页)
2024-09-19 22:46:47.982 - 19 08 24 03 CC 01 53 00 01 (调用外卫感应灯关的按键)
2024-09-19 22:46:48.016 - 1A 0D 01 07 01 FF 00 01 FF 00 01 FF 00 00 0F (调光器地址-外卫射灯, 外卫感应灯关)
2024-09-19 22:48:08.128 - 19 08 24 03 DD 00 13 00 01 (调用情景-公共区域关)
2024-09-19 22:48:08.466 - 19 08 24 03 CC 01 CC 00 01 (调用茶吧感应灯开的按键)
2024-09-19 22:48:08.498 - 1A AA AA AA 88 FF B0 01 FF B0 01 0F (调光器地址-茶吧灯带, 茶吧灯带明亮)
2024-09-19 22:48:08.900 - EE 00 00 B1 00 00 00 FF FC FF FF (情景执行提示)
2024-09-19 22:48:09.484 - 09 06 00 0F 02 01 78 21 (提示音叮)
2024-09-19 22:48:10.031 - 55 0B 31 00 00 00 01 92 (厨房风扇只关)
2024-09-19 22:48:11.078 - 01 06 07 D3 FF 60 38 9F (餐厅空调关)
2024-09-19 22:48:11.112 - 01 06 07 D3 FF 60 38 9F (餐厅空调关)
2024-09-19 22:48:11.471 - 19 08 24 03 CC 00 D3 00 01 (调用厨房感应灯开的按键)
2024-09-19 22:48:11.523 - 55 0A 32 00 00 00 01 92 55 0A 32 00 00 00 02 93 (厨房顶灯一开, 厨房顶灯二开)
2024-09-19 22:48:12.174 - 01 06 07 D0 FF 60 C8 9F (客厅空调关)
2024-09-19 22:48:12.204 - 01 06 07 D0 FF 60 C8 9F (客厅空调关)
2024-09-19 22:48:16.258 - 50 F5 02 (关厨房影视)
2024-09-19 22:48:17.303 - 50 F5 01 (关餐厅影视)
2024-09-19 22:48:18.350 - 50 F5 08 (关客厅影视)
2024-09-19 22:48:19.396 - 50 F5 03 (关外卫影视)
2024-09-19 22:48:20.448 - 55 0A 31 00 00 00 01 91 (厨房顶灯一关)
2024-09-19 22:48:21.493 - 55 0A 31 00 00 00 02 92 (厨房顶灯二关)
2024-09-19 22:48:22.541 - 55 0C 31 00 00 00 01 93 (餐厅顶灯关)
2024-09-19 22:48:23.588 - 1A 18 05 10 31 00 01 00 0F (自保持开关地址-门厅顶灯, 门厅顶灯关)
2024-09-19 22:48:24.634 - 1A 20 07 00 42 00 01 00 0F (自保持开关地址-外卫顶灯, 外卫顶灯关)
2024-09-19 22:48:25.679 - 1A 18 05 21 89 00 01 00 0F (自保持开关地址-客厅顶灯, 客厅顶灯一关)
2024-09-19 22:48:26.726 - 1A 18 05 01 94 00 01 00 0F (自保持开关地址-客厅顶灯, 客厅顶灯二关)
2024-09-19 22:48:27.773 - 1A 20 07 01 30 00 01 00 0F (自保持开关地址-西阳顶灯, 西阳顶灯关)
2024-09-19 22:48:28.826 - 1A FF 01 FF FF FF 00 01 FF 00 01 FF 00 00 0F (调光器地址-公共区域统配地址, 公共区域灯光全关)
2024-09-19 22:48:29.915 - 09 06 00 0F 02 02 38 20 (提示音咚)
2024-09-19 22:48:32.010 - EE 00 00 B1 00 00 02 FF FC FF FF (情景完成返回主页)
2024-09-19 22:48:54.573 - 19 08 24 03 CC 00 D4 00 01 (调用厨房感应灯关的按键)
2024-09-19 22:48:54.626 - 55 0A 31 00 00 00 01 91 55 0A 31 00 00 00 02 92 (厨房顶灯一关, 厨房顶灯二关)
2024-09-19 22:49:22.648 - 19 08 24 03 CC 01 CD 00 01 (调用茶吧感应灯关的按键)
2024-09-19 22:49:22.679 - 1A AA AA AA 88 FF 00 01 FF 00 01 0F (调光器地址-茶吧灯带, 茶吧灯带关闭)
2024-09-19 22:49:34.804 - 19 08 24 03 DD 00 4F 00 01 (调用情景-内卫使用完毕)
2024-09-19 22:49:35.339 - EE 00 00 B1 00 00 00 FF FC FF FF (情景执行提示)
2024-09-19 22:49:35.963 - 09 06 00 0F 02 01 78 21 (提示音叮)
2024-09-19 22:49:36.540 - 1A 0C 02 08 01 FF 00 01 FF 00 01 FF 00 00 0F (调光器地址-内卫射灯, 内卫感应灯关)
2024-09-19 22:49:40.613 - 50 F5 04 (关内卫影视)
2024-09-19 22:49:41.196 - 1A 20 07 01 40 00 01 00 0F (自保持开关地址-内卫顶灯, 内卫顶灯关)
2024-09-19 22:49:41.766 - 1A FF FF FF 56 00 00 01 0F (人体感应地址-内卫, 打开内卫感应)
2024-09-19 22:49:41.869 - BC BC
2024-09-19 22:49:42.176 - 19 08 24 03 CC 01 54 00 01 (调用内卫感应灯开的按键)
2024-09-19 22:49:42.229 - 1A 0C 02 08 01 FF 45 01 FF 45 01 FF 00 00 0F (调光器地址-内卫射灯, 内卫射灯微光)
2024-09-19 22:49:44.608 - 09 06 00 0F 02 02 38 20 (提示音咚)
2024-09-19 22:49:45.210 - EE 00 00 B1 00 00 02 FF FC FF FF (情景完成返回主页)
2024-09-19 22:50:04.925 - 19 08 24 03 CC 01 55 00 01 (调用内卫感应灯关的按键)
2024-09-19 22:50:04.958 - 1A 0C 02 08 01 FF 00 01 FF 00 01 FF 00 00 0F (调光器地址-内卫射灯, 内卫感应灯关)
2024-09-19 22:51:16.064 - 19 08 24 03 CC 01 54 00 01 (调用内卫感应灯开的按键)
2024-09-19 22:51:16.098 - 1A 0C 02 08 01 FF 45 01 FF 45 01 FF 00 00 0F (调光器地址-内卫射灯, 内卫射灯微光)
2024-09-19 22:52:06.163 - 19 08 24 03 CC 01 55 00 01 (调用内卫感应灯关的按键)
2024-09-19 22:52:06.196 - 1A 0C 02 08 01 FF 00 01 FF 00 01 FF 00 00 0F (调光器地址-内卫射灯, 内卫感应灯关)
2024-09-19 23:10:07.792 - 19 08 24 03 CC 01 54 00 01 (调用内卫感应灯开的按键)
2024-09-19 23:10:07.826 - 1A 0C 02 08 01 FF 45 01 FF 45 01 FF 00 00 0F (调光器地址-内卫射灯, 内卫射灯微光)
2024-09-19 23:11:42.480 - 19 08 24 03 CC 01 55 00 01 (调用内卫感应灯关的按键)
2024-09-19 23:11:42.512 - 1A 0C 02 08 01 FF 00 01 FF 00 01 FF 00 00 0F (调光器地址-内卫射灯, 内卫感应灯关)
2024-09-19 23:59:38.641 - 19 08 24 03 CC 01 54 00 01 (调用内卫感应灯开的按键)
2024-09-19 23:59:38.676 - 1A 0C 02 08 01 FF 45 01 FF 45 01 FF 00 00 0F (调光器地址-内卫射灯, 内卫射灯微光)
2024-09-20 00:02:06.933 - 19 08 24 03 CC 01 55 00 01 (调用内卫感应灯关的按键)
2024-09-20 00:02:06.968 - 1A 0C 02 08 01 FF 00 01 FF 00 01 FF 00 00 0F (调光器地址-内卫射灯, 内卫感应灯关)
2024-09-20 00:03:01.627 - 19 08 24 03 DD 00 4B 00 01 (调用情景-主卧睡觉)
2024-09-20 00:03:02.146 - EE 00 00 B1 00 00 00 FF FC FF FF (情景执行提示)
2024-09-20 00:03:02.742 - 09 06 00 0F 02 01 78 21 (提示音叮)
2024-09-20 00:03:03.285 - 50 F5 04 (关内卫影视)
2024-09-20 00:03:03.836 - A5 00 53 FE 01 AA (主卧纱帘关)
2024-09-20 00:03:04.883 - A5 00 52 FF 00 AA (主卧窗帘关)
2024-09-20 00:03:05.932 - 1A 22 33 62 0F 00 02 01 0F (正反转地址-内卫卷帘, 内卫卷帘降)
2024-09-20 00:03:06.978 - 1A 20 07 01 40 00 01 00 0F (自保持开关地址-内卫顶灯, 内卫顶灯关)
2024-09-20 00:03:08.023 - 1A 20 07 01 55 00 01 00 0F (自保持开关地址-主卧顶灯, 主卧顶灯只关)
2024-09-20 00:03:08.571 - 1A FF FF FF 56 00 00 01 0F (人体感应地址-内卫, 打开内卫感应)
2024-09-20 00:03:08.584 - BC BC
2024-09-20 00:03:12.170 - 1A 0C 02 08 01 FF 00 01 FF 00 01 FF 00 00 0F (调光器地址-内卫射灯, 内卫感应灯关)
2024-09-20 00:03:12.768 - 1A 0C 02 04 01 FF 00 01 FF 00 01 FF 00 00 0F (调光器地址-主卧筒灯, 主卧筒灯关闭)
2024-09-20 00:03:13.393 - 1A 0C 02 04 03 FF 00 01 FF 00 01 FF 00 00 0F (调光器地址-主卧灯带, 主卧灯带关闭)
2024-09-20 00:03:13.963 - 1A 0C 02 04 04 FF 00 01 FF 00 01 FF 00 00 0F (调光器地址-主卧南阅, 主卧南阅关闭)
2024-09-20 00:03:14.561 - 1A 0C 02 04 05 FF 00 01 FF 00 01 FF 00 00 0F (调光器地址-主卧北阅, 主卧北阅关闭)
2024-09-20 00:03:15.158 - 1A 0C 02 04 02 FF 00 01 FF 00 01 FF 00 00 0F (调光器地址-主卧过道, 主卧过道关闭)
2024-09-20 00:03:15.749 - 09 06 00 0F 02 02 38 20 (提示音咚)
2024-09-20 00:03:16.300 - EE 00 00 B1 00 00 02 FF FC FF FF (情景完成返回主页)
2024-09-20 00:03:18.085 - 19 08 24 03 CC 01 54 00 01 (调用内卫感应灯开的按键)
2024-09-20 00:03:18.139 - 1A 0C 02 08 01 FF 45 01 FF 45 01 FF 00 00 0F (调光器地址-内卫射灯, 内卫射灯微光)
2024-09-20 00:03:43.636 - 19 08 24 03 CC 01 55 00 01 (调用内卫感应灯关的按键)
2024-09-20 00:03:43.671 - 1A 0C 02 08 01 FF 00 01 FF 00 01 FF 00 00 0F (调光器地址-内卫射灯, 内卫感应灯关)
2024-09-20 01:32:58.182 - 19 08 24 03 CC 01 54 00 01 (调用内卫感应灯开的按键)
2024-09-20 01:32:58.217 - 1A 0C 02 08 01 FF 45 01 FF 45 01 FF 00 00 0F (调光器地址-内卫射灯, 内卫射灯微光)
2024-09-20 01:33:37.226 - 1A BE B0 DC 04 FC (继电器地址-西阳窗帘)
2024-09-20 01:33:42.976 - FF FF FF FF 0E (继电器地址-西阳小窗帘)
2024-09-20 01:33:43.112 - FF
2024-09-20 01:35:24.971 - 19 08 24 03 CC 01 55 00 01 (调用内卫感应灯关的按键)
2024-09-20 01:35:25.023 - 1A 0C 02 08 01 FF 00 01 FF 00 01 FF 00 00 0F (调光器地址-内卫射灯, 内卫感应灯关)
2024-09-20 01:36:42.123 - 19 08 24 03 CC 01 54 00 01 (调用内卫感应灯开的按键)
2024-09-20 01:36:42.178 - 1A 0C 02 08 01 FF 45 01 FF 45 01 FF 00 00 0F (调光器地址-内卫射灯, 内卫射灯微光)
2024-09-20 01:37:07.673 - 19 08 24 03 CC 01 55 00 01 (调用内卫感应灯关的按键)
2024-09-20 01:37:07.708 - 1A 0C 02 08 01 FF 00 01 FF 00 01 FF 00 00 0F (调光器地址-内卫射灯, 内卫感应灯关)
2024-09-20 01:38:12.772 - 1A FF FF FF 04 (继电器地址-东阳衣架)
2024-09-20 01:39:31.739 - FF
2024-09-20 01:39:55.675 - 1A BE B0 DC 02 FE (正反转地址-外卫卷帘)
2024-09-20 01:39:55.809 - FF
2024-09-20 01:43:49.660 - 1A BE B0 DC 09 (继电器地址-客厅窗帘)
2024-09-20 01:43:49.795 - FF
2024-09-20 01:47:04.327 - 1A BE B0 DC 01 (继电器地址-回水泵点动)
2024-09-20 01:47:04.463 - FF
2024-09-20 01:47:56.246 - 1A BE B0 DC 0A FC (继电器地址-客厅纱帘)
2024-09-20 01:47:56.380 - FF
2024-09-20 01:49:06.971 - 1A BE B0 DC 03 (继电器地址-西阳天幕)
2024-09-20 01:49:07.106 - FF
2024-09-20 01:51:59.794 - 19 08 24 03 CC 01 CC 00 01 (调用茶吧感应灯开的按键)
2024-09-20 01:51:59.843 - 1A AA AA AA 88 FF B0 01 FF B0 01 0F (调光器地址-茶吧灯带, 茶吧灯带明亮)
2024-09-20 01:52:07.309 - 19 08 24 03 CC 01 CD 00 01 (调用茶吧感应灯关的按键)
2024-09-20 01:52:07.359 - 1A AA AA AA 88 FF 00 01 FF 00 01 0F (调光器地址-茶吧灯带, 茶吧灯带关闭)
2024-09-20 02:00:36.989 - FF FF FF FF 0A FC (继电器地址-东阳窗帘)
2024-09-20 02:00:37.124 - FF
2024-09-20 02:37:51.824 - 03 00 00 2F 2A E0 00 00 00 00 00 43 6F 6F 6B 69 65 3A 20 6D 73 74 73 68 61 73 68 3D 41 64 6D 69
2024-09-20 02:37:51.841 - 6E 69 73 74 72 0D 0A 01 00 08 00 03 00 00 00
2024-09-20 02:59:53.012 - 50 F7 01 (全屋影音全关)
2024-09-20 03:27:05.053 - 19 08 24 03 CC 01 CC 00 01 (调用茶吧感应灯开的按键)
2024-09-20 03:27:05.103 - 1A AA AA AA 88 FF B0 01 FF B0 01 0F (调光器地址-茶吧灯带, 茶吧灯带明亮)
2024-09-20 03:27:12.067 - 19 08 24 03 CC 01 CD 00 01 (调用茶吧感应灯关的按键)
2024-09-20 03:27:12.098 - 1A AA AA AA 88 FF 00 01 FF 00 01 0F (调光器地址-茶吧灯带, 茶吧灯带关闭)
2024-09-20 04:49:52.849 - EE 00 00 B1 00 00 00 FF FC FF FF (情景执行提示)
2024-09-20 04:49:53.471 - A5 00 A2 FF 00 AA (餐厅纱帘关)
2024-09-20 04:49:54.537 - A5 00 A6 FF 00 AA (餐厅窗帘关)
2024-09-20 04:49:55.586 - A5 00 B7 FF 00 AA 22 0D (书房纱帘关)
2024-09-20 04:49:56.632 - A5 00 D2 FF 00 AA 22 0C (书房窗帘关)
2024-09-20 04:49:57.681 - EE 00 00 B1 00 00 02 FF FC FF FF (情景完成返回主页)
2024-09-20 04:53:24.170 - 1A BE B0 DC 04 FD (继电器地址-西阳窗帘)
2024-09-20 04:53:24.304 - FF
2024-09-20 04:53:42.883 - FF FF FF FF 0E FC (继电器地址-西阳小窗帘)
2024-09-20 04:53:56.708 - FF
2024-09-20 04:58:46.713 - 19 08 24 03 CC 00 D3 00 01 (调用厨房感应灯开的按键)
2024-09-20 04:58:46.766 - 55 0A 32 00 00 00 01 92 55 0A 32 00 00 00 02 93 (厨房顶灯一开, 厨房顶灯二开)
2024-09-20 04:59:11.750 - 1A FF FF FF 04 (继电器地址-东阳衣架)
2024-09-20 04:59:11.885 - FC
2024-09-20 04:59:21.781 - 19 08 24 03 CC 00 D4 00 01 (调用厨房感应灯关的按键)
2024-09-20 04:59:21.834 - 55 0A 31 00 00 00 01 91 55 0A 31 00 00 00 02 92 (厨房顶灯一关, 厨房顶灯二关)
2024-09-20 05:00:26.283 - 1A BE B0 DC 02 (正反转地址-外卫卷帘)
2024-09-20 05:00:26.419 - FF
2024-09-20 05:03:29.768 - 19 08 24 03 CC 00 D3 00 01 (调用厨房感应灯开的按键)
2024-09-20 05:03:29.823 - 55 0A 32 00 00 00 01 92 55 0A 32 00 00 00 02 93 (厨房顶灯一开, 厨房顶灯二开)
2024-09-20 05:04:05.339 - 19 08 24 03 CC 00 D4 00 01 (调用厨房感应灯关的按键)
2024-09-20 05:04:05.394 - 55 0A 31 00 00 00 01 91 55 0A 31 00 00 00 02 92 (厨房顶灯一关, 厨房顶灯二关)
2024-09-20 05:04:09.750 - 1A BE B0 DC 09 FC (继电器地址-客厅窗帘)
2024-09-20 05:04:09.883 - FF
2024-09-20 05:07:52.587 - 1A BE B0 DC 01 FC (继电器地址-回水泵点动)
2024-09-20 05:07:52.720 - FF
2024-09-20 05:08:29.472 - 1A BE B0 DC 0A FC (继电器地址-客厅纱帘)
2024-09-20 05:08:29.606 - FF
2024-09-20 05:10:01.454 - 1A BE B0 DC 03 FC (继电器地址-西阳天幕)
2024-09-20 05:10:01.590 - FE
2024-09-20 05:20:47.442 - FF FF FF FF 0A FC (继电器地址-东阳窗帘)
2024-09-20 05:20:47.578 - FF
2024-09-20 05:25:25.577 - 19 08 24 03 CC 01 CC 00 01 (调用茶吧感应灯开的按键)
2024-09-20 05:25:25.627 - 1A AA AA AA 88 FF B0 01 FF B0 01 0F (调光器地址-茶吧灯带, 茶吧灯带明亮)
2024-09-20 05:25:33.092 - 19 08 24 03 CC 01 CD 00 01 (调用茶吧感应灯关的按键)
2024-09-20 05:25:33.142 - 1A AA AA AA 88 FF 00 01 FF 00 01 0F (调光器地址-茶吧灯带, 茶吧灯带关闭)
2024-09-20 06:03:32.162 - 19 08 24 03 CC 01 54 00 01 (调用内卫感应灯开的按键)
2024-09-20 06:03:32.196 - 1A 0C 02 08 01 FF 45 01 FF 45 01 FF 00 00 0F (调光器地址-内卫射灯, 内卫射灯微光)
2024-09-20 06:03:52.702 - 19 08 24 03 CC 01 55 00 01 (调用内卫感应灯关的按键)
2024-09-20 06:03:52.737 - 1A 0C 02 08 01 FF 00 01 FF 00 01 FF 00 00 0F (调光器地址-内卫射灯, 内卫感应灯关)
2024-09-20 06:15:40.795 - FF
2024-09-20 06:30:02.104 - EE 00 00 B1 00 00 00 FF FC FF FF (情景执行提示)
2024-09-20 06:30:02.801 - 09 06 00 0F 02 01 78 21 (提示音叮)
2024-09-20 06:30:03.498 - 50 F0 04 (开内卫影视)
2024-09-20 06:30:04.198 - 50 F0 04 (开内卫影视)
2024-09-20 06:30:04.900 - 50 F0 05 (开主卧影视)
2024-09-20 06:30:05.601 - 50 F0 05 (开主卧影视)
2024-09-20 06:30:06.308 - FF FF FF FF 09 00 01 00
2024-09-20 06:30:07.008 - FF FF FF FF 08 00 01 00
2024-09-20 06:30:07.710 - FF FF FF FF 08 00 01 00
2024-09-20 06:30:08.412 - 1A 22 33 62 0F 00 02 01 0F (正反转地址-内卫卷帘, 内卫卷帘降)
2024-09-20 06:30:09.112 - 1A FF FF FF 56 0C 00 01 (人体感应地址-内卫)
2024-09-20 06:30:09.338 - 1A FF FF FF 56 00 00 00 0F (人体感应地址-内卫, 关闭内卫感应)
2024-09-20 06:30:09.813 - 1A FF FF FF A5 00 01 02
2024-09-20 06:30:10.518 - 1A AA AA AA 84 FF B0 01 FF 00 00 0F
2024-09-20 06:30:12.221 - 1A AA AA AA 27 FF 00 01 FF 00 00 0F
2024-09-20 06:30:13.925 - 1A AA AA AA 6F FF 27 01 FF 00 00 0F
2024-09-20 06:30:15.627 - 1A AA AA AA 55 FF 45 01 FF 00 00 0F
2024-09-20 06:30:17.331 - 1A AA AA AA 2C FF 00 00 FF 00 01 0F
2024-09-20 06:30:19.083 - 1A AA AA AA 84 FF 00 00 FF B0 01 0F
2024-09-20 06:30:20.784 - 1A AA AA AA 5B FF 00 01 FF 00 00 0F
2024-09-20 06:30:22.490 - 1A AA AA AA 27 FF 00 00 FF 00 01 0F
2024-09-20 06:30:24.191 - 1A AA AA AA 6F FF 00 00 FF 27 01 0F
2024-09-20 06:30:25.894 - 1A AA AA AA 55 FF 00 00 FF 45 01 0F
2024-09-20 06:30:27.646 - 1A AA AA AA 2C FF 00 01 FF 00 00 0F
2024-09-20 06:30:29.348 - 1A AA AA AA 5B FF 00 00 FF 00 01 0F
2024-09-20 06:30:31.043 - 50 F1 25 (主卧—有线2)
2024-09-20 06:30:32.743 - 50 F1 25 (主卧—有线2)
2024-09-20 06:30:34.451 - A1 11 11 11 11 01 (内卫浴霸取暖判断)
2024-09-20 06:30:34.672 - 14 03 00 00 00 02 C6 CE (查询内卫温湿度)
2024-09-20 06:30:34.694 - 14 03 04 01 F1 00 F6 6E BB (内卫温湿度返回)
2024-09-20 06:30:35.730 - 1A BE B0 DC 01 00 01 00 (继电器地址-回水泵点动, 回水泵点动)
2024-09-20 06:30:36.956 - 1A BE B0 DC 01 00 01 00 (继电器地址-回水泵点动, 回水泵点动)
2024-09-20 06:30:39.159 - 1A BE B0 DC 01 00 01 00 (继电器地址-回水泵点动, 回水泵点动)
2024-09-20 06:30:40.865 - 1A FF FF FF 60 0B 01 01 0F (红外总线地址-主卧发射设备, 主卧电视电源)
2024-09-20 06:30:41.379 - F0 0B 01 08
2024-09-20 06:30:44.011 - EE 00 00 B1 00 00 02 FF FC FF FF (情景完成返回主页)
2024-09-20 06:31:50.431 - FF
2024-09-20 06:43:43.851 - 19 08 24 03 CC 01 CC 00 01 (调用茶吧感应灯开的按键)
2024-09-20 06:43:43.899 - 1A AA AA AA 88 FF B0 01 FF B0 01 0F (调光器地址-茶吧灯带, 茶吧灯带明亮)
2024-09-20 06:43:51.367 - 19 08 24 03 CC 01 CD 00 01 (调用茶吧感应灯关的按键)
2024-09-20 06:43:51.415 - 1A AA AA AA 88 FF 00 01 FF 00 01 0F (调光器地址-茶吧灯带, 茶吧灯带关闭)
2024-09-20 06:44:29.440 - 19 08 24 03 CC 01 CC 00 01 (调用茶吧感应灯开的按键)
2024-09-20 06:44:29.471 - 1A AA AA AA 88 FF B0 01 FF B0 01 0F (调光器地址-茶吧灯带, 茶吧灯带明亮)
2024-09-20 06:44:36.454 - 19 08 24 03 CC 01 CD 00 01 (调用茶吧感应灯关的按键)
2024-09-20 06:44:36.486 - 1A AA AA AA 88 FF 00 01 FF 00 01 0F (调光器地址-茶吧灯带, 茶吧灯带关闭)
2024-09-20 06:44:52.277 - EE 00 00 B1 00 00 00 FF FC FF FF (情景执行提示)
2024-09-20 06:44:52.871 - 09 06 00 0F 02 01 78 21 (提示音叮)
2024-09-20 06:44:53.465 - 50 F0 04 (开内卫影视)
2024-09-20 06:44:54.012 - 50 F0 05 (开主卧影视)
2024-09-20 06:44:54.563 - A5 00 53 FE 01 AA (主卧纱帘关)
2024-09-20 06:44:55.111 - A5 00 53 FE 01 AA (主卧纱帘关)
2024-09-20 06:44:55.661 - A5 00 52 FE 01 AA (主卧窗帘开)
2024-09-20 06:44:56.706 - A5 00 52 FE 01 AA (主卧窗帘开)
2024-09-20 06:44:57.755 - 1A 22 33 62 0F 00 02 01 0F (正反转地址-内卫卷帘, 内卫卷帘降)
2024-09-20 06:44:58.304 - 1A FF FF FF 56 00 00 00 0F (人体感应地址-内卫, 关闭内卫感应)
2024-09-20 06:44:58.318 - BC BC
2024-09-20 06:44:58.902 - 1A 20 07 01 55 00 01 00 0F (自保持开关地址-主卧顶灯, 主卧顶灯只关)
2024-09-20 06:44:59.954 - 1A 0C 02 08 01 FF F0 01 FF F0 01 FF 00 00 0F (调光器地址-内卫射灯, 内卫射灯明亮)
2024-09-20 06:45:00.552 - 1A 0C 02 04 01 FF 00 01 FF 00 01 FF 00 00 0F (调光器地址-主卧筒灯, 主卧筒灯关闭)
2024-09-20 06:45:01.150 - 1A 0C 02 04 03 FF 45 01 FF 45 01 FF 00 00 0F (调光器地址-主卧灯带, 主卧灯带微光)
2024-09-20 06:45:01.747 - 1A 0C 02 04 02 FF F0 01 FF 00 01 FF 00 00 0F (调光器地址-主卧过道, 主卧过道暖光)
2024-09-20 06:45:02.347 - 1A 0C 02 04 05 FF 00 01 FF 00 01 FF 00 00 0F (调光器地址-主卧北阅, 主卧北阅关闭)
2024-09-20 06:45:02.943 - 1A 0C 02 04 04 FF 00 01 FF 00 01 FF 00 00 0F (调光器地址-主卧南阅, 主卧南阅关闭)
2024-09-20 06:45:04.027 - 50 F1 24 (内卫—有线2)
2024-09-20 06:45:05.074 - 50 F1 25 (主卧—有线2)
2024-09-20 06:45:06.122 - AF BF CF DF C2 21 (有线2/快捷-凤凰卫视)
2024-09-20 06:45:06.673 - 1A FF FF FF 60 0B 01 01 0F (红外总线地址-主卧发射设备, 主卧电视电源)
2024-09-20 06:45:07.191 - F0 0B 01 08
2024-09-20 06:45:07.720 - 1A BE B0 DC 01 00 01 00 (继电器地址-回水泵点动, 回水泵点动)
2024-09-20 06:45:09.301 - 55 20 20 00 00 0F 02 16 AA 55 20 20 00 00 0F 02 16 AA (主卧窗帘电机状态返回)
2024-09-20 06:45:11.760 - 09 06 00 0F 02 02 38 20 (提示音咚)
2024-09-20 06:45:12.359 - EE 00 00 B1 00 00 02 FF FC FF FF (情景完成返回主页)
2024-09-20 06:45:13.449 - A1 11 11 11 11 01 (内卫浴霸取暖判断)
2024-09-20 06:45:13.671 - 14 03 00 00 00 02 C6 CE (查询内卫温湿度)
2024-09-20 06:45:13.691 - 14 03 04 01 E1 00 F6 6F 7E (内卫温湿度返回)
2024-09-20 07:14:55.314 - 19 08 24 03 DD 00 40 00 01 (调用情景-离开主卧)
2024-09-20 07:14:55.862 - EE 00 00 B1 00 00 00 FF FC FF FF (情景执行提示)
2024-09-20 07:14:56.456 - 09 06 00 0F 02 01 78 21 (提示音叮)
2024-09-20 07:14:57.049 - 50 F5 05 (关主卧影视)
2024-09-20 07:14:57.596 - 50 F5 04 (关内卫影视)
2024-09-20 07:14:58.150 - 01 06 07 D6 FF 60 28 9E (主卧空调关)
2024-09-20 07:14:58.182 - 01 06 07 D6 FF 60 28 9E (主卧空调关)
2024-09-20 07:14:58.746 - A5 00 52 FE 01 AA (主卧窗帘开)
2024-09-20 07:14:59.792 - A5 00 52 FE 01 AA (主卧窗帘开)
2024-09-20 07:15:00.838 - A5 00 53 FF 00 AA (主卧纱帘开)
2024-09-20 07:15:00.894 - 55 00 53 01 00 0C 02 2F AA 55 00 53 01 00 0C FA (主卧纱帘电机状态返回)
2024-09-20 07:15:01.437 - A5 00 53 FF 00 AA (主卧纱帘开)
2024-09-20 07:15:01.986 - 1A 22 33 62 0F 00 00 01 0F (正反转地址-内卫卷帘, 内卫卷帘升)
2024-09-20 07:15:02.701 - 55 20 20 00 00 0F 02 16 AA 55 20 20 00 00 0F 02 16 AA (主卧窗帘电机状态返回)
2024-09-20 07:15:03.033 - 1A 20 07 01 40 00 01 00 0F (自保持开关地址-内卫顶灯, 内卫顶灯关)
2024-09-20 07:15:04.081 - 1A 20 07 01 55 00 01 00 0F (自保持开关地址-主卧顶灯, 主卧顶灯只关)
2024-09-20 07:15:04.634 - 1A 0C 02 08 01 FF 00 01 FF 00 01 FF 00 00 0F (调光器地址-内卫射灯, 内卫感应灯关)
2024-09-20 07:15:05.226 - 1A FF FF FF 56 00 00 01 0F (人体感应地址-内卫, 打开内卫感应)
2024-09-20 07:15:05.636 - 19 08 24 03 CC 01 54 00 01 (调用内卫感应灯开的按键)
2024-09-20 07:15:05.687 - 1A 0C 02 08 01 FF 45 01 FF 45 01 FF 00 00 0F (调光器地址-内卫射灯, 内卫射灯微光)
2024-09-20 07:15:09.072 - 1A 0C 02 04 FF FF 00 01 FF 00 01 FF 00 00 0F (主卧调光全关)
2024-09-20 07:15:09.592 - 19 08 24 03 CC 01 CC 00 01 (调用茶吧感应灯开的按键)
2024-09-20 07:15:09.623 - 1A AA AA AA 88 FF B0 01 FF B0 01 0F (调光器地址-茶吧灯带, 茶吧灯带明亮)
2024-09-20 07:15:10.162 - 09 06 00 0F 02 02 38 20 (提示音咚)
2024-09-20 07:15:10.711 - EE 00 00 B1 00 00 02 FF FC FF FF (情景完成返回主页)
2024-09-20 07:15:11.548 - 55 00 53 00 02 22 02 2F AA 55 00 53 00 02 22 02 2F AA (主卧纱帘电机状态返回)
2024-09-20 07:15:13.038 - 55 00 53 00 02 21 02 2F AA 55 00 53 01 02 22 02 2F AA (主卧纱帘电机状态返回)
2024-09-20 07:15:27.269 - FF
2024-09-20 07:15:46.402 - 19 08 24 03 CC 00 D3 00 01 (调用厨房感应灯开的按键)
2024-09-20 07:15:46.457 - 55 0A 32 00 00 00 01 92 55 0A 32 00 00 00 02 93 (厨房顶灯一开, 厨房顶灯二开)
2024-09-20 07:15:52.931 - 19 08 24 03 CC 01 55 00 01 (调用内卫感应灯关的按键)
2024-09-20 07:15:52.984 - 1A 0C 02 08 01 FF 00 01 FF 00 01 FF 00 00 0F (调光器地址-内卫射灯, 内卫感应灯关)
2024-09-20 07:16:27.984 - 19 08 24 03 CC 00 D4 00 01 (调用厨房感应灯关的按键)
2024-09-20 07:16:28.020 - 55 0A 31 00 00 00 01 91 55 0A 31 00 00 00 02 92 (厨房顶灯一关, 厨房顶灯二关)
2024-09-20 07:16:33.495 - 19 08 24 03 CC 00 D3 00 01 (调用厨房感应灯开的按键)
2024-09-20 07:16:33.529 - 55 0A 32 00 00 00 01 92 55 0A 32 00 00 00 02 93 (厨房顶灯一开, 厨房顶灯二开)
2024-09-20 07:16:46.784 - 19 08 24 03 CC 01 CD 00 01 (调用茶吧感应灯关的按键)
2024-09-20 07:16:46.815 - 1A AA AA AA 88 FF 00 01 FF 00 01 0F (调光器地址-茶吧灯带, 茶吧灯带关闭)
2024-09-20 07:16:51.045 - 19 08 24 03 CC 01 54 00 01 (调用内卫感应灯开的按键)
2024-09-20 07:16:51.080 - 1A 0C 02 08 01 FF 45 01 FF 45 01 FF 00 00 0F (调光器地址-内卫射灯, 内卫射灯微光)
2024-09-20 07:17:16.597 - 19 08 24 03 CC 01 55 00 01 (调用内卫感应灯关的按键)
2024-09-20 07:17:16.630 - 1A 0C 02 08 01 FF 00 01 FF 00 01 FF 00 00 0F (调光器地址-内卫射灯, 内卫感应灯关)
2024-09-20 07:18:51.028 - 19 08 24 03 CC 01 CC 00 01 (调用茶吧感应灯开的按键)
2024-09-20 07:18:51.059 - 1A AA AA AA 88 FF B0 01 FF B0 01 0F (调光器地址-茶吧灯带, 茶吧灯带明亮)
2024-09-20 07:19:23.391 - 19 08 24 03 DD 00 00 00 01 (调用情景-离家（末）)
2024-09-20 07:19:23.911 - EE 00 00 B1 00 00 00 FF FC FF FF (情景执行提示)
2024-09-20 07:19:24.506 - 09 06 00 0F 02 02 38 20 (提示音咚)
2024-09-20 07:19:25.047 - 50 F7 01 (全屋影音全关)
2024-09-20 07:19:25.095 - 19 08 24 03 CC 01 CD 00 01 (调用茶吧感应灯关的按键)
2024-09-20 07:19:25.166 - 1A AA AA AA 88 FF 00 01 FF 00 01 0F (调光器地址-茶吧灯带, 茶吧灯带关闭)
2024-09-20 07:19:26.049 - 01 06 07 D0 FF 60 C8 9F (客厅空调关)
2024-09-20 07:19:26.079 - 01 06 07 D0 FF 60 C8 9F (客厅空调关)
2024-09-20 07:19:26.648 - 01 06 07 D0 FF 60 C8 9F (客厅空调关)
2024-09-20 07:19:26.684 - 01 06 07 D0 FF 60 C8 9F (客厅空调关)
2024-09-20 07:19:27.246 - 01 06 07 D3 FF 60 38 9F (餐厅空调关)
2024-09-20 07:19:27.279 - 01 06 07 D3 FF 60 38 9F (餐厅空调关)
2024-09-20 07:19:27.844 - 01 06 07 D3 FF 60 38 9F (餐厅空调关)
2024-09-20 07:19:27.875 - 01 06 07 D3 FF 60 38 9F (餐厅空调关)
2024-09-20 07:19:28.442 - 01 06 07 D6 FF 60 28 9E (主卧空调关)
2024-09-20 07:19:28.472 - 01 06 07 D6 FF 60 28 9E (主卧空调关)
2024-09-20 07:19:28.840 - 19 08 24 03 CC 00 D4 00 01 (调用厨房感应灯关的按键)
2024-09-20 07:19:28.895 - 55 0A 31 00 00 00 01 91 55 0A 31 00 00 00 02 92 (厨房顶灯一关, 厨房顶灯二关)
2024-09-20 07:19:29.293 - 01 06 07 D6 FF 60 28 9E (主卧空调关)
2024-09-20 07:19:29.319 - 01 06 07 D6 FF 60 28 9E (主卧空调关)
2024-09-20 07:19:29.886 - 01 06 07 D9 FF 60 18 9D (次卧空调关)
2024-09-20 07:19:29.917 - 01 06 07 D9 FF 60 18 9D (次卧空调关)
2024-09-20 07:19:30.484 - 01 06 07 D9 FF 60 18 9D (次卧空调关)
2024-09-20 07:19:30.512 - 01 06 07 D9 FF 60 18 9D (次卧空调关)
2024-09-20 07:19:31.082 - 01 06 07 DC FF 60 08 9C (书房空调关)
2024-09-20 07:19:31.118 - 01 06 07 DC FF 60 08 9C (书房空调关)
2024-09-20 07:19:31.680 - 01 06 07 DC FF 60 08 9C (书房空调关)
2024-09-20 07:19:31.713 - 01 06 07 DC FF 60 08 9C (书房空调关)
2024-09-20 07:19:32.279 - 09 06 00 0F 02 02 38 20 (提示音咚)
2024-09-20 07:19:32.827 - 1A FF FF FF 56 00 00 00 0F (人体感应地址-内卫, 关闭内卫感应)
2024-09-20 07:19:33.375 - 1A FF FF FF 55 00 00 00 0F (人体感应地址-外卫, 关闭外卫感应)
2024-09-20 07:19:33.430 - BC BC
2024-09-20 07:19:34.023 - 1A FF FF FF 57 00 00 00 0F (人体感应地址-厨房, 关闭厨房感应)
2024-09-20 07:19:34.571 - 1A FF FF FF 58 00 00 00 0F (人体感应地址-茶吧, 关闭茶吧感应)
2024-09-20 07:19:34.621 - BC BC
2024-09-20 07:19:35.168 - 1A 20 07 00 93 00 01 00 0F (自保持开关地址-设备区顶, 设备区顶灯关)
2024-09-20 07:19:36.216 - 1A 20 07 01 40 00 01 00 0F (自保持开关地址-内卫顶灯, 内卫顶灯关)
2024-09-20 07:19:37.261 - 1A 20 07 01 55 00 01 00 0F (自保持开关地址-主卧顶灯, 主卧顶灯只关)
2024-09-20 07:19:38.308 - 1A 20 07 00 42 00 01 00 0F (自保持开关地址-外卫顶灯, 外卫顶灯关)
2024-09-20 07:19:39.353 - 55 0D 31 00 00 00 01 94 (书房顶灯只关)
2024-09-20 07:19:40.400 - 55 0A 31 00 00 00 01 91 (厨房顶灯一关)
2024-09-20 07:19:41.445 - 55 0A 31 00 00 00 02 92 (厨房顶灯二关)
2024-09-20 07:19:42.491 - 55 0B 31 00 00 00 01 92 (厨房风扇只关)
2024-09-20 07:19:43.539 - 55 0C 31 00 00 00 01 93 (餐厅顶灯关)
2024-09-20 07:19:44.585 - 1A 20 07 01 30 00 01 00 0F (自保持开关地址-西阳顶灯, 西阳顶灯关)
2024-09-20 07:19:45.632 - 1A 18 05 21 89 00 01 00 0F (自保持开关地址-客厅顶灯, 客厅顶灯一关)
2024-09-20 07:19:46.679 - 1A 18 05 01 94 00 01 00 0F (自保持开关地址-客厅顶灯, 客厅顶灯二关)
2024-09-20 07:19:47.724 - 1A 20 07 00 70 00 01 00 0F (自保持开关地址-次卧顶灯, 次卧顶灯只关)
2024-09-20 07:19:48.771 - 1A 18 05 10 31 00 01 00 0F (自保持开关地址-门厅顶灯, 门厅顶灯关)
2024-09-20 07:19:49.816 - 1A FF FF FF 04 00 03 02 (继电器地址-东阳衣架, 东阳衣架照明关)
2024-09-20 07:19:50.365 - 09 06 00 0F 02 02 38 20 (提示音咚)
2024-09-20 07:19:50.910 - A5 00 A6 FE 01 AA (餐厅窗帘开)
2024-09-20 07:19:50.965 - 55 00 A6 02 01 66 01 74 AA 55 00 A6 02 01 66 01 74 AA (餐厅窗帘电机状态返回)
2024-09-20 07:19:51.510 - FF FF FF FF 0A 00 01 00 (继电器地址-东阳窗帘, 东阳窗帘开)
2024-09-20 07:19:52.058 - 1A BE B0 DC 04 00 01 00 (继电器地址-西阳窗帘, 西阳窗帘开)
2024-09-20 07:19:52.605 - FF FF FF FF 0E 00 01 00 (继电器地址-西阳小窗帘, 西阳小窗帘开)
2024-09-20 07:19:53.155 - 1A 22 33 62 0F 00 00 01 0F (正反转地址-内卫卷帘, 内卫卷帘升)
2024-09-20 07:19:53.702 - A5 00 52 FE 01 AA (主卧窗帘开)
2024-09-20 07:19:54.248 - A5 00 53 FF 00 AA (主卧纱帘开)
2024-09-20 07:19:54.797 - A5 00 76 FE 01 AA (次卧窗帘开)
2024-09-20 07:19:54.852 - 55 00 76 02 01 0F 01 1B AA 55 00 76 02 01 0F 01 1B EA (次卧窗帘电机状态返回)
2024-09-20 07:19:55.393 - A5 00 21 FE 01 AA (次卧纱帘开)
2024-09-20 07:19:55.446 - 55 00 21 02 01 27 01 34 AA 55 00 21 02 01 27 01 34 AA (次卧纱帘电机状态返回)
2024-09-20 07:19:55.993 - A5 00 D2 FE 01 AA 22 0D (书房窗帘开)
2024-09-20 07:19:56.049 - 55 00 D2 02 00 FE 01 0B AA 55 00 D2 02 00 FE 01 0B AA (书房窗帘电机状态返回)
2024-09-20 07:19:56.593 - 1A BE B0 DC 09 00 01 00 (继电器地址-客厅窗帘, 客厅窗帘开)
2024-09-20 07:19:57.189 - 1A BE B0 DC 0A 00 02 00 (继电器地址-客厅纱帘, 客厅纱帘开)
2024-09-20 07:19:57.739 - 09 06 00 0F 02 02 38 20 (提示音咚)
2024-09-20 07:19:58.786 - 1A EC A0 DC 02 00 00 00 0F (自保持开关地址-天花12V供电, 天花12V 供电关)
2024-09-20 07:19:59.334 - 1A EC A0 DC 02 00 00 00 0F (自保持开关地址-天花12V供电, 天花12V 供电关)
2024-09-20 07:19:59.881 - 1A EC A0 DC 01 00 00 00 0F (自保持开关地址-电视、设备12V供电, 12V 电视供电关)
2024-09-20 07:19:59.971 - 55 00 A6 00 00 0E 01 74 AA 55 00 A6 00 00 0E 01 74 AA (餐厅窗帘电机状态返回)
2024-09-20 07:20:00.480 - 1A EC A0 DC 01 00 00 00 0F (自保持开关地址-电视、设备12V供电, 12V 电视供电关)
2024-09-20 07:20:01.027 - 1A EC A0 DC 04 00 01 00 0F (自保持开关地址-次卧西阳内外卫供电, 内卫外卫关)
2024-09-20 07:20:01.536 - 55 00 76 00 00 0E 01 1B AA 55 00 76 00 00 0E 01 1B AA (次卧窗帘电机状态返回)
2024-09-20 07:20:01.576 - 1A EC A0 DC 04 00 01 00 0F (自保持开关地址-次卧西阳内外卫供电, 内卫外卫关)
2024-09-20 07:20:02.404 - 55 00 21 00 00 0D 01 34 AA 55 00 21 00 00 0D 01 34 AA (次卧纱帘电机状态返回)
2024-09-20 07:20:03.117 - 1A BB BB BB 01 02 00 (开水器电源关)
2024-09-20 07:20:04.253 - 55 00 D2 00 00 0D 01 0B AA 55 00 D2 00 00 0D 01 0B AA (书房窗帘电机状态返回)
2024-09-20 07:20:16.265 - 09 06 00 0F 02 02 38 20 (提示音咚)
2024-09-20 07:20:16.865 - 1A 27 89 12 AA 00 00 00 0F (状态寄存器地址, 无人状态)
2024-09-20 07:20:17.412 - 1A 27 89 12 AA 00 00 00 0F (状态寄存器地址, 无人状态)
2024-09-20 07:20:17.955 - A1 11 11 11 4D (天花供电关闭确认)
2024-09-20 07:20:18.183 - 1A EC A0 DC 02 86 86 86 0F (查询天花供电状态, 自保持开关地址-天花12V供电)
2024-09-20 07:20:18.614 - 1A EC A0 DC 02 00 01 0F (自保持开关地址-天花12V供电)
2024-09-20 07:20:20.996 - A1 11 11 11 4E (卫生供电关闭确认)
2024-09-20 07:20:21.221 - 1A EC A0 DC 04 86 86 86 0F (查询卫生间供电状态, 自保持开关地址-次卧西阳内外卫供电)
2024-09-20 07:20:21.651 - 1A EC A0 DC 04 01 00 0F (自保持开关地址-次卧西阳内外卫供电)
2024-09-20 07:20:24.035 - A1 11 11 11 4F (电视供电关闭确认)
2024-09-20 07:20:24.259 - 1A EC A0 DC 01 86 86 86 0F (查询电视供电状态, 自保持开关地址-电视、设备12V供电)
2024-09-20 07:20:24.693 - 1A EC A0 DC 01 00 01 0F (自保持开关地址-电视、设备12V供电)
2024-09-20 07:20:27.078 - 09 06 00 0F 02 02 38 20 (提示音咚)
2024-09-20 07:20:27.625 - 09 06 00 0F 02 02 38 20 (提示音咚)
2024-09-20 07:20:28.176 - EE 00 00 B1 00 00 02 FF FC FF FF (情景完成返回主页)
2024-09-20 07:20:29.267 - BA BA EE EE BA BA (离家设置信科变量)
2024-09-20 07:20:30.311 - A1 11 11 11 46 (天热离家遮阳)
2024-09-20 07:20:30.537 - 1A 27 89 12 AA 86 86 86 0F (查询寄存器状态, 状态寄存器地址)
2024-09-20 07:20:30.921 - 1A 27 89 12 AA 00 00 00 00 00 00 00 00 00 00 00 01 00 00 00 00 0F (状态寄存器地址)
2024-09-20 07:20:31.542 - 19 08 24 03 DD 00 05 00 01 (调用情景-天热遮阳关帘)
2024-09-20 07:20:32.137 - EE 00 00 B1 00 00 00 FF FC FF FF (情景执行提示)
2024-09-20 07:20:32.706 - 09 06 00 0F 02 01 78 21 (提示音叮)
2024-09-20 07:20:33.253 - A5 00 A2 FF 00 AA (餐厅纱帘关)
2024-09-20 07:20:34.299 - A5 00 A6 FF 00 AA (餐厅窗帘关)
2024-09-20 07:20:34.355 - 55 00 A6 01 00 0E 01 74 AA 55 00 A6 01 00 0E 01 74 AA (餐厅窗帘电机状态返回)
2024-09-20 07:20:35.395 - A5 00 53 FE 01 AA (主卧纱帘关)
2024-09-20 07:20:35.449 - 55 00 53 02 02 21 02 2F AA 55 00 53 02 02 21 02 2F AA (主卧纱帘电机状态返回)
2024-09-20 07:20:36.491 - A5 00 52 FF 00 AA (主卧窗帘关)
2024-09-20 07:20:37.537 - A5 00 21 FF 00 AA (次卧纱帘关)
2024-09-20 07:20:37.590 - 55 00 21 01 00 0D 01 34 AA 55 00 21 01 00 0D 01 34 AA (次卧纱帘电机状态返回)
2024-09-20 07:20:38.633 - A5 00 76 FF 00 AA (次卧窗帘关)
2024-09-20 07:20:38.690 - 55 00 76 01 00 0E 01 1B AA 55 00 76 01 00 0E 01 1B AA (次卧窗帘电机状态返回)
2024-09-20 07:20:39.732 - A5 00 B7 FF 00 AA 22 0D (书房纱帘关)
2024-09-20 07:20:40.777 - A5 00 D2 FF 00 AA 22 0C (书房窗帘关)
2024-09-20 07:20:40.828 - 55 00 D2 01 00 0D 01 0B AA 55 00 D2 01 00 0D 01 0B AA (书房窗帘电机状态返回)
2024-09-20 07:20:42.373 - 1A 22 33 62 5E 00 02 01 0F (正反转地址-厨房卷帘三, 厨房卷帘一降)
2024-09-20 07:20:42.815 - 55 00 A6 00 01 66 01 74 AA 55 00 A6 00 01 66 01 74 AA (餐厅窗帘电机状态返回)
2024-09-20 07:20:43.419 - 1A 22 33 62 56 00 02 01 0F (正反转地址-厨房卷帘二, 厨房卷帘二降)
2024-09-20 07:20:44.466 - 1A 22 33 62 4F 00 00 01 0F (正反转地址-厨房卷帘一, 厨房卷帘三降)
2024-09-20 07:20:44.923 - 55 00 21 00 01 27 01 34 AA 55 00 21 00 01 27 01 34 AA (次卧纱帘电机状态返回)
2024-09-20 07:20:45.511 - 1A BE B0 DC 04 00 02 00 (继电器地址-西阳窗帘, 西阳窗帘关)
2024-09-20 07:20:45.628 - B5 15
2024-09-20 07:20:45.637 - 76 00 01 0E 01 1B AA
2024-09-20 07:20:46.557 - FF FF FF FF 0E 00 02 00 (继电器地址-西阳小窗帘, 西阳小窗帘关)
2024-09-20 07:20:47.022 - 55 00 53 00 00 0C 02 2F AA 55 00 53 00 00 0C 02 2F AA (主卧纱帘电机状态返回)
2024-09-20 07:20:47.603 - 1A BE B0 DC 03 00 03 00 (继电器地址-西阳天幕, 西阳天幕关)
2024-09-20 07:20:48.028 - 55 20 20 00 02 09 02 16 AA 55 20 20 00 02 09 02 16 AA (主卧窗帘电机状态返回)
2024-09-20 07:20:48.650 - 1A BE B0 DC 03 00 03 00 (继电器地址-西阳天幕, 西阳天幕关)
2024-09-20 07:20:49.697 - 09 06 00 0F 02 02 38 20 (提示音咚)
2024-09-20 07:20:50.246 - EE 00 00 B1 00 00 02 FF FC FF FF (情景完成返回主页)
2024-09-20 07:20:50.496 - 55 00 D2 00 00 FE 01 0B AA 55 00 D2 00 00 FE 01 0B AA (书房窗帘电机状态返回)
2024-09-20 07:40:06.770 - FF
2024-09-20 08:14:51.705 - 1A BE B0 DC 04 FC (继电器地址-西阳窗帘)
2024-09-20 08:14:51.841 - FF
2024-09-20 08:14:55.432 - FF FF FF FF 0E (继电器地址-西阳小窗帘)
2024-09-20 08:20:42.900 - 1A FF FF FF 04 (继电器地址-东阳衣架)
2024-09-20 08:20:43.036 - FF
2024-09-20 08:22:02.221 - 1A BE B0 DC 02 FC (正反转地址-外卫卷帘)
2024-09-20 08:27:01.986 - 1A BE B0 DC 09 FD (继电器地址-客厅窗帘)
2024-09-20 08:27:02.121 - FE
2024-09-20 08:30:08.046 - 1A BE B0 DC 01 FC (继电器地址-回水泵点动)
2024-09-20 08:30:08.181 - FF
2024-09-20 08:32:05.743 - 1A BE B0 DC 0A (继电器地址-客厅纱帘)
2024-09-20 08:32:05.878 - FF
2024-09-20 08:33:09.714 - 1A BE B0 DC 03 (继电器地址-西阳天幕)
2024-09-20 08:33:09.849 - FF
2024-09-20 08:44:13.024 - FF FF FF FF 0A (继电器地址-东阳窗帘)
2024-09-20 08:44:13.161 - FC
2024-09-20 09:54:53.792 - B1 7B
2024-09-20 10:25:06.474 - FF 7F FF FD
2024-09-20 10:26:01.546 - EB
2024-09-20 10:59:32.775 - 03 00 00 2F 2A E0 00 00 00 00 00 43 6F 6F 6B 69 65 3A 20 6D 73 74 73 68 61 73 68 3D 41 64 6D 69
2024-09-20 10:59:32.793 - 6E 69 73 74 72 0D 0A 01 00 08 00 03 00 00 00
