2024-08-27 13:23:34.140 - 1A FF FF FF 58 00 00 01 0F (人体感应地址-茶吧, 打开茶吧感应)
2024-08-27 13:23:39.935 - 1A FF FF FF 58 00 00 00 0F (人体感应地址-茶吧, 关闭茶吧感应)
2024-08-27 15:43:48.443 - 1A FF FF FF 04 (继电器地址-东阳衣架)
2024-08-27 15:43:48.572 - 00
2024-08-27 16:18:37.740 - FF FF FF FF 0E FE (继电器地址-西阳小窗帘)
2024-08-27 16:18:41.749 - 1A BE B0 DC 04 FC (继电器地址-西阳窗帘)
2024-08-27 16:18:41.888 - FF
2024-08-27 16:19:02.738 - 1A BE B0 DC 09 FC (继电器地址-客厅窗帘)
2024-08-27 16:19:02.873 - FF
2024-08-27 16:19:06.055 - 1A BE B0 DC 02 (正反转地址-外卫卷帘)
2024-08-27 16:19:06.198 - FF
2024-08-27 16:19:10.570 - 1A BE B0 DC 0A (继电器地址-客厅纱帘)
2024-08-27 16:19:10.697 - FF
2024-08-27 16:19:31.881 - 1A BE B0 DC 01 (继电器地址-回水泵点动)
2024-08-27 16:19:32.024 - FE
2024-08-27 16:19:33.101 - 1A BE B0 DC 03 (继电器地址-西阳天幕)
2024-08-27 16:19:33.237 - FE
2024-08-27 16:20:42.041 - FF FF FF FF 0A (继电器地址-东阳窗帘)
2024-08-27 16:20:42.184 - FE
2024-08-27 18:15:35.088 - 1A FF FF FF 60 (红外总线地址-主卧发射设备)
2024-08-27 19:04:59.757 - 1A FF FF FF 04 (继电器地址-东阳衣架)
2024-08-27 19:04:59.893 - 03
2024-08-27 19:21:34.558 - 1B 03 00 00 00 02 C6 31 (查询室外光线)
2024-08-27 19:21:34.574 - 1B 03 04 00 00 00 00 41 F2 (室外光线返回)
2024-08-27 19:21:34.894 - 1A EC A0 DC 02 00 00 01 0F (自保持开关地址-天花12V供电, 天花12V 供电开)
2024-08-27 19:21:35.403 - 1A AA AA AA 88 (调光器地址-茶吧灯带)
2024-08-27 19:21:35.594 - 1A FF 01 FF FF FF 60 01 FF 60 01 FF 00 00 0F (调光器地址-公共区域统配地址)
2024-08-27 19:21:36.591 - 19 08 24 03 DD 00 0D 00 01 (调用情景-信科调用进门暗)
2024-08-27 19:21:37.685 - 1A EC A0 DC 01 00 00 01 0F (自保持开关地址-电视、设备12V供电, 12V 电视供电开)
2024-08-27 19:21:38.242 - 1A EC A0 DC 01 00 00 01 0F (自保持开关地址-电视、设备12V供电, 12V 电视供电开)
2024-08-27 19:21:38.786 - 1A EC A0 DC 04 00 01 01 0F (自保持开关地址-次卧西阳内外卫供电, 内卫外卫开)
2024-08-27 19:21:39.330 - 1A EC A0 DC 04 00 01 01 0F (自保持开关地址-次卧西阳内外卫供电, 内卫外卫开)
2024-08-27 19:21:44.371 - 1A 27 89 12 AA 00 00 01 0F (状态寄存器地址, 有人状态)
2024-08-27 19:21:44.914 - 1A 27 89 12 AA 00 00 01 0F (状态寄存器地址, 有人状态)
2024-08-27 19:21:45.472 - 1A BE B0 DC 01 00 01 00 (继电器地址-回水泵点动, 回水泵点动)
2024-08-27 19:21:46.015 - 1A FF FF FF 56 00 00 01 0F (人体感应地址-内卫, 打开内卫感应)
2024-08-27 19:21:46.558 - 1A FF FF FF 55 00 00 01 0F (人体感应地址-外卫, 打开外卫感应)
2024-08-27 19:21:46.663 - BC BC
2024-08-27 19:21:47.169 - 1A FF FF FF 57 00 00 01 0F (人体感应地址-厨房, 打开厨房感应)
2024-08-27 19:21:47.712 - 1A BE B0 DC 01 00 01 00 (继电器地址-回水泵点动, 回水泵点动)
2024-08-27 19:21:48.309 - A5 00 B7 FF 00 AA 22 0D (书房纱帘关)
2024-08-27 19:21:48.851 - A5 00 A2 FF 00 AA (餐厅纱帘关)
2024-08-27 19:21:49.408 - 09 06 00 0F 02 01 78 21 (提示音叮)
2024-08-27 19:21:49.956 - 09 06 00 0F 02 01 78 21 (提示音叮)
2024-08-27 19:21:50.510 - EE 00 00 B1 00 00 02 FF FC FF FF (情景完成返回主页)
2024-08-27 19:21:51.100 - A1 11 11 11 50 (天花供电打开确认)
2024-08-27 19:21:51.323 - 1A EC A0 DC 02 86 86 86 0F (查询天花供电状态, 自保持开关地址-天花12V供电)
2024-08-27 19:21:51.643 - 19 08 24 03 CC 01 54 00 01 (调用内卫感应灯开的按键)
2024-08-27 19:21:51.674 - 1A 0C 02 08 01 FF 45 01 FF 45 01 FF 00 00 0F (调光器地址-内卫射灯, 内卫射灯微光)
2024-08-27 19:21:51.760 - 40 F8
2024-08-27 19:21:53.636 - A1 11 11 11 51 (卫生供电打开确认)
2024-08-27 19:21:53.867 - 1A EC A0 DC 04 86 86 86 0F (查询卫生间供电状态, 自保持开关地址-次卧西阳内外卫供电)
2024-08-27 19:21:54.292 - 1A EC A0 DC 04 01 01 0F (自保持开关地址-次卧西阳内外卫供电)
2024-08-27 19:21:56.180 - A1 11 11 11 52 (电视供电打开确认)
2024-08-27 19:21:56.401 - 1A EC A0 DC 01 86 86 86 0F (查询电视供电状态, 自保持开关地址-电视、设备12V供电)
2024-08-27 19:21:56.826 - 1A EC A0 DC 01 01 01 0F (自保持开关地址-电视、设备12V供电)
2024-08-27 19:22:01.265 - A1 11 11 11 47 (天热回家开帘)
2024-08-27 19:22:01.486 - 1A 27 89 12 AA 86 86 86 0F (查询寄存器状态, 状态寄存器地址)
2024-08-27 19:22:01.864 - 1A 27 89 12 AA 01 00 00 00 00 00 00 00 00 00 00 01 00 00 00 00 0F (状态寄存器地址)
2024-08-27 19:22:02.490 - 19 08 24 03 DD 00 06 00 01 (调用情景-天热遮阳开帘)
2024-08-27 19:22:03.060 - EE 00 00 B1 00 00 00 FF FC FF FF (情景执行提示)
2024-08-27 19:22:03.650 - 09 06 00 0F 02 01 78 21 (提示音叮)
2024-08-27 19:22:04.208 - A5 00 A6 FE 01 AA (餐厅窗帘开)
2024-08-27 19:22:04.259 - 55 00 A6 02 01 67 01 75 AA 55 00 A6 02 01 67 01 75 AA (餐厅窗帘电机状态返回)
2024-08-27 19:22:05.296 - A5 00 52 FE 01 AA (主卧窗帘开)
2024-08-27 19:22:06.350 - A5 00 53 FF 00 AA (主卧纱帘开)
2024-08-27 19:22:06.408 - 55 00 53 01 00 0C 02 30 AA 55 00 53 01 00 0C 02 F0 (主卧纱帘电机状态返回)
2024-08-27 19:22:07.445 - A5 00 76 FE 01 AA (次卧窗帘开)
2024-08-27 19:22:07.492 - 55 00 76 02 01 0E 01 1B AA 55 00 76 02 01 0E 01 1B AA (次卧窗帘电机状态返回)
2024-08-27 19:22:08.530 - A5 00 21 FE 01 AA (次卧纱帘开)
2024-08-27 19:22:08.596 - 55 00 21 02 01 27 01 34 AA 55 00 21 02 01 27 01 34 AA (次卧纱帘电机状态返回)
2024-08-27 19:22:09.634 - 1A BE B0 DC 04 00 01 00 (继电器地址-西阳窗帘, 西阳窗帘开)
2024-08-27 19:22:10.684 - FF FF FF FF 0E 00 01 00 (继电器地址-西阳小窗帘, 西阳小窗帘开)
2024-08-27 19:22:11.726 - A5 00 D2 FE 01 AA 22 0D (书房窗帘开)
2024-08-27 19:22:11.786 - 55 00 D2 02 00 E5 00 F2 AA 55 00 D2 02 00 E5 00 F2 AA (书房窗帘电机状态返回)
2024-08-27 19:22:12.823 - 09 06 00 0F 02 02 38 20 (提示音咚)
2024-08-27 19:22:13.381 - EE 00 00 B1 00 00 02 FF FC FF FF (情景完成返回主页)
2024-08-27 19:22:14.641 - 55 00 76 00 00 0E 01 1B AA 55 00 76 00 00 0E 01 1B AA (次卧窗帘电机状态返回)
2024-08-27 19:22:15.996 - 55 00 21 00 00 0D 01 34 AA 55 00 21 00 00 0D 01 34 AA (次卧纱帘电机状态返回)
2024-08-27 19:22:17.593 - 55 00 53 00 02 22 02 30 AA 55 00 53 00 02 22 02 30 AA (主卧纱帘电机状态返回)
2024-08-27 19:22:18.849 - 55 20 20 00 00 0F 02 16 AA 55 20 20 00 00 0F 02 16 AA (主卧窗帘电机状态返回)
2024-08-27 19:22:19.168 - 55 00 D2 00 00 0D 00 F2 AA 55 00 D2 00 00 0D 00 F2 AA (书房窗帘电机状态返回)
2024-08-27 19:22:22.358 - 19 08 24 03 CC 00 D4 00 01 (调用厨房感应灯关的按键)
2024-08-27 19:22:22.423 - 55 0A 31 00 00 00 01 91 55 0A 31 00 00 00 02 92 (厨房顶灯一关, 厨房顶灯二关)
2024-08-27 19:22:26.776 - 19 08 24 03 DD 00 12 00 01 (调用情景-公共灯光开)
2024-08-27 19:22:27.287 - EE 00 00 B1 00 00 00 FF FC FF FF (情景执行提示)
2024-08-27 19:22:27.876 - 09 06 00 0F 02 01 78 21 (提示音叮)
2024-08-27 19:22:28.435 - 1A 0D 01 01 01 FF 55 01 FF 55 01 FF 00 00 0F (调光器地址-客厅筒灯, 客厅筒灯微光)
2024-08-27 19:22:28.737 - 19 08 24 03 CC 01 55 00 01 (调用内卫感应灯关的按键)
2024-08-27 19:22:28.769 - 1A 0C 02 08 01 FF 00 01 FF 00 01 FF 00 00 0F (调光器地址-内卫射灯, 内卫感应灯关)
2024-08-27 19:22:29.175 - 1A 0D 01 01 03 FF 55 01 FF 55 01 FF 00 00 0F (调光器地址-客厅过道, 客厅过道微光)
2024-08-27 19:22:29.774 - 1A 0D 01 01 02 FF 55 01 FF 55 01 FF 00 00 0F (调光器地址-客厅灯带, 客厅灯带微光)
2024-08-27 19:22:30.379 - 1A 0B 01 02 02 FF 45 01 FF 45 01 FF 00 00 0F (调光器地址-门厅射灯, 门厅背景微光)
2024-08-27 19:22:30.978 - 1A 0B 01 02 01 FF 45 01 FF 45 01 FF 00 00 0F (调光器地址-门厅灯带, 门厅灯带微光)
2024-08-27 19:22:31.576 - 1A 0B 01 03 01 FF 45 01 FF 45 01 FF 00 00 0F (调光器地址-餐厅筒灯, 餐厅筒灯微光)
2024-08-27 19:22:32.169 - 1A 0B 01 03 02 FF 45 01 FF 45 01 FF 00 00 0F (调光器地址-餐桌筒灯, 餐桌筒灯微光)
2024-08-27 19:22:32.773 - 1A 0B 01 03 03 FF 45 01 FF 45 01 FF 00 00 0F (调光器地址-餐厅灯带, 餐厅灯带微光)
2024-08-27 19:22:33.362 - 55 0A 32 00 00 00 01 92 (厨房顶灯一开)
2024-08-27 19:22:33.905 - 55 0A 32 00 00 00 02 93 (厨房顶灯二开)
2024-08-27 19:22:34.448 - 09 06 00 0F 02 02 38 20 (提示音咚)
2024-08-27 19:22:35.060 - EE 00 00 B1 00 00 02 FF FC FF FF (情景完成返回主页)
2024-08-27 19:22:36.555 - 19 08 24 03 DD 00 10 00 01 (调用情景-客餐厅空调开)
2024-08-27 19:22:37.099 - EE 00 00 B1 00 00 00 FF FC FF FF (情景执行提示)
2024-08-27 19:22:37.695 - 09 06 00 0F 02 01 78 21 (提示音叮)
2024-08-27 19:22:38.239 - A1 11 11 11 40 (客厅空调自动开)
2024-08-27 19:22:38.460 - 19 08 24 03 F0 BB 78 02 02 00
2024-08-27 19:22:38.517 - 23 AA 56 02 13 17 01 18 08 1B 02 73 65 6F 6B 65 6E 64
2024-08-27 19:22:39.475 - 01 10 07 D0 00 03 06 70 61 00 02 00 FA 6F 26 (客厅空调冷25度)
2024-08-27 19:22:39.515 - 01 10 07 D0 00 03 06 70 61 00 02 00 FA 6F 26 (客厅空调冷25度)
2024-08-27 19:22:42.270 - A1 11 11 11 41 (餐厅空调自动开)
2024-08-27 19:22:42.508 - 19 08 24 03 F0 BB 78 02 02 00
2024-08-27 19:22:42.559 - 23 AA 56 02 13 17 05 18 08 1B 02 73 65 6F 6B 65 6E 64
2024-08-27 19:22:43.513 - 01 10 07 D3 00 03 06 70 61 00 02 00 FA 9F 29 (餐厅空调冷25度)
2024-08-27 19:22:43.545 - 01 10 07 D3 00 03 06 70 61 00 02 00 FA 9F 29 (餐厅空调冷25度)
2024-08-27 19:22:46.319 - 09 06 00 0F 02 02 38 20 (提示音咚)
2024-08-27 19:22:46.862 - EE 00 00 B1 00 00 02 FF FC FF FF (情景完成返回主页)
2024-08-27 19:22:49.781 - A1 11 11 11 42 (主卧空调自动开)
2024-08-27 19:22:50.008 - 19 08 24 03 F0 BB 78 02 02 00
2024-08-27 19:22:50.064 - 23 AA 56 02 13 17 0C 18 08 1B 02 73 65 6F 6B 65 6E 64
2024-08-27 19:22:51.012 - 01 10 07 D6 00 03 06 70 61 00 02 00 F0 0F 3E (主卧空调冷24度)
2024-08-27 19:22:51.062 - 01 10 07 D6 00 03 06 70 61 00 02 00 F0 0F 3E (主卧空调冷24度)
2024-08-27 19:23:09.466 - 19 08 24 03 CC 00 D3 00 01 (调用厨房感应灯开的按键)
2024-08-27 19:23:09.530 - 55 0A 32 00 00 00 01 92 55 0A 32 00 00 00 02 93 (厨房顶灯一开, 厨房顶灯二开)
2024-08-27 19:24:32.798 - EE 00 6E B1 01 00 03 FF FC FF FF
2024-08-27 19:24:33.415 - EE 00 6E B1 01 00 08 FF FC FF FF
2024-08-27 19:24:33.904 - 1A BE B0 DC 0A 00 01 00 (继电器地址-客厅纱帘, 客厅纱帘关)
2024-08-27 19:25:03.701 - 19 08 24 03 CC 00 D4 00 01 (调用厨房感应灯关的按键)
2024-08-27 19:25:03.752 - 55 0A 31 00 00 00 01 91 55 0A 31 00 00 00 02 92 (厨房顶灯一关, 厨房顶灯二关)
2024-08-27 19:25:36.615 - 19 08 24 03 CC 01 54 00 01 (调用内卫感应灯开的按键)
2024-08-27 19:25:36.666 - 1A 0C 02 08 01 FF 45 01 FF 45 01 FF 00 00 0F (调光器地址-内卫射灯, 内卫射灯微光)
2024-08-27 19:26:26.708 - 19 08 24 03 CC 01 55 00 01 (调用内卫感应灯关的按键)
2024-08-27 19:26:26.740 - 1A 0C 02 08 01 FF 00 01 FF 00 01 FF 00 00 0F (调光器地址-内卫射灯, 内卫感应灯关)
2024-08-27 19:26:33.898 - EE 00 71 B1 01 00 03 FF FC FF FF
2024-08-27 19:26:41.923 - EE 00 71 B1 01 00 02 FF FC FF FF
2024-08-27 19:26:46.215 - 19 08 24 03 DD 00 3B 00 01 (调用情景-书房照明关帘)
2024-08-27 19:26:46.773 - EE 00 00 B1 00 00 00 FF FC FF FF (情景执行提示)
2024-08-27 19:26:47.379 - 09 06 00 0F 02 01 78 21 (提示音叮)
2024-08-27 19:26:47.929 - 1A 0A 04 06 01 FF F0 01 FF F0 01 FF 00 00 0F (调光器地址-书房射灯, 书房射灯明亮)
2024-08-27 19:26:52.011 - A5 00 B7 FF 00 AA 22 0D (书房纱帘关)
2024-08-27 19:26:53.060 - A5 00 D2 FF 00 AA 22 0C (书房窗帘关)
2024-08-27 19:26:53.107 - 55 00 D2 01 00 0D 00 F2 AA 55 00 D2 01 00 0D 00 F2 (书房窗帘电机状态返回)
2024-08-27 19:26:54.155 - 09 06 00 0F 02 02 38 20 (提示音咚)
2024-08-27 19:26:54.702 - EE 00 00 B1 00 00 02 FF FC FF FF (情景完成返回主页)
2024-08-27 19:27:00.986 - 55 00 D2 00 00 E5 00 F2 AA 55 00 D2 00 00 E5 00 F2 AA (书房窗帘电机状态返回)
2024-08-27 19:28:04.056 - 19 08 24 03 CC 00 D3 00 01 (调用厨房感应灯开的按键)
2024-08-27 19:28:04.109 - 55 0A 32 00 00 00 01 92 55 0A 32 00 00 00 02 93 (厨房顶灯一开, 厨房顶灯二开)
2024-08-27 19:28:04.900 - 19 08 24 03 CC 01 54 00 01 (调用内卫感应灯开的按键)
2024-08-27 19:28:04.932 - 1A 0C 02 08 01 FF 45 01 FF 45 01 FF 00 00 0F (调光器地址-内卫射灯, 内卫射灯微光)
2024-08-27 19:28:30.444 - 19 08 24 03 CC 01 55 00 01 (调用内卫感应灯关的按键)
2024-08-27 19:28:30.494 - 1A 0C 02 08 01 FF 00 01 FF 00 01 FF 00 00 0F (调光器地址-内卫射灯, 内卫感应灯关)
2024-08-27 19:31:10.924 - 19 08 24 03 CC 00 D4 00 01 (调用厨房感应灯关的按键)
2024-08-27 19:31:10.957 - 55 0A 31 00 00 00 01 91 55 0A 31 00 00 00 02 92 (厨房顶灯一关, 厨房顶灯二关)
2024-08-27 19:33:53.084 - FC
2024-08-27 19:33:55.890 - 02 00
2024-08-27 19:33:56.033 - FF
2024-08-27 19:33:56.060 - FF
2024-08-27 19:33:56.065 - FF
2024-08-27 19:33:56.082 - FF
2024-08-27 19:33:56.097 - EE 00 7E 07 FF
2024-08-27 19:33:56.256 - F6 DB F8 4A FE
2024-08-27 19:33:56.288 - EE 00 71 B1 01 00 02 FF FC FF FF
2024-08-27 19:33:56.315 - F7
2024-08-27 19:33:56.609 - FF
2024-08-27 19:33:57.171 - F7
2024-08-27 19:33:57.229 - FC
2024-08-27 19:33:57.488 - 68 02 86 FF
2024-08-27 19:33:57.547 - 68 86
2024-08-27 19:33:57.626 - 79
2024-08-27 19:33:57.626 - 5A 18
2024-08-27 19:33:57.765 - 1A BE B0 DC 03 FE (继电器地址-西阳天幕)
2024-08-27 19:33:57.897 - FC
2024-08-27 19:33:58.814 - FF
2024-08-27 19:33:59.137 - 68 86 FF
2024-08-27 19:34:05.082 - 19 08 24 03 CC 00 D3 00 01 (调用厨房感应灯开的按键)
2024-08-27 19:34:05.146 - 55 0A 32 00 00 00 01 92 55 0A 32 00 00 00 02 93 (厨房顶灯一开, 厨房顶灯二开)
2024-08-27 19:34:40.643 - 19 08 24 03 CC 00 D4 00 01 (调用厨房感应灯关的按键)
2024-08-27 19:34:40.672 - 55 0A 31 00 00 00 01 91 55 0A 31 00 00 00 02 92 (厨房顶灯一关, 厨房顶灯二关)
2024-08-27 19:39:48.244 - 19 08 24 03 CC 00 D3 00 01 (调用厨房感应灯开的按键)
2024-08-27 19:39:48.275 - 55 0A 32 00 00 00 01 92 55 0A 32 00 00 00 02 93 (厨房顶灯一开, 厨房顶灯二开)
2024-08-27 19:40:53.872 - 19 08 24 03 CC 00 D4 00 01 (调用厨房感应灯关的按键)
2024-08-27 19:40:53.911 - 55 0A 31 00 00 00 01 91 55 0A 31 00 00 00 02 92 (厨房顶灯一关, 厨房顶灯二关)
2024-08-27 19:46:56.255 - 19 08 24 03 DD 00 3A 00 01 (调用情景-离开书房)
2024-08-27 19:46:56.822 - EE 00 00 B1 00 00 00 FF FC FF FF (情景执行提示)
2024-08-27 19:46:57.381 - 09 06 00 0F 02 01 78 21 (提示音叮)
2024-08-27 19:46:57.926 - 01 06 07 DC FF 60 08 9C (书房空调关)
2024-08-27 19:46:57.966 - 01 06 07 DC FF 60 08 9C (书房空调关)
2024-08-27 19:46:58.518 - 50 F5 07 (关书房影视)
2024-08-27 19:46:59.076 - A5 00 D2 FE 01 AA 22 0D (书房窗帘开)
2024-08-27 19:46:59.123 - 55 00 D2 02 00 E5 00 F2 AA 55 00 D2 02 00 E5 00 F2 AA (书房窗帘电机状态返回)
2024-08-27 19:47:00.168 - A5 00 B7 FF 00 AA 22 0D (书房纱帘关)
2024-08-27 19:47:01.215 - 55 0D 31 00 00 00 01 94 (书房顶灯只关)
2024-08-27 19:47:02.276 - 1A 0A 04 06 01 FF 00 01 FF 00 01 FF 00 00 0F (调光器地址-书房射灯, 书房射灯关闭)
2024-08-27 19:47:06.071 - 55 00 D2 00 00 0E 00 F2 AA 55 00 D2 00 00 0E 00 F2 AA (书房窗帘电机状态返回)
2024-08-27 19:47:06.353 - 09 06 00 0F 02 02 38 20 (提示音咚)
2024-08-27 19:47:06.904 - EE 00 00 B1 00 00 02 FF FC FF FF (情景完成返回主页)
2024-08-27 19:47:10.598 - EE 00 71 B1 01 00 03 FF FC FF FF
2024-08-27 19:47:12.296 - EE 00 71 B1 01 00 04 FF FC FF FF
2024-08-27 19:47:12.610 - 1A 0B 01 03 03 86 86 86 0F (调光器地址-餐厅灯带)
2024-08-27 19:47:12.653 - 1A 0B 01 03 03 00 1A 01 00 (调光器地址-餐厅灯带)
2024-08-27 19:47:12.658 - 1A 01 00
2024-08-27 19:47:12.658 - 0D 00 0F
2024-08-27 19:47:12.993 - EE 00 71 B1 12 00 09 00 02 00 04 00 00 00 3E 00 04 00 04 00 00 00 3E FF FC FF FF
2024-08-27 19:47:13.299 - EE 00 71 B1 12 00 04 00 02 00 04 00 00 00 3E 00 04 00 04 00 00 00 3E FF FC FF FF
2024-08-27 19:47:13.820 - AD 03 00 00 AE (区域高光指令（AD+区域+暖光+冷光+AE）)
2024-08-27 19:47:14.150 - 1A FF 01 03 FF FF 00 01 FF 00 01 FF 00 00 0F (调光器地址-餐厅区域统配地址)
2024-08-27 19:47:21.056 - EE 00 71 B1 11 00 04 00 02 13 00 00 00 4D FF FC FF FF
2024-08-27 19:47:21.390 - 1A FF 01 03 FF FF 4D 01 FF 00 00 FF 00 00 0F (调光器地址-餐厅区域统配地址)
2024-08-27 19:47:21.846 - EE 00 71 B1 11 00 04 00 04 13 00 00 00 53 FF FC FF FF
2024-08-27 19:47:22.179 - 1A FF 01 03 FF FF 00 00 FF 53 01 FF 00 00 0F (调光器地址-餐厅区域统配地址)
2024-08-27 19:47:57.286 - B4 0C
2024-08-27 19:47:57.291 - 74 78 57 41 04
2024-08-27 19:47:57.291 - AC 74 E8
2024-08-27 19:47:57.484 - 64 65 76 69 63 65 43 6F 64 65 3A 31 41 46 46 46 46 46 46 35 38 0D 0A 70 61 73 73 77 6F 72 64 30
2024-08-27 19:47:57.508 - 32 33 2D 31 32 2D 31 35 31 0D 0A 6D 6F 64 62 75 73 41 64 64 3D 35 31 0D 0A
2024-08-27 19:48:03.401 - A4 08
2024-08-27 19:48:03.421 - 74 78 47 99 58 36 64 B4
2024-08-27 19:48:03.428 - 40 3E 6C A4 52 C8
2024-08-27 19:48:03.559 - 72 64 30 32 33 2D 31 32 2D 31 35 31 0D 0A 6D 6F 64 62 75 73 41 64 64 3D 35 31 0D 0A
2024-08-27 19:48:18.450 - 19 08 24 03 DD 00 3B 00 01 (调用情景-书房照明关帘)
2024-08-27 19:48:19.008 - EE 00 00 B1 00 00 00 FF FC FF FF (情景执行提示)
2024-08-27 19:48:19.604 - 09 06 00 0F 02 01 78 21 (提示音叮)
2024-08-27 19:48:20.165 - 1A 0A 04 06 01 FF F0 01 FF F0 01 FF 00 00 0F (调光器地址-书房射灯, 书房射灯明亮)
2024-08-27 19:48:24.247 - A5 00 B7 FF 00 AA 22 0D (书房纱帘关)
2024-08-27 19:48:25.285 - A5 00 D2 FF 00 AA 22 0C (书房窗帘关)
2024-08-27 19:48:25.340 - 55 00 D2 01 00 0E 00 F2 AA 55 00 D2 01 00 0E 00 F2 AA (书房窗帘电机状态返回)
2024-08-27 19:48:26.390 - 09 06 00 0F 02 02 38 20 (提示音咚)
2024-08-27 19:48:26.941 - EE 00 00 B1 00 00 02 FF FC FF FF (情景完成返回主页)
2024-08-27 19:48:33.199 - 55 00 D2 00 00 E5 00 F2 AA 55 00 D2 00 00 E5 00 F2 AA (书房窗帘电机状态返回)
2024-08-27 19:53:08.331 - 19 08 24 03 CC 00 D3 00 01 (调用厨房感应灯开的按键)
2024-08-27 19:53:08.445 - 55 0A 32 00 00 00 01 92 55 0A 32 00 00 00 02 93 (厨房顶灯一开, 厨房顶灯二开)
2024-08-27 19:53:13.887 - 19 08 24 03 CC 01 54 00 01 (调用内卫感应灯开的按键)
2024-08-27 19:53:13.921 - 1A 0C 02 08 01 FF 45 01 FF 45 01 FF 00 00 0F (调光器地址-内卫射灯, 内卫射灯微光)
2024-08-27 19:53:16.661 - 1A 20 07 00 93 00 01 02 0F (自保持开关地址-设备区顶, 设备区顶灯开关)
2024-08-27 19:53:33.247 - 1A 20 07 00 93 00 01 02 0F (自保持开关地址-设备区顶, 设备区顶灯开关)
2024-08-27 19:53:55.469 - 19 08 24 03 CC 01 55 00 01 (调用内卫感应灯关的按键)
2024-08-27 19:53:55.501 - 1A 0C 02 08 01 FF 00 01 FF 00 01 FF 00 00 0F (调光器地址-内卫射灯, 内卫感应灯关)
2024-08-27 19:54:16.966 - 19 08 24 03 CC 00 D4 00 01 (调用厨房感应灯关的按键)
2024-08-27 19:54:17.005 - 55 0A 31 00 00 00 01 91 55 0A 31 00 00 00 02 92 (厨房顶灯一关, 厨房顶灯二关)
2024-08-27 19:55:35.178 - 19 08 24 03 CC 01 54 00 01 (调用内卫感应灯开的按键)
2024-08-27 19:55:35.212 - 1A 0C 02 08 01 FF 45 01 FF 45 01 FF 00 00 0F (调光器地址-内卫射灯, 内卫射灯微光)
2024-08-27 19:56:01.219 - 19 08 24 03 CC 01 55 00 01 (调用内卫感应灯关的按键)
2024-08-27 19:56:01.252 - 1A 0C 02 08 01 FF 00 01 FF 00 01 FF 00 00 0F (调光器地址-内卫射灯, 内卫感应灯关)
2024-08-27 20:16:15.579 - 88 48 81 6C EC A8 43 47 43 4B FD
2024-08-27 20:16:15.584 - 48 BC F0 12 45 C6
2024-08-27 20:16:15.715 - 30 32 33 2D 31 32 2D 31 35 31 0D 0A 6D 6F 64 62 75 73 41 64 64 3D 35 31 0D 0A
2024-08-27 20:16:35.596 - 19 08 24 03 CC 00 D3 00 01 (调用厨房感应灯开的按键)
2024-08-27 20:16:35.651 - 55 0A 32 00 00 00 01 92 55 0A 32 00 00 00 02 93 (厨房顶灯一开, 厨房顶灯二开)
2024-08-27 20:18:01.770 - 19 08 24 03 CC 00 D4 00 01 (调用厨房感应灯关的按键)
2024-08-27 20:18:01.805 - 55 0A 31 00 00 00 01 91 55 0A 31 00 00 00 02 92 (厨房顶灯一关, 厨房顶灯二关)
2024-08-27 20:23:28.883 - C8 48
2024-08-27 20:23:28.897 - 50 8A 3C 3E 24 28 E0 B4
2024-08-27 20:23:28.900 - 04 3A 6E C4 73 C9
2024-08-27 20:23:29.040 - 17 16 92 9A 6A 8A 92 6A 8A AA 8A 6A 0A 6D 6F 64 62 75 73 41 64 64 3D 35 31 0D 0A
2024-08-27 20:23:38.138 - 19 08 24 03 CC 01 CC 00 01 (调用茶吧感应灯开的按键)
2024-08-27 20:23:38.214 - 1A AA AA AA 88 FF B0 01 FF B0 01 0F (调光器地址-茶吧灯带, 茶吧灯带明亮)
2024-08-27 20:24:12.295 - 19 08 24 03 CC 01 CD 00 01 1A AA AA AA 88 FF 00 01 FF 00 01 0F (调用茶吧感应灯关的按键, 调光器地址-茶吧灯带, 茶吧灯带关闭)
2024-08-27 20:25:11.129 - 19 08 24 03 CC 00 D4 00 01 (调用厨房感应灯关的按键)
2024-08-27 20:25:11.164 - 55 0A 31 00 00 00 01 91 55 0A 31 00 00 00 02 92 (厨房顶灯一关, 厨房顶灯二关)
2024-08-27 20:25:51.400 - 19 08 24 03 CC 01 CC 00 01 (调用茶吧感应灯开的按键)
2024-08-27 20:25:51.525 - 1A AA AA AA 88 FF B0 01 FF B0 01 0F (调光器地址-茶吧灯带, 茶吧灯带明亮)
2024-08-27 20:26:33.485 - 19 08 24 03 CC 01 CC 00 01 (调用茶吧感应灯开的按键)
2024-08-27 20:26:33.517 - 1A AA AA AA 88 FF B0 01 FF B0 01 0F (调光器地址-茶吧灯带, 茶吧灯带明亮)
2024-08-27 20:30:47.285 - 1A FF FF FF 58 00 00 01 0F (人体感应地址-茶吧, 打开茶吧感应)
2024-08-27 20:35:05.684 - 1A FF FF FF 58 00 00 00 0F (人体感应地址-茶吧, 关闭茶吧感应)
2024-08-27 20:35:13.070 - 1A FF FF FF 58 00 00 01 0F (人体感应地址-茶吧, 打开茶吧感应)
2024-08-27 20:35:28.872 - 1A FF FF FF 58 86 86 86 0F (人体感应地址-茶吧)
2024-08-27 20:35:31.048 - 1A FF FF FF 58 86 86 86 0F (人体感应地址-茶吧)
2024-08-27 20:35:31.727 - 1A FF FF FF 58 86 86 86 0F (人体感应地址-茶吧)
2024-08-27 20:35:32.220 - 1A FF FF FF 58 86 86 86 0F (人体感应地址-茶吧)
2024-08-27 20:35:32.484 - 1A FF FF FF 58 86 86 86 0F (人体感应地址-茶吧)
2024-08-27 20:35:32.671 - 1A FF FF FF 58 86 86 86 0F (人体感应地址-茶吧)
2024-08-27 20:35:32.837 - 1A FF FF FF 58 01 00 0F (人体感应地址-茶吧)
2024-08-27 20:35:33.123 - 1A FF FF FF 58 86 86 86 0F (人体感应地址-茶吧)
2024-08-27 20:35:36.984 - 1A FF FF FF 58 86 86 86 0F (人体感应地址-茶吧)
2024-08-27 20:35:39.312 - 1A FF FF FF 58 86 86 86 0F (人体感应地址-茶吧)
2024-08-27 20:35:40.081 - 1A FF FF FF 58 86 86 86 0F (人体感应地址-茶吧)
2024-08-27 20:35:40.655 - 1A FF FF FF 58 86 86 86 0F (人体感应地址-茶吧)
2024-08-27 20:35:41.140 - 1A FF FF FF 58 86 86 86 0F (人体感应地址-茶吧)
2024-08-27 20:35:41.578 - 1A FF FF FF 58 86 86 86 0F (人体感应地址-茶吧)
2024-08-27 20:35:41.999 - 1A FF FF FF 58 86 86 86 0F (人体感应地址-茶吧)
2024-08-27 20:35:42.309 - 1A FF FF FF 58 86 86 86 0F (人体感应地址-茶吧)
2024-08-27 20:35:42.510 - 1A FF FF FF 58 86 86 86 0F (人体感应地址-茶吧)
2024-08-27 20:35:42.692 - 1A FF FF FF 58 86 86 86 0F (人体感应地址-茶吧)
2024-08-27 20:35:42.834 - 1A FF FF FF 58 86 86 86 0F (人体感应地址-茶吧)
2024-08-27 20:35:43.003 - 1A FF FF FF 58 86 86 86 0F (人体感应地址-茶吧)
2024-08-27 20:35:43.172 - 1A FF FF FF 58 86 86 86 0F (人体感应地址-茶吧)
2024-08-27 20:35:43.240 - 1A FF FF FF 58 01 00 0F (人体感应地址-茶吧)
2024-08-27 20:35:43.503 - 1A FF FF FF 58 86 86 86 0F (人体感应地址-茶吧)
2024-08-27 20:35:43.664 - 1A FF FF FF 58 86 86 86 0F (人体感应地址-茶吧)
2024-08-27 20:35:43.834 - 1A FF FF FF 58 86 86 86 0F (人体感应地址-茶吧)
2024-08-27 20:35:43.988 - 1A FF FF FF 58 86 86 86 0F (人体感应地址-茶吧)
2024-08-27 20:35:44.157 - 1A FF FF FF 58 86 86 86 0F (人体感应地址-茶吧)
2024-08-27 20:35:44.460 - 1A FF FF FF 58 86 86 86 0F (人体感应地址-茶吧)
2024-08-27 20:35:48.150 - 1A FF FF FF 58 86 86 86 0F (人体感应地址-茶吧)
2024-08-27 20:36:19.276 - 1A 24 6C CD 2B 60 2C 6C 64
2024-08-27 20:36:19.276 - F8
2024-08-27 20:36:19.276 - 34 43 1E 26 3E
2024-08-27 20:36:19.415 - 4B 91 C1 32 33 2D 31 32 2D 31 35 31 0D 0A 6D 6F 64 62 75 73 41 64 64 3D 35 31 0D 0A
2024-08-27 20:37:18.762 - B4 0C 74 78 57 99 58 36 64 B4
2024-08-27 20:37:18.777 - 44 3A 6E C5 73 E9
2024-08-27 20:37:18.914 - 4B 91 C1 32 33 2D 31 32 2D 31 35 31 0D 0A 6D 6F 64 62 75 73 41 64 64 3D 35 31 0D 0A
2024-08-27 20:37:27.079 - 19 08 24 03 CC 00 D3 00 01 (调用厨房感应灯开的按键)
2024-08-27 20:37:27.142 - 55 0A 32 00 00 00 01 92 55 0A 32 00 00 00 02 93 (厨房顶灯一开, 厨房顶灯二开)
2024-08-27 20:37:57.277 - FF
2024-08-27 20:37:57.289 - FF
2024-08-27 20:38:18.369 - 1A FF FF FF 58 86 86 86 0F (人体感应地址-茶吧)
2024-08-27 20:38:20.456 - 1A FF FF FF 58 86 86 86 0F (人体感应地址-茶吧)
2024-08-27 20:38:24.121 - 1A AA AA AA 88 FF B0 01 FF B0 01 0F (调光器地址-茶吧灯带, 茶吧灯带明亮)
2024-08-27 20:38:27.589 - 1A FF FF FF 58 86 86 86 0F (人体感应地址-茶吧)
2024-08-27 20:38:32.081 - 1A AA AA AA 88 FF 00 01 FF 00 01 0F (调光器地址-茶吧灯带, 茶吧灯带关闭)
2024-08-27 20:38:39.709 - 1A FF FF FF 58 00 00 00 0F (人体感应地址-茶吧, 关闭茶吧感应)
2024-08-27 20:38:41.801 - 1A FF FF FF 58 86 86 86 0F (人体感应地址-茶吧)
2024-08-27 20:38:44.380 - 1A FF FF FF 58 00 00 01 0F (人体感应地址-茶吧, 打开茶吧感应)
2024-08-27 20:38:46.973 - 1A FF FF FF 58 86 86 86 0F (人体感应地址-茶吧)
2024-08-27 20:38:54.773 - 1A FF FF FF 58 86 86 86 0F (人体感应地址-茶吧)
2024-08-27 20:38:55.797 - 1A FF FF FF 58 86 86 86 0F (人体感应地址-茶吧)
2024-08-27 20:38:56.965 - 1A FF FF FF 58 86 86 86 0F (人体感应地址-茶吧)
2024-08-27 20:38:56.975 - 9A
2024-08-27 20:38:58.156 - 1A FF FF FF 58 86 86 86 0F (人体感应地址-茶吧)
2024-08-27 20:38:58.873 - 1A FF FF FF 58 86 86 86 0F (人体感应地址-茶吧)
2024-08-27 20:38:59.379 - 1A FF FF FF 58 86 86 86 0F (人体感应地址-茶吧)
2024-08-27 20:38:59.804 - 1A FF FF FF 58 86 86 86 0F (人体感应地址-茶吧)
2024-08-27 20:39:00.011 - 1A FF FF FF 58 86 86 86 0F (人体感应地址-茶吧)
2024-08-27 20:39:00.212 - 1A FF FF FF 58 86 86 86 0F (人体感应地址-茶吧)
2024-08-27 20:39:00.417 - 1A FF FF FF 58 86 86 86 0F (人体感应地址-茶吧)
2024-08-27 20:39:00.609 - 1A FF FF FF 58 86 86 86 0F (人体感应地址-茶吧)
2024-08-27 20:39:00.817 - 1A FF FF FF 58 86 86 86 0F (人体感应地址-茶吧)
2024-08-27 20:39:01.140 - 1A FF FF FF 58 86 86 86 0F (人体感应地址-茶吧)
2024-08-27 20:39:01.375 - 1A FF FF FF 58 86 86 86 0F (人体感应地址-茶吧)
2024-08-27 20:39:01.571 - 1A FF FF FF 58 86 86 86 0F (人体感应地址-茶吧)
2024-08-27 20:39:01.766 - 1A FF FF FF 58 86 86 86 0F (人体感应地址-茶吧)
2024-08-27 20:39:01.966 - 1A FF FF FF 58 86 86 86 0F (人体感应地址-茶吧)
2024-08-27 20:39:02.140 - 1A FF FF FF 58 86 86 86 0F (人体感应地址-茶吧)
2024-08-27 20:39:02.353 - 1A FF FF FF 58 86 86 86 0F (人体感应地址-茶吧)
2024-08-27 20:39:02.540 - 1A FF FF FF 58 86 86 86 0F (人体感应地址-茶吧)
2024-08-27 20:39:02.796 - 1A FF FF FF 58 86 86 86 0F (人体感应地址-茶吧)
2024-08-27 20:39:03.191 - 1A FF FF FF 58 86 86 86 0F (人体感应地址-茶吧)
2024-08-27 20:39:03.540 - 1A FF FF FF 58 86 86 86 0F (人体感应地址-茶吧)
2024-08-27 20:39:03.781 - 1A FF FF FF 58 86 86 86 0F (人体感应地址-茶吧)
2024-08-27 20:39:03.987 - 1A FF FF FF 58 86 86 86 0F (人体感应地址-茶吧)
2024-08-27 20:39:04.194 - 1A FF FF FF 58 86 86 86 0F (人体感应地址-茶吧)
2024-08-27 20:39:04.393 - 1A FF FF FF 58 86 86 86 0F (人体感应地址-茶吧)
2024-08-27 20:39:04.610 - 1A FF FF FF 58 86 86 86 0F (人体感应地址-茶吧)
2024-08-27 20:39:05.488 - 1A FF FF FF 58 86 86 86 0F (人体感应地址-茶吧)
2024-08-27 20:39:05.984 - 1A FF FF FF 58 86 86 86 0F (人体感应地址-茶吧)
2024-08-27 20:39:06.221 - 1A FF FF FF 58 86 86 86 0F (人体感应地址-茶吧)
2024-08-27 20:39:06.500 - 1A FF FF FF 58 86 86 86 0F (人体感应地址-茶吧)
2024-08-27 20:39:06.755 - 1A FF FF FF 58 01 00 0F (人体感应地址-茶吧)
2024-08-27 20:39:07.098 - 1A FF FF FF 58 86 86 86 0F (人体感应地址-茶吧)
2024-08-27 20:39:07.338 - 1A FF FF FF 58 86 86 86 0F (人体感应地址-茶吧)
2024-08-27 20:39:07.546 - 1A FF FF FF 58 86 86 86 0F (人体感应地址-茶吧)
2024-08-27 20:39:07.800 - 1A FF FF FF 58 86 86 86 0F (人体感应地址-茶吧)
2024-08-27 20:39:08.253 - 1A FF FF FF 58 86 86 86 0F (人体感应地址-茶吧)
2024-08-27 20:39:08.734 - 1A FF FF FF 58 86 86 86 0F (人体感应地址-茶吧)
2024-08-27 20:39:09.112 - 1A FF FF FF 58 86 86 86 0F (人体感应地址-茶吧)
2024-08-27 20:39:19.836 - 19 08 24 03 CC 00 D4 00 01 (调用厨房感应灯关的按键)
2024-08-27 20:39:19.870 - 55 0A 31 00 00 00 01 91 55 0A 31 00 00 00 02 92 (厨房顶灯一关, 厨房顶灯二关)
2024-08-27 20:42:14.687 - 19 08 24 03 CC 00 D3 00 01 (调用厨房感应灯开的按键)
2024-08-27 20:42:14.721 - 55 0A 32 00 00 00 01 92 55 0A 32 00 00 00 02 93 (厨房顶灯一开, 厨房顶灯二开)
2024-08-27 20:42:35.559 - 19 08 24 03 CC 01 CC 00 01 (调用茶吧感应灯开的按键)
2024-08-27 20:42:35.590 - 1A AA AA AA 88 FF B0 01 FF B0 01 0F (调光器地址-茶吧灯带, 茶吧灯带明亮)
2024-08-27 20:43:57.716 - 19 08 24 03 CC 01 CD 00 01 (调用茶吧感应灯关的按键)
2024-08-27 20:43:57.748 - 1A AA AA AA 88 FF 00 01 FF 00 01 0F (调光器地址-茶吧灯带, 茶吧灯带关闭)
2024-08-27 20:44:16.425 - 19 08 24 03 CC 00 D4 00 01 (调用厨房感应灯关的按键)
2024-08-27 20:44:16.459 - 55 0A 31 00 00 00 01 91 55 0A 31 00 00 00 02 92 (厨房顶灯一关, 厨房顶灯二关)
2024-08-27 20:44:19.759 - 19 08 24 03 CC 01 CC 00 01 (调用茶吧感应灯开的按键)
2024-08-27 20:44:19.793 - 1A AA AA AA 88 FF B0 01 FF B0 01 0F (调光器地址-茶吧灯带, 茶吧灯带明亮)
2024-08-27 20:44:36.299 - 19 08 24 03 CC 01 CD 00 01 (调用茶吧感应灯关的按键)
2024-08-27 20:44:36.327 - 1A AA AA AA 88 FF 00 01 FF 00 01 0F (调光器地址-茶吧灯带, 茶吧灯带关闭)
2024-08-27 20:44:37.974 - 1A FF FF FF 58 86 86 86 0F (人体感应地址-茶吧)
2024-08-27 20:44:39.402 - 1A FF FF FF 58 86 86 86 0F (人体感应地址-茶吧)
2024-08-27 20:45:06.988 - 19 08 24 03 CC 01 CC 00 01 (调用茶吧感应灯开的按键)
2024-08-27 20:45:06.989 - 1A AA AA AA 88 FF B0 01 FF B0 01 0F (调光器地址-茶吧灯带, 茶吧灯带明亮)
2024-08-27 20:45:30.403 - 19 08 24 03 CC 01 CD 00 01 (调用茶吧感应灯关的按键)
2024-08-27 20:45:30.434 - 1A AA AA AA 88 FF 00 01 FF 00 01 0F (调光器地址-茶吧灯带, 茶吧灯带关闭)
2024-08-27 20:45:37.420 - 19 08 24 03 CC 01 CC 00 01 (调用茶吧感应灯开的按键)
2024-08-27 20:45:37.444 - 1A AA AA AA 88 FF B0 01 FF B0 01 0F (调光器地址-茶吧灯带, 茶吧灯带明亮)
2024-08-27 20:45:42.973 - 19 08 24 03 DD 00 3A 00 01 (调用情景-离开书房)
2024-08-27 20:45:43.517 - EE 00 00 B1 00 00 00 FF FC FF FF (情景执行提示)
2024-08-27 20:45:44.145 - 09 06 00 0F 02 01 78 21 (提示音叮)
2024-08-27 20:45:44.710 - 01 06 07 DC FF 60 08 9C (书房空调关)
2024-08-27 20:45:44.742 - 01 06 07 DC FF 60 08 9C (书房空调关)
2024-08-27 20:45:45.302 - 50 F5 07 (关书房影视)
2024-08-27 20:45:45.863 - A5 00 D2 FE 01 AA 22 0D (书房窗帘开)
2024-08-27 20:45:45.914 - 55 00 D2 02 00 E5 00 F2 AA 55 00 D2 02 00 E5 00 F2 AA (书房窗帘电机状态返回)
2024-08-27 20:45:46.960 - A5 00 B7 FF 00 AA 22 0D (书房纱帘关)
2024-08-27 20:45:48.007 - 55 0D 31 00 00 00 01 94 (书房顶灯只关)
2024-08-27 20:45:49.062 - 1A 0A 04 06 01 FF 00 01 FF 00 01 FF 00 00 0F (调光器地址-书房射灯, 书房射灯关闭)
2024-08-27 20:45:52.786 - 55 00 D2 00 00 0E 00 F2 AA 55 00 D2 00 00 0E 00 F2 AA (书房窗帘电机状态返回)
2024-08-27 20:45:53.135 - 09 06 00 0F 02 02 38 20 (提示音咚)
2024-08-27 20:45:53.687 - EE 00 00 B1 00 00 02 FF FC FF FF (情景完成返回主页)
2024-08-27 20:46:05.642 - 19 08 24 03 DD 00 42 00 01 (调用情景-主卧电视空调)
2024-08-27 20:46:06.198 - EE 00 00 B1 00 00 00 FF FC FF FF (情景执行提示)
2024-08-27 20:46:06.788 - 09 06 00 0F 02 01 78 21 (提示音叮)
2024-08-27 20:46:07.331 - 50 F0 05 (开主卧影视)
2024-08-27 20:46:07.888 - 50 F0 04 (开内卫影视)
2024-08-27 20:46:08.430 - 1A FF FF FF 56 00 00 00 0F (人体感应地址-内卫, 关闭内卫感应)
2024-08-27 20:46:08.988 - 1A 22 33 62 0F 00 02 01 0F (正反转地址-内卫卷帘, 内卫卷帘降)
2024-08-27 20:46:09.536 - A5 00 53 FE 01 AA (主卧纱帘关)
2024-08-27 20:46:09.587 - 55 00 53 02 02 22 02 30 AA 55 00 53 02 02 22 02 FE (主卧纱帘电机状态返回)
2024-08-27 20:46:10.633 - A5 00 52 FF 00 AA (主卧窗帘关)
2024-08-27 20:46:11.686 - 1A 0C 02 04 FF FF 45 01 FF 45 01 FF 00 00 0F (主卧调光微光)
2024-08-27 20:46:15.771 - 1A 0C 02 08 01 FF 45 01 FF 45 01 FF 00 00 0F (调光器地址-内卫射灯, 内卫射灯微光)
2024-08-27 20:46:16.361 - 50 F1 25 (主卧—有线2)
2024-08-27 20:46:16.903 - A1 11 11 11 42 (主卧空调自动开)
2024-08-27 20:46:17.140 - 19 08 24 03 F0 BB 78 02 02 00
2024-08-27 20:46:17.191 - 23 AA 56 02 14 2E 28 18 08 1B 02 73 65 6F 6B 65 6E 64
2024-08-27 20:46:17.446 - 50 F1 24 (内卫—有线2)
2024-08-27 20:46:18.149 - 01 10 07 D6 00 03 06 70 61 00 02 00 F0 0F 3E (主卧空调冷24度)
2024-08-27 20:46:18.181 - 01 10 07 D6 00 03 06 70 61 00 02 00 F0 0F 3E (主卧空调冷24度)
2024-08-27 20:46:19.505 - AF BF CF DF C2 21 (有线2/快捷-凤凰卫视)
2024-08-27 20:46:20.508 - 55 00 53 00 00 0C 02 30 AA 55 00 53 00 00 0C 02 30 AA (主卧纱帘电机状态返回)
2024-08-27 20:46:21.546 - 1A FF FF FF 60 0B 01 01 0F (红外总线地址-主卧发射设备, 主卧电视电源)
2024-08-27 20:46:22.074 - F0 0B 01 08
2024-08-27 20:46:22.808 - 55 20 20 00 02 09 02 16 AA 55 20 20 00 02 09 02 16 AA (主卧窗帘电机状态返回)
2024-08-27 20:46:29.574 - 09 06 00 0F 02 02 38 20 (提示音咚)
2024-08-27 20:46:30.128 - EE 00 00 B1 00 00 02 FF FC FF FF (情景完成返回主页)
2024-08-27 20:55:30.253 - 19 08 24 03 CC 00 D3 00 01 (调用厨房感应灯开的按键)
2024-08-27 20:55:30.304 - 55 0A 32 00 00 00 01 92 55 0A 32 00 00 00 02 93 (厨房顶灯一开, 厨房顶灯二开)
2024-08-27 20:56:15.833 - 19 08 24 03 CC 00 D4 00 01 (调用厨房感应灯关的按键)
2024-08-27 20:56:15.878 - 55 0A 31 00 00 00 01 91 55 0A 31 00 00 00 02 92 (厨房顶灯一关, 厨房顶灯二关)
2024-08-27 20:58:03.381 - 19 08 24 03 CC 01 CC 00 01 (调用茶吧感应灯开的按键)
2024-08-27 20:58:03.413 - 1A AA AA AA 88 FF B0 01 FF B0 01 0F (调光器地址-茶吧灯带, 茶吧灯带明亮)
2024-08-27 20:58:05.386 - 19 08 24 03 DD 00 3B 00 01 (调用情景-书房照明关帘)
2024-08-27 20:58:05.932 - EE 00 00 B1 00 00 00 FF FC FF FF (情景执行提示)
2024-08-27 20:58:06.525 - 09 06 00 0F 02 01 78 21 (提示音叮)
2024-08-27 20:58:07.086 - 1A 0A 04 06 01 FF F0 01 FF F0 01 FF 00 00 0F (调光器地址-书房射灯, 书房射灯明亮)
2024-08-27 20:58:11.166 - A5 00 B7 FF 00 AA 22 0D (书房纱帘关)
2024-08-27 20:58:12.205 - A5 00 D2 FF 00 AA 22 0C (书房窗帘关)
2024-08-27 20:58:12.256 - 55 00 D2 01 00 0E 00 F2 AA 55 00 D2 01 00 0E 00 F2 AA (书房窗帘电机状态返回)
2024-08-27 20:58:13.302 - 09 06 00 0F 02 02 38 20 (提示音咚)
2024-08-27 20:58:13.860 - EE 00 00 B1 00 00 02 FF FC FF FF (情景完成返回主页)
2024-08-27 20:58:20.192 - 55 00 D2 00 00 E5 00 F2 AA 55 00 D2 00 00 E5 00 F2 AA (书房窗帘电机状态返回)
2024-08-27 20:58:25.944 - 19 08 24 03 CC 01 CD 00 01 (调用茶吧感应灯关的按键)
2024-08-27 20:58:25.999 - 1A AA AA AA 88 FF 00 01 FF 00 01 0F (调光器地址-茶吧灯带, 茶吧灯带关闭)
2024-08-27 21:34:18.198 - 19 08 24 03 CC 01 CC 00 01 (调用茶吧感应灯开的按键)
2024-08-27 21:34:18.230 - 1A AA AA AA 88 FF B0 01 FF B0 01 0F (调光器地址-茶吧灯带, 茶吧灯带明亮)
2024-08-27 21:34:47.189 - 19 08 24 03 DD 00 3A 00 01 (调用情景-离开书房)
2024-08-27 21:34:47.698 - EE 00 00 B1 00 00 00 FF FC FF FF (情景执行提示)
2024-08-27 21:34:48.289 - 09 06 00 0F 02 01 78 21 (提示音叮)
2024-08-27 21:34:48.850 - 01 06 07 DC FF 60 08 9C (书房空调关)
2024-08-27 21:34:48.877 - 01 06 07 DC FF 60 08 9C (书房空调关)
2024-08-27 21:34:49.436 - 50 F5 07 (关书房影视)
2024-08-27 21:34:50.042 - A5 00 D2 FE 01 AA 22 0D (书房窗帘开)
2024-08-27 21:34:50.092 - 55 00 D2 02 00 E5 00 F2 AA 55 00 D2 02 00 E5 00 F2 AA (书房窗帘电机状态返回)
2024-08-27 21:34:51.141 - A5 00 B7 FF 00 AA 22 0D (书房纱帘关)
2024-08-27 21:34:52.183 - 55 0D 31 00 00 00 01 94 (书房顶灯只关)
2024-08-27 21:34:53.238 - 1A 0A 04 06 01 FF 00 01 FF 00 01 FF 00 00 0F (调光器地址-书房射灯, 书房射灯关闭)
2024-08-27 21:34:56.934 - 55 00 D2 00 00 0D 00 F2 AA 55 00 D2 00 00 0D 00 F2 AA (书房窗帘电机状态返回)
2024-08-27 21:34:57.319 - 09 06 00 0F 02 02 38 20 (提示音咚)
2024-08-27 21:34:57.897 - EE 00 00 B1 00 00 02 FF FC FF FF (情景完成返回主页)
2024-08-27 21:35:05.789 - 19 08 24 03 CC 01 CD 00 01 (调用茶吧感应灯关的按键)
2024-08-27 21:35:05.838 - 1A AA AA AA 88 FF 00 01 FF 00 01 0F (调光器地址-茶吧灯带, 茶吧灯带关闭)
2024-08-27 21:36:26.674 - FF
2024-08-27 21:54:48.249 - 19 08 24 03 DD 00 1B 00 01 (调用情景-外卫使用)
2024-08-27 21:54:48.811 - EE 00 00 B1 00 00 00 FF FC FF FF (情景执行提示)
2024-08-27 21:54:49.410 - 09 06 00 0F 02 01 78 21 (提示音叮)
2024-08-27 21:54:49.953 - 1A BE B0 DC 02 00 01 00 (正反转地址-外卫卷帘, 外卫卷帘降)
2024-08-27 21:54:50.547 - 50 F0 03 (开外卫影视)
2024-08-27 21:54:51.101 - 1A FF FF FF 55 00 00 00 0F (人体感应地址-外卫, 关闭外卫感应)
2024-08-27 21:54:51.659 - 1A 0D 01 07 01 FF 45 01 FF 45 01 FF 00 00 0F (调光器地址-外卫射灯, 外卫感应灯开)
2024-08-27 21:54:53.744 - 1A BE B0 DC 01 00 01 00 (继电器地址-回水泵点动, 回水泵点动)
2024-08-27 21:54:54.786 - 1A BE B0 DC 01 00 01 00 (继电器地址-回水泵点动, 回水泵点动)
2024-08-27 21:54:55.836 - 1A BE B0 DC 01 00 01 00 (继电器地址-回水泵点动, 回水泵点动)
2024-08-27 21:54:56.876 - 50 F1 43 (外卫—CH4)
2024-08-27 21:55:13.881 - A1 11 11 11 11 05 (外卫使用浴霸判断)
2024-08-27 21:55:14.090 - 13 03 00 00 00 02 C7 79 (查询外卫温湿度)
2024-08-27 21:55:14.121 - 13 03 04 01 9B 01 0E 38 75 (外卫温湿度返回)
2024-08-27 21:55:15.976 - 09 06 00 0F 02 02 38 20 (提示音咚)
2024-08-27 21:55:18.066 - EE 00 00 B1 00 00 02 FF FC FF FF (情景完成返回主页)
2024-08-27 21:58:26.682 - 19 08 24 03 CC 00 D3 00 01 (调用厨房感应灯开的按键)
2024-08-27 21:58:26.745 - 55 0A 32 00 00 00 01 92 55 0A 32 00 00 00 02 93 (厨房顶灯一开, 厨房顶灯二开)
2024-08-27 21:58:45.447 - FF
2024-08-27 21:59:02.262 - 19 08 24 03 CC 00 D4 00 01 (调用厨房感应灯关的按键)
2024-08-27 21:59:02.315 - 55 0A 31 00 00 00 01 91 55 0A 31 00 00 00 02 92 (厨房顶灯一关, 厨房顶灯二关)
2024-08-27 22:09:36.264 - 19 08 24 03 DD 00 1C 00 01 (调用情景-外卫使用完毕)
2024-08-27 22:09:36.800 - EE 00 00 B1 00 00 00 FF FC FF FF (情景执行提示)
2024-08-27 22:09:37.390 - 09 06 00 0F 02 01 78 21 (提示音叮)
2024-08-27 22:09:37.999 - 1A 0D 01 07 01 FF 00 01 FF 00 01 FF 00 00 0F (调光器地址-外卫射灯, 外卫感应灯关)
2024-08-27 22:09:38.585 - 50 F5 03 (关外卫影视)
2024-08-27 22:09:39.144 - 1A 20 07 00 42 00 01 00 0F (自保持开关地址-外卫顶灯, 外卫顶灯关)
2024-08-27 22:09:39.686 - 1A FF FF FF 55 00 00 01 0F (人体感应地址-外卫, 打开外卫感应)
2024-08-27 22:09:39.785 - BC BC
2024-08-27 22:09:40.091 - 19 08 24 03 CC 01 52 00 01 (调用外卫感应灯开的按键)
2024-08-27 22:09:40.148 - 1A 0D 01 07 01 FF 45 01 FF 45 01 FF 00 00 0F (调光器地址-外卫射灯, 外卫感应灯开)
2024-08-27 22:09:42.525 - 09 06 00 0F 02 02 38 20 (提示音咚)
2024-08-27 22:09:43.135 - EE 00 00 B1 00 00 02 FF FC FF FF (情景完成返回主页)
2024-08-27 22:09:46.400 - 19 08 24 03 CC 01 CC 00 01 (调用茶吧感应灯开的按键)
2024-08-27 22:09:46.419 - 1A AA AA AA 88 FF B0 01 FF B0 01 0F (调光器地址-茶吧灯带, 茶吧灯带明亮)
2024-08-27 22:09:48.314 - 19 08 24 03 CC 01 53 00 01 (调用外卫感应灯关的按键)
2024-08-27 22:09:48.346 - 1A 0D 01 07 01 FF 00 01 FF 00 01 FF 00 00 0F (调光器地址-外卫射灯, 外卫感应灯关)
2024-08-27 22:09:55.057 - 19 08 24 03 CC 00 D3 00 01 (调用厨房感应灯开的按键)
2024-08-27 22:09:55.091 - 55 0A 32 00 00 00 01 92 55 0A 32 00 00 00 02 93 (厨房顶灯一开, 厨房顶灯二开)
2024-08-27 22:10:33.066 - 19 08 24 03 DD 00 1A 00 01 (调用情景-客厅电视播放)
2024-08-27 22:10:33.576 - EE 00 00 B1 00 00 00 FF FC FF FF (情景执行提示)
2024-08-27 22:10:34.169 - 09 06 00 0F 02 01 78 21 (提示音叮)
2024-08-27 22:10:34.764 - 50 F0 08 (开客厅影视)
2024-08-27 22:10:38.998 - 19 08 24 03 CC 01 CD 00 01 (调用茶吧感应灯关的按键)
2024-08-27 22:10:39.032 - 1A AA AA AA 88 FF 00 01 FF 00 01 0F (调光器地址-茶吧灯带, 茶吧灯带关闭)
2024-08-27 22:10:43.780 - 50 F1 28 (客厅—有线2)
2024-08-27 22:10:44.339 - 09 06 00 0F 02 01 78 21 (提示音叮)
2024-08-27 22:10:44.896 - EE 00 00 B1 00 00 02 FF FC FF FF (情景完成返回主页)
2024-08-27 22:11:30.230 - 19 08 24 03 CC 00 D4 00 01 (调用厨房感应灯关的按键)
2024-08-27 22:11:30.279 - 55 0A 31 00 00 00 01 91 55 0A 31 00 00 00 02 92 (厨房顶灯一关, 厨房顶灯二关)
2024-08-27 22:12:16.496 - 1A FF FF FF 58 86 86 86 0F (人体感应地址-茶吧)
2024-08-27 22:12:22.648 - 1A FF FF FF 57 86 86 86 0F (人体感应地址-厨房)
2024-08-27 22:12:27.933 - 1A FF FF FF 56 86 86 86 0F (人体感应地址-内卫)
2024-08-27 22:12:27.949 - 1A FF FF FF 56 00 00 0F (人体感应地址-内卫)
2024-08-27 22:12:34.580 - 1A FF FF FF 55 86 86 86 0F (人体感应地址-外卫)
2024-08-27 22:12:34.597 - 1A FF FF FF 55 01 00 0F (人体感应地址-外卫)
2024-08-27 22:12:48.009 - 1A FF FF FF 57 86 86 86 0F (人体感应地址-厨房)
2024-08-27 22:12:52.960 - 1A FF FF FF 58 86 86 86 0F (人体感应地址-茶吧)
2024-08-27 22:28:40.280 - FF
2024-08-27 22:28:42.847 - 1A FF FF FF 04 (继电器地址-东阳衣架)
2024-08-27 22:28:42.990 - 03
2024-08-27 22:32:29.415 - FF
2024-08-27 22:44:23.118 - 19 08 24 03 CC 00 D3 00 01 (调用厨房感应灯开的按键)
2024-08-27 22:44:23.172 - 55 0A 32 00 00 00 01 92 55 0A 32 00 00 00 02 93 (厨房顶灯一开, 厨房顶灯二开)
2024-08-27 22:45:15.727 - 19 08 24 03 CC 00 D4 00 01 (调用厨房感应灯关的按键)
2024-08-27 22:45:15.761 - 55 0A 31 00 00 00 01 91 55 0A 31 00 00 00 02 92 (厨房顶灯一关, 厨房顶灯二关)
2024-08-27 22:45:20.115 - 19 08 24 03 CC 01 CC 00 01 (调用茶吧感应灯开的按键)
2024-08-27 22:45:20.138 - 1A AA AA AA 88 FF B0 01 FF B0 01 0F (调光器地址-茶吧灯带, 茶吧灯带明亮)
2024-08-27 22:45:21.528 - 19 08 24 03 DD 00 13 00 01 (调用情景-公共区域关)
2024-08-27 22:45:22.055 - EE 00 00 B1 00 00 00 FF FC FF FF (情景执行提示)
2024-08-27 22:45:22.650 - 09 06 00 0F 02 01 78 21 (提示音叮)
2024-08-27 22:45:23.201 - 55 0B 31 00 00 00 01 92 (厨房风扇只关)
2024-08-27 22:45:24.248 - 01 06 07 D3 FF 60 38 9F (餐厅空调关)
2024-08-27 22:45:24.270 - 01 06 07 D3 FF 60 38 9F (餐厅空调关)
2024-08-27 22:45:25.339 - 01 06 07 D0 FF 60 C8 9F (客厅空调关)
2024-08-27 22:45:25.370 - 01 06 07 D0 FF 60 C8 9F (客厅空调关)
2024-08-27 22:45:29.422 - 50 F5 02 (关厨房影视)
2024-08-27 22:45:30.476 - 50 F5 01 (关餐厅影视)
2024-08-27 22:45:31.513 - 50 F5 08 (关客厅影视)
2024-08-27 22:45:32.566 - 50 F5 03 (关外卫影视)
2024-08-27 22:45:33.619 - 55 0A 31 00 00 00 01 91 (厨房顶灯一关)
2024-08-27 22:45:34.656 - 55 0A 31 00 00 00 02 92 (厨房顶灯二关)
2024-08-27 22:45:35.710 - 55 0C 31 00 00 00 01 93 (餐厅顶灯关)
2024-08-27 22:45:36.761 - 1A 18 05 10 31 00 01 00 0F (自保持开关地址-门厅顶灯, 门厅顶灯关)
2024-08-27 22:45:37.803 - 1A 20 07 00 42 00 01 00 0F (自保持开关地址-外卫顶灯, 外卫顶灯关)
2024-08-27 22:45:38.851 - 1A 18 05 21 89 00 01 00 0F (自保持开关地址-客厅顶灯, 客厅顶灯一关)
2024-08-27 22:45:39.903 - 1A 18 05 01 94 00 01 00 0F (自保持开关地址-客厅顶灯, 客厅顶灯二关)
2024-08-27 22:45:40.940 - 1A 20 07 01 30 00 01 00 0F (自保持开关地址-西阳顶灯, 西阳顶灯关)
2024-08-27 22:45:41.993 - 1A FF 01 FF FF FF 00 01 FF 00 01 FF 00 00 0F (调光器地址-公共区域统配地址, 公共区域灯光全关)
2024-08-27 22:45:43.077 - 09 06 00 0F 02 02 38 20 (提示音咚)
2024-08-27 22:45:45.136 - EE 00 00 B1 00 00 02 FF FC FF FF (情景完成返回主页)
2024-08-27 22:45:57.178 - 19 08 24 03 CC 01 CD 00 01 (调用茶吧感应灯关的按键)
2024-08-27 22:45:57.229 - 1A AA AA AA 88 FF 00 01 FF 00 01 0F (调光器地址-茶吧灯带, 茶吧灯带关闭)
2024-08-27 22:46:05.984 - 19 08 24 03 DD 00 4F 00 01 (调用情景-内卫使用完毕)
2024-08-27 22:46:06.516 - EE 00 00 B1 00 00 00 FF FC FF FF (情景执行提示)
2024-08-27 22:46:07.111 - 09 06 00 0F 02 01 78 21 (提示音叮)
2024-08-27 22:46:07.658 - 1A 0C 02 08 01 FF 00 01 FF 00 01 FF 00 00 0F (调光器地址-内卫射灯, 内卫感应灯关)
2024-08-27 22:46:11.741 - 50 F5 04 (关内卫影视)
2024-08-27 22:46:12.284 - 1A 20 07 01 40 00 01 00 0F (自保持开关地址-内卫顶灯, 内卫顶灯关)
2024-08-27 22:46:12.844 - 1A FF FF FF 56 00 00 01 0F (人体感应地址-内卫, 打开内卫感应)
2024-08-27 22:46:12.946 - BC BC
2024-08-27 22:46:13.257 - 19 08 24 03 CC 01 54 00 01 (调用内卫感应灯开的按键)
2024-08-27 22:46:13.305 - 1A 0C 02 08 01 FF 45 01 FF 45 01 FF 00 00 0F (调光器地址-内卫射灯, 内卫射灯微光)
2024-08-27 22:46:15.735 - 09 06 00 0F 02 02 38 20 (提示音咚)
2024-08-27 22:46:16.335 - EE 00 00 B1 00 00 02 FF FC FF FF (情景完成返回主页)
2024-08-27 22:46:36.503 - 19 08 24 03 CC 01 55 00 01 (调用内卫感应灯关的按键)
2024-08-27 22:46:36.537 - 1A 0C 02 08 01 FF 00 01 FF 00 01 FF 00 00 0F (调光器地址-内卫射灯, 内卫感应灯关)
2024-08-27 22:57:11.150 - 1A BE B0 DC 04 (继电器地址-西阳窗帘)
2024-08-27 22:57:11.283 - FF
2024-08-27 22:57:11.606 - FF FF FF FF 0E (继电器地址-西阳小窗帘)
2024-08-27 22:57:11.742 - FE
2024-08-27 22:58:12.361 - 1A BE B0 DC 09 FC (继电器地址-客厅窗帘)
2024-08-27 22:58:12.495 - FF
2024-08-27 22:58:13.030 - 1A BE B0 DC 02 (正反转地址-外卫卷帘)
2024-08-27 22:58:13.158 - FE
2024-08-27 22:58:14.348 - 1A BE B0 DC 03 FF (继电器地址-西阳天幕)
2024-08-27 22:59:01.655 - FF FF FF FF 0A FC (继电器地址-东阳窗帘)
2024-08-27 22:59:01.786 - FF
2024-08-27 23:45:44.532 - FF
2024-08-27 23:48:31.183 - 1A FF 03 00 00 86 86 86 0F (调用查询模块-主卧空调开关查询, 主卧空调虚拟地址)
2024-08-27 23:48:31.406 - 01 04 07 DC 00 01 F1 44 (查询主卧空调开关状态)
2024-08-27 23:48:31.422 - 01 04 02 70 01 5D 30
2024-08-27 23:48:32.410 - 1A FF 03 00 00 01 00 0F (主卧空调虚拟地址)
2024-08-27 23:48:32.601 - 1A FF 04 00 00 86 86 86 0F (调用查询模块-次卧空调开关查询, 次卧空调虚拟地址)
2024-08-27 23:48:32.824 - 01 04 07 E2 00 01 90 88 (查询次卧空调开关状态)
2024-08-27 23:48:32.840 - 01 04 02 70 00 9C F0
2024-08-27 23:48:33.815 - 1A FF 04 00 00 00 00 0F (次卧空调虚拟地址)
2024-08-27 23:48:36.064 - 1A FF 02 00 00 86 86 86 0F (调用查询模块-餐厅空调开关查询, 餐厅空调虚拟地址)
2024-08-27 23:48:36.288 - 01 04 07 D6 00 01 D1 46 (查询餐厅空调开关状态)
2024-08-27 23:48:36.316 - 01 04 02 70 00 9C F0
2024-08-27 23:48:37.294 - 1A FF 02 00 00 00 00 0F (餐厅空调虚拟地址)
2024-08-27 23:48:37.405 - 1A FF 01 00 00 86 86 86 0F (调用查询模块-客厅空调开关查询, 客厅空调虚拟地址)
2024-08-27 23:48:37.626 - 01 04 07 D0 00 01 31 47 (查询客厅空调开关状态)
2024-08-27 23:48:37.644 - 01 04 02 70 00 9C F0
2024-08-27 23:48:38.629 - 1A FF 01 00 00 00 00 0F (客厅空调虚拟地址)
2024-08-27 23:48:38.833 - 1A 10 00 00 00 86 86 86 0F (调用查询模块-主卧测温转换, 主卧温湿度虚拟地址)
2024-08-27 23:48:39.054 - 1D 03 00 00 00 02 C6 57 (查询主卧温湿度)
2024-08-27 23:48:39.080 - 1D 03 04 01 F4 01 04 67 AF (主卧温湿度返回)
2024-08-27 23:48:40.075 - 1A 10 00 00 00 00 00 01 00 00 01 00 00 01 01 04 01 01 F4 01 00 00 01 00 00 01 0F (主卧温湿度虚拟地址)
2024-08-27 23:48:40.263 - 1A 11 00 00 00 86 86 86 0F (调用查询模块-次卧测温转换, 次卧温湿度虚拟地址)
2024-08-27 23:48:40.484 - 11 03 00 00 00 02 C6 9B (查询次卧温湿度)
2024-08-27 23:48:40.516 - 11 03 04 02 0E 01 1B CA 12 (次卧温湿度返回)
2024-08-27 23:48:41.504 - 1A 11 00 00 00 00 00 01 00 00 01 00 00 01 01 1B 01 02 0E 01 00 00 01 00 00 01 0F (次卧温湿度虚拟地址)
2024-08-27 23:48:41.696 - 1A 12 00 00 00 86 86 86 0F (调用查询模块-书房测温转换, 书房温湿度虚拟地址)
2024-08-27 23:48:41.919 - 12 03 00 00 00 02 C6 A8 (查询书房温湿度)
2024-08-27 23:48:41.951 - 12 03 04 02 09 01 28 08 C6 (书房温湿度返回)
2024-08-27 23:48:42.950 - 1A 12 00 00 00 00 00 01 00 00 01 00 00 01 01 28 01 02 09 01 00 00 01 00 00 01 0F (书房温湿度虚拟地址)
2024-08-27 23:48:43.137 - 1A 13 00 00 00 86 86 86 0F (调用查询模块-外卫测温转换, 外卫温湿度虚拟地址)
2024-08-27 23:48:43.358 - 13 03 00 00 00 02 C7 79 (查询外卫温湿度)
2024-08-27 23:48:43.375 - 13 03 04 02 2D 01 1E D8 1B (外卫温湿度返回)
2024-08-27 23:48:44.379 - 1A 13 00 00 00 00 00 01 00 00 01 00 00 01 01 1E 01 02 2D 01 00 00 01 00 00 01 0F (外卫温湿度虚拟地址)
2024-08-27 23:48:44.668 - 1A 14 00 00 00 86 86 86 0F (调用查询模块-内卫测温转换, 内卫温湿度虚拟地址)
2024-08-27 23:48:44.889 - 14 03 00 00 00 02 C6 CE (查询内卫温湿度)
2024-08-27 23:48:44.906 - 14 03 04 01 C3 01 0A CE A5 (内卫温湿度返回)
2024-08-27 23:48:45.909 - 1A 14 00 00 00 00 00 01 00 00 01 00 00 01 01 0A 01 01 C3 01 00 00 01 00 00 01 0F (内卫温湿度虚拟地址)
2024-08-27 23:48:46.210 - 1A 15 00 00 00 86 86 86 0F (调用查询模块-客厅测温转换, 客厅温湿度虚拟地址)
2024-08-27 23:48:46.419 - 15 03 00 00 00 02 C7 1F (查询客厅温湿度)
2024-08-27 23:48:46.449 - 15 03 04 02 28 01 15 EF DD (客厅温湿度返回)
2024-08-27 23:48:47.454 - 1A 15 00 00 00 00 00 01 00 00 01 00 00 01 01 15 01 02 28 01 00 00 01 00 00 01 0F (客厅温湿度虚拟地址)
2024-08-27 23:48:47.555 - 1A 16 00 00 00 86 86 86 0F (调用查询模块-机柜测温转换, 机柜温湿度虚拟地址)
2024-08-27 23:48:47.780 - 16 03 00 00 00 02 C7 2C (查询机柜温湿度)
2024-08-27 23:48:47.797 - 16 03 04 01 C0 01 4A 1C 95 (机柜温湿度返回)
2024-08-27 23:48:48.800 - 1A 16 00 00 00 00 00 01 00 00 01 00 00 01 01 4A 01 01 C0 01 00 00 01 00 00 01 0F (机柜温湿度虚拟地址)
2024-08-27 23:48:48.971 - 1A 0E 00 00 00 86 86 86 0F (调用查询模块-厨房测温转换, 厨房温湿度虚拟地址)
2024-08-27 23:48:49.193 - 0E 03 00 00 00 02 C4 F4 (查询厨房温湿度)
2024-08-27 23:48:49.209 - 0E 03 04 01 F0 01 33 45 79 (厨房温湿度返回)
2024-08-27 23:48:50.214 - 1A 0E 00 00 00 00 00 01 00 00 01 00 00 01 01 33 01 01 F0 01 00 00 01 00 00 01 0F (厨房温湿度虚拟地址)
2024-08-27 23:48:50.404 - 1A 0F 00 00 00 86 86 86 0F (调用查询模块-餐厅测温转换, 餐厅温湿度虚拟地址)
2024-08-27 23:48:50.627 - 1C 03 00 00 00 02 C7 86 (查询餐厅温湿度)
2024-08-27 23:48:50.645 - 1C 03 04 02 0D 01 25 67 02 (餐厅温湿度返回)
2024-08-27 23:48:51.648 - 1A 0F 00 00 00 00 00 01 00 00 01 00 00 01 01 25 01 02 0D 01 00 00 01 00 00 01 0F (餐厅温湿度虚拟地址)
2024-08-27 23:48:51.839 - 1A 20 00 00 00 86 86 86 0F (调用查询模块-阳台测温湿气压转换, 阳台温湿气压虚拟地址)
2024-08-27 23:48:52.062 - 20 03 00 00 00 03 03 7A (查询阳台温湿度气压)
2024-08-27 23:48:52.084 - 20 03 06 01 39 01 96 26 E3 92 C9 (阳台温湿度返回)
2024-08-27 23:48:52.588 - 1A 20 00 00 00 00 00 01 00 00 01 00 00 01 01 39 01 01 96 01 26 E3 01 00 00 01 0F (阳台温湿气压虚拟地址)
2024-08-27 23:48:52.763 - 1A 21 00 00 00 86 86 86 0F (调用查询模块-储藏室测温湿气压转换, 储藏室温湿气压虚拟地址)
2024-08-27 23:48:52.987 - 21 03 00 00 00 03 02 AB (查询储藏室温湿度气压)
2024-08-27 23:48:53.003 - 21 03 06 01 3D 02 53 26 E6 BE E3 (储藏室温湿度返回)
2024-08-27 23:48:53.498 - 1A 21 00 00 00 00 00 01 00 00 01 00 00 01 01 3D 01 02 53 01 26 E6 01 00 00 01 0F (储藏室温湿气压虚拟地址)
2024-08-27 23:48:53.682 - 1A 22 00 00 00 86 86 86 0F (调用查询模块-室外测温湿气压转换, 室外温湿气压虚拟地址)
2024-08-27 23:48:53.903 - 22 03 00 00 00 03 02 98 (查询室外温湿度气压)
2024-08-27 23:48:53.928 - 22 03 06 01 1F 02 E1 26 E7 33 F3 (阳台温湿度返回)
2024-08-27 23:48:54.430 - 1A 22 00 00 00 00 00 01 00 00 01 00 00 01 01 1F 01 02 E1 01 26 E7 01 00 00 01 0F (室外温湿气压虚拟地址)
2024-08-27 23:48:54.630 - 1A FF 05 00 00 86 86 86 0F (调用查询模块-书房空调开关查询, 书房空调虚拟地址)
2024-08-27 23:48:54.853 - 01 04 07 E8 00 01 B0 8A (查询书房空调开关状态)
2024-08-27 23:48:54.872 - 01 04 02 70 00 9C F0
2024-08-27 23:48:55.857 - 1A FF 05 00 00 00 00 0F (书房空调虚拟地址)
2024-08-27 23:49:11.551 - 1A 16 00 00 00 86 86 86 0F (调用查询模块-机柜测温转换, 机柜温湿度虚拟地址)
2024-08-27 23:49:11.761 - 16 03 00 00 00 02 C7 2C (查询机柜温湿度)
2024-08-27 23:49:11.789 - 16 03 04 01 BF 01 4A 2D 4D (机柜温湿度返回)
2024-08-27 23:49:12.794 - 1A 16 00 00 00 00 00 01 00 00 01 00 00 01 01 4A 01 01 BF 01 00 00 01 00 00 01 0F (机柜温湿度虚拟地址)
2024-08-27 23:49:32.059 - 19 08 24 03 CC 01 54 00 01 (调用内卫感应灯开的按键)
2024-08-27 23:49:32.113 - 1A 0C 02 08 01 FF 45 01 FF 45 01 FF 00 00 0F (调光器地址-内卫射灯, 内卫射灯微光)
2024-08-27 23:51:16.539 - 19 08 24 03 DD 00 4B 00 01 (调用情景-主卧睡觉)
2024-08-27 23:51:17.080 - EE 00 00 B1 00 00 00 FF FC FF FF (情景执行提示)
2024-08-27 23:51:17.669 - 09 06 00 0F 02 01 78 21 (提示音叮)
2024-08-27 23:51:18.211 - 50 F5 04 (关内卫影视)
2024-08-27 23:51:18.769 - A5 00 53 FE 01 AA (主卧纱帘关)
2024-08-27 23:51:19.806 - A5 00 52 FF 00 AA (主卧窗帘关)
2024-08-27 23:51:20.860 - 1A 22 33 62 0F 00 02 01 0F (正反转地址-内卫卷帘, 内卫卷帘降)
2024-08-27 23:51:21.912 - 1A 20 07 01 40 00 01 00 0F (自保持开关地址-内卫顶灯, 内卫顶灯关)
2024-08-27 23:51:22.949 - 1A 20 07 01 55 00 01 00 0F (自保持开关地址-主卧顶灯, 主卧顶灯只关)
2024-08-27 23:51:23.505 - 1A FF FF FF 56 00 00 01 0F (人体感应地址-内卫, 打开内卫感应)
2024-08-27 23:51:23.510 - BC BC
2024-08-27 23:51:27.098 - 1A 0C 02 08 01 FF 00 01 FF 00 01 FF 00 00 0F (调光器地址-内卫射灯, 内卫感应灯关)
2024-08-27 23:51:27.698 - 1A 0C 02 04 01 FF 00 01 FF 00 01 FF 00 00 0F (调光器地址-主卧筒灯, 主卧筒灯关闭)
2024-08-27 23:51:28.289 - 1A 0C 02 04 03 FF 00 01 FF 00 01 FF 00 00 0F (调光器地址-主卧灯带, 主卧灯带关闭)
2024-08-27 23:51:28.895 - 1A 0C 02 04 04 FF 00 01 FF 00 01 FF 00 00 0F (调光器地址-主卧南阅, 主卧南阅关闭)
2024-08-27 23:51:29.496 - 1A 0C 02 04 05 FF 00 01 FF 00 01 FF 00 00 0F (调光器地址-主卧北阅, 主卧北阅关闭)
2024-08-27 23:51:30.092 - 1A 0C 02 04 02 FF 00 01 FF 00 01 FF 00 00 0F (调光器地址-主卧过道, 主卧过道关闭)
2024-08-27 23:51:30.680 - 09 06 00 0F 02 02 38 20 (提示音咚)
2024-08-27 23:51:31.281 - EE 00 00 B1 00 00 02 FF FC FF FF (情景完成返回主页)
2024-08-27 23:51:32.803 - 19 08 24 03 CC 01 55 00 01 (调用内卫感应灯关的按键)
2024-08-27 23:51:32.883 - 1A 0C 02 08 01 FF 00 01 FF 00 01 FF 00 00 0F (调光器地址-内卫射灯, 内卫感应灯关)
2024-08-27 23:53:10.499 - 19 08 24 03 CC 01 54 00 01 (调用内卫感应灯开的按键)
2024-08-27 23:53:10.533 - 1A 0C 02 08 01 FF 45 01 FF 45 01 FF 00 00 0F (调光器地址-内卫射灯, 内卫射灯微光)
2024-08-27 23:53:35.551 - 19 08 24 03 CC 01 55 00 01 (调用内卫感应灯关的按键)
2024-08-27 23:53:35.583 - 1A 0C 02 08 01 FF 00 01 FF 00 01 FF 00 00 0F (调光器地址-内卫射灯, 内卫感应灯关)
2024-08-27 23:56:13.556 - FF
2024-08-27 23:56:57.725 - 19 08 24 03 CC 00 D3 00 01 (调用厨房感应灯开的按键)
2024-08-27 23:56:57.773 - 55 0A 32 00 00 00 01 92 55 0A 32 00 00 00 02 93 (厨房顶灯一开, 厨房顶灯二开)
2024-08-27 23:57:32.789 - 19 08 24 03 CC 00 D4 00 01 (调用厨房感应灯关的按键)
2024-08-27 23:57:32.885 - 55 0A 31 00 00 00 01 91 55 0A 31 00 00 00 02 92 (厨房顶灯一关, 厨房顶灯二关)
2024-08-28 00:18:03.213 - 19 08 24 03 CC 00 D3 00 01 (调用厨房感应灯开的按键)
2024-08-28 00:18:03.247 - 55 0A 32 00 00 00 01 92 55 0A 32 00 00 00 02 93 (厨房顶灯一开, 厨房顶灯二开)
2024-08-28 00:18:38.282 - 19 08 24 03 CC 00 D4 00 01 (调用厨房感应灯关的按键)
2024-08-28 00:18:38.313 - 55 0A 31 00 00 00 01 91 55 0A 31 00 00 00 02 92 (厨房顶灯一关, 厨房顶灯二关)
2024-08-28 00:36:47.005 - 16 03 03 00 96 01 00 00 92 03 03 66 CE 00 B8 34 5B C4 54 D6 01 99 4D 9D 23 81 69 D5 F5 AF 85 36
2024-08-28 00:36:47.037 - 4B 72 64 25 88 CB 20 93 19 D7 57 00 00 34 C0 28 C0 27 C0 14 C0 13 00 9F 00 9E 00 39 00 33 00 9D
2024-08-28 00:36:47.070 - 00 9C 00 3D 00 3C 00 35 00 2F C0 2C C0 2B C0 24 C0 23 C0 0A C0 09 00 6A 00 40 00 38 00 32 00 0A
2024-08-28 00:36:47.104 - 00 13 01 00 00 35 00 0A 00 06 00 04 00 17 00 18 00 0B 00 02 01 00 00 0D 00 14 00 12 06 01 06 03
2024-08-28 00:36:47.138 - 04 01 05 01 02 01 04 03 05 03 02 03 02 02 00 23 00 00 00 17 00 00 FF 01 00 01 00
2024-08-28 00:37:02.272 - 16 03 03 00 96 01 00 00 92 03 03 66 CE 00 C7 D8 37 89 8F E1 17 6F D8 44 85 B2 F2 93 31 0D 95 84
2024-08-28 00:37:02.306 - A8 00 35 AC F4 3B 61 2E 2E 4F AD 00 00 34 C0 28 C0 27 C0 14 C0 13 00 9F 00 9E 00 39 00 33 00 9D (区域高光指令（AD+区域+暖光+冷光+AE）)
2024-08-28 00:37:02.340 - 00 9C 00 3D 00 3C 00 35 00 2F C0 2C C0 2B C0 24 C0 23 C0 0A C0 09 00 6A 00 40 00 38 00 32 00 0A
2024-08-28 00:37:02.374 - 00 13 01 00 00 35 00 0A 00 06 00 04 00 17 00 18 00 0B 00 02 01 00 00 0D 00 14 00 12 06 01 06 03
2024-08-28 00:37:02.396 - 04 01 05 01 02 01 04 03 05 03 02 03 02 02 00 23 00 00 00 17 00 00 FF 01 00 01 00
2024-08-28 00:44:40.856 - 19 08 24 03 CC 00 D3 00 01 (调用厨房感应灯开的按键)
2024-08-28 00:44:40.905 - 55 0A 32 00 00 00 01 92 55 0A 32 00 00 00 02 93 (厨房顶灯一开, 厨房顶灯二开)
2024-08-28 00:45:15.928 - 19 08 24 03 CC 00 D4 00 01 (调用厨房感应灯关的按键)
2024-08-28 00:45:15.960 - 55 0A 31 00 00 00 01 91 55 0A 31 00 00 00 02 92 (厨房顶灯一关, 厨房顶灯二关)
2024-08-28 00:51:06.357 - 19 08 24 03 CC 01 54 00 01 (调用内卫感应灯开的按键)
2024-08-28 00:51:06.389 - 1A 0C 02 08 01 FF 45 01 FF 45 01 FF 00 00 0F (调光器地址-内卫射灯, 内卫射灯微光)
2024-08-28 00:52:56.574 - 19 08 24 03 CC 01 55 00 01 (调用内卫感应灯关的按键)
2024-08-28 00:52:56.606 - 1A 0C 02 08 01 FF 00 01 FF 00 01 FF 00 00 0F (调光器地址-内卫射灯, 内卫感应灯关)
2024-08-28 00:54:21.738 - 19 08 24 03 CC 01 54 00 01 (调用内卫感应灯开的按键)
2024-08-28 00:54:21.786 - 1A 0C 02 08 01 FF 45 01 FF 45 01 FF 00 00 0F (调光器地址-内卫射灯, 内卫射灯微光)
2024-08-28 00:54:47.292 - 19 08 24 03 CC 01 55 00 01 (调用内卫感应灯关的按键)
2024-08-28 00:54:47.324 - 1A 0C 02 08 01 FF 00 01 FF 00 01 FF 00 00 0F (调光器地址-内卫射灯, 内卫感应灯关)
2024-08-28 01:23:23.156 - FF
2024-08-28 01:50:26.608 - 1A FF FF FF 04 FE (继电器地址-东阳衣架)
2024-08-28 01:50:26.736 - FE
2024-08-28 01:55:00.234 - FF
2024-08-28 02:14:14.424 - 19 08 24 03 CC 00 D3 00 01 (调用厨房感应灯开的按键)
2024-08-28 02:14:14.475 - 55 0A 32 00 00 00 01 92 55 0A 32 00 00 00 02 93 (厨房顶灯一开, 厨房顶灯二开)
2024-08-28 02:14:56.006 - 19 08 24 03 CC 00 D4 00 01 (调用厨房感应灯关的按键)
2024-08-28 02:14:56.040 - 55 0A 31 00 00 00 01 91 55 0A 31 00 00 00 02 92 (厨房顶灯一关, 厨房顶灯二关)
2024-08-28 02:17:36.336 - 1A BE B0 DC 04 FC (继电器地址-西阳窗帘)
2024-08-28 02:17:36.475 - FF
2024-08-28 02:17:41.515 - FF FF FF FF 0E (继电器地址-西阳小窗帘)
2024-08-28 02:18:57.736 - 1A BE B0 DC 09 (继电器地址-客厅窗帘)
2024-08-28 02:18:57.865 - FF
2024-08-28 02:19:04.311 - 1A BE B0 DC 02 (正反转地址-外卫卷帘)
2024-08-28 02:19:05.504 - 1A BE B0 DC 0A (继电器地址-客厅纱帘)
2024-08-28 02:19:21.503 - 1A BE B0 DC 01 FD (继电器地址-回水泵点动)
2024-08-28 02:19:21.639 - FF
2024-08-28 02:19:22.575 - 1A BE B0 DC 03 FF (继电器地址-西阳天幕)
2024-08-28 02:19:22.711 - FF
2024-08-28 02:19:52.512 - FF FF FF FF 0A FC (继电器地址-东阳窗帘)
2024-08-28 02:19:52.640 - FE
2024-08-28 02:30:09.299 - 19 08 24 03 CC 00 D3 00 01 (调用厨房感应灯开的按键)
2024-08-28 02:30:09.350 - 55 0A 32 00 00 00 01 92 55 0A 32 00 00 00 02 93 (厨房顶灯一开, 厨房顶灯二开)
2024-08-28 02:30:47.379 - 19 08 24 03 CC 00 D4 00 01 (调用厨房感应灯关的按键)
2024-08-28 02:30:47.430 - 55 0A 31 00 00 00 01 91 55 0A 31 00 00 00 02 92 (厨房顶灯一关, 厨房顶灯二关)
2024-08-28 02:34:59.871 - 19 08 24 03 CC 00 D3 00 01 (调用厨房感应灯开的按键)
2024-08-28 02:34:59.903 - 55 0A 32 00 00 00 01 92 55 0A 32 00 00 00 02 93 (厨房顶灯一开, 厨房顶灯二开)
2024-08-28 02:35:19.998 - 03 00 00 2F 2A E0 00 00 00 00 00 43 6F 6F 6B 69 65 3A 20 6D 73 74 73 68 61 73 68 3D 41 64 6D 69
2024-08-28 02:35:20.014 - 6E 69 73 74 72 0D 0A 01 00 08 00 03 00 00 00
2024-08-28 02:35:36.446 - 19 08 24 03 CC 00 D4 00 01 (调用厨房感应灯关的按键)
2024-08-28 02:35:36.494 - 55 0A 31 00 00 00 01 91 55 0A 31 00 00 00 02 92 (厨房顶灯一关, 厨房顶灯二关)
2024-08-28 02:36:50.588 - 19 08 24 03 CC 00 D3 00 01 (调用厨房感应灯开的按键)
2024-08-28 02:36:50.622 - 55 0A 32 00 00 00 01 92 55 0A 32 00 00 00 02 93 (厨房顶灯一开, 厨房顶灯二开)
2024-08-28 02:37:41.191 - 19 08 24 03 CC 00 D4 00 01 (调用厨房感应灯关的按键)
2024-08-28 02:37:41.223 - 55 0A 31 00 00 00 01 91 55 0A 31 00 00 00 02 92 (厨房顶灯一关, 厨房顶灯二关)
2024-08-28 02:47:20.327 - 19 08 24 03 CC 00 D3 00 01 (调用厨房感应灯开的按键)
2024-08-28 02:47:20.359 - 55 0A 32 00 00 00 01 92 55 0A 32 00 00 00 02 93 (厨房顶灯一开, 厨房顶灯二开)
2024-08-28 02:47:55.388 - 19 08 24 03 CC 00 D4 00 01 (调用厨房感应灯关的按键)
2024-08-28 02:47:55.420 - 55 0A 31 00 00 00 01 91 55 0A 31 00 00 00 02 92 (厨房顶灯一关, 厨房顶灯二关)
2024-08-28 02:56:54.460 - 19 08 24 03 CC 00 D3 00 01 (调用厨房感应灯开的按键)
2024-08-28 02:56:54.494 - 55 0A 32 00 00 00 01 92 55 0A 32 00 00 00 02 93 (厨房顶灯一开, 厨房顶灯二开)
2024-08-28 02:57:29.517 - 19 08 24 03 CC 00 D4 00 01 (调用厨房感应灯关的按键)
2024-08-28 02:57:29.561 - 55 0A 31 00 00 00 01 91 55 0A 31 00 00 00 02 92 (厨房顶灯一关, 厨房顶灯二关)
2024-08-28 02:59:38.056 - 50 F7 01 (全屋影音全关)
2024-08-28 03:12:30.300 - 19 08 24 03 CC 00 D3 00 01 (调用厨房感应灯开的按键)
2024-08-28 03:12:30.334 - 55 0A 32 00 00 00 01 92 55 0A 32 00 00 00 02 93 (厨房顶灯一开, 厨房顶灯二开)
2024-08-28 03:13:05.365 - 19 08 24 03 CC 00 D4 00 01 (调用厨房感应灯关的按键)
2024-08-28 03:13:05.397 - 55 0A 31 00 00 00 01 91 55 0A 31 00 00 00 02 92 (厨房顶灯一关, 厨房顶灯二关)
2024-08-28 03:19:17.091 - 19 08 24 03 CC 00 D3 00 01 (调用厨房感应灯开的按键)
2024-08-28 03:19:17.133 - 55 0A 32 00 00 00 01 92 55 0A 32 00 00 00 02 93 (厨房顶灯一开, 厨房顶灯二开)
2024-08-28 03:19:52.160 - 19 08 24 03 CC 00 D4 00 01 (调用厨房感应灯关的按键)
2024-08-28 03:19:52.192 - 55 0A 31 00 00 00 01 91 55 0A 31 00 00 00 02 92 (厨房顶灯一关, 厨房顶灯二关)
2024-08-28 03:39:44.008 - 19 08 24 03 CC 00 D3 00 01 (调用厨房感应灯开的按键)
2024-08-28 03:39:44.042 - 55 0A 32 00 00 00 01 92 55 0A 32 00 00 00 02 93 (厨房顶灯一开, 厨房顶灯二开)
2024-08-28 03:40:19.076 - 19 08 24 03 CC 00 D4 00 01 (调用厨房感应灯关的按键)
2024-08-28 03:40:19.110 - 55 0A 31 00 00 00 01 91 55 0A 31 00 00 00 02 92 (厨房顶灯一关, 厨房顶灯二关)
2024-08-28 03:52:55.565 - 19 08 24 03 CC 00 D3 00 01 (调用厨房感应灯开的按键)
2024-08-28 03:52:55.604 - 55 0A 32 00 00 00 01 92 55 0A 32 00 00 00 02 93 (厨房顶灯一开, 厨房顶灯二开)
2024-08-28 03:53:35.643 - 19 08 24 03 CC 00 D4 00 01 (调用厨房感应灯关的按键)
2024-08-28 03:53:35.677 - 55 0A 31 00 00 00 01 91 55 0A 31 00 00 00 02 92 (厨房顶灯一关, 厨房顶灯二关)
2024-08-28 03:55:43.676 - 19 08 24 03 CC 01 54 00 01 (调用内卫感应灯开的按键)
2024-08-28 03:55:43.710 - 1A 0C 02 08 01 FF 45 01 FF 45 01 FF 00 00 0F (调光器地址-内卫射灯, 内卫射灯微光)
2024-08-28 04:00:28.238 - 19 08 24 03 CC 01 55 00 01 (调用内卫感应灯关的按键)
2024-08-28 04:00:28.272 - 1A 0C 02 08 01 FF 00 01 FF 00 01 FF 00 00 0F (调光器地址-内卫射灯, 内卫感应灯关)
2024-08-28 04:12:16.162 - FF
2024-08-28 04:19:38.182 - 1A EC A0 DC 01 00 01 00 0F (自保持开关地址-电视、设备12V供电, 12V 设备供电关)
2024-08-28 04:19:38.694 - FF
2024-08-28 04:19:38.734 - 1A EC A0 DC 01 00 01 00 0F (自保持开关地址-电视、设备12V供电, 12V 设备供电关)
2024-08-28 04:19:48.837 - 1A EC A0 DC 01 00 01 01 0F (自保持开关地址-电视、设备12V供电, 12V 设备供电开)
2024-08-28 04:19:49.076 - 0A
2024-08-28 04:19:49.076 - 00
2024-08-28 04:19:49.076 - 00 00 00
2024-08-28 04:19:49.211 - FF
2024-08-28 04:19:49.236 - 1A 27 89 12
2024-08-28 04:19:49.245 - EF
2024-08-28 04:19:49.252 - FF
2024-08-28 04:19:49.262 - FF
2024-08-28 04:19:49.279 - EE 00 7E 07 FF FC
2024-08-28 04:19:49.443 - FF EB FB 0C FC
2024-08-28 04:19:49.443 - FF
2024-08-28 04:19:49.443 - FB
2024-08-28 04:19:49.476 - EE 00 71 B1 01 00 02 FF FC FF FF
2024-08-28 04:19:49.491 - FC
2024-08-28 04:19:49.794 - FE
2024-08-28 04:19:49.892 - 1A EC A0 DC 01 00 01 01 0F (自保持开关地址-电视、设备12V供电, 12V 设备供电开)
2024-08-28 04:19:50.353 - F7
2024-08-28 04:19:50.496 - FF
2024-08-28 04:19:50.675 - 68 86 FF
2024-08-28 04:19:50.726 - 68 86 FF
2024-08-28 04:19:50.811 - 7A 86
2024-08-28 04:19:50.816 - 68 86
2024-08-28 04:19:50.947 - 1A BE B0 DC 03 (继电器地址-西阳天幕)
2024-08-28 04:19:51.373 - FF
2024-08-28 04:19:51.995 - F7
2024-08-28 04:19:52.314 - 68 86 FF
2024-08-28 04:19:58.295 - 19 08 24 03 CC 00 D3 00 01 (调用厨房感应灯开的按键)
2024-08-28 04:19:58.346 - 55 0A 32 00 00 00 01 92 55 0A 32 00 00 00 02 93 (厨房顶灯一开, 厨房顶灯二开)
2024-08-28 04:20:35.358 - 19 08 24 03 CC 00 D4 00 01 (调用厨房感应灯关的按键)
2024-08-28 04:20:35.390 - 55 0A 31 00 00 00 01 91 55 0A 31 00 00 00 02 92 (厨房顶灯一关, 厨房顶灯二关)
2024-08-28 04:25:08.876 - FF
2024-08-28 04:29:06.867 - 19 08 24 03 CC 00 D3 00 01 (调用厨房感应灯开的按键)
2024-08-28 04:29:06.915 - 55 0A 32 00 00 00 01 92 55 0A 32 00 00 00 02 93 (厨房顶灯一开, 厨房顶灯二开)
2024-08-28 04:29:41.929 - 19 08 24 03 CC 00 D4 00 01 (调用厨房感应灯关的按键)
2024-08-28 04:29:41.992 - 55 0A 31 00 00 00 01 91 55 0A 31 00 00 00 02 92 (厨房顶灯一关, 厨房顶灯二关)
2024-08-28 04:33:44.411 - 19 08 24 03 CC 00 D3 00 01 (调用厨房感应灯开的按键)
2024-08-28 04:33:44.443 - 55 0A 32 00 00 00 01 92 55 0A 32 00 00 00 02 93 (厨房顶灯一开, 厨房顶灯二开)
2024-08-28 04:34:21.986 - 19 08 24 03 CC 00 D4 00 01 (调用厨房感应灯关的按键)
2024-08-28 04:34:22.022 - 55 0A 31 00 00 00 01 91 55 0A 31 00 00 00 02 92 (厨房顶灯一关, 厨房顶灯二关)
2024-08-28 04:43:59.623 - 19 08 24 03 CC 00 D3 00 01 (调用厨房感应灯开的按键)
2024-08-28 04:43:59.657 - 55 0A 32 00 00 00 01 92 55 0A 32 00 00 00 02 93 (厨房顶灯一开, 厨房顶灯二开)
2024-08-28 04:44:35.180 - 19 08 24 03 CC 00 D4 00 01 (调用厨房感应灯关的按键)
2024-08-28 04:44:35.230 - 55 0A 31 00 00 00 01 91 55 0A 31 00 00 00 02 92 (厨房顶灯一关, 厨房顶灯二关)
2024-08-28 04:49:38.560 - EE 00 00 B1 00 00 00 FF FC FF FF (情景执行提示)
2024-08-28 04:49:39.185 - A5 00 A2 FF 00 AA (餐厅纱帘关)
2024-08-28 04:49:40.256 - A5 00 A6 FF 00 AA (餐厅窗帘关)
2024-08-28 04:49:40.314 - 55 00 A6 01 00 0E 01 75 AA 55 00 A6 01 00 0E FF (餐厅窗帘电机状态返回)
2024-08-28 04:49:41.350 - A5 00 B7 FF 00 AA 22 0D (书房纱帘关)
2024-08-28 04:49:42.404 - A5 00 D2 FF 00 AA 22 0C (书房窗帘关)
2024-08-28 04:49:42.452 - 55 00 D2 01 00 0D 00 F2 AA 55 00 D2 01 00 0D 00 F2 AA (书房窗帘电机状态返回)
2024-08-28 04:49:43.503 - EE 00 00 B1 00 00 02 FF FC FF FF (情景完成返回主页)
2024-08-28 04:49:48.778 - 55 00 A6 00 01 67 01 75 AA 55 00 A6 00 01 67 01 75 AA (餐厅窗帘电机状态返回)
2024-08-28 04:49:50.300 - 55 00 D2 00 00 E5 00 F2 AA 55 00 D2 00 00 E5 00 F2 AA (书房窗帘电机状态返回)
2024-08-28 05:04:46.571 - 19 08 24 03 CC 00 D3 00 01 (调用厨房感应灯开的按键)
2024-08-28 05:04:46.622 - 55 0A 32 00 00 00 01 92 55 0A 32 00 00 00 02 93 (厨房顶灯一开, 厨房顶灯二开)
2024-08-28 05:05:21.644 - 19 08 24 03 CC 00 D4 00 01 (调用厨房感应灯关的按键)
2024-08-28 05:05:21.676 - 55 0A 31 00 00 00 01 91 55 0A 31 00 00 00 02 92 (厨房顶灯一关, 厨房顶灯二关)
2024-08-28 05:11:28.740 - 1A FF FF FF 04 (继电器地址-东阳衣架)
2024-08-28 05:11:28.876 - 00
2024-08-28 05:13:29.132 - FF
2024-08-28 05:36:27.418 - 1A FF FF FF 60 (红外总线地址-主卧发射设备)
2024-08-28 05:49:03.348 - 03 00 00 2F 2A E0 00 00 00 00 00 43 6F 6F 6B 69 65 3A 20 6D 73 74 73 68 61 73 68 3D 41 64 6D 69
2024-08-28 05:49:03.365 - 6E 69 73 74 72 0D 0A 01 00 08 00 03 00 00 00
2024-08-28 06:44:37.686 - EE 00 00 B1 00 00 00 FF FC FF FF (情景执行提示)
2024-08-28 06:44:38.281 - 09 06 00 0F 02 01 78 21 (提示音叮)
2024-08-28 06:44:38.877 - 50 F0 04 (开内卫影视)
2024-08-28 06:44:39.424 - 50 F0 05 (开主卧影视)
2024-08-28 06:44:39.965 - A5 00 53 FE 01 AA (主卧纱帘关)
2024-08-28 06:44:40.523 - A5 00 53 FE 01 AA (主卧纱帘关)
2024-08-28 06:44:41.071 - A5 00 52 FE 01 AA (主卧窗帘开)
2024-08-28 06:44:42.117 - A5 00 52 FE 01 AA (主卧窗帘开)
2024-08-28 06:44:43.163 - 1A 22 33 62 0F 00 02 01 0F (正反转地址-内卫卷帘, 内卫卷帘降)
2024-08-28 06:44:43.714 - 1A FF FF FF 56 00 00 00 0F (人体感应地址-内卫, 关闭内卫感应)
2024-08-28 06:44:43.809 - BC BC
2024-08-28 06:44:44.256 - 1A 20 07 01 55 00 01 00 0F (自保持开关地址-主卧顶灯, 主卧顶灯只关)
2024-08-28 06:44:45.309 - 1A 0C 02 08 01 FF F0 01 FF F0 01 FF 00 00 0F (调光器地址-内卫射灯, 内卫射灯明亮)
2024-08-28 06:44:45.914 - 1A 0C 02 04 01 FF 00 01 FF 00 01 FF 00 00 0F (调光器地址-主卧筒灯, 主卧筒灯关闭)
2024-08-28 06:44:46.504 - 1A 0C 02 04 03 FF 45 01 FF 45 01 FF 00 00 0F (调光器地址-主卧灯带, 主卧灯带微光)
2024-08-28 06:44:47.109 - 1A 0C 02 04 02 FF F0 01 FF 00 01 FF 00 00 0F (调光器地址-主卧过道, 主卧过道暖光)
2024-08-28 06:44:47.704 - 1A 0C 02 04 05 FF 00 01 FF 00 01 FF 00 00 0F (调光器地址-主卧北阅, 主卧北阅关闭)
2024-08-28 06:44:48.300 - 1A 0C 02 04 04 FF 00 01 FF 00 01 FF 00 00 0F (调光器地址-主卧南阅, 主卧南阅关闭)
2024-08-28 06:44:49.388 - 50 F1 24 (内卫—有线2)
2024-08-28 06:44:50.430 - 50 F1 25 (主卧—有线2)
2024-08-28 06:44:51.482 - AF BF CF DF C2 21 (有线2/快捷-凤凰卫视)
2024-08-28 06:44:52.023 - 1A FF FF FF 60 0B 01 01 0F (红外总线地址-主卧发射设备, 主卧电视电源)
2024-08-28 06:44:52.550 - F0 0B 01 08
2024-08-28 06:44:53.077 - 1A BE B0 DC 01 00 01 00 (继电器地址-回水泵点动, 回水泵点动)
2024-08-28 06:44:54.489 - 55 20 20 00 00 0F 02 16 AA 55 20 20 00 00 0F 02 16 AA (主卧窗帘电机状态返回)
2024-08-28 06:44:57.111 - 09 06 00 0F 02 02 38 20 (提示音咚)
2024-08-28 06:44:57.721 - EE 00 00 B1 00 00 02 FF FC FF FF (情景完成返回主页)
2024-08-28 06:44:58.810 - A1 11 11 11 11 01 (内卫浴霸取暖判断)
2024-08-28 06:44:59.031 - 14 03 00 00 00 02 C6 CE (查询内卫温湿度)
2024-08-28 06:44:59.089 - 14 03 04 01 C8 01 01 FE FC (内卫温湿度返回)
2024-08-28 06:45:39.021 - FF
2024-08-28 07:05:31.318 - 19 08 24 03 CC 00 D3 00 01 (调用厨房感应灯开的按键)
2024-08-28 07:05:31.366 - 55 0A 32 00 00 00 01 92 55 0A 32 00 00 00 02 93 (厨房顶灯一开, 厨房顶灯二开)
2024-08-28 07:06:06.384 - 19 08 24 03 CC 00 D4 00 01 (调用厨房感应灯关的按键)
2024-08-28 07:06:06.479 - 55 0A 31 00 00 00 01 91 55 0A 31 00 00 00 02 92 (厨房顶灯一关, 厨房顶灯二关)
2024-08-28 07:07:25.543 - 19 08 24 03 CC 00 D3 00 01 (调用厨房感应灯开的按键)
2024-08-28 07:07:25.577 - 55 0A 32 00 00 00 01 92 55 0A 32 00 00 00 02 93 (厨房顶灯一开, 厨房顶灯二开)
2024-08-28 07:08:01.117 - 19 08 24 03 CC 00 D4 00 01 (调用厨房感应灯关的按键)
2024-08-28 07:08:01.151 - 55 0A 31 00 00 00 01 91 55 0A 31 00 00 00 02 92 (厨房顶灯一关, 厨房顶灯二关)
2024-08-28 07:08:13.643 - 19 08 24 03 CC 00 D3 00 01 (调用厨房感应灯开的按键)
2024-08-28 07:08:13.675 - 55 0A 32 00 00 00 01 92 55 0A 32 00 00 00 02 93 (厨房顶灯一开, 厨房顶灯二开)
2024-08-28 07:08:48.701 - 19 08 24 03 CC 00 D4 00 01 (调用厨房感应灯关的按键)
2024-08-28 07:08:48.733 - 55 0A 31 00 00 00 01 91 55 0A 31 00 00 00 02 92 (厨房顶灯一关, 厨房顶灯二关)
2024-08-28 07:18:10.673 - 19 08 24 03 DD 00 40 00 01 (调用情景-离开主卧)
2024-08-28 07:18:11.209 - EE 00 00 B1 00 00 00 FF FC FF FF (情景执行提示)
2024-08-28 07:18:11.791 - 09 06 00 0F 02 01 78 21 (提示音叮)
2024-08-28 07:18:12.333 - 50 F5 05 (关主卧影视)
2024-08-28 07:18:12.891 - 50 F5 04 (关内卫影视)
2024-08-28 07:18:13.440 - 01 06 07 D6 FF 60 28 9E (主卧空调关)
2024-08-28 07:18:13.471 - 01 06 07 D6 FF 60 28 9E (主卧空调关)
2024-08-28 07:18:14.041 - A5 00 52 FE 01 AA (主卧窗帘开)
2024-08-28 07:18:15.086 - A5 00 52 FE 01 AA (主卧窗帘开)
2024-08-28 07:18:16.131 - A5 00 53 FF 00 AA (主卧纱帘开)
2024-08-28 07:18:16.179 - 55 00 53 01 00 0C 02 30 AA 55 00 53 01 00 0C 02 30 AA (主卧纱帘电机状态返回)
2024-08-28 07:18:16.721 - A5 00 53 FF 00 AA (主卧纱帘开)
2024-08-28 07:18:17.330 - 1A 22 33 62 0F 00 00 01 0F (正反转地址-内卫卷帘, 内卫卷帘升)
2024-08-28 07:18:17.996 - 55 20 20 00 00 0F 02 16 AA 55 20 20 00 00 0F 02 16 AA (主卧窗帘电机状态返回)
2024-08-28 07:18:18.378 - 1A 20 07 01 40 00 01 00 0F (自保持开关地址-内卫顶灯, 内卫顶灯关)
2024-08-28 07:18:19.422 - 1A 20 07 01 55 00 01 00 0F (自保持开关地址-主卧顶灯, 主卧顶灯只关)
2024-08-28 07:18:19.972 - 1A 0C 02 08 01 FF 00 01 FF 00 01 FF 00 00 0F (调光器地址-内卫射灯, 内卫感应灯关)
2024-08-28 07:18:20.563 - 1A FF FF FF 56 00 00 01 0F (人体感应地址-内卫, 打开内卫感应)
2024-08-28 07:18:20.977 - 19 08 24 03 CC 01 54 00 01 (调用内卫感应灯开的按键)
2024-08-28 07:18:21.041 - 1A 0C 02 08 01 FF 45 01 FF 45 01 FF 00 00 0F (调光器地址-内卫射灯, 内卫射灯微光)
2024-08-28 07:18:24.406 - 1A 0C 02 04 FF FF 00 01 FF 00 01 FF 00 00 0F (主卧调光全关)
2024-08-28 07:18:25.506 - 09 06 00 0F 02 02 38 20 (提示音咚)
2024-08-28 07:18:26.053 - EE 00 00 B1 00 00 02 FF FC FF FF (情景完成返回主页)
2024-08-28 07:18:26.802 - 55 00 53 00 02 22 02 30 AA 55 00 53 00 02 22 02 30 AA (主卧纱帘电机状态返回)
2024-08-28 07:19:07.776 - 19 08 24 03 CC 01 55 00 01 (调用内卫感应灯关的按键)
2024-08-28 07:19:07.824 - 1A 0C 02 08 01 FF 00 01 FF 00 01 FF 00 00 0F (调光器地址-内卫射灯, 内卫感应灯关)
2024-08-28 07:19:34.190 - 19 08 24 03 DD 00 00 00 01 (调用情景-离家（末）)
2024-08-28 07:19:34.716 - EE 00 00 B1 00 00 00 FF FC FF FF (情景执行提示)
2024-08-28 07:19:35.305 - 09 06 00 0F 02 02 38 20 (提示音咚)
2024-08-28 07:19:35.848 - 50 F7 01 (全屋影音全关)
2024-08-28 07:19:36.409 - 01 06 07 D0 FF 60 C8 9F (客厅空调关)
2024-08-28 07:19:36.443 - 01 06 07 D0 FF 60 C8 9F (客厅空调关)
2024-08-28 07:19:37.004 - 01 06 07 D0 FF 60 C8 9F (客厅空调关)
2024-08-28 07:19:37.038 - 01 06 07 D0 FF 60 C8 9F (客厅空调关)
2024-08-28 07:19:37.601 - 01 06 07 D3 FF 60 38 9F (餐厅空调关)
2024-08-28 07:19:37.651 - 01 06 07 D3 FF 60 38 9F (餐厅空调关)
2024-08-28 07:19:38.195 - 01 06 07 D3 FF 60 38 9F (餐厅空调关)
2024-08-28 07:19:38.749 - 01 06 07 D6 FF 60 28 9E (主卧空调关)
2024-08-28 07:19:38.781 - 01 06 07 D6 FF 60 28 9E (主卧空调关)
2024-08-28 07:19:39.351 - 01 06 07 D6 FF 60 28 9E (主卧空调关)
2024-08-28 07:19:39.370 - 01 06 07 D6 FF 60 28 9E (主卧空调关)
2024-08-28 07:19:39.945 - 01 06 07 D9 FF 60 18 9D (次卧空调关)
2024-08-28 07:19:39.977 - 01 06 07 D9 FF 60 18 9D (次卧空调关)
2024-08-28 07:19:40.543 - 01 06 07 D9 FF 60 18 9D (次卧空调关)
2024-08-28 07:19:40.575 - 01 06 07 D9 FF 60 18 9D (次卧空调关)
2024-08-28 07:19:41.141 - 01 06 07 DC FF 60 08 9C (书房空调关)
2024-08-28 07:19:41.173 - 01 06 07 DC FF 60 08 9C (书房空调关)
2024-08-28 07:19:41.732 - 01 06 07 DC FF 60 08 9C (书房空调关)
2024-08-28 07:19:41.765 - 01 06 07 DC FF 60 08 9C (书房空调关)
2024-08-28 07:19:42.178 - 19 08 24 03 CC 01 CD 00 01 (调用茶吧感应灯关的按键)
2024-08-28 07:19:42.226 - 1A AA AA AA 88 FF 00 01 FF 00 01 0F (调光器地址-茶吧灯带, 茶吧灯带关闭)
2024-08-28 07:19:42.624 - 09 06 00 0F 02 02 38 20 (提示音咚)
2024-08-28 07:19:43.181 - 1A FF FF FF 56 00 00 00 0F (人体感应地址-内卫, 关闭内卫感应)
2024-08-28 07:19:43.724 - 1A FF FF FF 55 00 00 00 0F (人体感应地址-外卫, 关闭外卫感应)
2024-08-28 07:19:43.824 - BC BC
2024-08-28 07:19:44.334 - 1A FF FF FF 57 00 00 00 0F (人体感应地址-厨房, 关闭厨房感应)
2024-08-28 07:19:44.877 - 1A 20 07 00 93 00 01 00 0F (自保持开关地址-设备区顶, 设备区顶灯关)
2024-08-28 07:19:45.972 - 1A 20 07 01 40 00 01 00 0F (自保持开关地址-内卫顶灯, 内卫顶灯关)
2024-08-28 07:19:47.073 - 1A 20 07 01 55 00 01 00 0F (自保持开关地址-主卧顶灯, 主卧顶灯只关)
2024-08-28 07:19:48.159 - 1A 20 07 00 42 00 01 00 0F (自保持开关地址-外卫顶灯, 外卫顶灯关)
2024-08-28 07:19:49.264 - 55 0D 31 00 00 00 01 94 (书房顶灯只关)
2024-08-28 07:19:50.390 - 55 0A 31 00 00 00 01 91 (厨房顶灯一关)
2024-08-28 07:19:51.458 - 55 0A 31 00 00 00 02 92 (厨房顶灯二关)
2024-08-28 07:19:52.496 - 55 0B 31 00 00 00 01 92 (厨房风扇只关)
2024-08-28 07:19:53.550 - 55 0C 31 00 00 00 01 93 (餐厅顶灯关)
2024-08-28 07:19:54.599 - 1A 20 07 01 30 00 01 00 0F (自保持开关地址-西阳顶灯, 西阳顶灯关)
2024-08-28 07:19:55.642 - 1A 18 05 21 89 00 01 00 0F (自保持开关地址-客厅顶灯, 客厅顶灯一关)
2024-08-28 07:19:56.687 - 1A 18 05 01 94 00 01 00 0F (自保持开关地址-客厅顶灯, 客厅顶灯二关)
2024-08-28 07:19:57.733 - 1A 20 07 00 70 00 01 00 0F (自保持开关地址-次卧顶灯, 次卧顶灯只关)
2024-08-28 07:19:58.776 - 1A 18 05 10 31 00 01 00 0F (自保持开关地址-门厅顶灯, 门厅顶灯关)
2024-08-28 07:19:59.829 - 1A FF FF FF 04 00 03 02 (继电器地址-东阳衣架, 东阳衣架照明关)
2024-08-28 07:20:00.372 - 09 06 00 0F 02 02 38 20 (提示音咚)
2024-08-28 07:20:00.914 - A5 00 A6 FE 01 AA (餐厅窗帘开)
2024-08-28 07:20:00.965 - 55 00 A6 02 01 67 01 75 AA 55 00 A6 02 01 67 01 75 AA (餐厅窗帘电机状态返回)
2024-08-28 07:20:01.521 - FF FF FF FF 0A 00 01 00 (继电器地址-东阳窗帘, 东阳窗帘开)
2024-08-28 07:20:02.070 - 1A BE B0 DC 04 00 01 00 (继电器地址-西阳窗帘, 西阳窗帘开)
2024-08-28 07:20:02.620 - FF FF FF FF 0E 00 01 00 (继电器地址-西阳小窗帘, 西阳小窗帘开)
2024-08-28 07:20:03.162 - 1A 22 33 62 0F 00 00 01 0F (正反转地址-内卫卷帘, 内卫卷帘升)
2024-08-28 07:20:03.705 - A5 00 52 FE 01 AA (主卧窗帘开)
2024-08-28 07:20:04.263 - A5 00 53 FF 00 AA (主卧纱帘开)
2024-08-28 07:20:04.807 - A5 00 76 FE 01 AA (次卧窗帘开)
2024-08-28 07:20:05.351 - A5 00 21 FE 01 AA (次卧纱帘开)
2024-08-28 07:20:05.905 - A5 00 D2 FE 01 AA 22 0D (书房窗帘开)
2024-08-28 07:20:05.963 - 55 00 D2 02 00 E5 00 F2 AA 55 00 D2 02 00 E5 00 F2 (书房窗帘电机状态返回)
2024-08-28 07:20:06.507 - 1A BE B0 DC 09 00 01 00 (继电器地址-客厅窗帘, 客厅窗帘开)
2024-08-28 07:20:07.054 - 1A BE B0 DC 0A 00 02 00 (继电器地址-客厅纱帘, 客厅纱帘开)
2024-08-28 07:20:07.646 - 09 06 00 0F 02 02 38 20 (提示音咚)
2024-08-28 07:20:08.700 - 1A EC A0 DC 02 00 00 00 0F (自保持开关地址-天花12V供电, 天花12V 供电关)
2024-08-28 07:20:09.245 - 1A EC A0 DC 02 00 00 00 0F (自保持开关地址-天花12V供电, 天花12V 供电关)
2024-08-28 07:20:09.796 - 1A EC A0 DC 01 00 00 00 0F (自保持开关地址-电视、设备12V供电, 12V 电视供电关)
2024-08-28 07:20:09.976 - 55 00 A6 00 00 0E 01 75 AA 55 00 A6 00 00 0E 01 75 AA (餐厅窗帘电机状态返回)
2024-08-28 07:20:10.338 - 1A EC A0 DC 01 00 00 00 0F (自保持开关地址-电视、设备12V供电, 12V 电视供电关)
2024-08-28 07:20:10.880 - 1A EC A0 DC 04 00 01 00 0F (自保持开关地址-次卧西阳内外卫供电, 内卫外卫关)
2024-08-28 07:20:11.439 - 1A EC A0 DC 04 00 01 00 0F (自保持开关地址-次卧西阳内外卫供电, 内卫外卫关)
2024-08-28 07:20:13.480 - 55 00 D2 00 00 0E 00 F2 AA 55 00 D2 00 00 0E 00 F2 AA (书房窗帘电机状态返回)
2024-08-28 07:20:29.544 - 09 06 00 0F 02 02 38 20 (提示音咚)
2024-08-28 07:20:30.096 - 1A 27 89 12 AA 00 00 00 0F (状态寄存器地址, 无人状态)
2024-08-28 07:20:30.644 - 1A 27 89 12 AA 00 00 00 0F (状态寄存器地址, 无人状态)
2024-08-28 07:20:31.185 - A1 11 11 11 4D (天花供电关闭确认)
2024-08-28 07:20:31.408 - 1A EC A0 DC 02 86 86 86 0F (查询天花供电状态, 自保持开关地址-天花12V供电)
2024-08-28 07:20:31.847 - 1A EC A0 DC 02 00 01 0F (自保持开关地址-天花12V供电)
2024-08-28 07:20:34.228 - A1 11 11 11 4E (卫生供电关闭确认)
2024-08-28 07:20:34.455 - 1A EC A0 DC 04 86 86 86 0F (查询卫生间供电状态, 自保持开关地址-次卧西阳内外卫供电)
2024-08-28 07:20:34.885 - 1A EC A0 DC 04 01 00 0F (自保持开关地址-次卧西阳内外卫供电)
2024-08-28 07:20:37.263 - A1 11 11 11 4F (电视供电关闭确认)
2024-08-28 07:20:37.494 - 1A EC A0 DC 01 86 86 86 0F (查询电视供电状态, 自保持开关地址-电视、设备12V供电)
2024-08-28 07:20:37.919 - 1A EC A0 DC 01 00 01 0F (自保持开关地址-电视、设备12V供电)
2024-08-28 07:20:40.309 - 09 06 00 0F 02 02 38 20 (提示音咚)
2024-08-28 07:20:40.851 - 09 06 00 0F 02 02 38 20 (提示音咚)
2024-08-28 07:20:41.458 - EE 00 00 B1 00 00 02 FF FC FF FF (情景完成返回主页)
2024-08-28 07:20:42.545 - BA BA EE EE BA BA (离家设置信科变量)
2024-08-28 07:20:43.596 - A1 11 11 11 46 (天热离家遮阳)
2024-08-28 07:20:43.820 - 1A 27 89 12 AA 86 86 86 0F (查询寄存器状态, 状态寄存器地址)
2024-08-28 07:20:44.201 - 1A 27 89 12 AA 00 00 00 00 00 00 00 00 00 00 00 01 00 00 00 00 0F (状态寄存器地址)
2024-08-28 07:20:44.824 - 19 08 24 03 DD 00 05 00 01 (调用情景-天热遮阳关帘)
2024-08-28 07:20:45.397 - EE 00 00 B1 00 00 00 FF FC FF FF (情景执行提示)
2024-08-28 07:20:45.987 - 09 06 00 0F 02 01 78 21 (提示音叮)
2024-08-28 07:20:46.528 - A5 00 A2 FF 00 AA (餐厅纱帘关)
2024-08-28 07:20:47.581 - A5 00 A6 FF 00 AA (餐厅窗帘关)
2024-08-28 07:20:47.629 - 55 00 A6 01 00 0E 01 75 AA 55 00 A6 01 00 0E 01 75 FF (餐厅窗帘电机状态返回)
2024-08-28 07:20:48.666 - A5 00 53 FE 01 AA (主卧纱帘关)
2024-08-28 07:20:48.734 - 55 00 53 02 02 22 02 30 AA 55 00 53 02 02 22 FE (主卧纱帘电机状态返回)
2024-08-28 07:20:49.771 - A5 00 52 FF 00 AA (主卧窗帘关)
2024-08-28 07:20:50.819 - A5 00 21 FF 00 AA (次卧纱帘关)
2024-08-28 07:20:50.876 - 55 00 21 01 00 0D 01 34 AA 55 00 21 01 00 0D 01 34 AA (次卧纱帘电机状态返回)
2024-08-28 07:20:51.914 - A5 00 76 FF 00 AA (次卧窗帘关)
2024-08-28 07:20:51.968 - 55 00 76 01 00 0E 01 1B AA 55 00 76 01 00 0E 01 1B AA (次卧窗帘电机状态返回)
2024-08-28 07:20:53.004 - A5 00 B7 FF 00 AA 22 0D (书房纱帘关)
2024-08-28 07:20:54.057 - A5 00 D2 FF 00 AA 22 0C (书房窗帘关)
2024-08-28 07:20:54.107 - 55 00 D2 01 00 0E 00 F2 AA 55 00 D2 01 00 0E 00 F2 AA (书房窗帘电机状态返回)
2024-08-28 07:20:55.656 - 1A 22 33 62 5E 00 02 01 0F (正反转地址-厨房卷帘三, 厨房卷帘一降)
2024-08-28 07:20:56.050 - 55 00 A6 00 01 67 01 75 AA 55 00 A6 00 01 67 01 75 AA (餐厅窗帘电机状态返回)
2024-08-28 07:20:56.703 - 1A 22 33 62 56 00 02 01 0F (正反转地址-厨房卷帘二, 厨房卷帘二降)
2024-08-28 07:20:57.748 - 1A 22 33 62 4F 00 00 01 0F (正反转地址-厨房卷帘一, 厨房卷帘三降)
2024-08-28 07:20:58.173 - 55 00 21 00 01 27 01 34 AA 55 00 21 00 01 27 01 34 AA (次卧纱帘电机状态返回)
2024-08-28 07:20:58.792 - 1A BE B0 DC 04 00 02 00 (继电器地址-西阳窗帘, 西阳窗帘关)
2024-08-28 07:20:58.956 - 55 00 76 00 01 0E 01 1B AA 55 00 76 00 01 0E 01 1B AA (次卧窗帘电机状态返回)
2024-08-28 07:20:59.531 - 55 00 53 00 00 0C 02 30 AA 55 00 53 00 00 0C 02 30 AA (主卧纱帘电机状态返回)
2024-08-28 07:20:59.840 - FF FF FF FF 0E 00 02 00 (继电器地址-西阳小窗帘, 西阳小窗帘关)
2024-08-28 07:21:00.880 - 1A BE B0 DC 03 00 03 00 (继电器地址-西阳天幕, 西阳天幕关)
2024-08-28 07:21:01.934 - 1A BE B0 DC 03 00 03 00 (继电器地址-西阳天幕, 西阳天幕关)
2024-08-28 07:21:02.012 - 55 00 D2 00 00 E5 00 F2 AA 55 00 D2 00 00 E5 00 F2 AA (书房窗帘电机状态返回)
2024-08-28 07:21:02.152 - 55 20 20 00 02 09 02 16 AA 55 20 20 00 02 09 02 16 AA (主卧窗帘电机状态返回)
2024-08-28 07:21:03.019 - 09 06 00 0F 02 02 38 20 (提示音咚)
2024-08-28 07:21:03.583 - EE 00 00 B1 00 00 02 FF FC FF FF (情景完成返回主页)
2024-08-28 07:42:17.613 - 1A BE B0 DC 04 (继电器地址-西阳窗帘)
2024-08-28 07:42:17.749 - FF
2024-08-28 07:42:18.565 - FF FF FF FF 0E (继电器地址-西阳小窗帘)
2024-08-28 07:42:18.701 - FF
2024-08-28 07:42:22.012 - 1A BE B0 DC 02 (正反转地址-外卫卷帘)
2024-08-28 07:42:22.140 - FF
2024-08-28 07:42:24.551 - 1A BE B0 DC 09 FE (继电器地址-客厅窗帘)
2024-08-28 07:42:24.738 - 1A BE B0 DC 03 FE (继电器地址-西阳天幕)
2024-08-28 07:42:24.866 - FF
2024-08-28 07:42:25.489 - 1A BE B0 DC 0A FF (继电器地址-客厅纱帘)
2024-08-28 07:42:25.623 - FF
2024-08-28 07:43:03.021 - FF FF FF FF 0A (继电器地址-东阳窗帘)
2024-08-28 07:43:03.155 - FE
2024-08-28 07:51:29.959 - 19 08 24 03 CC 01 CC 00 01 (调用茶吧感应灯开的按键)
2024-08-28 07:51:30.008 - 1A AA AA AA 88 FF B0 01 FF B0 01 0F (调光器地址-茶吧灯带, 茶吧灯带明亮)
2024-08-28 07:51:36.966 - 19 08 24 03 CC 01 CD 00 01 (调用茶吧感应灯关的按键)
2024-08-28 07:51:37.017 - 1A AA AA AA 88 FF 00 01 FF 00 01 0F (调光器地址-茶吧灯带, 茶吧灯带关闭)
2024-08-28 07:52:38.081 - 19 08 24 03 CC 01 CC 00 01 (调用茶吧感应灯开的按键)
2024-08-28 07:52:38.112 - 1A AA AA AA 88 FF B0 01 FF B0 01 0F (调光器地址-茶吧灯带, 茶吧灯带明亮)
2024-08-28 07:52:45.596 - 19 08 24 03 CC 01 CD 00 01 (调用茶吧感应灯关的按键)
2024-08-28 07:52:45.640 - 1A AA AA AA 88 FF 00 01 FF 00 01 0F (调光器地址-茶吧灯带, 茶吧灯带关闭)
2024-08-28 08:00:18.492 - 19 08 24 03 CC 01 CC 00 01 (调用茶吧感应灯开的按键)
2024-08-28 08:00:18.524 - 1A AA AA AA 88 FF B0 01 FF B0 01 0F (调光器地址-茶吧灯带, 茶吧灯带明亮)
2024-08-28 08:00:25.510 - 19 08 24 03 CC 01 CD 00 01 (调用茶吧感应灯关的按键)
2024-08-28 08:00:25.544 - 1A AA AA AA 88 FF 00 01 FF 00 01 0F (调光器地址-茶吧灯带, 茶吧灯带关闭)
2024-08-28 08:18:20.125 - 19 08 24 03 CC 01 CC 00 01 (调用茶吧感应灯开的按键)
2024-08-28 08:18:20.156 - 1A AA AA AA 88 FF B0 01 FF B0 01 0F (调光器地址-茶吧灯带, 茶吧灯带明亮)
2024-08-28 08:18:27.146 - 19 08 24 03 CC 01 CD 00 01 (调用茶吧感应灯关的按键)
2024-08-28 08:18:27.180 - 1A AA AA AA 88 FF 00 01 FF 00 01 0F (调光器地址-茶吧灯带, 茶吧灯带关闭)
2024-08-28 08:32:41.519 - EE 00 00 B1 00 00 00 FF FC FF FF (情景执行提示)
2024-08-28 08:32:42.124 - 09 06 00 0F 02 01 78 21 (提示音叮)
2024-08-28 08:32:42.667 - A5 00 A6 FE 01 AA (餐厅窗帘开)
2024-08-28 08:32:42.717 - 55 00 A6 02 01 67 01 75 AA 55 00 A6 02 01 67 01 75 AA (餐厅窗帘电机状态返回)
2024-08-28 08:32:43.769 - A5 00 52 FE 01 AA (主卧窗帘开)
2024-08-28 08:32:44.805 - A5 00 53 FF 00 AA (主卧纱帘开)
2024-08-28 08:32:44.852 - 55 00 53 01 00 0C 02 30 AA 55 00 53 01 00 0C 02 30 AA (主卧纱帘电机状态返回)
2024-08-28 08:32:45.906 - A5 00 76 FE 01 AA (次卧窗帘开)
2024-08-28 08:32:45.960 - 55 00 76 02 01 0E 01 1B AA 55 00 76 02 01 0E 01 1B AA (次卧窗帘电机状态返回)
2024-08-28 08:32:47.005 - A5 00 21 FE 01 AA (次卧纱帘开)
2024-08-28 08:32:47.053 - 55 00 21 02 01 27 01 34 AA 55 00 21 02 01 27 01 34 AA (次卧纱帘电机状态返回)
2024-08-28 08:32:48.106 - 1A BE B0 DC 04 00 01 00 (继电器地址-西阳窗帘, 西阳窗帘开)
2024-08-28 08:32:49.143 - FF FF FF FF 0E 00 01 00 (继电器地址-西阳小窗帘, 西阳小窗帘开)
2024-08-28 08:32:50.197 - A5 00 D2 FE 01 AA 22 0D (书房窗帘开)
2024-08-28 08:32:50.245 - 55 00 D2 02 00 E5 00 F2 AA 55 00 D2 02 00 E5 00 F2 AA (书房窗帘电机状态返回)
2024-08-28 08:32:51.283 - 09 06 00 0F 02 02 38 20 (提示音咚)
2024-08-28 08:32:51.442 - 55 00 A6 00 00 0E 01 75 AA 55 00 A6 00 00 0E 01 75 AA (餐厅窗帘电机状态返回)
2024-08-28 08:32:51.841 - EE 00 00 B1 00 00 02 FF FC FF FF (情景完成返回主页)
2024-08-28 08:32:52.878 - 55 00 76 00 00 0E 01 1B AA 55 00 76 00 00 0E 01 1B AA (次卧窗帘电机状态返回)
2024-08-28 08:32:54.553 - 55 00 21 00 00 0D 01 34 AA 55 00 21 00 00 0D 01 34 AA (次卧纱帘电机状态返回)
2024-08-28 08:32:55.957 - 55 20 20 00 00 0E 02 16 AA 55 20 20 00 00 0E 02 16 AA (主卧窗帘电机状态返回)
2024-08-28 08:32:56.296 - 55 00 53 00 02 22 02 30 AA 55 00 53 00 02 22 02 30 AA (主卧纱帘电机状态返回)
2024-08-28 08:32:58.047 - 55 00 D2 00 00 0E 00 F2 AA 55 00 D2 00 00 0E 00 F2 AA (书房窗帘电机状态返回)
2024-08-28 08:33:29.090 - 1A FF FF FF 04 (继电器地址-东阳衣架)
2024-08-28 08:33:29.233 - 00
2024-08-28 08:38:49.271 - FF
2024-08-28 08:38:54.583 - 19 08 24 03 CC 01 CC 00 01 (调用茶吧感应灯开的按键)
2024-08-28 08:38:54.631 - 1A AA AA AA 88 FF B0 01 FF B0 01 0F (调光器地址-茶吧灯带, 茶吧灯带明亮)
2024-08-28 08:39:02.095 - 19 08 24 03 CC 01 CD 00 01 (调用茶吧感应灯关的按键)
2024-08-28 08:39:02.127 - 1A AA AA AA 88 FF 00 01 FF 00 01 0F (调光器地址-茶吧灯带, 茶吧灯带关闭)
2024-08-28 08:40:33.776 - 19 08 24 03 CC 01 CC 00 01 (调用茶吧感应灯开的按键)
2024-08-28 08:40:33.797 - 1A AA AA AA 88 FF B0 01 FF B0 01 0F (调光器地址-茶吧灯带, 茶吧灯带明亮)
2024-08-28 08:40:41.280 - 19 08 24 03 CC 01 CD 00 01 (调用茶吧感应灯关的按键)
2024-08-28 08:40:41.311 - 1A AA AA AA 88 FF 00 01 FF 00 01 0F (调光器地址-茶吧灯带, 茶吧灯带关闭)
2024-08-28 08:44:45.267 - 19 08 24 03 CC 01 CC 00 01 (调用茶吧感应灯开的按键)
2024-08-28 08:44:45.299 - 1A AA AA AA 88 FF B0 01 FF B0 01 0F (调光器地址-茶吧灯带, 茶吧灯带明亮)
2024-08-28 08:44:52.285 - 19 08 24 03 CC 01 CD 00 01 (调用茶吧感应灯关的按键)
2024-08-28 08:44:52.317 - 1A AA AA AA 88 FF 00 01 FF 00 01 0F (调光器地址-茶吧灯带, 茶吧灯带关闭)
2024-08-28 08:59:42.045 - 19 08 24 03 CC 01 CC 00 01 (调用茶吧感应灯开的按键)
2024-08-28 08:59:42.074 - 1A AA AA AA 88 FF B0 01 FF B0 01 0F (调光器地址-茶吧灯带, 茶吧灯带明亮)
2024-08-28 09:00:24.120 - 19 08 24 03 CC 01 CD 00 01 (调用茶吧感应灯关的按键)
2024-08-28 09:00:24.152 - 1A AA AA AA 88 FF 00 01 FF 00 01 0F (调光器地址-茶吧灯带, 茶吧灯带关闭)
2024-08-28 09:00:39.657 - 19 08 24 03 CC 01 CC 00 01 (调用茶吧感应灯开的按键)
2024-08-28 09:00:39.691 - 1A AA AA AA 88 FF B0 01 FF B0 01 0F (调光器地址-茶吧灯带, 茶吧灯带明亮)
2024-08-28 09:01:03.706 - 19 08 24 03 CC 01 CD 00 01 (调用茶吧感应灯关的按键)
2024-08-28 09:01:03.725 - 1A AA AA AA 88 FF 00 01 FF 00 01 0F (调光器地址-茶吧灯带, 茶吧灯带关闭)
2024-08-28 09:01:20.728 - 19 08 24 03 CC 01 CC 00 01 (调用茶吧感应灯开的按键)
2024-08-28 09:01:20.762 - 1A AA AA AA 88 FF B0 01 FF B0 01 0F (调光器地址-茶吧灯带, 茶吧灯带明亮)
2024-08-28 09:02:46.911 - 19 08 24 03 CC 01 CD 00 01 (调用茶吧感应灯关的按键)
2024-08-28 09:02:46.938 - 1A AA AA AA 88 FF 00 01 FF 00 01 0F (调光器地址-茶吧灯带, 茶吧灯带关闭)
2024-08-28 09:02:55.423 - 19 08 24 03 CC 01 CC 00 01 (调用茶吧感应灯开的按键)
2024-08-28 09:02:55.454 - 1A AA AA AA 88 FF B0 01 FF B0 01 0F (调光器地址-茶吧灯带, 茶吧灯带明亮)
2024-08-28 09:03:10.453 - 19 08 24 03 CC 01 CD 00 01 (调用茶吧感应灯关的按键)
2024-08-28 09:03:10.484 - 1A AA AA AA 88 FF 00 01 FF 00 01 0F (调光器地址-茶吧灯带, 茶吧灯带关闭)
2024-08-28 09:03:20.471 - 19 08 24 03 CC 01 CC 00 01 (调用茶吧感应灯开的按键)
2024-08-28 09:03:20.504 - 1A AA AA AA 88 FF B0 01 FF B0 01 0F (调光器地址-茶吧灯带, 茶吧灯带明亮)
2024-08-28 09:03:31.987 - 19 08 24 03 CC 01 CD 00 01 (调用茶吧感应灯关的按键)
2024-08-28 09:03:32.019 - 1A AA AA AA 88 FF 00 01 FF 00 01 0F (调光器地址-茶吧灯带, 茶吧灯带关闭)
2024-08-28 09:05:49.758 - 19 08 24 03 CC 01 CC 00 01 (调用茶吧感应灯开的按键)
2024-08-28 09:05:49.791 - 1A AA AA AA 88 FF B0 01 FF B0 01 0F (调光器地址-茶吧灯带, 茶吧灯带明亮)
2024-08-28 09:07:36.982 - 19 08 24 03 CC 01 CD 00 01 (调用茶吧感应灯关的按键)
2024-08-28 09:07:37.003 - 1A AA AA AA 88 FF 00 01 FF 00 01 0F (调光器地址-茶吧灯带, 茶吧灯带关闭)
2024-08-28 09:07:50.008 - 19 08 24 03 CC 01 CC 00 01 (调用茶吧感应灯开的按键)
2024-08-28 09:07:50.034 - 1A AA AA AA 88 FF B0 01 FF B0 01 0F (调光器地址-茶吧灯带, 茶吧灯带明亮)
2024-08-28 09:08:47.615 - 19 08 24 03 CC 01 CD 00 01 (调用茶吧感应灯关的按键)
2024-08-28 09:08:47.648 - 1A AA AA AA 88 FF 00 01 FF 00 01 0F (调光器地址-茶吧灯带, 茶吧灯带关闭)
2024-08-28 09:09:57.261 - 19 08 24 03 CC 01 CC 00 01 (调用茶吧感应灯开的按键)
2024-08-28 09:09:57.283 - 1A AA AA AA 88 FF B0 01 FF B0 01 0F (调光器地址-茶吧灯带, 茶吧灯带明亮)
2024-08-28 09:11:05.391 - 19 08 24 03 CC 01 CD 00 01 (调用茶吧感应灯关的按键)
2024-08-28 09:11:05.423 - 1A AA AA AA 88 FF 00 01 FF 00 01 0F (调光器地址-茶吧灯带, 茶吧灯带关闭)
2024-08-28 09:41:58.549 - 19 08 24 03 CC 01 CC 00 01 (调用茶吧感应灯开的按键)
2024-08-28 09:41:58.583 - 1A AA AA AA 88 FF B0 01 FF B0 01 0F (调光器地址-茶吧灯带, 茶吧灯带明亮)
2024-08-28 09:42:05.562 - 19 08 24 03 CC 01 CD 00 01 (调用茶吧感应灯关的按键)
2024-08-28 09:42:05.594 - 1A AA AA AA 88 FF 00 01 FF 00 01 0F (调光器地址-茶吧灯带, 茶吧灯带关闭)
2024-08-28 09:46:22.573 - 19 08 24 03 CC 01 CC 00 01 (调用茶吧感应灯开的按键)
2024-08-28 09:46:22.595 - 1A AA AA AA 88 FF B0 01 FF B0 01 0F (调光器地址-茶吧灯带, 茶吧灯带明亮)
2024-08-28 09:46:29.585 - 19 08 24 03 CC 01 CD 00 01 (调用茶吧感应灯关的按键)
2024-08-28 09:46:29.611 - 1A AA AA AA 88 FF 00 01 FF 00 01 0F (调光器地址-茶吧灯带, 茶吧灯带关闭)
2024-08-28 09:48:08.783 - 19 08 24 03 CC 01 CC 00 01 (调用茶吧感应灯开的按键)
2024-08-28 09:48:08.807 - 1A AA AA AA 88 FF B0 01 FF B0 01 0F (调光器地址-茶吧灯带, 茶吧灯带明亮)
2024-08-28 09:48:15.797 - 19 08 24 03 CC 01 CD 00 01 (调用茶吧感应灯关的按键)
2024-08-28 09:48:15.823 - 1A AA AA AA 88 FF 00 01 FF 00 01 0F (调光器地址-茶吧灯带, 茶吧灯带关闭)
2024-08-28 09:53:24.058 - EE 00 00 B1 00 00 00 FF FC FF FF (情景执行提示)
2024-08-28 09:53:24.653 - 09 06 00 0F 02 01 78 21 (提示音叮)
2024-08-28 09:53:25.198 - A1 11 11 11 40 (客厅空调自动开)
2024-08-28 09:53:25.419 - 19 08 24 03 F0 BB 78 02 02 00
2024-08-28 09:53:25.470 - 23 AA 56 02 09 35 31 18 08 1C 03 73 65 6F 6B 65 6E 64
2024-08-28 09:53:26.423 - 01 10 07 D0 00 03 06 70 61 00 02 00 FA 6F 26 (客厅空调冷25度)
2024-08-28 09:53:26.471 - 01 10 07 D0 00 03 06 70 61 00 02 00 FA 6F 26 (客厅空调冷25度)
2024-08-28 09:53:29.232 - A1 11 11 11 41 (餐厅空调自动开)
2024-08-28 09:53:29.467 - 19 08 24 03 F0 BB 78 02 02 00
2024-08-28 09:53:29.504 - 23 AA 56 02 09 35 36 18 08 1C 03 73 65 6F 6B 65 6E 64
2024-08-28 09:53:30.476 - 01 10 07 D3 00 03 06 70 61 00 02 00 FA 9F 29 (餐厅空调冷25度)
2024-08-28 09:53:30.508 - 01 10 07 D3 00 03 06 70 61 00 02 00 FA 9F 29 (餐厅空调冷25度)
2024-08-28 09:53:33.270 - 09 06 00 0F 02 02 38 20 (提示音咚)
2024-08-28 09:53:33.827 - EE 00 00 B1 00 00 02 FF FC FF FF (情景完成返回主页)
2024-08-28 10:04:12.183 - 19 08 24 03 CC 01 CC 00 01 (调用茶吧感应灯开的按键)
2024-08-28 10:04:12.234 - 1A AA AA AA 88 FF B0 01 FF B0 01 0F (调光器地址-茶吧灯带, 茶吧灯带明亮)
2024-08-28 10:04:15.193 - 1B 03 00 00 00 02 C6 31 (查询室外光线)
2024-08-28 10:04:15.211 - 1B 03 04 00 00 01 45 81 91 (室外光线返回)
2024-08-28 10:04:15.533 - 1A EC A0 DC 02 00 00 01 0F (自保持开关地址-天花12V供电, 天花12V 供电开)
2024-08-28 10:04:15.822 - 19 08 24 03 DD 00 0C 00 01 (调用情景-信科调用进门亮)
2024-08-28 10:04:16.043 - 1A AA AA AA 88 (调光器地址-茶吧灯带)
2024-08-28 10:04:17.444 - EE 00 00 B1 00 00 00 FF FC FF FF (情景执行提示)
2024-08-28 10:04:18.035 - 09 06 00 0F 02 01 78 21 (提示音叮)
2024-08-28 10:04:18.595 - 1A EC A0 DC 02 00 00 01 0F (自保持开关地址-天花12V供电, 天花12V 供电开)
2024-08-28 10:04:19.140 - 1A EC A0 DC 04 00 01 01 0F (自保持开关地址-次卧西阳内外卫供电, 内卫外卫开)
2024-08-28 10:04:19.684 - 1A EC A0 DC 04 00 01 01 0F (自保持开关地址-次卧西阳内外卫供电, 内卫外卫开)
2024-08-28 10:04:20.236 - 1A EC A0 DC 01 00 00 01 0F (自保持开关地址-电视、设备12V供电, 12V 电视供电开)
2024-08-28 10:04:25.305 - 1A 27 89 12 AA 00 00 01 0F (状态寄存器地址, 有人状态)
2024-08-28 10:04:25.874 - 1A 27 89 12 AA 00 00 01 0F (状态寄存器地址, 有人状态)
2024-08-28 10:04:26.422 - 1A 0C 02 08 01 FF 45 01 FF 45 01 FF 00 00 0F (调光器地址-内卫射灯, 内卫射灯微光)
2024-08-28 10:04:27.027 - 1A 0D 01 07 01 FF 45 01 FF 45 01 FF 00 00 0F (调光器地址-外卫射灯, 外卫感应灯开)
2024-08-28 10:04:27.617 - 1A FF FF FF 57 00 00 01 0F (人体感应地址-厨房, 打开厨房感应)
2024-08-28 10:04:28.159 - 1A BE B0 DC 01 00 01 00 (继电器地址-回水泵点动, 回水泵点动)
2024-08-28 10:04:28.714 - 1A BE B0 DC 01 00 01 00 (继电器地址-回水泵点动, 回水泵点动)
2024-08-28 10:04:29.260 - 09 06 00 0F 02 01 78 21 (提示音叮)
2024-08-28 10:04:29.803 - 09 06 00 0F 02 01 78 21 (提示音叮)
2024-08-28 10:04:30.359 - EE 00 00 B1 00 00 02 FF FC FF FF (情景完成返回主页)
2024-08-28 10:04:30.951 - A1 11 11 11 50 (天花供电打开确认)
2024-08-28 10:04:31.174 - 1A EC A0 DC 02 86 86 86 0F (查询天花供电状态, 自保持开关地址-天花12V供电)
2024-08-28 10:04:31.605 - 1A EC A0 DC 02 01 01 0F (自保持开关地址-天花12V供电)
2024-08-28 10:04:33.492 - A1 11 11 11 51 (卫生供电打开确认)
2024-08-28 10:04:33.713 - 1A EC A0 DC 04 86 86 86 0F (查询卫生间供电状态, 自保持开关地址-次卧西阳内外卫供电)
2024-08-28 10:04:34.155 - 1A EC A0 DC 04 01 01 0F (自保持开关地址-次卧西阳内外卫供电)
2024-08-28 10:04:36.027 - A1 11 11 11 52 (电视供电打开确认)
2024-08-28 10:04:36.248 - 1A EC A0 DC 01 86 86 86 0F (查询电视供电状态, 自保持开关地址-电视、设备12V供电)
2024-08-28 10:04:36.693 - 1A EC A0 DC 01 01 01 0F (自保持开关地址-电视、设备12V供电)
2024-08-28 10:04:41.065 - A1 11 11 11 47 (天热回家开帘)
2024-08-28 10:04:41.287 - 1A 27 89 12 AA 86 86 86 0F (查询寄存器状态, 状态寄存器地址)
2024-08-28 10:04:41.675 - 1A 27 89 12 AA 01 00 00 00 00 00 00 00 00 00 00 01 00 00 00 00 0F (状态寄存器地址)
2024-08-28 10:04:42.292 - 19 08 24 03 DD 00 06 00 01 (调用情景-天热遮阳开帘)
2024-08-28 10:04:42.867 - EE 00 00 B1 00 00 00 FF FC FF FF (情景执行提示)
2024-08-28 10:04:43.461 - 09 06 00 0F 02 01 78 21 (提示音叮)
2024-08-28 10:04:44.005 - A5 00 A6 FE 01 AA (餐厅窗帘开)
2024-08-28 10:04:45.052 - A5 00 52 FE 01 AA (主卧窗帘开)
2024-08-28 10:04:46.096 - A5 00 53 FF 00 AA (主卧纱帘开)
2024-08-28 10:04:47.151 - A5 00 76 FE 01 AA (次卧窗帘开)
2024-08-28 10:04:48.197 - A5 00 21 FE 01 AA (次卧纱帘开)
2024-08-28 10:04:48.420 - 55 20 20 00 00 0E 02 16 AA 55 20 20 00 00 0E 02 16 AA (主卧窗帘电机状态返回)
2024-08-28 10:04:49.243 - 1A BE B0 DC 04 00 01 00 (继电器地址-西阳窗帘, 西阳窗帘开)
2024-08-28 10:04:50.287 - FF FF FF FF 0E 00 01 00 (继电器地址-西阳小窗帘, 西阳小窗帘开)
2024-08-28 10:04:51.334 - A5 00 D2 FE 01 AA 22 0D (书房窗帘开)
2024-08-28 10:04:52.380 - 09 06 00 0F 02 02 38 20 (提示音咚)
2024-08-28 10:04:52.935 - EE 00 00 B1 00 00 02 FF FC FF FF (情景完成返回主页)
2024-08-28 10:10:14.917 - 19 08 24 03 CC 01 CC 00 01 (调用茶吧感应灯开的按键)
2024-08-28 10:10:14.960 - 1A AA AA AA 88 FF B0 01 FF B0 01 0F (调光器地址-茶吧灯带, 茶吧灯带明亮)
2024-08-28 10:10:37.961 - 19 08 24 03 CC 01 CD 00 01 (调用茶吧感应灯关的按键)
2024-08-28 10:10:37.988 - 1A AA AA AA 88 FF 00 01 FF 00 01 0F (调光器地址-茶吧灯带, 茶吧灯带关闭)
2024-08-28 10:10:44.976 - 19 08 24 03 CC 01 CC 00 01 (调用茶吧感应灯开的按键)
2024-08-28 10:10:45.007 - 1A AA AA AA 88 FF B0 01 FF B0 01 0F (调光器地址-茶吧灯带, 茶吧灯带明亮)
2024-08-28 10:10:53.949 - EE 00 71 B1 01 00 03 FF FC FF FF
2024-08-28 10:10:54.936 - EE 00 71 B1 01 00 04 FF FC FF FF
2024-08-28 10:10:55.266 - 1A 0B 01 03 03 86 86 86 0F (调光器地址-餐厅灯带)
2024-08-28 10:10:55.310 - 1A 0B 01 03 03 00 4C 00 00 4C 00 00 (调光器地址-餐厅灯带)
2024-08-28 10:10:55.314 - 0D 00 0F
2024-08-28 10:10:55.651 - EE 00 71 B1 12 00 09 00 02 00 04 00 00 00 00 00 04 00 04 00 00 00 00 FF FC FF FF
2024-08-28 10:10:55.957 - EE 00 71 B1 12 00 04 00 02 00 04 00 00 00 00 00 04 00 04 00 00 00 00 FF FC FF FF
2024-08-28 10:10:57.182 - AD 03 F0 F0 AE (区域高光指令（AD+区域+暖光+冷光+AE）)
2024-08-28 10:10:57.505 - 1A FF 01 03 FF FF F0 01 FF F0 01 FF 00 00 0F (调光器地址-餐厅区域统配地址)
2024-08-28 10:13:04.528 - 55 0A 32 00 00 00 01 92 (厨房顶灯一开)
2024-08-28 10:13:04.868 - 55 0A 32 00 00 00 02 93 (厨房顶灯二开)
2024-08-28 10:40:10.534 - 00
2024-08-28 10:40:10.552 - FF
2024-08-28 10:45:09.923 - FF
2024-08-28 10:49:11.005 - 00
2024-08-28 10:49:27.907 - 55 0A 32 00 00 00 01 92 (厨房顶灯一开)
2024-08-28 10:49:28.616 - 55 0A 32 00 00 00 02 93 (厨房顶灯二开)
2024-08-28 10:49:48.982 - 19 08 24 03 CC 00 D3 00 01 (调用厨房感应灯开的按键)
2024-08-28 10:49:49.033 - 55 0A 32 00 00 00 01 92 55 0A 32 00 00 00 02 93 (厨房顶灯一开, 厨房顶灯二开)
2024-08-28 10:50:01.655 - 1A 22 33 62 4F 00 00 01 0F (正反转地址-厨房卷帘一, 厨房卷帘三降)
2024-08-28 10:50:02.437 - 1A 22 33 62 4F 00 02 01 0F (正反转地址-厨房卷帘一, 厨房卷帘三升)
2024-08-28 10:50:04.121 - 1A 22 33 62 4F 00 00 01 0F (正反转地址-厨房卷帘一, 厨房卷帘三降)
2024-08-28 10:50:25.600 - 19 08 24 03 CC 01 CC 00 01 (调用茶吧感应灯开的按键)
2024-08-28 10:50:25.634 - 1A AA AA AA 88 FF B0 01 FF B0 01 0F (调光器地址-茶吧灯带, 茶吧灯带明亮)
2024-08-28 10:50:56.395 - 1A FF FF FF 58 86 86 86 0F (人体感应地址-茶吧)
2024-08-28 10:50:58.060 - 1A FF FF FF 58 86 86 86 0F (人体感应地址-茶吧)
2024-08-28 10:51:01.831 - 1A FF FF FF 58 86 86 86 0F (人体感应地址-茶吧)
2024-08-28 10:51:44.765 - 19 08 24 03 CC 01 CD 00 01 (调用茶吧感应灯关的按键)
2024-08-28 10:51:44.796 - 1A AA AA AA 88 FF 00 01 FF 00 01 0F (调光器地址-茶吧灯带, 茶吧灯带关闭)
2024-08-28 10:51:53.115 - 1A FF FF FF 58 86 86 86 0F (人体感应地址-茶吧)
2024-08-28 10:51:59.659 - 1A FF FF FF 57 86 86 86 0F (人体感应地址-厨房)
2024-08-28 10:52:31.298 - 19 08 24 03 CC 00 D4 00 01 (调用厨房感应灯关的按键)
2024-08-28 10:52:31.335 - 55 0A 31 00 00 00 01 91 55 0A 31 00 00 00 02 92 (厨房顶灯一关, 厨房顶灯二关)
2024-08-28 10:52:38.868 - 19 08 24 03 CC 01 CC 00 01 (调用茶吧感应灯开的按键)
2024-08-28 10:52:38.902 - 1A AA AA AA 88 FF B0 01 FF B0 01 0F (调光器地址-茶吧灯带, 茶吧灯带明亮)
2024-08-28 10:52:54.346 - 19 08 24 03 CC 00 D3 00 01 (调用厨房感应灯开的按键)
2024-08-28 10:52:54.380 - 55 0A 32 00 00 00 01 92 55 0A 32 00 00 00 02 93 (厨房顶灯一开, 厨房顶灯二开)
2024-08-28 10:56:16.014 - E0 00 00
2024-08-28 10:56:16.014 - 00 01
2024-08-28 10:56:16.126 - 00
2024-08-28 10:56:16.141 - 00
2024-08-28 10:56:16.141 - FE
2024-08-28 10:56:16.141 - FF
2024-08-28 10:56:16.154 - 00
2024-08-28 10:56:16.154 - 0A
2024-08-28 10:56:16.158 - 02
2024-08-28 10:56:16.158 - 00
2024-08-28 10:56:16.175 - 68 00
2024-08-28 10:56:17.569 - 00
2024-08-28 10:56:17.586 - 00
2024-08-28 10:56:17.593 - FB 00 A0 F0 00
2024-08-28 10:56:17.603 - 00
2024-08-28 10:56:17.609 - 10
2024-08-28 10:56:17.611 - 04
2024-08-28 10:56:17.625 - 00
2024-08-28 10:56:17.688 - 00
2024-08-28 10:56:17.688 - 00 FC
2024-08-28 10:58:02.879 - 1A FF FF FF 57 86 86 86 0F (人体感应地址-厨房)
2024-08-28 10:58:04.118 - 1A FF FF FF 57 86 86 86 0F (人体感应地址-厨房)
2024-08-28 10:58:08.617 - 1A FF FF FF 58 86 86 86 0F (人体感应地址-茶吧)
2024-08-28 10:58:11.286 - 1A FF FF FF 58 86 86 86 0F (人体感应地址-茶吧)
2024-08-28 10:58:12.034 - 1A FF FF FF 58 86 86 86 0F (人体感应地址-茶吧)
2024-08-28 10:58:36.234 - 55 0A 31 00 00 00 01 91 (厨房顶灯一关)
2024-08-28 10:58:36.960 - 55 0A 32 00 00 00 01 92 (厨房顶灯一开)
2024-08-28 10:58:39.131 - 55 0A 31 00 00 00 02 92 (厨房顶灯二关)
2024-08-28 10:58:40.413 - 55 0A 32 00 00 00 02 93 (厨房顶灯二开)
2024-08-28 10:58:48.891 - 1A 22 33 62 5E 00 00 01 0F (正反转地址-厨房卷帘三, 厨房卷帘一升)
2024-08-28 10:58:54.687 - 1A 22 33 62 5E 00 01 01 0F (正反转地址-厨房卷帘三, 厨房卷帘一停)
2024-08-28 10:58:55.850 - 1A 22 33 62 5E 00 02 01 0F (正反转地址-厨房卷帘三, 厨房卷帘一降)
2024-08-28 10:58:58.184 - 1A 22 33 62 56 00 00 01 0F (正反转地址-厨房卷帘二, 厨房卷帘二升)
2024-08-28 10:59:02.116 - 1A 22 33 62 56 00 01 01 0F (正反转地址-厨房卷帘二, 厨房卷帘二停)
2024-08-28 10:59:03.421 - 1A 22 33 62 56 00 02 01 0F (正反转地址-厨房卷帘二, 厨房卷帘二降)
2024-08-28 10:59:06.164 - 1A 22 33 62 4F 00 02 01 0F (正反转地址-厨房卷帘一, 厨房卷帘三升)
2024-08-28 10:59:09.082 - 1A 22 33 62 4F 00 01 01 0F (正反转地址-厨房卷帘一, 厨房卷帘三停)
2024-08-28 10:59:09.893 - 1A 22 33 62 4F 00 00 01 0F (正反转地址-厨房卷帘一, 厨房卷帘三降)
2024-08-28 10:59:16.240 - 1A FF FF FF 58 86 86 86 0F (人体感应地址-茶吧)
2024-08-28 10:59:59.814 - 1A FF FF FF 58 86 86 86 0F (人体感应地址-茶吧)
2024-08-28 11:00:04.377 - 1A FF FF FF 58 86 86 86 0F (人体感应地址-茶吧)
2024-08-28 11:00:17.900 - 1A 22 33 62 56 86 86 86 0F (正反转地址-厨房卷帘二)
2024-08-28 11:00:18.002 - 1A
2024-08-28 11:00:18.010 - 22
2024-08-28 11:00:18.020 - 33
2024-08-28 11:00:18.025 - 62
2024-08-28 11:00:18.041 - 56
2024-08-28 11:00:18.058 - 00
2024-08-28 11:00:19.814 - 1A 22 33 62 56 86 86 86 0F (正反转地址-厨房卷帘二)
2024-08-28 11:00:19.924 - 22
2024-08-28 11:00:19.940 - 33
2024-08-28 11:00:19.952 - 62
2024-08-28 11:00:19.959 - 56
2024-08-28 11:00:19.984 - 00
2024-08-28 11:00:19.991 - 00
2024-08-28 11:00:26.337 - 1A 22 33 62 56 86 86 86 0F (正反转地址-厨房卷帘二)
2024-08-28 11:00:26.464 - 22
2024-08-28 11:00:26.480 - 33
2024-08-28 11:00:26.490 - 62
2024-08-28 11:00:26.496 - 56
2024-08-28 11:00:26.517 - 00
2024-08-28 11:00:26.529 - 00
2024-08-28 11:00:53.854 - 19 08 24 03 CC 01 CC 00 01 (调用茶吧感应灯开的按键)
2024-08-28 11:00:53.902 - 1A AA AA AA 88 FF B0 01 FF B0 01 0F (调光器地址-茶吧灯带, 茶吧灯带明亮)
2024-08-28 11:01:57.928 - 19 08 24 03 CC 00 D3 00 01 (调用厨房感应灯开的按键)
2024-08-28 11:01:57.960 - 55 0A 32 00 00 00 01 92 55 0A 32 00 00 00 02 93 (厨房顶灯一开, 厨房顶灯二开)
2024-08-28 11:03:03.298 - 1A BE B0 DC 04 FF (继电器地址-西阳窗帘)
2024-08-28 11:03:03.432 - FE
2024-08-28 11:03:06.222 - FF FF FF FF 0E FC (继电器地址-西阳小窗帘)
2024-08-28 11:03:06.360 - FC
2024-08-28 11:03:12.854 - 1A BE B0 DC 09 FC (继电器地址-客厅窗帘)
2024-08-28 11:03:12.990 - FF
2024-08-28 11:03:15.355 - 1A BE B0 DC 02 (正反转地址-外卫卷帘)
2024-08-28 11:03:15.491 - FF
2024-08-28 11:03:15.859 - 1A BE B0 DC 0A (继电器地址-客厅纱帘)
2024-08-28 11:03:15.998 - FF
2024-08-28 11:03:22.022 - 1A BE B0 DC 01 FC (继电器地址-回水泵点动)
2024-08-28 11:03:22.159 - FF
2024-08-28 11:03:38.491 - 55 0A 31 00 00 00 01 91 (厨房顶灯一关)
2024-08-28 11:03:38.953 - 55 0A 32 00 00 00 01 92 (厨房顶灯一开)
2024-08-28 11:03:39.456 - 55 0A 32 00 00 00 02 93 (厨房顶灯二开)
2024-08-28 11:03:39.898 - 55 0A 31 00 00 00 02 92 (厨房顶灯二关)
2024-08-28 11:03:40.279 - 55 0A 32 00 00 00 02 93 (厨房顶灯二开)
2024-08-28 11:03:47.551 - 55 0A 32 00 00 00 01 92 (厨房顶灯一开)
2024-08-28 11:03:49.372 - 55 0A 31 00 00 00 01 91 (厨房顶灯一关)
2024-08-28 11:03:49.784 - 55 0A 32 00 00 00 01 92 (厨房顶灯一开)
2024-08-28 11:04:22.390 - 1A BE B0 DC 03 (继电器地址-西阳天幕)
2024-08-28 11:04:22.531 - FE
2024-08-28 11:06:04.874 - 55 0A 31 00 00 00 01 91 (厨房顶灯一关)
2024-08-28 11:06:05.547 - 55 0A 32 00 00 00 01 92 (厨房顶灯一开)
2024-08-28 11:06:09.521 - FF FF FF FF 0A (继电器地址-东阳窗帘)
2024-08-28 11:06:09.652 - FF
2024-08-28 11:06:37.752 - 1A 22 33 62 5E 00 00 01 0F (正反转地址-厨房卷帘三, 厨房卷帘一升)
2024-08-28 11:06:38.568 - 1A 22 33 62 56 00 00 01 0F (正反转地址-厨房卷帘二, 厨房卷帘二升)
2024-08-28 11:06:39.061 - 1A 22 33 62 4F 00 02 01 0F (正反转地址-厨房卷帘一, 厨房卷帘三升)
2024-08-28 11:06:42.166 - 1A 22 33 62 56 00 00 01 0F (正反转地址-厨房卷帘二, 厨房卷帘二升)
2024-08-28 11:06:43.951 - 1A 22 33 62 5E 00 00 01 0F (正反转地址-厨房卷帘三, 厨房卷帘一升)
2024-08-28 11:06:44.813 - 1A 22 33 62 4F 00 02 01 0F (正反转地址-厨房卷帘一, 厨房卷帘三升)
2024-08-28 11:06:45.389 - 1A 22 33 62 56 00 00 01 0F (正反转地址-厨房卷帘二, 厨房卷帘二升)
2024-08-28 11:06:46.035 - 1A 22 33 62 56 00 00 01 0F (正反转地址-厨房卷帘二, 厨房卷帘二升)
2024-08-28 11:06:46.512 - 1A 22 33 62 4F 00 02 01 0F (正反转地址-厨房卷帘一, 厨房卷帘三升)
2024-08-28 11:06:50.526 - 1A 22 33 62 4F 00 00 01 0F (正反转地址-厨房卷帘一, 厨房卷帘三降)
2024-08-28 11:06:58.334 - 1A 22 33 62 5E 00 02 01 0F (正反转地址-厨房卷帘三, 厨房卷帘一降)
2024-08-28 11:07:03.244 - 1A 22 33 62 5E 00 00 01 0F (正反转地址-厨房卷帘三, 厨房卷帘一升)
2024-08-28 11:07:04.782 - 1A 22 33 62 5E 00 00 01 0F (正反转地址-厨房卷帘三, 厨房卷帘一升)
2024-08-28 11:07:05.686 - A5 00 A6 FE 01 AA (餐厅窗帘开)
2024-08-28 11:07:06.211 - 1A 22 33 62 4F 00 02 01 0F (正反转地址-厨房卷帘一, 厨房卷帘三升)
2024-08-28 11:07:07.188 - 1A 22 33 62 4F 00 00 01 0F (正反转地址-厨房卷帘一, 厨房卷帘三降)
2024-08-28 11:07:08.440 - 55 0B 32 00 00 00 01 93 (厨房风扇只开)
2024-08-28 11:07:10.204 - 1A 22 33 62 56 00 00 01 0F (正反转地址-厨房卷帘二, 厨房卷帘二升)
2024-08-28 11:07:11.402 - 1A 22 33 62 56 00 00 01 0F (正反转地址-厨房卷帘二, 厨房卷帘二升)
2024-08-28 11:07:11.784 - 1A 22 33 62 56 00 00 01 0F (正反转地址-厨房卷帘二, 厨房卷帘二升)
2024-08-28 11:07:12.422 - 1A 22 33 62 56 00 02 01 0F (正反转地址-厨房卷帘二, 厨房卷帘二降)
2024-08-28 11:07:12.852 - A5 00 A2 FE 01 AA (餐厅纱帘开)
2024-08-28 11:07:12.900 - 55 00 A2 02 01 65 01 73 AA 55 00 A2 02 01 65 FF (餐厅纱帘电机状态返回)
2024-08-28 11:07:15.947 - A5 00 A2 FE 01 AA (餐厅纱帘开)
2024-08-28 11:07:16.410 - 55 00 A2 02 00 B3 01 73 AA 55 00 A2 02 00 B3 01 73 AA (餐厅纱帘电机状态返回)
2024-08-28 11:07:16.547 - A5 00 A6 FF 00 AA (餐厅窗帘关)
2024-08-28 11:07:16.601 - 55 00 A6 01 00 0E 01 75 AA 55 00 A6 01 00 0E 01 75 AA (餐厅窗帘电机状态返回)
2024-08-28 11:07:19.810 - A5 00 A2 FF 00 AA (餐厅纱帘关)
2024-08-28 11:07:20.177 - 55 00 A2 01 00 0C 01 73 AA 55 00 A2 01 00 0C 01 73 AA (餐厅纱帘电机状态返回)
2024-08-28 11:07:20.433 - A5 00 A6 FE 01 AA (餐厅窗帘开)
2024-08-28 11:07:20.897 - 55 00 A6 02 00 D6 01 75 AA 55 00 A6 02 00 D6 01 75 AA (餐厅窗帘电机状态返回)
2024-08-28 11:07:22.453 - 1A 22 33 62 5E 00 02 01 0F (正反转地址-厨房卷帘三, 厨房卷帘一降)
2024-08-28 11:07:23.321 - 1A 22 33 62 5E 00 00 01 0F (正反转地址-厨房卷帘三, 厨房卷帘一升)
2024-08-28 11:07:24.549 - 1A 22 33 62 56 00 00 01 0F (正反转地址-厨房卷帘二, 厨房卷帘二升)
2024-08-28 11:07:25.277 - 1A 22 33 62 4F 00 02 01 0F (正反转地址-厨房卷帘一, 厨房卷帘三升)
2024-08-28 11:07:26.813 - 1A 22 33 62 4F 00 00 01 0F (正反转地址-厨房卷帘一, 厨房卷帘三降)
2024-08-28 11:07:27.573 - 55 00 A2 00 01 67 01 73 AA 55 00 A2 00 01 67 01 73 AA (餐厅纱帘电机状态返回)
2024-08-28 11:07:58.582 - 55 0B 30 00 00 00 01 91
2024-08-28 11:09:50.421 - 19 08 24 03 CC 01 CD 00 01 (调用茶吧感应灯关的按键)
2024-08-28 11:09:50.473 - 1A AA AA AA 88 FF 00 01 FF 00 01 0F (调光器地址-茶吧灯带, 茶吧灯带关闭)
2024-08-28 11:09:59.362 - 1A 22 33 62 5E 00 00 01 0F (正反转地址-厨房卷帘三, 厨房卷帘一升)
2024-08-28 11:10:15.956 - 55 0B 32 00 00 00 01 93 (厨房风扇只开)
2024-08-28 11:10:16.424 - 19 08 24 03 CC 00 D4 00 01 (调用厨房感应灯关的按键)
2024-08-28 11:10:16.456 - 55 0A 31 00 00 00 01 91 55 0A 31 00 00 00 02 92 (厨房顶灯一关, 厨房顶灯二关)
2024-08-28 11:10:20.109 - 55 0B 31 00 00 00 01 92 (厨房风扇只关)
2024-08-28 11:13:15.884 - 1A 03 00 00 00 02 C7 E0 (查询厨房光线)
2024-08-28 11:13:17.309 - 1A 03 00 00 00 02 C7 E0 (查询厨房光线)
2024-08-28 11:13:40.659 - 1A 22 33 62 5E 00 00 01 0F (正反转地址-厨房卷帘三, 厨房卷帘一升)
2024-08-28 11:13:43.280 - 1A 22 33 62 5E 00 01 01 0F (正反转地址-厨房卷帘三, 厨房卷帘一停)
2024-08-28 11:13:51.517 - 1A 22 33 62 56 00 00 01 0F (正反转地址-厨房卷帘二, 厨房卷帘二升)
2024-08-28 11:13:57.839 - 1A 22 33 62 56 00 01 01 0F (正反转地址-厨房卷帘二, 厨房卷帘二停)
2024-08-28 11:13:59.024 - 1A 22 33 62 4F 00 02 01 0F (正反转地址-厨房卷帘一, 厨房卷帘三升)
2024-08-28 11:14:02.459 - 1A 22 33 62 4F 00 01 01 0F (正反转地址-厨房卷帘一, 厨房卷帘三停)
2024-08-28 11:14:03.988 - 1A 22 33 62 4F 00 00 01 0F (正反转地址-厨房卷帘一, 厨房卷帘三降)
2024-08-28 11:14:11.892 - 19 08 24 03 CC 00 D3 00 01 (调用厨房感应灯开的按键)
2024-08-28 11:14:11.945 - 55 0A 32 00 00 00 01 92 55 0A 32 00 00 00 02 93 (厨房顶灯一开, 厨房顶灯二开)
2024-08-28 11:14:19.484 - 55 0A 31 00 00 00 01 91 (厨房顶灯一关)
2024-08-28 11:14:22.811 - 55 0A 31 00 00 00 02 92 (厨房顶灯二关)
2024-08-28 11:14:24.902 - 55 0A 32 00 00 00 01 92 (厨房顶灯一开)
2024-08-28 11:14:26.109 - 55 0A 32 00 00 00 02 93 (厨房顶灯二开)
2024-08-28 11:14:42.494 - 55 0B 32 00 00 00 01 93 (厨房风扇只开)
2024-08-28 11:14:46.614 - 55 0B 31 00 00 00 01 92 (厨房风扇只关)
2024-08-28 11:15:51.359 - 1A FF FF FF 57 86 86 86 0F (人体感应地址-厨房)
2024-08-28 11:15:51.370 - 1A FF FF FF 57 01 01 0F (人体感应地址-厨房)
2024-08-28 11:15:54.046 - 1A FF FF FF 57 86 86 86 0F (人体感应地址-厨房)
2024-08-28 11:15:54.052 - 1A FF FF FF 57 01 01 0F (人体感应地址-厨房)
2024-08-28 11:15:56.612 - 19 08 24 03 CC 00 D4 00 01 (调用厨房感应灯关的按键)
2024-08-28 11:15:56.659 - 55 0A 31 00 00 00 01 91 55 0A 31 00 00 00 02 92 (厨房顶灯一关, 厨房顶灯二关)
2024-08-28 11:15:58.228 - 1A FF FF FF 58 86 86 86 0F (人体感应地址-茶吧)
2024-08-28 11:15:58.245 - 1A FF FF FF 58 01 00 0F (人体感应地址-茶吧)
2024-08-28 11:15:59.436 - 1A FF FF FF 58 86 86 86 0F (人体感应地址-茶吧)
2024-08-28 11:15:59.464 - 1A FF FF FF 58 01 00 0F (人体感应地址-茶吧)
2024-08-28 11:16:15.719 - 19 08 24 03 CC 01 CC 00 01 (调用茶吧感应灯开的按键)
2024-08-28 11:16:15.767 - 1A AA AA AA 88 FF B0 01 FF B0 01 0F (调光器地址-茶吧灯带, 茶吧灯带明亮)
2024-08-28 11:16:21.655 - 19 08 24 03 CC 00 D3 00 01 (调用厨房感应灯开的按键)
2024-08-28 11:16:21.687 - 55 0A 32 00 00 00 01 92 55 0A 32 00 00 00 02 93 (厨房顶灯一开, 厨房顶灯二开)
2024-08-28 11:16:50.612 - 87
2024-08-28 11:17:27.318 - FF
2024-08-28 11:17:27.332 - FE
2024-08-28 11:17:27.352 - E0
2024-08-28 11:17:27.352 - FF
2024-08-28 11:17:27.361 - FF
2024-08-28 11:17:27.380 - FC
2024-08-28 11:17:27.390 - FF FF
2024-08-28 11:17:27.458 - FF
2024-08-28 11:17:27.474 - F8
2024-08-28 11:17:27.590 - FF
2024-08-28 11:17:27.590 - 7E
2024-08-28 11:17:27.590 - A4
2024-08-28 11:17:27.603 - FE
2024-08-28 11:17:27.609 - FF
2024-08-28 11:17:27.624 - FF
2024-08-28 11:17:27.624 - F8
2024-08-28 11:17:27.624 - FF
2024-08-28 11:17:27.624 - FF
2024-08-28 11:17:27.746 - FE
2024-08-28 11:17:27.775 - FE
2024-08-28 11:17:27.777 - 10 FE
2024-08-28 11:17:27.777 - 7F
2024-08-28 11:17:27.798 - 00
2024-08-28 11:17:27.812 - FF
2024-08-28 11:17:27.937 - 00
2024-08-28 11:17:27.984 - 00
2024-08-28 11:17:27.984 - 07
2024-08-28 11:17:27.984 - 23
2024-08-28 11:17:27.984 - 01
2024-08-28 11:17:28.064 - 00
2024-08-28 11:20:51.060 - 1A 22 33 62 5E 00 00 01 0F (正反转地址-厨房卷帘三, 厨房卷帘一升)
2024-08-28 11:20:52.029 - 1A 22 33 62 5E 00 02 01 0F (正反转地址-厨房卷帘三, 厨房卷帘一降)
2024-08-28 11:20:54.392 - 1A 22 33 62 56 00 00 01 0F (正反转地址-厨房卷帘二, 厨房卷帘二升)
2024-08-28 11:20:55.210 - 1A 22 33 62 56 00 02 01 0F (正反转地址-厨房卷帘二, 厨房卷帘二降)
2024-08-28 11:21:08.565 - 1A FF FF FF 58 86 86 86 0F (人体感应地址-茶吧)
2024-08-28 11:21:08.582 - 1A FF FF FF 58 01 01 0F (人体感应地址-茶吧)
2024-08-28 11:21:12.492 - 1A FF FF FF 57 86 86 86 0F (人体感应地址-厨房)
2024-08-28 11:21:12.517 - 1A FF FF FF 57 01 01 0F (人体感应地址-厨房)
2024-08-28 11:21:12.796 - 19 08 24 03 CC 01 CD 00 01 (调用茶吧感应灯关的按键)
2024-08-28 11:21:12.846 - 1A AA AA AA 88 FF 00 01 FF 00 01 0F (调光器地址-茶吧灯带, 茶吧灯带关闭)
2024-08-28 11:21:21.401 - 1A 22 33 62 25 86 86 86 0F (正反转地址-东阳衣架)
2024-08-28 11:21:21.520 - 22
2024-08-28 11:21:21.533 - 33
2024-08-28 11:21:21.537 - 62
2024-08-28 11:21:21.549 - 25
2024-08-28 11:21:21.571 - 00
2024-08-28 11:21:21.581 - 00
2024-08-28 11:21:40.202 - 1A 03 00 00 00 02 C7 E0 (查询厨房光线)
2024-08-28 11:21:40.212 - 1A 03 04 00 00 00 2D 91 2F (厨房光线返回)
2024-08-28 11:21:41.703 - 1A 03 00 00 00 02 C7 E0 (查询厨房光线)
2024-08-28 11:21:41.722 - 1A 03 04 00 00 00 2D 91 2F (厨房光线返回)
2024-08-28 11:21:43.484 - 1A 03 00 00 00 02 C7 E0 (查询厨房光线)
2024-08-28 11:21:43.499 - 1A 03 04 00 00 00 2D 91 2F (厨房光线返回)
2024-08-28 11:21:53.346 - 1A 22 33 62 5E 00 00 01 0F (正反转地址-厨房卷帘三, 厨房卷帘一升)
2024-08-28 11:22:01.416 - 1A 22 33 62 5E 00 01 01 0F (正反转地址-厨房卷帘三, 厨房卷帘一停)
2024-08-28 11:22:03.048 - 1A 22 33 62 5E 00 02 01 0F (正反转地址-厨房卷帘三, 厨房卷帘一降)
2024-08-28 11:22:05.833 - 1A 22 33 62 56 00 00 01 0F (正反转地址-厨房卷帘二, 厨房卷帘二升)
2024-08-28 11:22:11.125 - 1A 22 33 62 56 00 02 01 0F (正反转地址-厨房卷帘二, 厨房卷帘二降)
2024-08-28 11:22:14.546 - 1A 22 33 62 4F 00 02 01 0F (正反转地址-厨房卷帘一, 厨房卷帘三升)
2024-08-28 11:22:16.296 - 1A 22 33 62 4F 00 01 01 0F (正反转地址-厨房卷帘一, 厨房卷帘三停)
2024-08-28 11:22:17.189 - 1A 22 33 62 4F 00 00 01 0F (正反转地址-厨房卷帘一, 厨房卷帘三降)
2024-08-28 11:22:24.265 - 1A FF FF FF 58 86 86 86 0F (人体感应地址-茶吧)
2024-08-28 11:22:24.285 - 1A FF FF FF 58 01 00 0F (人体感应地址-茶吧)
2024-08-28 11:22:27.852 - 1A FF FF FF 57 86 86 86 0F (人体感应地址-厨房)
2024-08-28 11:22:27.868 - 1A FF FF FF 57 01 01 0F (人体感应地址-厨房)
2024-08-28 11:22:43.486 - 19 08 24 03 CC 01 CC 00 01 (调用茶吧感应灯开的按键)
2024-08-28 11:22:43.533 - 1A AA AA AA 88 FF B0 01 FF B0 01 0F (调光器地址-茶吧灯带, 茶吧灯带明亮)
2024-08-28 11:25:35.259 - 19 08 24 03 CC 00 D4 00 01 (调用厨房感应灯关的按键)
2024-08-28 11:25:35.296 - 55 0A 31 00 00 00 01 91 55 0A 31 00 00 00 02 92 (厨房顶灯一关, 厨房顶灯二关)
2024-08-28 11:25:39.767 - 19 08 24 03 CC 00 D3 00 01 (调用厨房感应灯开的按键)
2024-08-28 11:25:39.799 - 55 0A 32 00 00 00 01 92 55 0A 32 00 00 00 02 93 (厨房顶灯一开, 厨房顶灯二开)
2024-08-28 11:26:25.590 - AD 03 00 00 AE (区域高光指令（AD+区域+暖光+冷光+AE）)
2024-08-28 11:26:25.913 - 1A FF 01 03 FF FF 00 01 FF 00 01 FF 00 00 0F (调光器地址-餐厅区域统配地址)
2024-08-28 11:26:26.996 - EE 00 71 B1 01 00 03 FF FC FF FF
2024-08-28 11:26:39.457 - 19 08 24 03 CC 01 CD 00 01 (调用茶吧感应灯关的按键)
2024-08-28 11:26:39.504 - 1A AA AA AA 88 FF 00 01 FF 00 01 0F (调光器地址-茶吧灯带, 茶吧灯带关闭)
2024-08-28 11:27:37.064 - 19 08 24 03 CC 01 CC 00 01 (调用茶吧感应灯开的按键)
2024-08-28 11:27:37.109 - 1A AA AA AA 88 FF B0 01 FF B0 01 0F (调光器地址-茶吧灯带, 茶吧灯带明亮)
2024-08-28 11:27:37.496 - 19 08 24 03 CC 00 D4 00 01 (调用厨房感应灯关的按键)
2024-08-28 11:27:37.560 - 55 0A 31 00 00 00 01 91 55 0A 31 00 00 00 02 92 (厨房顶灯一关, 厨房顶灯二关)
2024-08-28 11:27:41.505 - 19 08 24 03 CC 00 D3 00 01 (调用厨房感应灯开的按键)
2024-08-28 11:27:41.547 - 55 0A 32 00 00 00 01 92 55 0A 32 00 00 00 02 93 (厨房顶灯一开, 厨房顶灯二开)
2024-08-28 11:28:35.197 - 19 08 24 03 CC 01 CD 00 01 (调用茶吧感应灯关的按键)
2024-08-28 11:28:35.229 - 1A AA AA AA 88 FF 00 01 FF 00 01 0F (调光器地址-茶吧灯带, 茶吧灯带关闭)
2024-08-28 11:30:23.824 - 19 08 24 03 CC 00 D4 00 01 (调用厨房感应灯关的按键)
2024-08-28 11:30:23.859 - 55 0A 31 00 00 00 01 91 55 0A 31 00 00 00 02 92 (厨房顶灯一关, 厨房顶灯二关)
2024-08-28 11:30:50.533 - 1A FF FF FF 57 86 86 86 0F (人体感应地址-厨房)
2024-08-28 11:30:50.554 - 1A FF FF FF 57 01 00 0F (人体感应地址-厨房)
2024-08-28 11:30:56.616 - 1A FF FF FF 58 86 86 86 0F (人体感应地址-茶吧)
2024-08-28 11:30:56.633 - 1A FF FF FF 58 01 00 0F (人体感应地址-茶吧)
2024-08-28 11:32:12.883 - 1A 22 33 62 5E 86 86 86 0F (正反转地址-厨房卷帘三)
2024-08-28 11:32:13.006 - 33
2024-08-28 11:32:13.018 - 62
2024-08-28 11:32:13.024 - 5E
2024-08-28 11:32:13.046 - 00
2024-08-28 11:32:13.053 - 00
2024-08-28 11:32:13.069 - 00
2024-08-28 11:32:15.812 - 1A 22 33 62 5E 86 86 86 0F (正反转地址-厨房卷帘三)
2024-08-28 11:32:15.927 - 22
2024-08-28 11:32:15.944 - 33
2024-08-28 11:32:15.955 - 62
2024-08-28 11:32:15.961 - 5E
2024-08-28 11:32:15.984 - 00
2024-08-28 11:32:15.995 - 00
2024-08-28 11:32:24.143 - 19 08 24 03 CC 01 CC 00 01 (调用茶吧感应灯开的按键)
2024-08-28 11:32:24.194 - 1A AA AA AA 88 FF B0 01 FF B0 01 0F (调光器地址-茶吧灯带, 茶吧灯带明亮)
2024-08-28 11:32:41.686 - 19 08 24 03 CC 01 CD 00 01 (调用茶吧感应灯关的按键)
