2025-09-22 11:24:09.465 - 1A EC A0 DC 02 30 77 88 0F (自保持开关地址-天花12V供电, 天花供电全开)
2025-09-22 11:24:09.994 - 1A AA AA AA 88 (调光器地址-茶吧灯带)
2025-09-22 11:24:19.503 - 1A 0C 02 08 01 86 86 86 0F (调光器地址-内卫射灯)
2025-09-22 11:24:19.558 - 1A 0C 02 08 01 00 4C 00 00 4C 00 00 5E 00 0F (调光器地址-内卫射灯)
2025-09-22 11:24:21.687 - 1A 0C 02 08 01 86 86 86 0F (调光器地址-内卫射灯)
2025-09-22 11:24:21.725 - 1A 0C 02 08 01 00 4C 00 00 4C 00 00 5E 00 0F (调光器地址-内卫射灯)
2025-09-22 11:24:40.236 - 01 04 07 D0 00 06 70 85
2025-09-22 11:24:40.268 - 01 04 0C 70 00 42 02 00 FA 00 00 01 0E 00 00 54 86
2025-09-22 11:24:40.389 - 01 04 07 D6 00 06 90 84
2025-09-22 11:24:40.419 - 01 04 0C 70 00 42 02 00 FA 00 00 01 04 00 00 74 84
2025-09-22 11:24:40.547 - 01 04 07 DC 00 06 B0 86
2025-09-22 11:24:40.581 - 01 04 0C 50 00 42 02 00 DC 00 00 01 0E 00 00 92 FB
2025-09-22 11:24:40.705 - 01 04 07 E2 00 06 D1 4A
2025-09-22 11:24:40.743 - 01 04 0C 70 00 42 02 00 FA 00 00 01 04 00 00 74 84
2025-09-22 11:24:40.863 - 01 04 07 E8 00 06 F1 48
2025-09-22 11:24:40.894 - 01 04 0C 70 00 42 02 00 FA 00 00 01 0E 00 00 54 86
2025-09-22 11:24:56.200 - 1A 0C 02 04 05 86 86 86 0F (调光器地址-主卧北阅)
2025-09-22 11:24:56.245 - 1A 0C 02 04 05 00 4C 00 00 4C 00 00 3F 00 0F (调光器地址-主卧北阅)
2025-09-22 11:25:31.224 - 1A 0B 01 02 01 86 86 86 0F (调光器地址-门厅灯带)
2025-09-22 11:25:31.247 - 1A 0B 01 02 01 00 4C 00 00 4C 00 00 0D 00 0F (调光器地址-门厅灯带)
2025-09-22 11:25:31.591 - EE 00 6F B1 12 00 05 00 02 00 04 00 00 00 00 00 04 00 04 00 00 00 00 FF FC FF FF
2025-09-22 11:25:31.890 - EE 00 71 B1 12 00 05 00 02 00 04 00 00 00 00 00 04 00 04 00 00 00 00 FF FC FF FF
2025-09-22 11:25:54.129 - 1A 0B 01 02 01 FF C1 01 FF C1 01 FF 00 00 0F (调光器地址-门厅灯带)
2025-09-22 11:25:58.640 - 1A 0B 01 02 01 86 86 86 0F (调光器地址-门厅灯带)
2025-09-22 11:25:58.688 - 1A 0B 01 02 01 00 4B 01 00 4B 01 00 0D 00 0F (调光器地址-门厅灯带)
2025-09-22 11:25:59.031 - EE 00 6F B1 12 00 05 00 02 00 04 00 00 00 B4 00 04 00 04 00 00 00 B4 FF FC FF FF
2025-09-22 11:25:59.332 - EE 00 71 B1 12 00 05 00 02 00 04 00 00 00 B4 00 04 00 04 00 00 00 B4 FF FC FF FF
2025-09-22 11:25:59.872 - 1A 0B 01 02 01 86 86 86 0F (调光器地址-门厅灯带)
2025-09-22 11:25:59.916 - 1A 0B 01 02 01 00 4B 01 00 4B 01 00 0D 00 0F (调光器地址-门厅灯带)
2025-09-22 11:26:00.259 - EE 00 6F B1 12 00 05 00 02 00 04 00 00 00 B4 00 04 00 04 00 00 00 B4 FF FC FF FF
2025-09-22 11:26:00.560 - EE 00 71 B1 12 00 05 00 02 00 04 00 00 00 B4 00 04 00 04 00 00 00 B4 FF FC FF FF
2025-09-22 11:26:00.927 - 1A 0B 01 02 01 86 86 86 0F (调光器地址-门厅灯带)
2025-09-22 11:26:00.973 - 1A 0B 01 02 01 00 4B 01 00 4B 01 00 0D 00 0F (调光器地址-门厅灯带)
2025-09-22 11:26:01.317 - EE 00 6F B1 12 00 05 00 02 00 04 00 00 00 B4 00 04 00 04 00 00 00 B4 FF FC FF FF
2025-09-22 11:26:01.618 - EE 00 71 B1 12 00 05 00 02 00 04 00 00 00 B4 00 04 00 04 00 00 00 B4 FF FC FF FF
2025-09-22 11:26:07.266 - 1A 0B 01 02 01 FF C4 01 FF 00 01 FF 00 00 0F (调光器地址-门厅灯带)
2025-09-22 11:26:11.774 - 1A 0B 01 02 01 86 86 86 0F (调光器地址-门厅灯带)
2025-09-22 11:26:11.822 - 1A 0B 01 02 01 00 4C 01 00 4C 00 00 0D 00 0F (调光器地址-门厅灯带)
2025-09-22 11:26:12.169 - EE 00 6F B1 12 00 05 00 02 00 04 00 00 00 B6 00 04 00 04 00 00 00 00 FF FC FF FF
2025-09-22 11:26:12.468 - EE 00 71 B1 12 00 05 00 02 00 04 00 00 00 B6 00 04 00 04 00 00 00 00 FF FC FF FF
2025-09-22 11:26:13.203 - 1A 0B 01 02 01 FF 00 01 FF 00 01 FF 00 00 0F (调光器地址-门厅灯带, 门厅灯带关闭)
2025-09-22 11:26:17.720 - 1A 0B 01 02 01 86 86 86 0F (调光器地址-门厅灯带)
2025-09-22 11:26:17.759 - 1A 0B 01 02 01 00 4C 00 00 4C 00 00 (调光器地址-门厅灯带)
2025-09-22 11:26:17.766 - 0D 00 0F
2025-09-22 11:26:18.103 - EE 00 6F B1 12 00 05 00 02 00 04 00 00 00 00 00 04 00 04 00 00 00 00 FF FC FF FF
2025-09-22 11:26:18.332 - 1A 0B 01 02 01 86 86 86 0F (调光器地址-门厅灯带)
2025-09-22 11:26:18.374 - 1A 0B 01 02 01 00 4C 00 00 4C 00 00 (调光器地址-门厅灯带)
2025-09-22 11:26:18.380 - 0D 00 0F
2025-09-22 11:26:18.413 - EE 00 71 B1 12 00 05 00 02 00 04 00 00 00 00 00 04 00 04 00 00 00 00 FF FC FF FF
2025-09-22 11:26:18.721 - EE 00 6F B1 12 00 05 00 02 00 04 00 00 00 00 00 04 00 04 00 00 00 00 FF FC FF FF
2025-09-22 11:26:19.023 - EE 00 71 B1 12 00 05 00 02 00 04 00 00 00 00 00 04 00 04 00 00 00 00 FF FC FF FF
2025-09-22 11:26:19.787 - 1A 0B 01 02 01 86 86 86 0F (调光器地址-门厅灯带)
2025-09-22 11:26:19.827 - 1A 0B 01 02 01 00 4C 00 00 4C 00 00 (调光器地址-门厅灯带)
2025-09-22 11:26:19.832 - 0D 00 0F
2025-09-22 11:26:20.179 - EE 00 6F B1 12 00 05 00 02 00 04 00 00 00 00 00 04 00 04 00 00 00 00 FF FC FF FF
2025-09-22 11:26:20.478 - EE 00 71 B1 12 00 05 00 02 00 04 00 00 00 00 00 04 00 04 00 00 00 00 FF FC FF FF
2025-09-22 11:26:29.155 - 1A 0B 01 02 01 FF FF 01 FF C1 01 FF 00 00 0F (调光器地址-门厅灯带)
2025-09-22 11:26:33.669 - 1A 0B 01 02 01 86 86 86 0F (调光器地址-门厅灯带)
2025-09-22 11:26:33.710 - 1A 0B 01 02 01 00 63 01 00 4B 01 00 (调光器地址-门厅灯带)
2025-09-22 11:26:33.716 - 0D 00 0F
2025-09-22 11:26:34.052 - EE 00 6F B1 12 00 05 00 02 00 04 00 00 00 ED 00 04 00 04 00 00 00 B4 FF FC FF FF
2025-09-22 11:26:34.349 - EE 00 71 B1 12 00 05 00 02 00 04 00 00 00 ED 00 04 00 04 00 00 00 B4 FF FC FF FF
2025-09-22 11:26:35.626 - 1A 0B 01 02 01 86 86 86 0F (调光器地址-门厅灯带)
2025-09-22 11:26:35.671 - 1A 0B 01 02 01 00 63 01 00 4B 01 00 0D 00 0F (调光器地址-门厅灯带)
2025-09-22 11:26:36.016 - EE 00 6F B1 12 00 05 00 02 00 04 00 00 00 ED 00 04 00 04 00 00 00 B4 FF FC FF FF
2025-09-22 11:26:36.316 - EE 00 71 B1 12 00 05 00 02 00 04 00 00 00 ED 00 04 00 04 00 00 00 B4 FF FC FF FF
2025-09-22 11:26:59.831 - 1A 0B 01 02 01 FF FC 01 FF 00 01 FF 00 00 0F (调光器地址-门厅灯带)
2025-09-22 11:27:04.341 - 1A 0B 01 02 01 86 86 86 0F (调光器地址-门厅灯带)
2025-09-22 11:27:04.383 - 1A 0B 01 02 01 00 62 01 00 4C 00 00 (调光器地址-门厅灯带)
2025-09-22 11:27:04.385 - 0D 00 0F
2025-09-22 11:27:04.730 - EE 00 6F B1 12 00 05 00 02 00 04 00 00 00 EB 00 04 00 04 00 00 00 00 FF FC FF FF
2025-09-22 11:27:05.030 - EE 00 71 B1 12 00 05 00 02 00 04 00 00 00 EB 00 04 00 04 00 00 00 00 FF FC FF FF
2025-09-22 11:27:06.296 - 1A 0B 01 02 01 86 86 86 0F (调光器地址-门厅灯带)
2025-09-22 11:27:06.339 - 1A 0B 01 02 01 00 62 01 00 4C 00 00 (调光器地址-门厅灯带)
2025-09-22 11:27:06.343 - 0D 00 0F
2025-09-22 11:27:06.685 - EE 00 6F B1 12 00 05 00 02 00 04 00 00 00 EB 00 04 00 04 00 00 00 00 FF FC FF FF
2025-09-22 11:27:06.987 - EE 00 71 B1 12 00 05 00 02 00 04 00 00 00 EB 00 04 00 04 00 00 00 00 FF FC FF FF
2025-09-22 11:27:15.052 - 1A 0B 01 02 01 FF 00 01 FF FF 01 FF 00 00 0F (调光器地址-门厅灯带)
2025-09-22 11:27:19.566 - 1A 0B 01 02 01 86 86 86 0F (调光器地址-门厅灯带)
2025-09-22 11:27:19.607 - 1A 0B 01 02 01 00 4C 00 00 63 01 00 0D 00 0F (调光器地址-门厅灯带)
2025-09-22 11:27:19.953 - EE 00 6F B1 12 00 05 00 02 00 04 00 00 00 00 00 04 00 04 00 00 00 ED FF FC FF FF
2025-09-22 11:27:20.251 - EE 00 71 B1 12 00 05 00 02 00 04 00 00 00 00 00 04 00 04 00 00 00 ED FF FC FF FF
2025-09-22 11:27:21.524 - 1A 0B 01 02 01 86 86 86 0F (调光器地址-门厅灯带)
2025-09-22 11:27:21.568 - 1A 0B 01 02 01 00 4C 00 00 63 01 00 0D 00 0F (调光器地址-门厅灯带)
2025-09-22 11:27:21.906 - EE 00 6F B1 12 00 05 00 02 00 04 00 00 00 00 00 04 00 04 00 00 00 ED FF FC FF FF
2025-09-22 11:27:22.207 - EE 00 71 B1 12 00 05 00 02 00 04 00 00 00 00 00 04 00 04 00 00 00 ED FF FC FF FF
2025-09-22 11:27:38.934 - 1A 0B 01 02 01 FF 00 01 FF 00 01 FF 00 00 0F (调光器地址-门厅灯带, 门厅灯带关闭)
2025-09-22 11:27:43.445 - 1A 0B 01 02 01 86 86 86 0F (调光器地址-门厅灯带)
2025-09-22 11:27:43.488 - 1A 0B 01 02 01 00 4C 00 00 4C 00 00 (调光器地址-门厅灯带)
2025-09-22 11:27:43.493 - 0D 00 0F
2025-09-22 11:27:43.841 - EE 00 6F B1 12 00 05 00 02 00 04 00 00 00 00 00 04 00 04 00 00 00 00 FF FC FF FF
2025-09-22 11:27:44.140 - EE 00 71 B1 12 00 05 00 02 00 04 00 00 00 00 00 04 00 04 00 00 00 00 FF FC FF FF
2025-09-22 11:27:45.402 - 1A 0B 01 02 01 86 86 86 0F (调光器地址-门厅灯带)
2025-09-22 11:27:45.448 - 1A 0B 01 02 01 00 4C 00 00 4C 00 00 0D 00 0F (调光器地址-门厅灯带)
2025-09-22 11:27:45.786 - EE 00 6F B1 12 00 05 00 02 00 04 00 00 00 00 00 04 00 04 00 00 00 00 FF FC FF FF
2025-09-22 11:27:46.085 - EE 00 71 B1 12 00 05 00 02 00 04 00 00 00 00 00 04 00 04 00 00 00 00 FF FC FF FF
2025-09-22 11:28:16.261 - 1A 0D 01 01 01 FF FF 01 FF FF 01 FF 00 00 0F (调光器地址-客厅筒灯)
2025-09-22 11:28:20.771 - 1A 0D 01 01 01 86 86 86 0F (调光器地址-客厅筒灯)
2025-09-22 11:28:20.819 - 1A 0D 01 01 01 00 63 01 00 63 01 00 0D 00 0F (调光器地址-客厅筒灯)
2025-09-22 11:28:21.165 - EE 00 6E B1 12 00 06 00 02 00 04 00 00 00 ED 00 04 00 04 00 00 00 ED FF FC FF FF
2025-09-22 11:28:22.197 - 1A 0D 01 01 02 FF FF 01 FF FF 01 FF 00 00 0F (调光器地址-客厅灯带)
2025-09-22 11:28:26.708 - 1A 0D 01 01 02 86 86 86 0F (调光器地址-客厅灯带)
2025-09-22 11:28:26.756 - 1A 0D 01 01 02 00 63 01 00 63 01 00 06 00 0F (调光器地址-客厅灯带)
2025-09-22 11:28:27.098 - EE 00 6E B1 12 00 05 00 02 00 04 00 00 00 ED 00 04 00 04 00 00 00 ED FF FC FF FF
2025-09-22 11:28:27.398 - EE 00 6E B1 12 00 04 00 02 00 04 00 00 00 ED 00 04 00 04 00 00 00 ED FF FC FF FF
2025-09-22 11:28:28.147 - 1A 0D 01 01 03 FF FF 01 FF FF 01 FF 00 00 0F (调光器地址-客厅过道)
2025-09-22 11:28:32.652 - 1A 0D 01 01 03 86 86 86 0F (调光器地址-客厅过道)
2025-09-22 11:28:32.698 - 1A 0D 01 01 03 00 63 01 00 63 01 00 3F 00 0F (调光器地址-客厅过道)
2025-09-22 11:28:33.046 - EE 00 6E B1 12 00 07 00 02 00 04 00 00 00 ED 00 04 00 04 00 00 00 ED FF FC FF FF
2025-09-22 11:28:33.224 - 1A 0A 01 03 01 FF FF 01 FF FF 01 FF 00 00 0F (调光器地址-茶吧筒灯)
2025-09-22 11:28:37.735 - 1A 0A 01 03 01 86 86 86 0F (调光器地址-茶吧筒灯)
2025-09-22 11:28:37.775 - 1A 0A 01 03 01 00 63 01 00 (调光器地址-茶吧筒灯)
2025-09-22 11:28:37.781 - 63 01 00 0D 00 0F
2025-09-22 11:28:38.122 - EE 00 71 B1 12 00 0A 00 02 00 04 00 00 00 ED 00 04 00 04 00 00 00 ED FF FC FF FF
2025-09-22 11:28:39.178 - 1A 0B 01 03 01 FF FF 01 FF FF 01 FF 00 00 0F (调光器地址-餐厅筒灯)
2025-09-22 11:28:43.686 - 1A 0B 01 03 01 86 86 86 0F (调光器地址-餐厅筒灯)
2025-09-22 11:28:43.727 - 1A 0B 01 03 01 00 63 01 00 63 01 00 (调光器地址-餐厅筒灯)
2025-09-22 11:28:43.731 - 0D 00 0F
2025-09-22 11:28:44.076 - EE 00 71 B1 12 00 08 00 02 00 04 00 00 00 ED 00 04 00 04 00 00 00 ED FF FC FF FF
2025-09-22 11:28:45.130 - 1A 0B 01 03 02 FF FF 01 FF FF 01 FF 00 00 0F (调光器地址-餐桌筒灯)
2025-09-22 11:28:49.644 - 1A 0B 01 03 02 86 86 86 0F (调光器地址-餐桌筒灯)
2025-09-22 11:28:49.687 - 1A 0B 01 03 02 00 63 01 00 63 01 00 0D 00 0F (调光器地址-餐桌筒灯)
2025-09-22 11:28:50.033 - EE 00 71 B1 12 00 07 00 02 00 04 00 00 00 ED 00 04 00 04 00 00 00 ED FF FC FF FF
2025-09-22 11:28:51.084 - 1A 0B 01 03 03 FF FF 01 FF FF 01 FF 00 00 0F (调光器地址-餐厅灯带)
2025-09-22 11:28:55.589 - 1A 0B 01 03 03 86 86 86 0F (调光器地址-餐厅灯带)
2025-09-22 11:28:55.634 - 1A 0B 01 03 03 00 63 01 00 63 01 00 (调光器地址-餐厅灯带)
2025-09-22 11:28:55.638 - 0D 00 0F
2025-09-22 11:28:55.976 - EE 00 71 B1 12 00 09 00 02 00 04 00 00 00 ED 00 04 00 04 00 00 00 ED FF FC FF FF
2025-09-22 11:28:56.164 - 1A 0B 01 02 01 FF FF 01 FF FF 01 FF 00 00 0F (调光器地址-门厅灯带)
2025-09-22 11:28:56.274 - EE 00 71 B1 12 00 04 00 02 00 04 00 00 00 ED 00 04 00 04 00 00 00 ED FF FC FF FF
2025-09-22 11:29:00.671 - 1A 0B 01 02 01 86 86 86 0F (调光器地址-门厅灯带)
2025-09-22 11:29:00.718 - 1A 0B 01 02 01 00 4C 00 00 4C 00 00 0D 00 0F (调光器地址-门厅灯带)
2025-09-22 11:29:01.062 - EE 00 6F B1 12 00 05 00 02 00 04 00 00 00 00 00 04 00 04 00 00 00 00 FF FC FF FF
2025-09-22 11:29:01.365 - EE 00 71 B1 12 00 05 00 02 00 04 00 00 00 00 00 04 00 04 00 00 00 00 FF FC FF FF
2025-09-22 11:29:02.303 - 1A 0B 01 02 01 FF FF 01 FF FF 01 FF 00 00 0F (调光器地址-门厅灯带)
2025-09-22 11:29:06.814 - 1A 0B 01 02 01 86 86 86 0F (调光器地址-门厅灯带)
2025-09-22 11:29:06.852 - 1A 0B 01 02 01 00 63 01 00 63 01 00 (调光器地址-门厅灯带)
2025-09-22 11:29:06.856 - 0D 00 0F
2025-09-22 11:29:07.196 - EE 00 6F B1 12 00 05 00 02 00 04 00 00 00 ED 00 04 00 04 00 00 00 ED FF FC FF FF
2025-09-22 11:29:07.497 - EE 00 71 B1 12 00 05 00 02 00 04 00 00 00 ED 00 04 00 04 00 00 00 ED FF FC FF FF
2025-09-22 11:29:08.241 - 1A 0B 01 02 02 FF FF 01 FF FF 01 FF 00 00 0F (调光器地址-门厅射灯)
2025-09-22 11:29:12.749 - 1A 0B 01 02 02 86 86 86 0F (调光器地址-门厅射灯)
2025-09-22 11:29:12.792 - 1A 0B 01 02 02 00 63 01 00 63 01 00 (调光器地址-门厅射灯)
2025-09-22 11:29:12.794 - 0D 00 0F
2025-09-22 11:29:13.132 - EE 00 6F B1 12 00 06 00 02 00 04 00 00 00 ED 00 04 00 04 00 00 00 ED FF FC FF FF
2025-09-22 11:29:13.433 - EE 00 71 B1 12 00 06 00 02 00 04 00 00 00 ED 00 04 00 04 00 00 00 ED FF FC FF FF
2025-09-22 11:29:14.176 - 1A 0D 01 02 03 FF FF 01 FF FF 01 FF 00 00 0F (调光器地址-机柜射灯)
2025-09-22 11:29:18.689 - 1A 0D 01 02 03 86 86 86 0F (调光器地址-机柜射灯)
2025-09-22 11:29:18.733 - 1A 0D 01 02 03 00 63 01 00 63 01 00 50 00 0F (调光器地址-机柜射灯)
2025-09-22 11:29:19.079 - EE 00 6F B1 12 00 07 00 02 00 04 00 00 00 ED 00 04 00 04 00 00 00 ED FF FC FF FF
2025-09-22 11:29:25.548 - 1A 0A 01 03 01 FF 00 01 FF 00 01 FF 00 00 0F (调光器地址-茶吧筒灯, 茶吧筒灯关闭)
2025-09-22 11:29:30.060 - 1A 0A 01 03 01 86 86 86 0F (调光器地址-茶吧筒灯)
2025-09-22 11:29:30.108 - 1A 0A 01 03 01 00 4C 00 00 4C 00 00 0D 00 0F (调光器地址-茶吧筒灯)
2025-09-22 11:29:30.447 - EE 00 71 B1 12 00 0A 00 02 00 04 00 00 00 00 00 04 00 04 00 00 00 00 FF FC FF FF
2025-09-22 11:29:30.998 - 1A 0B 01 03 01 FF 00 01 FF 00 01 FF 00 00 0F (调光器地址-餐厅筒灯, 餐厅筒灯关闭)
2025-09-22 11:29:35.512 - 1A 0B 01 03 01 86 86 86 0F (调光器地址-餐厅筒灯)
2025-09-22 11:29:35.552 - 1A 0B 01 03 01 00 4C 00 00 4C 00 00 (调光器地址-餐厅筒灯)
2025-09-22 11:29:35.554 - 0D 00 0F
2025-09-22 11:29:35.897 - EE 00 71 B1 12 00 08 00 02 00 04 00 00 00 00 00 04 00 04 00 00 00 00 FF FC FF FF
2025-09-22 11:29:36.444 - 1A 0B 01 03 02 FF 00 01 FF 00 01 FF 00 00 0F (调光器地址-餐桌筒灯, 餐桌筒灯关闭)
2025-09-22 11:29:40.955 - 1A 0B 01 03 02 86 86 86 0F (调光器地址-餐桌筒灯)
2025-09-22 11:29:40.997 - 1A 0B 01 03 02 00 4C 00 00 4C 00 00 0D 00 0F (调光器地址-餐桌筒灯)
2025-09-22 11:29:41.339 - EE 00 71 B1 12 00 07 00 02 00 04 00 00 00 00 00 04 00 04 00 00 00 00 FF FC FF FF
2025-09-22 11:29:41.874 - 1A 0B 01 03 03 FF 00 01 FF 00 01 FF 00 00 0F (调光器地址-餐厅灯带, 餐厅灯带关闭)
2025-09-22 11:29:46.381 - 1A 0B 01 03 03 86 86 86 0F (调光器地址-餐厅灯带)
2025-09-22 11:29:46.425 - 1A 0B 01 03 03 00 4C 00 00 4C 00 00 (调光器地址-餐厅灯带)
2025-09-22 11:29:46.429 - 0D 00 0F
2025-09-22 11:29:46.765 - EE 00 71 B1 12 00 09 00 02 00 04 00 00 00 00 00 04 00 04 00 00 00 00 FF FC FF FF
2025-09-22 11:29:47.064 - EE 00 71 B1 12 00 04 00 02 00 04 00 00 00 00 00 04 00 04 00 00 00 00 FF FC FF FF
2025-09-22 11:29:47.431 - 1A 0E 03 05 01 FF 00 01 FF 00 01 FF 00 00 0F (调光器地址-次卧射灯, 次卧射灯关闭)
2025-09-22 11:29:51.941 - 1A 0E 03 05 01 86 86 86 0F (调光器地址-次卧射灯)
2025-09-22 11:29:51.987 - 1A 0E 03 05 01 00 4C 00 00 4C 00 00 0D 00 0F (调光器地址-次卧射灯)
2025-09-22 11:29:52.879 - 1A 0E 03 05 02 FF 00 01 FF 00 01 FF 00 00 0F (调光器地址-次卧灯带, 次卧灯带关闭)
2025-09-22 11:29:57.390 - 1A 0E 03 05 02 86 86 86 0F (调光器地址-次卧灯带)
2025-09-22 11:29:57.435 - 1A 0E 03 05 02 00 4C 00 00 4C 00 00 50 00 0F (调光器地址-次卧灯带)
2025-09-22 11:29:58.326 - 1A 0E 03 05 03 FF 00 01 FF 00 01 FF 00 00 0F (调光器地址-次卧阅读灯, 次卧阅读关闭)
2025-09-22 11:30:02.834 - 1A 0E 03 05 03 86 86 86 0F (调光器地址-次卧阅读灯)
2025-09-22 11:30:02.879 - 1A 0E 03 05 03 00 4C 00 00 4C 00 00 3F 00 0F (调光器地址-次卧阅读灯)
2025-09-22 11:30:03.772 - 1A 0E 03 05 04 FF 00 01 FF 00 01 FF 00 00 0F (调光器地址-次卧北筒灯, 次卧北筒灯关闭)
2025-09-22 11:30:08.278 - 1A 0E 03 05 04 86 86 86 0F (调光器地址-次卧北筒灯)
2025-09-22 11:30:08.326 - 1A 0E 03 05 04 00 4C 00 00 4C 00 00 0D 00 0F (调光器地址-次卧北筒灯)
2025-09-22 11:30:09.203 - 1A 0E 03 05 05 FF 00 01 FF 00 01 FF 00 00 0F (调光器地址-次卧南筒灯, 次卧南筒灯关闭)
2025-09-22 11:30:13.709 - 1A 0E 03 05 05 86 86 86 0F (调光器地址-次卧南筒灯)
2025-09-22 11:30:13.755 - 1A 0E 03 05 05 00 4C 00 00 4C 00 00 3F 00 0F (调光器地址-次卧南筒灯)
2025-09-22 11:30:14.645 - 1A AA AA AA 66 FF 00 01 FF 00 01 FF 00 00 0F (调光器地址-东阳筒灯)
2025-09-22 11:30:19.151 - 1A AA AA AA 66 86 86 86 0F (调光器地址-东阳筒灯)
2025-09-22 11:30:20.470 - 1A AA AA AA 66 00 00 00 00 00 00 0F (调光器地址-东阳筒灯)
2025-09-22 11:30:21.750 - 1A AA AA AA 66 00 0F (调光器地址-东阳筒灯)
2025-09-22 11:30:24.761 - 1A AA AA AA 66 FF 00 01 FF 00 01 FF 00 00 0F (调光器地址-东阳筒灯)
2025-09-22 11:30:29.272 - 1A AA AA AA 66 86 86 86 0F (调光器地址-东阳筒灯)
2025-09-22 11:30:30.600 - 1A AA AA AA 66 00 00 00 00 00 00 0F (调光器地址-东阳筒灯)
2025-09-22 11:30:31.884 - 1A AA AA AA 66 00 0F (调光器地址-东阳筒灯)
2025-09-22 11:30:34.876 - 1A AA AA AA 66 FF 00 01 FF 00 01 FF 00 00 0F (调光器地址-东阳筒灯)
2025-09-22 11:30:39.385 - 1A AA AA AA 66 86 86 86 0F (调光器地址-东阳筒灯)
2025-09-22 11:30:40.715 - 1A AA AA AA 66 00 00 00 00 00 00 0F (调光器地址-东阳筒灯)
2025-09-22 11:30:41.997 - 1A AA AA AA 66 00 0F (调光器地址-东阳筒灯)
2025-09-22 11:30:44.300 - 1A 0D 01 01 01 FF 00 01 FF 00 01 FF 00 00 0F (调光器地址-客厅筒灯, 客厅筒灯关闭)
2025-09-22 11:30:48.808 - 1A 0D 01 01 01 86 86 86 0F (调光器地址-客厅筒灯)
2025-09-22 11:30:48.852 - 1A 0D 01 01 01 00 4C 00 00 4C 00 00 0D 00 0F (调光器地址-客厅筒灯)
2025-09-22 11:30:49.203 - EE 00 6E B1 12 00 06 00 02 00 04 00 00 00 00 00 04 00 04 00 00 00 00 FF FC FF FF
2025-09-22 11:30:49.742 - 1A 0D 01 01 02 FF 00 01 FF 00 01 FF 00 00 0F (调光器地址-客厅灯带, 客厅灯带关闭)
2025-09-22 11:30:54.251 - 1A 0D 01 01 02 86 86 86 0F (调光器地址-客厅灯带)
2025-09-22 11:30:54.296 - 1A 0D 01 01 02 00 4C 00 00 4C 00 00 06 00 0F (调光器地址-客厅灯带)
2025-09-22 11:30:54.636 - EE 00 6E B1 12 00 05 00 02 00 04 00 00 00 00 00 04 00 04 00 00 00 00 FF FC FF FF
2025-09-22 11:30:54.937 - EE 00 6E B1 12 00 04 00 02 00 04 00 00 00 00 00 04 00 04 00 00 00 00 FF FC FF FF
2025-09-22 11:30:55.299 - 1A 0D 01 01 03 FF 00 01 FF 00 01 FF 00 00 0F (调光器地址-客厅过道, 客厅过道关闭)
2025-09-22 11:30:59.810 - 1A 0D 01 01 03 86 86 86 0F (调光器地址-客厅过道)
2025-09-22 11:30:59.856 - 1A 0D 01 01 03 00 4C 00 00 4C 00 00 3F 00 0F (调光器地址-客厅过道)
2025-09-22 11:31:00.195 - EE 00 6E B1 12 00 07 00 02 00 04 00 00 00 00 00 04 00 04 00 00 00 00 FF FC FF FF
2025-09-22 11:31:00.743 - 1A 0B 01 02 01 FF 00 01 FF 00 01 FF 00 00 0F (调光器地址-门厅灯带, 门厅灯带关闭)
2025-09-22 11:31:05.259 - 1A 0B 01 02 01 86 86 86 0F (调光器地址-门厅灯带)
2025-09-22 11:31:05.303 - 1A 0B 01 02 01 00 4C 00 00 4C 00 00 0D 00 0F (调光器地址-门厅灯带)
2025-09-22 11:31:05.647 - EE 00 6F B1 12 00 05 00 02 00 04 00 00 00 00 00 04 00 04 00 00 00 00 FF FC FF FF
2025-09-22 11:31:05.950 - EE 00 71 B1 12 00 05 00 02 00 04 00 00 00 00 00 04 00 04 00 00 00 00 FF FC FF FF
2025-09-22 11:31:06.298 - 1A 0B 01 02 02 FF 00 01 FF 00 01 FF 00 00 0F (调光器地址-门厅射灯, 门厅背景关闭)
2025-09-22 11:31:10.810 - 1A 0B 01 02 02 86 86 86 0F (调光器地址-门厅射灯)
2025-09-22 11:31:10.853 - 1A 0B 01 02 02 00 4C 00 00 4C 00 00 0D 00 0F (调光器地址-门厅射灯)
2025-09-22 11:31:11.197 - EE 00 6F B1 12 00 06 00 02 00 04 00 00 00 00 00 04 00 04 00 00 00 00 FF FC FF FF
2025-09-22 11:31:11.495 - EE 00 71 B1 12 00 06 00 02 00 04 00 00 00 00 00 04 00 04 00 00 00 00 FF FC FF FF
2025-09-22 11:31:11.839 - 1A 0D 01 02 03 FF 00 01 FF 00 01 FF 00 00 0F (调光器地址-机柜射灯, 机柜射灯关闭)
2025-09-22 11:31:16.347 - 1A 0D 01 02 03 86 86 86 0F (调光器地址-机柜射灯)
2025-09-22 11:31:16.395 - 1A 0D 01 02 03 00 4C 00 00 4C 00 00 50 00 0F (调光器地址-机柜射灯)
2025-09-22 11:31:16.735 - EE 00 6F B1 12 00 07 00 02 00 04 00 00 00 00 00 04 00 04 00 00 00 00 FF FC FF FF
2025-09-22 11:31:17.284 - 1A 0C 02 08 01 FF 00 01 FF 00 01 FF 00 00 0F (调光器地址-内卫射灯, 内卫感应灯关)
2025-09-22 11:31:21.790 - 1A 0C 02 08 01 86 86 86 0F (调光器地址-内卫射灯)
2025-09-22 11:31:21.837 - 1A 0C 02 08 01 00 4C 00 00 4C 00 00 5E 00 0F (调光器地址-内卫射灯)
2025-09-22 11:31:22.736 - 1A 0A 04 06 01 FF 00 01 FF 00 01 FF 00 00 0F (调光器地址-书房射灯, 书房射灯关闭)
2025-09-22 11:31:27.240 - 1A 0A 04 06 01 86 86 86 0F (调光器地址-书房射灯)
2025-09-22 11:31:27.284 - 1A 0A 04 06 01 00 4C 00 00 4C 00 00 0D 00 0F (调光器地址-书房射灯)
2025-09-22 11:31:28.171 - 1A 0D 01 07 01 FF 00 01 FF 00 01 FF 00 00 0F (调光器地址-外卫射灯, 外卫感应灯关)
2025-09-22 11:31:32.683 - 1A 0D 01 07 01 86 86 86 0F (调光器地址-外卫射灯)
2025-09-22 11:31:32.726 - 1A 0D 01 07 01 00 4C 00 00 4C 00 00 (调光器地址-外卫射灯)
2025-09-22 11:31:32.729 - 0D 00 0F
2025-09-22 11:31:33.615 - 1A 0C 02 04 01 FF 00 01 FF 00 01 FF 00 00 0F (调光器地址-主卧筒灯, 主卧筒灯关闭)
2025-09-22 11:31:38.122 - 1A 0C 02 04 01 86 86 86 0F (调光器地址-主卧筒灯)
2025-09-22 11:31:38.164 - 1A 0C 02 04 01 00 4C 00 00 4C 00 00 (调光器地址-主卧筒灯)
2025-09-22 11:31:38.168 - 0D 00 0F
2025-09-22 11:31:39.042 - 1A 0C 02 04 02 FF 00 01 FF 00 01 FF 00 00 0F (调光器地址-主卧过道, 主卧过道关闭)
2025-09-22 11:31:43.547 - 1A 0C 02 04 02 86 86 86 0F (调光器地址-主卧过道)
2025-09-22 11:31:43.589 - 1A 0C 02 04 02 00 4C 00 00 4C 00 00 (调光器地址-主卧过道)
2025-09-22 11:31:43.592 - 06 00 0F
2025-09-22 11:31:44.466 - 1A 0C 02 04 03 FF 00 01 FF 00 01 FF 00 00 0F (调光器地址-主卧灯带, 主卧灯带关闭)
2025-09-22 11:31:48.976 - 1A 0C 02 04 03 86 86 86 0F (调光器地址-主卧灯带)
2025-09-22 11:31:49.023 - 1A 0C 02 04 03 00 4C 00 00 4C 00 00 3F 00 0F (调光器地址-主卧灯带)
2025-09-22 11:31:49.918 - 1A 0C 02 04 04 FF 00 01 FF 00 01 FF 00 00 0F (调光器地址-主卧南阅, 主卧南阅关闭)
2025-09-22 11:31:54.420 - 1A 0C 02 04 04 86 86 86 0F (调光器地址-主卧南阅)
2025-09-22 11:31:54.468 - 1A 0C 02 04 04 00 4C 00 00 4C 00 00 0D 00 0F (调光器地址-主卧南阅)
2025-09-22 11:31:55.359 - 1A 0C 02 04 05 FF 00 01 FF 00 01 FF 00 00 0F (调光器地址-主卧北阅, 主卧北阅关闭)
2025-09-22 11:31:59.867 - 1A 0C 02 04 05 86 86 86 0F (调光器地址-主卧北阅)
2025-09-22 11:31:59.912 - 1A 0C 02 04 05 00 4C 00 00 4C 00 00 3F 00 0F (调光器地址-主卧北阅)
2025-09-22 11:32:01.804 - 1A BE B0 DC 03 (继电器地址-西阳天幕)
2025-09-22 11:32:01.938 - FF
2025-09-22 11:33:30.198 - 01 04 07 D0 00 06 70 85
2025-09-22 11:33:30.231 - 01 04 0C 70 00 42 02 00 FA 00 00 01 0E 00 00 54 86
2025-09-22 11:33:30.350 - 01 04 07 D6 00 06 90 84
2025-09-22 11:33:30.382 - 01 04 0C 70 00 42 02 00 FA 00 00 01 04 00 00 74 84
2025-09-22 11:33:30.507 - 01 04 07 DC 00 06 B0 86
2025-09-22 11:33:30.544 - 01 04 0C 50 00 42 02 00 DC 00 00 01 0E 00 00 92 FB
2025-09-22 11:33:30.664 - 01 04 07 E2 00 06 D1 4A
2025-09-22 11:33:30.696 - 01 04 0C 70 00 42 02 00 FA 00 00 01 04 00 00 74 84
2025-09-22 11:33:30.816 - 01 04 07 E8 00 06 F1 48
2025-09-22 11:33:30.848 - 01 04 0C 70 00 42 02 00 FA 00 00 01 0E 00 00 54 86
2025-09-22 11:34:43.579 - 01 04 07 D0 00 06 70 85
2025-09-22 11:34:43.609 - 01 04 0C 70 00 42 02 00 FA 00 00 01 0E 00 00 54 86
2025-09-22 11:34:43.726 - 01 04 07 D6 00 06 90 84
2025-09-22 11:34:43.761 - 01 04 0C 70 00 42 02 00 FA 00 00 01 04 00 00 74 84
2025-09-22 11:34:43.878 - 01 04 07 DC 00 06 B0 86
2025-09-22 11:34:43.913 - 01 04 0C 50 00 42 02 00 DC 00 00 01 0E 00 00 92 FB
2025-09-22 11:34:44.035 - 01 04 07 E2 00 06 D1 4A
2025-09-22 11:34:44.065 - 01 04 0C 70 00 42 02 00 FA 00 00 01 04 00 00 74 84
2025-09-22 11:34:44.195 - 01 04 07 E8 00 06 F1 48
2025-09-22 11:34:44.228 - 01 04 0C 70 00 42 02 00 FA 00 00 01 0E 00 00 54 86
2025-09-22 11:35:41.204 - 01 04 07 D0 00 06 70 85
2025-09-22 11:35:41.234 - 01 04 0C 70 00 42 02 00 FA 00 00 01 0E 00 00 54 86
2025-09-22 11:35:41.354 - 01 04 07 D6 00 06 90 84
2025-09-22 11:35:41.386 - 01 04 0C 70 00 42 02 00 FA 00 00 01 04 00 00 74 84
2025-09-22 11:35:41.509 - 01 04 07 DC 00 06 B0 86
2025-09-22 11:35:41.547 - 01 04 0C 50 00 42 02 00 DC 00 00 01 0E 00 00 92 FB
2025-09-22 11:35:41.674 - 01 04 07 E2 00 06 D1 4A
2025-09-22 11:35:41.699 - 01 04 0C 70 00 42 02 00 FA 00 00 01 04 00 00 74 84
2025-09-22 11:35:41.825 - 01 04 07 E8 00 06 F1 48
2025-09-22 11:35:41.861 - 01 04 0C 70 00 42 02 00 FA 00 00 01 0E 00 00 54 86
2025-09-22 11:35:47.630 - 1A 0A 01 03 01 FF FF 01 FF FF 01 FF 00 00 0F (调光器地址-茶吧筒灯)
2025-09-22 11:35:52.133 - 1A 0A 01 03 01 86 86 86 0F (调光器地址-茶吧筒灯)
2025-09-22 11:35:52.176 - 1A 0A 01 03 01 00 63 01 00 63 01 00 (调光器地址-茶吧筒灯)
2025-09-22 11:35:52.180 - 0D 00 0F
2025-09-22 11:35:52.521 - EE 00 71 B1 12 00 0A 00 02 00 04 00 00 00 ED 00 04 00 04 00 00 00 ED FF FC FF FF
2025-09-22 11:35:53.072 - 1A 0B 01 03 01 FF FF 01 FF FF 01 FF 00 00 0F (调光器地址-餐厅筒灯)
2025-09-22 11:35:57.585 - 1A 0B 01 03 01 86 86 86 0F (调光器地址-餐厅筒灯)
2025-09-22 11:35:57.628 - 1A 0B 01 03 01 00 63 01 00 63 01 00 0D 00 0F (调光器地址-餐厅筒灯)
2025-09-22 11:35:57.974 - EE 00 71 B1 12 00 08 00 02 00 04 00 00 00 ED 00 04 00 04 00 00 00 ED FF FC FF FF
2025-09-22 11:35:58.518 - 1A 0B 01 03 02 FF FF 01 FF FF 01 FF 00 00 0F (调光器地址-餐桌筒灯)
2025-09-22 11:36:03.031 - 1A 0B 01 03 02 86 86 86 0F (调光器地址-餐桌筒灯)
2025-09-22 11:36:03.076 - 1A 0B 01 03 02 00 63 01 00 63 01 00 (调光器地址-餐桌筒灯)
2025-09-22 11:36:03.080 - 0D 00 0F
2025-09-22 11:36:03.421 - EE 00 71 B1 12 00 07 00 02 00 04 00 00 00 ED 00 04 00 04 00 00 00 ED FF FC FF FF
2025-09-22 11:36:03.968 - 1A 0B 01 03 03 FF FF 01 FF FF 01 FF 00 00 0F (调光器地址-餐厅灯带)
2025-09-22 11:36:08.476 - 1A 0B 01 03 03 86 86 86 0F (调光器地址-餐厅灯带)
2025-09-22 11:36:08.519 - 1A 0B 01 03 03 00 63 01 00 63 01 00 (调光器地址-餐厅灯带)
2025-09-22 11:36:08.521 - 0D 00 0F
2025-09-22 11:36:08.870 - EE 00 71 B1 12 00 09 00 02 00 04 00 00 00 ED 00 04 00 04 00 00 00 ED FF FC FF FF
2025-09-22 11:36:09.168 - EE 00 71 B1 12 00 04 00 02 00 04 00 00 00 ED 00 04 00 04 00 00 00 ED FF FC FF FF
2025-09-22 11:36:09.519 - 1A 0E 03 05 01 FF FF 01 FF FF 01 FF 00 00 0F (调光器地址-次卧射灯)
2025-09-22 11:36:14.030 - 1A 0E 03 05 01 86 86 86 0F (调光器地址-次卧射灯)
2025-09-22 11:36:14.076 - 1A 0E 03 05 01 00 63 01 00 63 01 00 0D 00 0F (调光器地址-次卧射灯)
2025-09-22 11:36:14.950 - 1A 0E 03 05 02 FF FF 01 FF FF 01 FF 00 00 0F (调光器地址-次卧灯带)
2025-09-22 11:36:19.464 - 1A 0E 03 05 02 86 86 86 0F (调光器地址-次卧灯带)
2025-09-22 11:36:19.506 - 1A 0E 03 05 02 00 63 01 00 63 01 00 50 00 0F (调光器地址-次卧灯带)
2025-09-22 11:36:20.397 - 1A 0E 03 05 03 FF FF 01 FF FF 01 FF 00 00 0F (调光器地址-次卧阅读灯)
2025-09-22 11:36:24.909 - 1A 0E 03 05 03 86 86 86 0F (调光器地址-次卧阅读灯)
2025-09-22 11:36:24.951 - 1A 0E 03 05 03 00 63 01 00 63 01 00 3F 00 0F (调光器地址-次卧阅读灯)
2025-09-22 11:36:25.828 - 1A 0E 03 05 04 FF FF 01 FF FF 01 FF 00 00 0F (调光器地址-次卧北筒灯)
2025-09-22 11:36:30.339 - 1A 0E 03 05 04 86 86 86 0F (调光器地址-次卧北筒灯)
2025-09-22 11:36:30.380 - 1A 0E 03 05 04 00 63 01 00 63 01 00 (调光器地址-次卧北筒灯)
2025-09-22 11:36:30.384 - 0D 00 0F
2025-09-22 11:36:31.275 - 1A 0E 03 05 05 FF FF 01 FF FF 01 FF 00 00 0F (调光器地址-次卧南筒灯)
2025-09-22 11:36:35.788 - 1A 0E 03 05 05 86 86 86 0F (调光器地址-次卧南筒灯)
2025-09-22 11:36:35.837 - 1A 0E 03 05 05 00 63 01 00 63 01 00 3F 00 0F (调光器地址-次卧南筒灯)
2025-09-22 11:36:36.709 - 1A 0D 01 01 01 FF FF 01 FF FF 01 FF 00 00 0F (调光器地址-客厅筒灯)
2025-09-22 11:36:41.220 - 1A 0D 01 01 01 86 86 86 0F (调光器地址-客厅筒灯)
2025-09-22 11:36:41.267 - 1A 0D 01 01 01 00 63 01 00 63 01 00 0D 00 0F (调光器地址-客厅筒灯)
2025-09-22 11:36:41.607 - EE 00 6E B1 12 00 06 00 02 00 04 00 00 00 ED 00 04 00 04 00 00 00 ED FF FC FF FF
2025-09-22 11:36:42.140 - 1A 0D 01 01 02 FF FF 01 FF FF 01 FF 00 00 0F (调光器地址-客厅灯带)
2025-09-22 11:36:46.651 - 1A 0D 01 01 02 86 86 86 0F (调光器地址-客厅灯带)
2025-09-22 11:36:46.697 - 1A 0D 01 01 02 00 63 01 00 63 01 00 06 00 0F (调光器地址-客厅灯带)
2025-09-22 11:36:47.045 - EE 00 6E B1 12 00 05 00 02 00 04 00 00 00 ED 00 04 00 04 00 00 00 ED FF FC FF FF
2025-09-22 11:36:47.343 - EE 00 6E B1 12 00 04 00 02 00 04 00 00 00 ED 00 04 00 04 00 00 00 ED FF FC FF FF
2025-09-22 11:36:47.681 - 1A 0D 01 01 03 FF FF 01 FF FF 01 FF 00 00 0F (调光器地址-客厅过道)
2025-09-22 11:36:52.197 - 1A 0D 01 01 03 86 86 86 0F (调光器地址-客厅过道)
2025-09-22 11:36:52.243 - 1A 0D 01 01 03 00 63 01 00 63 01 00 3F 00 0F (调光器地址-客厅过道)
2025-09-22 11:36:52.589 - EE 00 6E B1 12 00 07 00 02 00 04 00 00 00 ED 00 04 00 04 00 00 00 ED FF FC FF FF
2025-09-22 11:36:53.120 - 1A 0B 01 02 01 FF FF 01 FF FF 01 FF 00 00 0F (调光器地址-门厅灯带)
2025-09-22 11:36:57.635 - 1A 0B 01 02 01 86 86 86 0F (调光器地址-门厅灯带)
2025-09-22 11:36:57.675 - 1A 0B 01 02 01 00 63 01 00 63 01 00 (调光器地址-门厅灯带)
2025-09-22 11:36:57.677 - 0D 00 0F
2025-09-22 11:36:58.024 - EE 00 6F B1 12 00 05 00 02 00 04 00 00 00 ED 00 04 00 04 00 00 00 ED FF FC FF FF
2025-09-22 11:36:58.326 - EE 00 71 B1 12 00 05 00 02 00 04 00 00 00 ED 00 04 00 04 00 00 00 ED FF FC FF FF
2025-09-22 11:36:58.683 - 1A 0B 01 02 02 FF FF 01 FF FF 01 FF 00 00 0F (调光器地址-门厅射灯)
2025-09-22 11:37:03.193 - 1A 0B 01 02 02 86 86 86 0F (调光器地址-门厅射灯)
2025-09-22 11:37:03.236 - 1A 0B 01 02 02 00 63 01 00 63 01 00 (调光器地址-门厅射灯)
2025-09-22 11:37:03.240 - 0D 00 0F
2025-09-22 11:37:03.580 - EE 00 6F B1 12 00 06 00 02 00 04 00 00 00 ED 00 04 00 04 00 00 00 ED FF FC FF FF
2025-09-22 11:37:03.880 - EE 00 71 B1 12 00 06 00 02 00 04 00 00 00 ED 00 04 00 04 00 00 00 ED FF FC FF FF
2025-09-22 11:37:04.244 - 1A 0D 01 02 03 FF FF 01 FF FF 01 FF 00 00 0F (调光器地址-机柜射灯)
2025-09-22 11:37:08.753 - 1A 0D 01 02 03 86 86 86 0F (调光器地址-机柜射灯)
2025-09-22 11:37:08.796 - 1A 0D 01 02 03 00 63 01 00 63 01 00 50 00 0F (调光器地址-机柜射灯)
2025-09-22 11:37:09.139 - EE 00 6F B1 12 00 07 00 02 00 04 00 00 00 ED 00 04 00 04 00 00 00 ED FF FC FF FF
2025-09-22 11:37:09.674 - 1A 0C 02 08 01 FF FF 01 FF FF 01 FF 00 00 0F (调光器地址-内卫射灯)
2025-09-22 11:37:14.185 - 1A 0C 02 08 01 86 86 86 0F (调光器地址-内卫射灯)
2025-09-22 11:37:14.231 - 1A 0C 02 08 01 00 63 01 00 63 01 00 5E 00 0F (调光器地址-内卫射灯)
2025-09-22 11:37:15.120 - 1A 0A 04 06 01 FF FF 01 FF FF 01 FF 00 00 0F (调光器地址-书房射灯)
2025-09-22 11:37:19.634 - 1A 0A 04 06 01 86 86 86 0F (调光器地址-书房射灯)
2025-09-22 11:37:19.677 - 1A 0A 04 06 01 00 63 01 00 63 01 00 (调光器地址-书房射灯)
2025-09-22 11:37:19.681 - 0D 00 0F
2025-09-22 11:37:20.571 - 1A 0D 01 07 01 FF FF 01 FF FF 01 FF 00 00 0F (调光器地址-外卫射灯)
2025-09-22 11:37:25.086 - 1A 0D 01 07 01 86 86 86 0F (调光器地址-外卫射灯)
2025-09-22 11:37:25.135 - 1A 0D 01 07 01 00 63 01 00 63 01 00 0D 00 0F (调光器地址-外卫射灯)
2025-09-22 11:37:26.009 - 1A 0C 02 04 01 FF FF 01 FF FF 01 FF 00 00 0F (调光器地址-主卧筒灯)
2025-09-22 11:37:30.523 - 1A 0C 02 04 01 86 86 86 0F (调光器地址-主卧筒灯)
2025-09-22 11:37:30.568 - 1A 0C 02 04 01 00 63 01 00 63 01 00 0D 00 0F (调光器地址-主卧筒灯)
2025-09-22 11:37:31.445 - 1A 0C 02 04 02 FF FF 01 FF FF 01 FF 00 00 0F (调光器地址-主卧过道)
2025-09-22 11:37:35.957 - 1A 0C 02 04 02 86 86 86 0F (调光器地址-主卧过道)
2025-09-22 11:37:36.005 - 1A 0C 02 04 02 00 63 01 00 63 01 00 06 00 0F (调光器地址-主卧过道)
2025-09-22 11:37:36.883 - 1A 0C 02 04 03 FF FF 01 FF FF 01 FF 00 00 0F (调光器地址-主卧灯带)
2025-09-22 11:37:41.392 - 1A 0C 02 04 03 86 86 86 0F (调光器地址-主卧灯带)
2025-09-22 11:37:41.438 - 1A 0C 02 04 03 00 63 01 00 63 01 00 3F 00 0F (调光器地址-主卧灯带)
2025-09-22 11:37:42.329 - 1A 0C 02 04 04 FF FF 01 FF FF 01 FF 00 00 0F (调光器地址-主卧南阅)
2025-09-22 11:37:46.846 - 1A 0C 02 04 04 86 86 86 0F (调光器地址-主卧南阅)
2025-09-22 11:37:46.884 - 1A 0C 02 04 04 00 63 01 00 63 01 00 (调光器地址-主卧南阅)
2025-09-22 11:37:46.890 - 0D 00 0F
2025-09-22 11:37:47.761 - 1A 0C 02 04 05 FF FF 01 FF FF 01 FF 00 00 0F (调光器地址-主卧北阅)
2025-09-22 11:37:52.269 - 1A 0C 02 04 05 86 86 86 0F (调光器地址-主卧北阅)
2025-09-22 11:37:52.314 - 1A 0C 02 04 05 00 63 01 00 63 01 00 3F 00 0F (调光器地址-主卧北阅)
2025-09-22 11:38:05.448 - 1A 0A 01 03 01 FF 00 01 FF 00 01 FF 00 00 0F (调光器地址-茶吧筒灯, 茶吧筒灯关闭)
2025-09-22 11:38:09.958 - 1A 0A 01 03 01 86 86 86 0F (调光器地址-茶吧筒灯)
2025-09-22 11:38:10.005 - 1A 0A 01 03 01 00 4C 00 00 4C 00 00 0D 00 0F (调光器地址-茶吧筒灯)
2025-09-22 11:38:10.352 - EE 00 71 B1 12 00 0A 00 02 00 04 00 00 00 00 00 04 00 04 00 00 00 00 FF FC FF FF
2025-09-22 11:38:10.883 - 1A 0B 01 03 01 FF 00 01 FF 00 01 FF 00 00 0F (调光器地址-餐厅筒灯, 餐厅筒灯关闭)
2025-09-22 11:38:15.399 - 1A 0B 01 03 01 86 86 86 0F (调光器地址-餐厅筒灯)
2025-09-22 11:38:15.442 - 1A 0B 01 03 01 00 4C 00 00 4C 00 00 (调光器地址-餐厅筒灯)
2025-09-22 11:38:15.444 - 0D 00 0F
2025-09-22 11:38:15.788 - EE 00 71 B1 12 00 08 00 02 00 04 00 00 00 00 00 04 00 04 00 00 00 00 FF FC FF FF
2025-09-22 11:38:16.337 - 1A 0B 01 03 02 FF 00 01 FF 00 01 FF 00 00 0F (调光器地址-餐桌筒灯, 餐桌筒灯关闭)
2025-09-22 11:38:20.851 - 1A 0B 01 03 02 86 86 86 0F (调光器地址-餐桌筒灯)
2025-09-22 11:38:20.896 - 1A 0B 01 03 02 00 4C 00 00 4C 00 00 0D 00 0F (调光器地址-餐桌筒灯)
2025-09-22 11:38:21.243 - EE 00 71 B1 12 00 07 00 02 00 04 00 00 00 00 00 04 00 04 00 00 00 00 FF FC FF FF
2025-09-22 11:38:21.786 - 1A 0B 01 03 03 FF 00 01 FF 00 01 FF 00 00 0F (调光器地址-餐厅灯带, 餐厅灯带关闭)
2025-09-22 11:38:26.296 - 1A 0B 01 03 03 86 86 86 0F (调光器地址-餐厅灯带)
2025-09-22 11:38:26.343 - 1A 0B 01 03 03 00 4C 00 00 4C 00 00 0D 00 0F (调光器地址-餐厅灯带)
2025-09-22 11:38:26.687 - EE 00 71 B1 12 00 09 00 02 00 04 00 00 00 00 00 04 00 04 00 00 00 00 FF FC FF FF
2025-09-22 11:38:26.988 - EE 00 71 B1 12 00 04 00 02 00 04 00 00 00 00 00 04 00 04 00 00 00 00 FF FC FF FF
2025-09-22 11:38:27.345 - 1A 0E 03 05 01 FF 00 01 FF 00 01 FF 00 00 0F (调光器地址-次卧射灯, 次卧射灯关闭)
2025-09-22 11:38:31.855 - 1A 0E 03 05 01 86 86 86 0F (调光器地址-次卧射灯)
2025-09-22 11:38:31.902 - 1A 0E 03 05 01 00 4C 00 00 4C 00 00 0D 00 0F (调光器地址-次卧射灯)
2025-09-22 11:38:32.780 - 1A 0E 03 05 02 FF 00 01 FF 00 01 FF 00 00 0F (调光器地址-次卧灯带, 次卧灯带关闭)
2025-09-22 11:38:37.293 - 1A 0E 03 05 02 86 86 86 0F (调光器地址-次卧灯带)
2025-09-22 11:38:37.336 - 1A 0E 03 05 02 00 4C 00 00 4C 00 00 50 00 0F (调光器地址-次卧灯带)
2025-09-22 11:38:38.215 - 1A 0E 03 05 03 FF 00 01 FF 00 01 FF 00 00 0F (调光器地址-次卧阅读灯, 次卧阅读关闭)
2025-09-22 11:38:42.728 - 1A 0E 03 05 03 86 86 86 0F (调光器地址-次卧阅读灯)
2025-09-22 11:38:42.771 - 1A 0E 03 05 03 00 4C 00 00 4C 00 00 3F 00 0F (调光器地址-次卧阅读灯)
2025-09-22 11:38:43.664 - 1A 0E 03 05 04 FF 00 01 FF 00 01 FF 00 00 0F (调光器地址-次卧北筒灯, 次卧北筒灯关闭)
2025-09-22 11:38:48.173 - 1A 0E 03 05 04 86 86 86 0F (调光器地址-次卧北筒灯)
2025-09-22 11:38:48.216 - 1A 0E 03 05 04 00 4C 00 00 4C 00 00 (调光器地址-次卧北筒灯)
2025-09-22 11:38:48.220 - 0D 00 0F
2025-09-22 11:38:49.096 - 1A 0E 03 05 05 FF 00 01 FF 00 01 FF 00 00 0F (调光器地址-次卧南筒灯, 次卧南筒灯关闭)
2025-09-22 11:38:53.604 - 1A 0E 03 05 05 86 86 86 0F (调光器地址-次卧南筒灯)
2025-09-22 11:38:53.650 - 1A 0E 03 05 05 00 4C 00 00 4C 00 00 3F 00 0F (调光器地址-次卧南筒灯)
2025-09-22 11:38:54.527 - 1A 0D 01 01 01 FF 00 01 FF 00 01 FF 00 00 0F (调光器地址-客厅筒灯, 客厅筒灯关闭)
2025-09-22 11:38:59.038 - 1A 0D 01 01 01 86 86 86 0F (调光器地址-客厅筒灯)
2025-09-22 11:38:59.087 - 1A 0D 01 01 01 00 4C 00 00 4C 00 00 0D 00 0F (调光器地址-客厅筒灯)
2025-09-22 11:38:59.426 - EE 00 6E B1 12 00 06 00 02 00 04 00 00 00 00 00 04 00 04 00 00 00 00 FF FC FF FF
2025-09-22 11:38:59.975 - 1A 0D 01 01 02 FF 00 01 FF 00 01 FF 00 00 0F (调光器地址-客厅灯带, 客厅灯带关闭)
2025-09-22 11:39:04.485 - 1A 0D 01 01 02 86 86 86 0F (调光器地址-客厅灯带)
2025-09-22 11:39:04.527 - 1A 0D 01 01 02 00 4C 00 00 4C 00 00 (调光器地址-客厅灯带)
2025-09-22 11:39:04.531 - 06 00 0F
2025-09-22 11:39:04.872 - EE 00 6E B1 12 00 05 00 02 00 04 00 00 00 00 00 04 00 04 00 00 00 00 FF FC FF FF
2025-09-22 11:39:05.172 - EE 00 6E B1 12 00 04 00 02 00 04 00 00 00 00 00 04 00 04 00 00 00 00 FF FC FF FF
2025-09-22 11:39:05.518 - 1A 0D 01 01 03 FF 00 01 FF 00 01 FF 00 00 0F (调光器地址-客厅过道, 客厅过道关闭)
2025-09-22 11:39:10.029 - 1A 0D 01 01 03 86 86 86 0F (调光器地址-客厅过道)
2025-09-22 11:39:10.076 - 1A 0D 01 01 03 00 4C 00 00 4C 00 00 3F 00 0F (调光器地址-客厅过道)
2025-09-22 11:39:10.420 - EE 00 6E B1 12 00 07 00 02 00 04 00 00 00 00 00 04 00 04 00 00 00 00 FF FC FF FF
2025-09-22 11:39:10.965 - 1A 0B 01 02 01 FF 00 01 FF 00 01 FF 00 00 0F (调光器地址-门厅灯带, 门厅灯带关闭)
2025-09-22 11:39:15.480 - 1A 0B 01 02 01 86 86 86 0F (调光器地址-门厅灯带)
2025-09-22 11:39:15.522 - 1A 0B 01 02 01 00 4C 00 00 4C 00 00 0D 00 0F (调光器地址-门厅灯带)
2025-09-22 11:39:15.863 - EE 00 6F B1 12 00 05 00 02 00 04 00 00 00 00 00 04 00 04 00 00 00 00 FF FC FF FF
2025-09-22 11:39:16.166 - EE 00 71 B1 12 00 05 00 02 00 04 00 00 00 00 00 04 00 04 00 00 00 00 FF FC FF FF
2025-09-22 11:39:16.521 - 1A 0B 01 02 02 FF 00 01 FF 00 01 FF 00 00 0F (调光器地址-门厅射灯, 门厅背景关闭)
2025-09-22 11:39:21.032 - 1A 0B 01 02 02 86 86 86 0F (调光器地址-门厅射灯)
2025-09-22 11:39:21.073 - 1A 0B 01 02 02 00 4C 00 00 4C 00 00 (调光器地址-门厅射灯)
2025-09-22 11:39:21.077 - 0D 00 0F
2025-09-22 11:39:21.418 - EE 00 6F B1 12 00 06 00 02 00 04 00 00 00 00 00 04 00 04 00 00 00 00 FF FC FF FF
2025-09-22 11:39:21.718 - EE 00 71 B1 12 00 06 00 02 00 04 00 00 00 00 00 04 00 04 00 00 00 00 FF FC FF FF
2025-09-22 11:39:22.079 - 1A 0D 01 02 03 FF 00 01 FF 00 01 FF 00 00 0F (调光器地址-机柜射灯, 机柜射灯关闭)
2025-09-22 11:39:26.591 - 1A 0D 01 02 03 86 86 86 0F (调光器地址-机柜射灯)
2025-09-22 11:39:26.637 - 1A 0D 01 02 03 00 4C 00 00 4C 00 00 50 00 0F (调光器地址-机柜射灯)
2025-09-22 11:39:26.976 - EE 00 6F B1 12 00 07 00 02 00 04 00 00 00 00 00 04 00 04 00 00 00 00 FF FC FF FF
2025-09-22 11:39:27.514 - 1A 0C 02 08 01 FF 00 01 FF 00 01 FF 00 00 0F (调光器地址-内卫射灯, 内卫感应灯关)
2025-09-22 11:39:32.024 - 1A 0C 02 08 01 86 86 86 0F (调光器地址-内卫射灯)
2025-09-22 11:39:32.068 - 1A 0C 02 08 01 00 4C 00 00 4C 00 00 5E 00 0F (调光器地址-内卫射灯)
2025-09-22 11:39:32.945 - 1A 0A 04 06 01 FF 00 01 FF 00 01 FF 00 00 0F (调光器地址-书房射灯, 书房射灯关闭)
2025-09-22 11:39:37.456 - 1A 0A 04 06 01 86 86 86 0F (调光器地址-书房射灯)
2025-09-22 11:39:37.497 - 1A 0A 04 06 01 00 4C 00 00 4C 00 00 (调光器地址-书房射灯)
2025-09-22 11:39:37.499 - 0D 00 0F
2025-09-22 11:39:38.380 - 1A 0D 01 07 01 FF 00 01 FF 00 01 FF 00 00 0F (调光器地址-外卫射灯, 外卫感应灯关)
2025-09-22 11:39:42.891 - 1A 0D 01 07 01 86 86 86 0F (调光器地址-外卫射灯)
2025-09-22 11:39:42.930 - 1A 0D 01 07 01 00 4C 00 00 (调光器地址-外卫射灯)
2025-09-22 11:39:42.937 - 4C 00 00 0D 00 0F
2025-09-22 11:39:43.814 - 1A 0C 02 04 01 FF 00 01 FF 00 01 FF 00 00 0F (调光器地址-主卧筒灯, 主卧筒灯关闭)
2025-09-22 11:39:48.321 - 1A 0C 02 04 01 86 86 86 0F (调光器地址-主卧筒灯)
2025-09-22 11:39:48.368 - 1A 0C 02 04 01 00 4C 00 00 4C 00 00 0D 00 0F (调光器地址-主卧筒灯)
2025-09-22 11:39:49.261 - 1A 0C 02 04 02 FF 00 01 FF 00 01 FF 00 00 0F (调光器地址-主卧过道, 主卧过道关闭)
2025-09-22 11:39:53.775 - 1A 0C 02 04 02 86 86 86 0F (调光器地址-主卧过道)
2025-09-22 11:39:53.819 - 1A 0C 02 04 02 00 4C 00 00 4C 00 00 06 00 0F (调光器地址-主卧过道)
2025-09-22 11:39:54.694 - 1A 0C 02 04 03 FF 00 01 FF 00 01 FF 00 00 0F (调光器地址-主卧灯带, 主卧灯带关闭)
2025-09-22 11:39:59.199 - 1A 0C 02 04 03 86 86 86 0F (调光器地址-主卧灯带)
2025-09-22 11:39:59.243 - 1A 0C 02 04 03 00 4C 00 00 4C 00 00 3F 00 0F (调光器地址-主卧灯带)
2025-09-22 11:40:00.134 - 1A 0C 02 04 04 FF 00 01 FF 00 01 FF 00 00 0F (调光器地址-主卧南阅, 主卧南阅关闭)
2025-09-22 11:40:04.640 - 1A 0C 02 04 04 86 86 86 0F (调光器地址-主卧南阅)
2025-09-22 11:40:04.681 - 1A 0C 02 04 04 00 4C 00 00 4C 00 00 (调光器地址-主卧南阅)
2025-09-22 11:40:04.683 - 0D 00 0F
2025-09-22 11:40:05.573 - 1A 0C 02 04 05 FF 00 01 FF 00 01 FF 00 00 0F (调光器地址-主卧北阅, 主卧北阅关闭)
2025-09-22 11:40:10.078 - 1A 0C 02 04 05 86 86 86 0F (调光器地址-主卧北阅)
2025-09-22 11:40:10.120 - 1A 0C 02 04 05 00 4C 00 00 4C 00 00 3F 00 0F (调光器地址-主卧北阅)
2025-09-22 11:40:29.847 - 1A AA AA AA 88 FF B0 01 FF B0 01 0F (调光器地址-茶吧灯带, 茶吧灯带明亮)
2025-09-22 11:40:53.345 - 1A AA AA AA 88 86 86 86 0F (调光器地址-茶吧灯带)
2025-09-22 11:40:54.673 - 1A AA AA AA 88 00 64 01 00 64 01 0F (调光器地址-茶吧灯带)
2025-09-22 11:40:55.950 - 1A AA AA AA 88 01 0F (调光器地址-茶吧灯带)
2025-09-22 11:41:54.022 - 1A AA AA AA 88 00 00 02 0F (调光器地址-茶吧灯带, 茶吧灯带开关)
2025-09-22 11:41:57.326 - 1A AA AA AA 88 86 86 86 0F (调光器地址-茶吧灯带)
2025-09-22 11:42:00.439 - 1A AA AA AA 88 00 64 00 00 64 00 0F (调光器地址-茶吧灯带)
2025-09-22 11:42:01.356 - 1A AA AA AA 88 00 0F (调光器地址-茶吧灯带)
2025-09-22 11:42:03.476 - 1A AA AA AA 88 86 86 86 0F (调光器地址-茶吧灯带)
2025-09-22 11:42:04.780 - 1A AA AA AA 88 00 64 00 00 64 00 0F (调光器地址-茶吧灯带)
2025-09-22 11:42:06.061 - 1A AA AA AA 88 00 0F (调光器地址-茶吧灯带)
2025-09-22 11:42:42.292 - 1A 0B 01 02 01 86 86 86 0F (调光器地址-门厅灯带)
2025-09-22 11:42:42.338 - 1A 0B 01 02 01 00 4C 00 00 4C 00 00 0D 00 0F (调光器地址-门厅灯带)
2025-09-22 11:42:42.683 - EE 00 6F B1 12 00 05 00 02 00 04 00 00 00 00 00 04 00 04 00 00 00 00 FF FC FF FF
2025-09-22 11:42:42.983 - EE 00 71 B1 12 00 05 00 02 00 04 00 00 00 00 00 04 00 04 00 00 00 00 FF FC FF FF
2025-09-22 11:43:58.590 - 1A BE B0 DC 01 FE (继电器地址-回水泵点动)
2025-09-22 11:43:58.722 - FF
2025-09-22 11:48:19.276 - 01 04 07 D0 00 06 70 85
2025-09-22 11:48:19.313 - 01 04 0C 70 00 42 02 00 FA 00 00 01 0E 00 00 54 86
2025-09-22 11:48:19.442 - 01 04 07 D6 00 06 90 84
2025-09-22 11:48:19.473 - 01 04 0C 70 00 42 02 00 FA 00 00 01 04 00 00 74 84
2025-09-22 11:48:19.601 - 01 04 07 DC 00 06 B0 86
2025-09-22 11:48:19.637 - 01 04 0C 50 00 42 02 00 DC 00 00 01 0E 00 00 92 FB
2025-09-22 11:48:19.759 - 01 04 07 E2 00 06 D1 4A
2025-09-22 11:48:19.789 - 01 04 0C 70 00 42 02 00 FA 00 00 01 04 00 00 74 84
2025-09-22 11:48:19.914 - 01 04 07 E8 00 06 F1 48
2025-09-22 11:48:19.949 - 01 04 0C 70 00 42 02 00 FA 00 00 01 0E 00 00 54 86
2025-09-22 11:48:36.243 - 1A 0B 01 02 01 86 86 86 0F (调光器地址-门厅灯带)
2025-09-22 11:48:36.288 - 1A 0B 01 02 01 00 4C 00 00 4C 00 00 0D 00 0F (调光器地址-门厅灯带)
2025-09-22 11:48:36.630 - EE 00 6F B1 12 00 05 00 02 00 04 00 00 00 00 00 04 00 04 00 00 00 00 FF FC FF FF
2025-09-22 11:48:36.933 - EE 00 71 B1 12 00 05 00 02 00 04 00 00 00 00 00 04 00 04 00 00 00 00 FF FC FF FF
2025-09-22 11:48:40.404 - 1A 0B 01 02 01 FF FF 01 FF 00 01 FF 00 00 0F (调光器地址-门厅灯带)
2025-09-22 11:48:44.914 - 1A 0B 01 02 01 86 86 86 0F (调光器地址-门厅灯带)
2025-09-22 11:48:44.955 - 1A 0B 01 02 01 00 63 01 00 4C 00 00 (调光器地址-门厅灯带)
2025-09-22 11:48:44.959 - 0D 00 0F
2025-09-22 11:48:45.296 - EE 00 6F B1 12 00 05 00 02 00 04 00 00 00 ED 00 04 00 04 00 00 00 00 FF FC FF FF
2025-09-22 11:48:45.597 - EE 00 71 B1 12 00 05 00 02 00 04 00 00 00 ED 00 04 00 04 00 00 00 00 FF FC FF FF
2025-09-22 11:48:46.872 - 1A 0B 01 02 01 86 86 86 0F (调光器地址-门厅灯带)
2025-09-22 11:48:46.919 - 1A 0B 01 02 01 00 63 01 00 4C 00 00 0D 00 0F (调光器地址-门厅灯带)
2025-09-22 11:48:47.261 - EE 00 6F B1 12 00 05 00 02 00 04 00 00 00 ED 00 04 00 04 00 00 00 00 FF FC FF FF
2025-09-22 11:48:47.562 - EE 00 71 B1 12 00 05 00 02 00 04 00 00 00 ED 00 04 00 04 00 00 00 00 FF FC FF FF
2025-09-22 11:48:53.259 - 1A 0B 01 02 01 FF 00 01 FF FF 01 FF 00 00 0F (调光器地址-门厅灯带)
2025-09-22 11:48:57.767 - 1A 0B 01 02 01 86 86 86 0F (调光器地址-门厅灯带)
2025-09-22 11:48:57.808 - 1A 0B 01 02 01 00 4C 00 00 63 01 00 (调光器地址-门厅灯带)
2025-09-22 11:48:57.812 - 0D 00 0F
2025-09-22 11:48:58.153 - EE 00 6F B1 12 00 05 00 02 00 04 00 00 00 00 00 04 00 04 00 00 00 ED FF FC FF FF
2025-09-22 11:48:58.451 - EE 00 71 B1 12 00 05 00 02 00 04 00 00 00 00 00 04 00 04 00 00 00 ED FF FC FF FF
2025-09-22 11:48:59.722 - 1A 0B 01 02 01 86 86 86 0F (调光器地址-门厅灯带)
2025-09-22 11:48:59.769 - 1A 0B 01 02 01 00 4C 00 00 63 01 00 0D 00 0F (调光器地址-门厅灯带)
2025-09-22 11:49:00.109 - EE 00 6F B1 12 00 05 00 02 00 04 00 00 00 00 00 04 00 04 00 00 00 ED FF FC FF FF
2025-09-22 11:49:00.405 - EE 00 71 B1 12 00 05 00 02 00 04 00 00 00 00 00 04 00 04 00 00 00 ED FF FC FF FF
2025-09-22 11:49:08.231 - 1A 0B 01 02 01 86 86 86 0F (调光器地址-门厅灯带)
2025-09-22 11:49:08.276 - 1A 0B 01 02 01 00 4C 00 00 63 01 00 (调光器地址-门厅灯带)
2025-09-22 11:49:08.276 - 0D 00 0F
2025-09-22 11:49:08.625 - EE 00 6F B1 12 00 05 00 02 00 04 00 00 00 00 00 04 00 04 00 00 00 ED FF FC FF FF
2025-09-22 11:49:08.923 - EE 00 71 B1 12 00 05 00 02 00 04 00 00 00 00 00 04 00 04 00 00 00 ED FF FC FF FF
2025-09-22 11:49:24.942 - 1A 0B 01 02 01 FF 93 01 FF AD 01 FF 00 00 0F (区域高光指令（AD+区域+暖光+冷光+AE）, 调光器地址-门厅灯带)
2025-09-22 11:49:29.459 - 1A 0B 01 02 01 86 86 86 0F (调光器地址-门厅灯带)
2025-09-22 11:49:29.503 - 1A 0B 01 02 01 00 39 01 00 43 01 00 0D 00 0F (调光器地址-门厅灯带)
2025-09-22 11:49:29.845 - EE 00 6F B1 12 00 05 00 02 00 04 00 00 00 88 00 04 00 04 00 00 00 A0 FF FC FF FF
2025-09-22 11:49:30.148 - EE 00 71 B1 12 00 05 00 02 00 04 00 00 00 88 00 04 00 04 00 00 00 A0 FF FC FF FF
2025-09-22 11:49:31.431 - 1A 0B 01 02 01 86 86 86 0F (调光器地址-门厅灯带)
2025-09-22 11:49:31.476 - 1A 0B 01 02 01 00 39 01 00 43 01 00 0D 00 0F (调光器地址-门厅灯带)
2025-09-22 11:49:31.822 - EE 00 6F B1 12 00 05 00 02 00 04 00 00 00 88 00 04 00 04 00 00 00 A0 FF FC FF FF
2025-09-22 11:49:32.122 - EE 00 71 B1 12 00 05 00 02 00 04 00 00 00 88 00 04 00 04 00 00 00 A0 FF FC FF FF
2025-09-22 11:49:34.148 - 1A 0B 01 02 01 FF 00 01 FF 00 01 FF 00 00 0F (调光器地址-门厅灯带, 门厅灯带关闭)
2025-09-22 11:49:38.660 - 1A 0B 01 02 01 86 86 86 0F (调光器地址-门厅灯带)
2025-09-22 11:49:38.706 - 1A 0B 01 02 01 00 4C 00 00 4C 00 00 0D 00 0F (调光器地址-门厅灯带)
2025-09-22 11:49:39.052 - EE 00 6F B1 12 00 05 00 02 00 04 00 00 00 00 00 04 00 04 00 00 00 00 FF FC FF FF
2025-09-22 11:49:39.353 - EE 00 71 B1 12 00 05 00 02 00 04 00 00 00 00 00 04 00 04 00 00 00 00 FF FC FF FF
2025-09-22 11:49:40.613 - 1A 0B 01 02 01 86 86 86 0F (调光器地址-门厅灯带)
2025-09-22 11:49:40.657 - 1A 0B 01 02 01 00 4C 00 00 4C 00 00 (调光器地址-门厅灯带)
2025-09-22 11:49:40.659 - 0D 00 0F
2025-09-22 11:49:40.999 - EE 00 6F B1 12 00 05 00 02 00 04 00 00 00 00 00 04 00 04 00 00 00 00 FF FC FF FF
2025-09-22 11:49:41.296 - EE 00 71 B1 12 00 05 00 02 00 04 00 00 00 00 00 04 00 04 00 00 00 00 FF FC FF FF
2025-09-22 11:50:26.731 - 1A AA AA AA 66 FF B0 01 FF B0 01 0F (调光器地址-东阳筒灯, 东阳筒灯明亮)
2025-09-22 11:50:35.816 - 1A AA AA AA 66 86 86 86 0F (调光器地址-东阳筒灯)
2025-09-22 11:50:37.144 - 1A AA AA AA 66 00 64 01 00 64 01 0F (调光器地址-东阳筒灯)
2025-09-22 11:50:38.426 - 1A AA AA AA 66 01 0F (调光器地址-东阳筒灯)
2025-09-22 11:50:41.359 - 1A AA AA AA 66 00 00 02 0F (调光器地址-东阳筒灯, 东阳筒灯开关)
2025-09-22 11:50:44.880 - 1A AA AA AA 66 86 86 86 0F (调光器地址-东阳筒灯)
2025-09-22 11:50:47.615 - 1A AA AA AA 66 00 64 00 00 64 00 0F (调光器地址-东阳筒灯)
2025-09-22 11:50:48.534 - 1A AA AA AA 66 00 0F (调光器地址-东阳筒灯)
2025-09-22 11:51:28.736 - 1A BE B0 DC 02 (正反转地址-外卫卷帘)
2025-09-22 11:51:28.869 - FE
2025-09-22 11:57:18.628 - 1A BE B0 DC 09 FF (继电器地址-客厅窗帘)
2025-09-22 11:57:18.761 - FF
2025-09-22 11:57:51.724 - FF FF FF FF 0E (继电器地址-西阳小窗帘)
2025-09-22 11:57:51.860 - FF
2025-09-22 12:07:05.642 - 01 04 07 D0 00 06 70 85
2025-09-22 12:07:05.681 - 01 04 0C 70 00 42 02 00 FA 00 00 01 0E 00 00 54 86
2025-09-22 12:07:05.804 - 01 04 07 D6 00 06 90 84
2025-09-22 12:07:05.841 - 01 04 0C 70 00 42 02 00 FA 00 00 01 04 00 00 74 84
2025-09-22 12:07:05.960 - 01 04 07 DC 00 06 B0 86
2025-09-22 12:07:05.993 - 01 04 0C 50 00 42 02 00 DC 00 00 01 0E 00 00 92 FB
2025-09-22 12:07:06.116 - 01 04 07 E2 00 06 D1 4A
2025-09-22 12:07:06.154 - 01 04 0C 70 00 42 02 00 FA 00 00 01 04 00 00 74 84
2025-09-22 12:07:06.278 - 01 04 07 E8 00 06 F1 48
2025-09-22 12:07:06.307 - 01 04 0C 70 00 42 02 00 FA 00 00 01 0E 00 00 54 86
2025-09-22 12:07:19.704 - 1A 0C 02 04 01 86 86 86 0F (调光器地址-主卧筒灯)
2025-09-22 12:07:19.746 - 1A 0C 02 04 01 00 4C 00 00 4C 00 00 (调光器地址-主卧筒灯)
2025-09-22 12:07:19.748 - 0D 00 0F
2025-09-22 12:07:35.094 - 1A 0B 01 02 01 86 86 86 0F (调光器地址-门厅灯带)
2025-09-22 12:07:35.118 - 1A 0B 01 02 01 00 4C 00 00 4C 00 00 (调光器地址-门厅灯带)
2025-09-22 12:07:35.121 - 0D 00 0F
2025-09-22 12:07:35.461 - EE 00 6F B1 12 00 05 00 02 00 04 00 00 00 00 00 04 00 04 00 00 00 00 FF FC FF FF
2025-09-22 12:07:35.756 - EE 00 71 B1 12 00 05 00 02 00 04 00 00 00 00 00 04 00 04 00 00 00 00 FF FC FF FF
2025-09-22 12:07:39.146 - 1A 0B 01 02 01 FF FF 01 FF 00 01 FF 00 00 0F (调光器地址-门厅灯带)
2025-09-22 12:07:43.657 - 1A 0B 01 02 01 86 86 86 0F (调光器地址-门厅灯带)
2025-09-22 12:07:43.702 - 1A 0B 01 02 01 00 63 01 00 4C 00 00 (调光器地址-门厅灯带)
2025-09-22 12:07:43.704 - 0D 00 0F
2025-09-22 12:07:44.046 - EE 00 6F B1 12 00 05 00 02 00 04 00 00 00 ED 00 04 00 04 00 00 00 00 FF FC FF FF
2025-09-22 12:07:44.346 - EE 00 71 B1 12 00 05 00 02 00 04 00 00 00 ED 00 04 00 04 00 00 00 00 FF FC FF FF
2025-09-22 12:07:45.614 - 1A 0B 01 02 01 86 86 86 0F (调光器地址-门厅灯带)
2025-09-22 12:07:45.657 - 1A 0B 01 02 01 00 63 01 00 4C 00 00 (调光器地址-门厅灯带)
2025-09-22 12:07:45.659 - 0D 00 0F
2025-09-22 12:07:46.003 - EE 00 6F B1 12 00 05 00 02 00 04 00 00 00 ED 00 04 00 04 00 00 00 00 FF FC FF FF
2025-09-22 12:07:46.305 - EE 00 71 B1 12 00 05 00 02 00 04 00 00 00 ED 00 04 00 04 00 00 00 00 FF FC FF FF
2025-09-22 12:07:53.476 - 1A 0B 01 02 01 FF FC 01 FF FF 01 FF 00 00 0F (调光器地址-门厅灯带)
2025-09-22 12:07:57.981 - 1A 0B 01 02 01 86 86 86 0F (调光器地址-门厅灯带)
2025-09-22 12:07:58.016 - 1A 0B 01 02 01 00 (调光器地址-门厅灯带)
2025-09-22 12:07:58.029 - 62 01 00 63 01 00 0D 00 0F
2025-09-22 12:07:58.372 - EE 00 6F B1 12 00 05 00 02 00 04 00 00 00 EB 00 04 00 04 00 00 00 ED FF FC FF FF
2025-09-22 12:07:58.672 - EE 00 71 B1 12 00 05 00 02 00 04 00 00 00 EB 00 04 00 04 00 00 00 ED FF FC FF FF
2025-09-22 12:07:59.937 - 1A 0B 01 02 01 86 86 86 0F (调光器地址-门厅灯带)
2025-09-22 12:07:59.980 - 1A 0B 01 02 01 00 62 01 00 63 01 00 (调光器地址-门厅灯带)
2025-09-22 12:07:59.984 - 0D 00 0F
2025-09-22 12:08:00.329 - EE 00 6F B1 12 00 05 00 02 00 04 00 00 00 EB 00 04 00 04 00 00 00 ED FF FC FF FF
2025-09-22 12:08:00.629 - EE 00 71 B1 12 00 05 00 02 00 04 00 00 00 EB 00 04 00 04 00 00 00 ED FF FC FF FF
2025-09-22 12:08:06.064 - 1A 0B 01 02 01 86 86 86 0F (调光器地址-门厅灯带)
2025-09-22 12:08:06.112 - 1A 0B 01 02 01 00 62 01 00 63 01 00 0D 00 0F (调光器地址-门厅灯带)
2025-09-22 12:08:06.455 - EE 00 6F B1 12 00 05 00 02 00 04 00 00 00 EB 00 04 00 04 00 00 00 ED FF FC FF FF
2025-09-22 12:08:06.752 - EE 00 71 B1 12 00 05 00 02 00 04 00 00 00 EB 00 04 00 04 00 00 00 ED FF FC FF FF
2025-09-22 12:08:14.767 - 1A 0B 01 02 01 86 86 86 0F (调光器地址-门厅灯带)
2025-09-22 12:08:14.801 - 1A 0B 01 02 01 00 (调光器地址-门厅灯带)
2025-09-22 12:08:14.811 - 62 01 00 63 01 00 0D 00 0F
2025-09-22 12:08:15.151 - EE 00 6F B1 12 00 05 00 02 00 04 00 00 00 EB 00 04 00 04 00 00 00 ED FF FC FF FF
2025-09-22 12:08:15.450 - EE 00 71 B1 12 00 05 00 02 00 04 00 00 00 EB 00 04 00 04 00 00 00 ED FF FC FF FF
2025-09-22 12:08:22.608 - 1A 0B 01 02 01 FF 00 01 FF 00 01 FF 00 00 0F (调光器地址-门厅灯带, 门厅灯带关闭)
2025-09-22 12:08:27.121 - 1A 0B 01 02 01 86 86 86 0F (调光器地址-门厅灯带)
2025-09-22 12:08:27.166 - 1A 0B 01 02 01 00 4C 00 00 4C 00 00 (调光器地址-门厅灯带)
2025-09-22 12:08:27.170 - 0D 00 0F
2025-09-22 12:08:27.509 - EE 00 6F B1 12 00 05 00 02 00 04 00 00 00 00 00 04 00 04 00 00 00 00 FF FC FF FF
2025-09-22 12:08:27.808 - EE 00 71 B1 12 00 05 00 02 00 04 00 00 00 00 00 04 00 04 00 00 00 00 FF FC FF FF
2025-09-22 12:08:29.082 - 1A 0B 01 02 01 86 86 86 0F (调光器地址-门厅灯带)
2025-09-22 12:08:29.126 - 1A 0B 01 02 01 00 4C 00 00 4C 00 00 (调光器地址-门厅灯带)
2025-09-22 12:08:29.126 - 0D 00 0F
2025-09-22 12:08:29.464 - EE 00 6F B1 12 00 05 00 02 00 04 00 00 00 00 00 04 00 04 00 00 00 00 FF FC FF FF
2025-09-22 12:08:29.767 - EE 00 71 B1 12 00 05 00 02 00 04 00 00 00 00 00 04 00 04 00 00 00 00 FF FC FF FF
2025-09-22 12:08:51.917 - 1A EC A0 DC 02 40 77 88 0F (自保持开关地址-天花12V供电, 天花供电全关)
2025-09-22 12:08:59.376 - 01 04 07 D0 00 06 70 85
2025-09-22 12:08:59.416 - 01 04 0C 70 00 42 02 00 FA 00 00 01 0E 00 00 54 86
2025-09-22 12:08:59.537 - 01 04 07 D6 00 06 90 84
2025-09-22 12:08:59.564 - 01 04 0C 70 00 42 02 00 FA 00 00 01 04 00 00 74 84
2025-09-22 12:08:59.695 - 01 04 07 DC 00 06 B0 86
2025-09-22 12:08:59.726 - 01 04 0C 50 00 42 02 00 DC 00 00 01 0E 00 00 92 FB
2025-09-22 12:08:59.851 - 01 04 07 E2 00 06 D1 4A
2025-09-22 12:08:59.879 - 01 04 0C 70 00 42 02 00 FA 00 00 01 04 00 00 74 84
2025-09-22 12:09:00.009 - 01 04 07 E8 00 06 F1 48
2025-09-22 12:09:00.040 - 01 04 0C 70 00 42 02 00 FA 00 00 01 0E 00 00 54 86
2025-09-22 12:09:09.798 - 1A 0B 01 03 03 86 86 86 0F (调光器地址-餐厅灯带)
2025-09-22 12:09:23.741 - 01 04 07 D0 00 06 70 85
2025-09-22 12:09:23.772 - 01 04 0C 70 00 42 02 00 FA 00 00 01 0E 00 00 54 86
2025-09-22 12:09:28.170 - 01 04 07 DC 00 06 B0 86
2025-09-22 12:09:28.206 - 01 04 0C 50 00 42 02 00 DC 00 00 01 0E 00 00 92 FB
