2025-09-07 22:22:34.011 - 19 08 24 03 CC 00 D4 00 01 (调用厨房感应灯关的按键)
2025-09-07 22:22:34.060 - 55 0A 31 00 00 00 01 91 55 0A 31 00 00 00 02 92 (厨房顶灯一关, 厨房顶灯二关)
2025-09-07 22:30:12.859 - 1A BE B0 DC 04 (继电器地址-西阳窗帘)
2025-09-07 22:34:46.162 - 01 04 07 E2 00 06 D1 4A
2025-09-07 22:34:46.197 - 01 04 0C 00 00 00 00 00 00 00 00 00 00 00 00 95 B7
2025-09-07 22:34:56.951 - 19 08 24 03 CC 00 D3 00 01 (调用厨房感应灯开的按键)
2025-09-07 22:34:57.006 - 55 0A 32 00 00 00 01 92 55 0A 32 00 00 00 02 93 (厨房顶灯一开, 厨房顶灯二开)
2025-09-07 22:35:10.821 - 01 04 07 DC 00 06 B0 86
2025-09-07 22:35:10.848 - 01 04 0C 00 00 00 00 00 00 00 00 00 00 00 00 95 B7
2025-09-07 22:36:30.967 - 01 04 07 D0 00 06 70 85
2025-09-07 22:36:31.003 - 01 04 0C 00 00 00 00 00 00 00 00 00 00 00 00 95 B7
2025-09-07 22:36:31.023 - 01 84
2025-09-07 22:36:31.135 - DD EF B6 FB EF FF D6 FE FD
2025-09-07 22:36:31.190 - 55 0A 31 00 00 00 01 91 55 0A 31 00 00 00 02 92 (厨房顶灯一关, 厨房顶灯二关)
2025-09-07 22:37:30.235 - 01 04 07 D0 00 06 70 85
2025-09-07 22:37:30.274 - 01 04 0C 70 00 42 02 00 FA 00 00 01 04 00 00 74 84
2025-09-07 22:37:31.298 - 01 04 07 D6 00 06 90 84
2025-09-07 22:37:31.324 - 01 04 0C 70 00 42 02 00 FA 00 00 01 18 00 00 B5 42
2025-09-07 22:37:32.347 - 01 04 07 DC 00 06 B0 86
2025-09-07 22:37:32.375 - 01 04 0C 70 01 42 02 00 F0 00 00 01 18 00 00 1B BE
2025-09-07 22:37:33.391 - 01 04 07 E2 00 06 D1 4A
2025-09-07 22:37:33.425 - 01 04 0C 70 01 42 02 00 FA 00 00 00 F0 00 00 30 76
2025-09-07 22:37:34.438 - 01 04 07 E8 00 06 F1 48
2025-09-07 22:37:34.474 - 01 04 0C 70 00 42 02 00 FA 00 00 01 22 00 00 95 4F
2025-09-07 22:37:35.501 - 01 04 07 EE 00 06 11 49
2025-09-07 22:37:35.534 - 01 04 0C 00 00 00 00 00 00 00 00 00 00 00 00 95 B7
2025-09-07 22:38:43.787 - 01 04 07 D0 00 06 70 85
2025-09-07 22:38:43.824 - 01 04 0C 70 00 42 02 00 FA 00 00 01 04 00 00 74 84
2025-09-07 22:38:44.845 - 01 04 07 D6 00 06 90 84
2025-09-07 22:38:44.875 - 01 04 0C 70 00 42 02 00 FA 00 00 01 18 00 00 B5 42
2025-09-07 22:38:45.889 - 01 04 07 DC 00 06 B0 86
2025-09-07 22:38:45.927 - 01 04 0C 70 01 42 02 00 F0 00 00 01 18 00 00 1B BE
2025-09-07 22:38:46.951 - 01 04 07 E2 00 06 D1 4A
2025-09-07 22:38:46.985 - 01 04 0C 70 01 42 02 00 FA 00 00 00 F0 00 00 30 76
2025-09-07 22:38:47.999 - 01 04 07 E8 00 06 F1 48
2025-09-07 22:38:48.034 - 01 04 0C 70 00 42 02 00 FA 00 00 01 22 00 00 95 4F
2025-09-07 22:38:49.063 - 01 04 07 EE 00 06 11 49
2025-09-07 22:38:49.097 - 01 04 0C 00 00 00 00 00 00 00 00 00 00 00 00 95 B7
2025-09-07 22:40:03.816 - 01 04 07 D0 00 06 70 85
2025-09-07 22:40:03.847 - 01 04 0C 70 00 42 02 00 FA 00 00 01 04 00 00 74 84
2025-09-07 22:40:04.877 - 01 04 07 D6 00 06 90 84
2025-09-07 22:40:04.910 - 01 04 0C 70 00 42 02 00 FA 00 00 01 18 00 00 B5 42
2025-09-07 22:40:05.937 - 01 04 07 DC 00 06 B0 86
2025-09-07 22:40:05.969 - 01 04 0C 70 01 42 02 00 F0 00 00 01 18 00 00 1B BE
2025-09-07 22:40:06.984 - 01 04 07 E2 00 06 D1 4A
2025-09-07 22:40:07.019 - 01 04 0C 70 01 42 02 00 FA 00 00 00 F0 00 00 30 76
2025-09-07 22:40:08.047 - 01 04 07 E8 00 06 F1 48
2025-09-07 22:40:08.080 - 01 04 0C 70 00 42 02 00 FA 00 00 01 22 00 00 95 4F
2025-09-07 22:41:20.081 - 1A FF FF FF 04 (继电器地址-东阳衣架)
2025-09-07 22:41:20.216 - FE
2025-09-07 22:45:17.432 - 01 04 07 D0 00 06 70 85
2025-09-07 22:45:17.482 - 01 04 0C 70 00 42 02 00 FA 00 00 01 04 00 00 74 84
2025-09-07 22:47:52.052 - 01 04 07 D0 00 06 70 85
2025-09-07 22:47:52.085 - 01 04 0C 70 00 42 02 00 FA 00 00 01 04 00 00 74 84
2025-09-07 22:47:53.107 - 01 04 07 D6 00 06 90 84
2025-09-07 22:47:53.137 - 01 04 0C 70 00 42 02 00 FA 00 00 01 18 00 00 B5 42
2025-09-07 22:47:54.155 - 01 04 07 DC 00 06 B0 86
2025-09-07 22:47:54.186 - 01 04 0C 70 01 42 02 00 F0 00 00 01 18 00 00 1B BE
2025-09-07 22:47:55.202 - 01 04 07 E2 00 06 D1 4A
2025-09-07 22:47:55.241 - 01 04 0C 70 01 42 02 00 FA 00 00 00 FA 00 00 10 74
2025-09-07 22:47:56.263 - 01 04 07 E8 00 06 F1 48
2025-09-07 22:47:56.298 - 01 04 0C 70 00 42 02 00 FA 00 00 01 22 00 00 95 4F
2025-09-07 22:49:03.326 - 01 04 07 D0 00 06 70 85
2025-09-07 22:49:03.355 - 01 04 0C 70 00 42 02 00 FA 00 00 01 04 00 00 74 84
2025-09-07 22:51:04.516 - 01 04 07 D0 00 06 70 85
2025-09-07 22:51:04.542 - 01 04 0C 70 00 42 02 00 FA 00 00 01 04 00 00 74 84
2025-09-07 22:51:05.569 - 01 04 07 D6 00 06 90 84
2025-09-07 22:51:05.603 - 01 04 0C 70 00 42 02 00 FA 00 00 01 18 00 00 B5 42
2025-09-07 22:51:06.627 - 01 04 07 DC 00 06 B0 86
2025-09-07 22:51:06.663 - 01 04 0C 70 01 42 02 00 F0 00 00 01 18 00 00 1B BE
2025-09-07 22:51:07.686 - 01 04 07 E2 00 06 D1 4A
2025-09-07 22:51:07.724 - 01 04 0C 70 01 42 02 00 FA 00 00 00 FA 00 00 10 74
2025-09-07 22:51:08.737 - 01 04 07 E8 00 06 F1 48
2025-09-07 22:51:08.775 - 01 04 0C 70 00 42 02 00 FA 00 00 01 22 00 00 95 4F
2025-09-07 22:53:32.239 - 01 04 07 D0 00 06 70 85
2025-09-07 22:53:32.271 - 01 04 0C 70 00 42 02 00 FA 00 00 01 04 00 00 74 84
2025-09-07 22:53:33.285 - 01 04 07 D6 00 06 90 84
2025-09-07 22:53:33.320 - 01 04 0C 70 00 42 02 00 FA 00 00 01 18 00 00 B5 42
2025-09-07 22:53:34.347 - 01 04 07 DC 00 06 B0 86
2025-09-07 22:53:34.381 - 01 04 0C 70 01 42 02 00 F0 00 00 01 18 00 00 1B BE
2025-09-07 22:53:35.392 - 01 04 07 E2 00 06 D1 4A
2025-09-07 22:53:35.431 - 01 04 0C 70 01 42 02 00 FA 00 00 00 FA 00 00 10 74
2025-09-07 22:53:36.454 - 01 04 07 E8 00 06 F1 48
2025-09-07 22:53:36.491 - 01 04 0C 70 00 42 02 00 FA 00 00 01 22 00 00 95 4F
2025-09-07 22:55:13.011 - 1A BE B0 DC 02 (正反转地址-外卫卷帘)
2025-09-07 22:58:09.917 - 1A BE B0 DC 09 FC (继电器地址-客厅窗帘)
2025-09-07 22:58:10.050 - FF
2025-09-07 23:03:56.939 - 01 04 07 D0 00 06 70 85
2025-09-07 23:03:56.971 - 01 04 0C 70 00 42 02 00 FA 00 00 01 04 00 00 74 84
2025-09-07 23:03:57.992 - 01 04 07 D6 00 06 90 84
2025-09-07 23:03:58.021 - 01 04 0C 70 00 42 02 00 FA 00 00 01 18 00 00 B5 42
2025-09-07 23:03:59.048 - 01 04 07 DC 00 06 B0 86
2025-09-07 23:03:59.083 - 01 04 0C 70 01 42 02 00 F0 00 00 01 18 00 00 1B BE
2025-09-07 23:04:00.110 - 01 04 07 E2 00 06 D1 4A
2025-09-07 23:04:00.142 - 01 04 0C 70 01 42 02 00 FA 00 00 00 FA 00 00 10 74
2025-09-07 23:04:01.162 - 01 04 07 E8 00 06 F1 48
2025-09-07 23:04:01.192 - 01 04 0C 70 00 42 02 00 FA 00 00 01 22 00 00 95 4F
2025-09-07 23:05:08.271 - 01 04 07 D0 00 06 70 85
2025-09-07 23:05:08.300 - 01 04 0C 00 00 00 00 00 00 00 00 00 00 00 00 95 B7
2025-09-07 23:05:09.327 - 01 04 07 D6 00 06 90 84
2025-09-07 23:05:09.361 - 01 04 0C 70 00 42 02 00 FA 00 00 01 18 00 00 B5 42
2025-09-07 23:05:10.374 - 01 04 07 DC 00 06 B0 86
2025-09-07 23:05:10.410 - 01 04 0C 50 01 42 02 00 F0 00 00 01 18 00 00 9A 01
2025-09-07 23:05:11.437 - 01 04 07 E2 00 06 D1 4A
2025-09-07 23:05:11.471 - 01 04 0C 70 01 42 02 00 FA 00 00 00 FA 00 00 10 74
2025-09-07 23:05:12.486 - 01 04 07 E8 00 06 F1 48
2025-09-07 23:05:12.511 - 01 04 0C 70 00 42 02 00 FA 00 00 01 22 00 00 95 4F
2025-09-07 23:05:28.947 - 01 04 07 D0 00 06 70 85
2025-09-07 23:05:28.983 - 01 04 0C 00 00 00 00 00 00 00 00 00 00 00 00 95 B7
2025-09-07 23:05:30.002 - 01 04 07 D6 00 06 90 84
2025-09-07 23:05:30.033 - 01 04 0C 70 00 42 02 00 FA 00 00 01 18 00 00 B5 42
2025-09-07 23:05:31.046 - 01 04 07 DC 00 06 B0 86
2025-09-07 23:05:31.083 - 01 04 0C 30 01 42 02 00 F0 00 00 01 18 00 00 1A 81
2025-09-07 23:05:32.098 - 01 04 07 E2 00 06 D1 4A
2025-09-07 23:05:32.134 - 01 04 0C 70 01 42 02 00 FA 00 00 00 FA 00 00 10 74
2025-09-07 23:05:33.158 - 01 04 07 E8 00 06 F1 48
2025-09-07 23:05:33.194 - 01 04 0C 70 00 42 02 00 FA 00 00 01 22 00 00 95 4F
2025-09-07 23:05:54.193 - 01 04 07 D0 00 06 70 85
2025-09-07 23:05:54.230 - 01 04 0C 00 00 00 00 00 00 00 00 00 00 00 00 95 B7
2025-09-07 23:05:55.253 - 01 04 07 D6 00 06 90 84
2025-09-07 23:05:55.279 - 01 04 0C 70 00 42 02 00 FA 00 00 01 18 00 00 B5 42
2025-09-07 23:05:56.300 - 01 04 07 DC 00 06 B0 86
2025-09-07 23:05:56.332 - 01 04 0C 10 01 42 02 00 F0 00 00 01 18 00 00 9B 3E
2025-09-07 23:05:57.360 - 01 04 07 E2 00 06 D1 4A
2025-09-07 23:05:57.391 - 01 04 0C 70 01 42 02 00 FA 00 00 00 FA 00 00 10 74
2025-09-07 23:05:58.410 - 01 04 07 E8 00 06 F1 48
2025-09-07 23:05:58.440 - 01 04 0C 70 00 42 02 00 FA 00 00 01 22 00 00 95 4F
2025-09-07 23:06:20.383 - 01 04 07 D0 00 06 70 85
2025-09-07 23:06:20.418 - 01 04 0C 00 00 00 00 00 00 00 00 00 00 00 00 95 B7
2025-09-07 23:06:21.436 - 01 04 07 D6 00 06 90 84
2025-09-07 23:06:21.466 - 01 04 0C 70 00 42 02 00 FA 00 00 01 18 00 00 B5 42
2025-09-07 23:06:22.486 - 01 04 07 DC 00 06 B0 86
2025-09-07 23:06:22.518 - 01 04 0C 70 01 42 02 00 F0 00 00 01 18 00 00 1B BE
2025-09-07 23:06:23.533 - 01 04 07 E2 00 06 D1 4A
2025-09-07 23:06:23.568 - 01 04 0C 70 01 42 02 00 FA 00 00 00 FA 00 00 10 74
2025-09-07 23:06:24.597 - 01 04 07 E8 00 06 F1 48
2025-09-07 23:06:24.629 - 01 04 0C 70 00 42 02 00 FA 00 00 01 22 00 00 95 4F
2025-09-07 23:12:42.800 - 01 04 07 D0 00 06 70 85
2025-09-07 23:12:42.824 - 01 04 0C 70 00 42 02 00 FA 00 00 01 0E 00 00 54 86
2025-09-07 23:12:43.837 - 01 04 07 D6 00 06 90 84
2025-09-07 23:12:43.874 - 01 04 0C 70 00 42 02 00 FA 00 00 01 18 00 00 B5 42
2025-09-07 23:12:44.896 - 01 04 07 DC 00 06 B0 86
2025-09-07 23:12:44.925 - 01 04 0C 70 01 42 02 00 F0 00 00 01 18 00 00 1B BE
2025-09-07 23:12:45.955 - 01 04 07 E2 00 06 D1 4A
2025-09-07 23:12:45.986 - 01 04 0C 70 01 42 02 00 FA 00 00 00 FA 00 00 10 74
2025-09-07 23:12:46.999 - 01 04 07 E8 00 06 F1 48
2025-09-07 23:12:47.037 - 01 04 0C 70 00 42 02 00 FA 00 00 01 22 00 00 95 4F
2025-09-07 23:13:33.909 - 01 04 07 D0 00 06 70 85
2025-09-07 23:13:33.945 - 01 04 0C 70 00 42 02 00 FA 00 00 01 0E 00 00 54 86
2025-09-07 23:13:34.971 - 01 04 07 D6 00 06 90 84
2025-09-07 23:13:35.005 - 01 04 0C 70 00 42 02 00 FA 00 00 01 18 00 00 B5 42
2025-09-07 23:13:36.017 - 01 04 07 DC 00 06 B0 86
2025-09-07 23:13:36.045 - 01 04 0C 70 01 42 02 00 F0 00 00 01 18 00 00 1B BE
2025-09-07 23:13:37.067 - 01 04 07 E2 00 06 D1 4A
2025-09-07 23:13:37.095 - 01 04 0C 70 01 42 02 00 FA 00 00 00 FA 00 00 10 74
2025-09-07 23:13:38.127 - 01 04 07 E8 00 06 F1 48
2025-09-07 23:13:38.156 - 01 04 0C 70 00 42 02 00 FA 00 00 01 22 00 00 95 4F
2025-09-07 23:15:23.189 - 01 04 07 D0 00 06 70 85
2025-09-07 23:15:23.226 - 01 04 0C 70 00 42 02 00 FA 00 00 01 0E 00 00 54 86
2025-09-07 23:22:15.690 - 01 04 07 D0 00 06 70 85
2025-09-07 23:22:15.729 - 01 04 0C 70 00 42 02 00 FA 00 00 01 0E 00 00 54 86
2025-09-07 23:22:16.788 - 01 04 07 D6 00 06 90 84
2025-09-07 23:22:16.819 - 01 04 0C 70 00 42 02 00 FA 00 00 01 18 00 00 B5 42
2025-09-07 23:22:17.832 - 01 04 07 DC 00 06 B0 86
2025-09-07 23:22:17.869 - 01 04 0C 70 01 42 02 00 F0 00 00 01 18 00 00 1B BE
2025-09-07 23:22:18.893 - 01 04 07 E2 00 06 D1 4A
2025-09-07 23:22:18.918 - 01 04 0C 70 01 42 02 00 FA 00 00 01 04 00 00 70 78
2025-09-07 23:22:19.935 - 01 04 07 E8 00 06 F1 48
2025-09-07 23:22:19.969 - 01 04 0C 70 00 42 02 00 FA 00 00 01 22 00 00 95 4F
2025-09-07 23:25:49.011 - 01 04 07 D0 00 06 70 85
2025-09-07 23:25:49.039 - 01 04 0C 70 00 42 02 00 FA 00 00 01 0E 00 00 54 86
2025-09-07 23:25:50.064 - 01 04 07 D6 00 06 90 84
2025-09-07 23:25:50.098 - 01 04 0C 70 00 42 02 00 FA 00 00 01 18 00 00 B5 42
2025-09-07 23:25:51.112 - 01 04 07 DC 00 06 B0 86
2025-09-07 23:25:51.150 - 01 04 0C 70 01 42 02 00 F0 00 00 01 18 00 00 1B BE
2025-09-07 23:25:52.175 - 01 04 07 E2 00 06 D1 4A
2025-09-07 23:25:52.210 - 01 04 0C 70 01 42 02 00 FA 00 00 01 04 00 00 70 78
2025-09-07 23:25:53.237 - 01 04 07 E8 00 06 F1 48
2025-09-07 23:25:53.271 - 01 04 0C 70 00 42 02 00 FA 00 00 01 22 00 00 95 4F
2025-09-07 23:32:09.394 - 1A BE B0 DC 0A FC (继电器地址-客厅纱帘)
2025-09-07 23:32:09.529 - FF
2025-09-07 23:38:22.360 - 01 04 07 D0 00 06 70 85
2025-09-07 23:38:22.391 - 01 04 0C 70 00 42 02 00 FA 00 00 01 0E 00 00 54 86
2025-09-07 23:38:23.407 - 01 04 07 D6 00 06 90 84
2025-09-07 23:38:23.441 - 01 04 0C 70 00 42 02 00 FA 00 00 01 18 00 00 B5 42
2025-09-07 23:38:24.455 - 01 04 07 DC 00 06 B0 86
2025-09-07 23:38:24.492 - 01 04 0C 70 01 42 02 00 F0 00 00 01 18 00 00 1B BE
2025-09-07 23:38:25.521 - 01 04 07 E2 00 06 D1 4A
2025-09-07 23:38:25.552 - 01 04 0C 70 01 42 02 00 FA 00 00 00 FA 00 00 10 74
2025-09-07 23:38:26.584 - 01 04 07 E8 00 06 F1 48
2025-09-07 23:38:26.610 - 01 04 0C 70 00 42 02 00 FA 00 00 01 22 00 00 95 4F
2025-09-07 23:38:28.656 - 01 04 07 E8 00 06 F1 48
2025-09-07 23:38:28.692 - 01 04 0C 70 00 42 02 00 FA 00 00 01 22 00 00 95 4F
2025-09-07 23:39:19.568 - 01 04 07 D0 00 06 70 85
2025-09-07 23:39:19.602 - 01 04 0C 70 00 42 02 00 FA 00 00 01 0E 00 00 54 86
2025-09-07 23:39:20.627 - 01 04 07 D6 00 06 90 84
2025-09-07 23:39:20.661 - 01 04 0C 70 00 42 02 00 FA 00 00 01 18 00 00 B5 42
2025-09-07 23:39:21.692 - 01 04 07 DC 00 06 B0 86
2025-09-07 23:39:21.722 - 01 04 0C 70 01 42 02 00 F0 00 00 01 18 00 00 1B BE
2025-09-07 23:39:22.738 - 01 04 07 E2 00 06 D1 4A
2025-09-07 23:39:22.773 - 01 04 0C 70 01 42 02 00 FA 00 00 00 FA 00 00 10 74
2025-09-07 23:39:23.800 - 01 04 07 E8 00 06 F1 48
2025-09-07 23:39:23.833 - 01 04 0C 70 00 42 02 00 FA 00 00 01 22 00 00 95 4F
2025-09-07 23:39:25.865 - 01 04 07 E8 00 06 F1 48
2025-09-07 23:39:25.894 - 01 04 0C 70 00 42 02 00 FA 00 00 01 22 00 00 95 4F
2025-09-07 23:39:56.796 - 01 04 07 D0 00 06 70 85
2025-09-07 23:39:56.826 - 01 04 0C 70 00 42 02 00 FA 00 00 01 0E 00 00 54 86
2025-09-07 23:39:57.845 - 01 04 07 D6 00 06 90 84
2025-09-07 23:39:57.876 - 01 04 0C 70 00 42 02 00 FA 00 00 01 18 00 00 B5 42
2025-09-07 23:39:58.892 - 01 04 07 DC 00 06 B0 86
2025-09-07 23:39:58.927 - 01 04 0C 70 01 42 02 00 F0 00 00 01 18 00 00 1B BE
2025-09-07 23:39:59.956 - 01 04 07 E2 00 06 D1 4A
2025-09-07 23:39:59.988 - 01 04 0C 70 01 42 02 00 FA 00 00 00 FA 00 00 10 74
2025-09-07 23:40:01.018 - 01 04 07 E8 00 06 F1 48
2025-09-07 23:40:01.048 - 01 04 0C 70 00 42 02 00 FA 00 00 01 22 00 00 95 4F
