2024-09-01 21:16:25.612 - EE 00 00 B1 00 00 00 FF FC FF FF (情景执行提示)
2024-09-01 21:16:26.218 - 09 06 00 0F 02 01 78 21 (提示音叮)
2024-09-01 21:16:26.759 - 50 F0 05 (开主卧影视)
2024-09-01 21:16:27.359 - 50 F0 04 (开内卫影视)
2024-09-01 21:16:27.903 - 1A FF FF FF 56 00 00 00 0F (人体感应地址-内卫, 关闭内卫感应)
2024-09-01 21:16:27.924 - BC BC
2024-09-01 21:16:28.510 - 1A 22 33 62 0F 00 02 01 0F (正反转地址-内卫卷帘, 内卫卷帘降)
2024-09-01 21:16:29.052 - A5 00 53 FE 01 AA (主卧纱帘关)
2024-09-01 21:16:30.104 - A5 00 52 FF 00 AA (主卧窗帘关)
2024-09-01 21:16:31.156 - 1A 0C 02 04 FF FF 45 01 FF 45 01 FF 00 00 0F (主卧调光微光)
2024-09-01 21:16:35.236 - 1A 0C 02 08 01 FF 45 01 FF 45 01 FF 00 00 0F (调光器地址-内卫射灯, 内卫射灯微光)
2024-09-01 21:16:35.830 - 50 F1 25 (主卧—有线2)
2024-09-01 21:16:36.374 - A1 11 11 11 42 (主卧空调自动开)
2024-09-01 21:16:36.595 - 19 08 24 03 F0 BB 78 02 02 00
2024-09-01 21:16:36.646 - 23 AA 56 02 15 11 0C 18 09 01 07 73 65 6F 6B 65 6E 64
2024-09-01 21:16:36.927 - 50 F1 24 (内卫—有线2)
2024-09-01 21:16:37.598 - 01 10 07 D6 00 03 06 70 61 00 02 00 F0 0F 3E (主卧空调冷24度)
2024-09-01 21:16:37.648 - 01 10 07 D6 00 03 06 70 61 00 02 00 F0 0F 3E (主卧空调冷24度)
2024-09-01 21:16:38.970 - AF BF CF DF C2 21 (有线2/快捷-凤凰卫视)
2024-09-01 21:16:41.017 - 1A FF FF FF 60 0B 01 01 0F (红外总线地址-主卧发射设备, 主卧电视电源)
2024-09-01 21:16:41.541 - F0 0B 01 08
2024-09-01 21:16:49.046 - 09 06 00 0F 02 02 38 20 (提示音咚)
2024-09-01 21:16:49.596 - EE 00 00 B1 00 00 02 FF FC FF FF (情景完成返回主页)
2024-09-01 21:17:19.785 - 1A FF FF FF 60 0B 01 01 0F (红外总线地址-主卧发射设备, 主卧电视电源)
2024-09-01 21:17:20.312 - F0 0B 01 08
2024-09-01 21:17:29.260 - 1A FF FF FF 60 0B 01 01 0F (红外总线地址-主卧发射设备, 主卧电视电源)
2024-09-01 21:17:29.779 - F0 0B 01 08
2024-09-01 21:21:40.548 - 19 08 24 03 CC 00 D3 00 01 (调用厨房感应灯开的按键)
2024-09-01 21:21:40.599 - 55 0A 32 00 00 00 01 92 55 0A 32 00 00 00 02 93 (厨房顶灯一开, 厨房顶灯二开)
2024-09-01 21:22:16.114 - 19 08 24 03 CC 00 D4 00 01 (调用厨房感应灯关的按键)
2024-09-01 21:22:16.148 - 55 0A 31 00 00 00 01 91 55 0A 31 00 00 00 02 92 (厨房顶灯一关, 厨房顶灯二关)
2024-09-01 21:48:50.369 - FF
2024-09-01 21:49:11.082 - FF
2024-09-01 22:02:13.955 - 1A FF FF FF 60 (红外总线地址-主卧发射设备)
2024-09-01 22:09:10.159 - 19 08 24 03 CC 01 CC 00 01 (调用茶吧感应灯开的按键)
2024-09-01 22:09:10.209 - 1A AA AA AA 88 FF B0 01 FF B0 01 0F (调光器地址-茶吧灯带, 茶吧灯带明亮)
2024-09-01 22:09:18.971 - 19 08 24 03 DD 00 13 00 01 (调用情景-公共区域关)
2024-09-01 22:09:19.481 - EE 00 00 B1 00 00 00 FF FC FF FF (情景执行提示)
2024-09-01 22:09:20.087 - 09 06 00 0F 02 01 78 21 (提示音叮)
2024-09-01 22:09:20.687 - 55 0B 31 00 00 00 01 92 (厨房风扇只关)
2024-09-01 22:09:21.730 - 01 06 07 D3 FF 60 38 9F (餐厅空调关)
2024-09-01 22:09:21.762 - 01 06 07 D3 FF 60 38 9F (餐厅空调关)
2024-09-01 22:09:22.830 - 01 06 07 D0 FF 60 C8 9F (客厅空调关)
2024-09-01 22:09:22.847 - 01 06 07 D0 FF 60 C8 9F (客厅空调关)
2024-09-01 22:09:26.912 - 50 F5 02 (关厨房影视)
2024-09-01 22:09:27.953 - 50 F5 01 (关餐厅影视)
2024-09-01 22:09:29.005 - 50 F5 08 (关客厅影视)
2024-09-01 22:09:30.043 - 50 F5 03 (关外卫影视)
2024-09-01 22:09:31.098 - 55 0A 31 00 00 00 01 91 (厨房顶灯一关)
2024-09-01 22:09:32.152 - 55 0A 31 00 00 00 02 92 (厨房顶灯二关)
2024-09-01 22:09:33.190 - 55 0C 31 00 00 00 01 93 (餐厅顶灯关)
2024-09-01 22:09:34.244 - 1A 18 05 10 31 00 01 00 0F (自保持开关地址-门厅顶灯, 门厅顶灯关)
2024-09-01 22:09:35.291 - 1A 20 07 00 42 00 01 00 0F (自保持开关地址-外卫顶灯, 外卫顶灯关)
2024-09-01 22:09:36.336 - 1A 18 05 21 89 00 01 00 0F (自保持开关地址-客厅顶灯, 客厅顶灯一关)
2024-09-01 22:09:37.382 - 1A 18 05 01 94 00 01 00 0F (自保持开关地址-客厅顶灯, 客厅顶灯二关)
2024-09-01 22:09:38.429 - 1A 20 07 01 30 00 01 00 0F (自保持开关地址-西阳顶灯, 西阳顶灯关)
2024-09-01 22:09:39.484 - 1A FF 01 FF FF FF 00 01 FF 00 01 FF 00 00 0F (调光器地址-公共区域统配地址, 公共区域灯光全关)
2024-09-01 22:09:40.573 - 09 06 00 0F 02 02 38 20 (提示音咚)
2024-09-01 22:09:42.615 - EE 00 00 B1 00 00 02 FF FC FF FF (情景完成返回主页)
2024-09-01 22:09:58.261 - 19 08 24 03 CC 01 CD 00 01 (调用茶吧感应灯关的按键)
2024-09-01 22:09:58.312 - 1A AA AA AA 88 FF 00 01 FF 00 01 0F (调光器地址-茶吧灯带, 茶吧灯带关闭)
2024-09-01 22:14:09.774 - FF
2024-09-01 22:14:35.790 - 19 08 24 03 CC 00 D3 00 01 (调用厨房感应灯开的按键)
2024-09-01 22:14:35.838 - 55 0A 32 00 00 00 01 92 55 0A 32 00 00 00 02 93 (厨房顶灯一开, 厨房顶灯二开)
2024-09-01 22:14:44.200 - 19 08 24 03 DD 00 4F 00 01 (调用情景-内卫使用完毕)
2024-09-01 22:14:44.774 - EE 00 00 B1 00 00 00 FF FC FF FF (情景执行提示)
2024-09-01 22:14:45.365 - 09 06 00 0F 02 01 78 21 (提示音叮)
2024-09-01 22:14:45.924 - 1A 0C 02 08 01 FF 00 01 FF 00 01 FF 00 00 0F (调光器地址-内卫射灯, 内卫感应灯关)
2024-09-01 22:14:49.992 - 50 F5 04 (关内卫影视)
2024-09-01 22:14:50.550 - 1A 20 07 01 40 00 01 00 0F (自保持开关地址-内卫顶灯, 内卫顶灯关)
2024-09-01 22:14:51.092 - 1A FF FF FF 56 00 00 01 0F (人体感应地址-内卫, 打开内卫感应)
2024-09-01 22:14:51.208 - BC BC
2024-09-01 22:14:51.514 - 19 08 24 03 CC 01 54 00 01 (调用内卫感应灯开的按键)
2024-09-01 22:14:51.565 - 1A 0C 02 08 01 FF 45 01 FF 45 01 FF 00 00 0F (调光器地址-内卫射灯, 内卫射灯微光)
2024-09-01 22:14:53.994 - 09 06 00 0F 02 02 38 20 (提示音咚)
2024-09-01 22:14:54.593 - EE 00 00 B1 00 00 02 FF FC FF FF (情景完成返回主页)
2024-09-01 22:15:10.856 - 19 08 24 03 CC 00 D4 00 01 (调用厨房感应灯关的按键)
2024-09-01 22:15:10.890 - 55 0A 31 00 00 00 01 91 55 0A 31 00 00 00 02 92 (厨房顶灯一关, 厨房顶灯二关)
2024-09-01 22:15:35.305 - 19 08 24 03 CC 01 55 00 01 (调用内卫感应灯关的按键)
2024-09-01 22:15:35.337 - 1A 0C 02 08 01 FF 00 01 FF 00 01 FF 00 00 0F (调光器地址-内卫射灯, 内卫感应灯关)
2024-09-01 22:16:47.940 - 19 08 24 03 CC 01 54 00 01 (调用内卫感应灯开的按键)
2024-09-01 22:16:47.972 - 1A 0C 02 08 01 FF 45 01 FF 45 01 FF 00 00 0F (调光器地址-内卫射灯, 内卫射灯微光)
2024-09-01 22:17:17.004 - 19 08 24 03 CC 01 55 00 01 (调用内卫感应灯关的按键)
2024-09-01 22:17:17.036 - 1A 0C 02 08 01 FF 00 01 FF 00 01 FF 00 00 0F (调光器地址-内卫射灯, 内卫感应灯关)
2024-09-01 22:18:10.710 - 19 08 24 03 CC 00 D3 00 01 (调用厨房感应灯开的按键)
2024-09-01 22:18:10.742 - 55 0A 32 00 00 00 01 92 55 0A 32 00 00 00 02 93 (厨房顶灯一开, 厨房顶灯二开)
2024-09-01 22:18:26.140 - 19 08 24 03 CC 01 54 00 01 (调用内卫感应灯开的按键)
2024-09-01 22:18:26.175 - 1A 0C 02 08 01 FF 45 01 FF 45 01 FF 00 00 0F (调光器地址-内卫射灯, 内卫射灯微光)
2024-09-01 22:18:46.283 - 19 08 24 03 CC 00 D4 00 01 (调用厨房感应灯关的按键)
2024-09-01 22:18:46.315 - 55 0A 31 00 00 00 01 91 55 0A 31 00 00 00 02 92 (厨房顶灯一关, 厨房顶灯二关)
2024-09-01 22:23:00.178 - 19 08 24 03 CC 01 55 00 01 (调用内卫感应灯关的按键)
2024-09-01 22:23:00.213 - 1A 0C 02 08 01 FF 00 01 FF 00 01 FF 00 00 0F (调光器地址-内卫射灯, 内卫感应灯关)
2024-09-01 22:23:24.227 - 19 08 24 03 CC 01 54 00 01 (调用内卫感应灯开的按键)
2024-09-01 22:23:24.261 - 1A 0C 02 08 01 FF 45 01 FF 45 01 FF 00 00 0F (调光器地址-内卫射灯, 内卫射灯微光)
2024-09-01 22:25:33.804 - FF
2024-09-01 22:35:40.668 - 19 08 24 03 CC 01 55 00 01 (调用内卫感应灯关的按键)
2024-09-01 22:35:40.716 - 1A 0C 02 08 01 FF 00 01 FF 00 01 FF 00 00 0F (调光器地址-内卫射灯, 内卫感应灯关)
2024-09-01 22:36:00.713 - 19 08 24 03 CC 01 54 00 01 (调用内卫感应灯开的按键)
2024-09-01 22:36:00.767 - 1A 0C 02 08 01 FF 45 01 FF 45 01 FF 00 00 0F (调光器地址-内卫射灯, 内卫射灯微光)
2024-09-01 22:40:58.793 - 19 08 24 03 CC 01 55 00 01 (调用内卫感应灯关的按键)
2024-09-01 22:40:58.825 - 1A 0C 02 08 01 FF 00 01 FF 00 01 FF 00 00 0F (调光器地址-内卫射灯, 内卫感应灯关)
2024-09-01 22:45:00.059 - FF
2024-09-01 22:51:26.031 - 19 08 24 03 CC 01 54 00 01 (调用内卫感应灯开的按键)
2024-09-01 22:51:26.089 - 1A 0C 02 08 01 FF 45 01 FF 45 01 FF 00 00 0F (调光器地址-内卫射灯, 内卫射灯微光)
2024-09-01 22:55:28.017 - 19 08 24 03 CC 01 55 00 01 (调用内卫感应灯关的按键)
2024-09-01 22:55:28.066 - 1A 0C 02 08 01 FF 00 01 FF 00 01 FF 00 00 0F (调光器地址-内卫射灯, 内卫感应灯关)
2024-09-01 22:56:35.144 - 19 08 24 03 CC 01 54 00 01 (调用内卫感应灯开的按键)
2024-09-01 22:56:35.178 - 1A 0C 02 08 01 FF 45 01 FF 45 01 FF 00 00 0F (调光器地址-内卫射灯, 内卫射灯微光)
2024-09-01 22:59:32.993 - 19 08 24 03 CC 01 55 00 01 (调用内卫感应灯关的按键)
2024-09-01 22:59:33.027 - 1A 0C 02 08 01 FF 00 01 FF 00 01 FF 00 00 0F (调光器地址-内卫射灯, 内卫感应灯关)
2024-09-01 23:24:29.003 - 1A FF FF FF 04 (继电器地址-东阳衣架)
2024-09-01 23:24:29.139 - 00
2024-09-01 23:34:09.676 - 19 08 24 03 CC 00 D3 00 01 (调用厨房感应灯开的按键)
2024-09-01 23:34:09.723 - 55 0A 32 00 00 00 01 92 55 0A 32 00 00 00 02 93 (厨房顶灯一开, 厨房顶灯二开)
2024-09-01 23:34:21.968 - FF
2024-09-01 23:34:44.745 - 19 08 24 03 CC 00 D4 00 01 (调用厨房感应灯关的按键)
2024-09-01 23:34:44.777 - 55 0A 31 00 00 00 01 91 55 0A 31 00 00 00 02 92 (厨房顶灯一关, 厨房顶灯二关)
2024-09-01 23:35:47.329 - FF
2024-09-01 23:36:09.815 - 19 08 24 03 CC 01 54 00 01 (调用内卫感应灯开的按键)
2024-09-01 23:36:09.847 - 1A 0C 02 08 01 FF 45 01 FF 45 01 FF 00 00 0F (调光器地址-内卫射灯, 内卫射灯微光)
2024-09-01 23:38:47.695 - FF
2024-09-01 23:39:08.675 - 19 08 24 03 CC 01 55 00 01 (调用内卫感应灯关的按键)
2024-09-01 23:39:08.707 - 1A 0C 02 08 01 FF 00 01 FF 00 01 FF 00 00 0F (调光器地址-内卫射灯, 内卫感应灯关)
2024-09-01 23:39:26.813 - 19 08 24 03 DD 00 4B 00 01 (调用情景-主卧睡觉)
2024-09-01 23:39:27.363 - EE 00 00 B1 00 00 00 FF FC FF FF (情景执行提示)
2024-09-01 23:39:27.961 - 09 06 00 0F 02 01 78 21 (提示音叮)
2024-09-01 23:39:28.552 - 50 F5 04 (关内卫影视)
2024-09-01 23:39:29.097 - A5 00 53 FE 01 AA (主卧纱帘关)
2024-09-01 23:39:30.151 - A5 00 52 FF 00 AA (主卧窗帘关)
2024-09-01 23:39:31.197 - 1A 22 33 62 0F 00 02 01 0F (正反转地址-内卫卷帘, 内卫卷帘降)
2024-09-01 23:39:32.242 - 1A 20 07 01 40 00 01 00 0F (自保持开关地址-内卫顶灯, 内卫顶灯关)
2024-09-01 23:39:33.287 - 1A 20 07 01 55 00 01 00 0F (自保持开关地址-主卧顶灯, 主卧顶灯只关)
2024-09-01 23:39:33.840 - 1A FF FF FF 56 00 00 01 0F (人体感应地址-内卫, 打开内卫感应)
2024-09-01 23:39:33.844 - BC BC
2024-09-01 23:39:37.434 - 1A 0C 02 08 01 FF 00 01 FF 00 01 FF 00 00 0F (调光器地址-内卫射灯, 内卫感应灯关)
2024-09-01 23:39:38.029 - 1A 0C 02 04 01 FF 00 01 FF 00 01 FF 00 00 0F (调光器地址-主卧筒灯, 主卧筒灯关闭)
2024-09-01 23:39:38.629 - 1A 0C 02 04 03 FF 00 01 FF 00 01 FF 00 00 0F (调光器地址-主卧灯带, 主卧灯带关闭)
2024-09-01 23:39:39.219 - 1A 0C 02 04 04 FF 00 01 FF 00 01 FF 00 00 0F (调光器地址-主卧南阅, 主卧南阅关闭)
2024-09-01 23:39:39.832 - 1A 0C 02 04 05 FF 00 01 FF 00 01 FF 00 00 0F (调光器地址-主卧北阅, 主卧北阅关闭)
2024-09-01 23:39:40.427 - 1A 0C 02 04 02 FF 00 01 FF 00 01 FF 00 00 0F (调光器地址-主卧过道, 主卧过道关闭)
2024-09-01 23:39:41.005 - 09 06 00 0F 02 02 38 20 (提示音咚)
2024-09-01 23:39:41.567 - EE 00 00 B1 00 00 02 FF FC FF FF (情景完成返回主页)
2024-09-01 23:40:06.802 - 19 08 24 03 CC 01 54 00 01 (调用内卫感应灯开的按键)
2024-09-01 23:40:06.853 - 1A 0C 02 08 01 FF 45 01 FF 45 01 FF 00 00 0F (调光器地址-内卫射灯, 内卫射灯微光)
2024-09-01 23:40:33.356 - 19 08 24 03 CC 01 55 00 01 (调用内卫感应灯关的按键)
2024-09-01 23:40:33.388 - 1A 0C 02 08 01 FF 00 01 FF 00 01 FF 00 00 0F (调光器地址-内卫射灯, 内卫感应灯关)
2024-09-01 23:45:13.568 - 19 08 24 03 CC 01 CC 00 01 (调用茶吧感应灯开的按键)
2024-09-01 23:45:13.590 - 1A AA AA AA 88 FF B0 01 FF B0 01 0F (调光器地址-茶吧灯带, 茶吧灯带明亮)
2024-09-01 23:45:21.080 - 19 08 24 03 CC 01 CD 00 01 (调用茶吧感应灯关的按键)
2024-09-01 23:45:21.112 - 1A AA AA AA 88 FF 00 01 FF 00 01 0F (调光器地址-茶吧灯带, 茶吧灯带关闭)
2024-09-02 00:23:57.196 - FF
2024-09-02 00:30:56.066 - 1A BE B0 DC 03 (继电器地址-西阳天幕)
2024-09-02 00:30:56.194 - FF
2024-09-02 00:32:18.329 - 1A BE B0 DC 04 (继电器地址-西阳窗帘)
2024-09-02 00:32:55.095 - FF FF FF FF 0E (继电器地址-西阳小窗帘)
2024-09-02 00:32:55.239 - FF
2024-09-02 00:33:10.420 - FF
2024-09-02 00:33:23.962 - FF FF FF FF 0A FC (继电器地址-东阳窗帘)
2024-09-02 00:33:24.090 - FF
2024-09-02 00:33:25.063 - 1A BE B0 DC 09 FF (继电器地址-客厅窗帘)
2024-09-02 00:33:27.746 - 1A BE B0 DC 02 FE (正反转地址-外卫卷帘)
2024-09-02 00:33:27.871 - FF
2024-09-02 00:33:28.874 - 1A BE B0 DC 0A (继电器地址-客厅纱帘)
2024-09-02 00:33:29.017 - FF
2024-09-02 00:33:34.004 - 1A BE B0 DC 01 FC (继电器地址-回水泵点动)
2024-09-02 00:33:34.141 - FF
2024-09-02 00:39:56.370 - 19 08 24 03 CC 01 54 00 01 (调用内卫感应灯开的按键)
2024-09-02 00:39:56.421 - 1A 0C 02 08 01 FF 45 01 FF 45 01 FF 00 00 0F (调光器地址-内卫射灯, 内卫射灯微光)
2024-09-02 00:42:13.140 - 19 08 24 03 CC 01 55 00 01 (调用内卫感应灯关的按键)
2024-09-02 00:42:13.190 - 1A 0C 02 08 01 FF 00 01 FF 00 01 FF 00 00 0F (调光器地址-内卫射灯, 内卫感应灯关)
2024-09-02 00:43:15.769 - 19 08 24 03 CC 01 54 00 01 (调用内卫感应灯开的按键)
2024-09-02 00:43:15.803 - 1A 0C 02 08 01 FF 45 01 FF 45 01 FF 00 00 0F (调光器地址-内卫射灯, 内卫射灯微光)
2024-09-02 00:43:42.317 - 19 08 24 03 CC 01 55 00 01 (调用内卫感应灯关的按键)
2024-09-02 00:43:42.371 - 1A 0C 02 08 01 FF 00 01 FF 00 01 FF 00 00 0F (调光器地址-内卫射灯, 内卫感应灯关)
2024-09-02 01:12:34.404 - 19 08 24 03 CC 01 CC 00 01 (调用茶吧感应灯开的按键)
2024-09-02 01:12:34.438 - 1A AA AA AA 88 FF B0 01 FF B0 01 0F (调光器地址-茶吧灯带, 茶吧灯带明亮)
2024-09-02 01:12:41.428 - 19 08 24 03 CC 01 CD 00 01 (调用茶吧感应灯关的按键)
2024-09-02 01:12:41.452 - 1A AA AA AA 88 FF 00 01 FF 00 01 0F (调光器地址-茶吧灯带, 茶吧灯带关闭)
2024-09-02 01:23:39.872 - FF
2024-09-02 01:33:04.650 - 19 08 24 03 CC 01 54 00 01 (调用内卫感应灯开的按键)
2024-09-02 01:33:04.707 - 1A 0C 02 08 01 FF 45 01 FF 45 01 FF 00 00 0F (调光器地址-内卫射灯, 内卫射灯微光)
2024-09-02 01:35:04.892 - 19 08 24 03 CC 01 55 00 01 (调用内卫感应灯关的按键)
2024-09-02 01:35:04.943 - 1A 0C 02 08 01 FF 00 01 FF 00 01 FF 00 00 0F (调光器地址-内卫射灯, 内卫感应灯关)
2024-09-02 01:35:25.164 - FF
2024-09-02 01:36:07.011 - 19 08 24 03 CC 01 54 00 01 (调用内卫感应灯开的按键)
2024-09-02 01:36:07.059 - 1A 0C 02 08 01 FF 45 01 FF 45 01 FF 00 00 0F (调光器地址-内卫射灯, 内卫射灯微光)
2024-09-02 01:36:33.060 - 19 08 24 03 CC 01 55 00 01 (调用内卫感应灯关的按键)
2024-09-02 01:36:33.111 - 1A 0C 02 08 01 FF 00 01 FF 00 01 FF 00 00 0F (调光器地址-内卫射灯, 内卫感应灯关)
2024-09-02 01:39:10.752 - FF
2024-09-02 01:51:33.026 - 19 08 24 03 CC 01 CC 00 01 (调用茶吧感应灯开的按键)
2024-09-02 01:51:33.075 - 1A AA AA AA 88 FF B0 01 FF B0 01 0F (调光器地址-茶吧灯带, 茶吧灯带明亮)
2024-09-02 01:51:40.044 - 19 08 24 03 CC 01 CD 00 01 (调用茶吧感应灯关的按键)
2024-09-02 01:51:40.094 - 1A AA AA AA 88 FF 00 01 FF 00 01 0F (调光器地址-茶吧灯带, 茶吧灯带关闭)
2024-09-02 01:57:15.251 - FF
2024-09-02 02:04:35.448 - 19 08 24 03 CC 00 D3 00 01 (调用厨房感应灯开的按键)
2024-09-02 02:04:35.502 - 55 0A 32 00 00 00 01 92 55 0A 32 00 00 00 02 93 (厨房顶灯一开, 厨房顶灯二开)
2024-09-02 02:05:11.008 - 19 08 24 03 CC 00 D4 00 01 (调用厨房感应灯关的按键)
2024-09-02 02:05:11.088 - 55 0A 31 00 00 00 01 91 55 0A 31 00 00 00 02 92 (厨房顶灯一关, 厨房顶灯二关)
2024-09-02 02:25:44.075 - 19 08 24 03 CC 01 CC 00 01 (调用茶吧感应灯开的按键)
2024-09-02 02:25:44.109 - 1A AA AA AA 88 FF B0 01 FF B0 01 0F (调光器地址-茶吧灯带, 茶吧灯带明亮)
2024-09-02 02:25:51.090 - 19 08 24 03 CC 01 CD 00 01 (调用茶吧感应灯关的按键)
2024-09-02 02:25:51.122 - 1A AA AA AA 88 FF 00 01 FF 00 01 0F (调光器地址-茶吧灯带, 茶吧灯带关闭)
2024-09-02 02:42:55.789 - FF
2024-09-02 02:45:33.952 - 1A FF FF FF 04 (继电器地址-东阳衣架)
2024-09-02 02:45:34.090 - 03
2024-09-02 02:52:33.763 - 19 08 24 03 CC 01 CC 00 01 (调用茶吧感应灯开的按键)
2024-09-02 02:52:33.810 - 1A AA AA AA 88 FF B0 01 FF B0 01 0F (调光器地址-茶吧灯带, 茶吧灯带明亮)
2024-09-02 02:52:40.776 - 19 08 24 03 CC 01 CD 00 01 (调用茶吧感应灯关的按键)
2024-09-02 02:52:40.826 - 1A AA AA AA 88 FF 00 01 FF 00 01 0F (调光器地址-茶吧灯带, 茶吧灯带关闭)
2024-09-02 02:56:47.756 - 19 08 24 03 CC 01 CC 00 01 (调用茶吧感应灯开的按键)
2024-09-02 02:56:47.794 - 1A AA AA AA 88 FF B0 01 FF B0 01 0F (调光器地址-茶吧灯带, 茶吧灯带明亮)
2024-09-02 02:56:55.267 - 19 08 24 03 CC 01 CD 00 01 (调用茶吧感应灯关的按键)
2024-09-02 02:56:55.301 - 1A AA AA AA 88 FF 00 01 FF 00 01 0F (调光器地址-茶吧灯带, 茶吧灯带关闭)
2024-09-02 02:59:24.235 - 50 F7 01 (全屋影音全关)
2024-09-02 03:40:08.432 - FF
2024-09-02 03:51:53.496 - 1A BE B0 DC 03 (继电器地址-西阳天幕)
2024-09-02 03:52:13.753 - 1A BE B0 DC 04 FC (继电器地址-西阳窗帘)
2024-09-02 03:52:57.459 - FF FF FF FF 0E (继电器地址-西阳小窗帘)
2024-09-02 03:52:57.590 - FF
2024-09-02 03:53:40.321 - FF FF FF FF 0A FF (继电器地址-东阳窗帘)
2024-09-02 03:53:40.449 - FF
2024-09-02 03:53:47.780 - 1A BE B0 DC 09 FE (继电器地址-客厅窗帘)
2024-09-02 03:53:47.899 - FF
2024-09-02 03:53:58.841 - 1A BE B0 DC 02 (正反转地址-外卫卷帘)
2024-09-02 03:54:04.617 - 1A BE B0 DC 0A FD (继电器地址-客厅纱帘)
2024-09-02 03:54:28.836 - 1A BE B0 DC 01 (继电器地址-回水泵点动)
2024-09-02 04:09:04.402 - FF
2024-09-02 04:19:25.223 - 1A EC A0 DC 01 00 01 00 0F (自保持开关地址-电视、设备12V供电, 12V 设备供电关)
2024-09-02 04:19:25.768 - 1A EC A0 DC 01 00 01 00 0F (自保持开关地址-电视、设备12V供电, 12V 设备供电关)
2024-09-02 04:19:35.835 - 1A EC A0 DC 01 00 01 01 0F (自保持开关地址-电视、设备12V供电, 12V 设备供电开)
2024-09-02 04:19:36.073 - 0A 00
2024-09-02 04:19:36.073 - 00
2024-09-02 04:19:36.073 - 00
2024-09-02 04:19:36.209 - FF
2024-09-02 04:19:36.227 - 1A 27 89 12
2024-09-02 04:19:36.243 - FF
2024-09-02 04:19:36.260 - EE 00 7E 07 FF FC FF
2024-09-02 04:19:36.419 - 6F
2024-09-02 04:19:36.435 - EB FB 0A 18 BE B0 DC 02 FC
2024-09-02 04:19:36.467 - EE 00 71 B1 01 00 02 FF FC FF FF
2024-09-02 04:19:36.786 - FE
2024-09-02 04:19:36.881 - 1A EC A0 DC 01 00 01 01 0F (自保持开关地址-电视、设备12V供电, 12V 设备供电开)
2024-09-02 04:19:37.400 - F7
2024-09-02 04:19:37.487 - FF
2024-09-02 04:19:37.672 - 68 86 FF
2024-09-02 04:19:37.723 - 68 86 FF
2024-09-02 04:19:37.791 - FC
2024-09-02 04:19:37.791 - 19
2024-09-02 04:19:37.808 - 68 86 FF
2024-09-02 04:19:37.934 - 1A BE B0 DC 03 FC (继电器地址-西阳天幕)
2024-09-02 04:19:38.683 - FF
2024-09-02 04:19:38.985 - F7
2024-09-02 04:19:39.304 - 68 86 FE
2024-09-02 04:19:45.240 - 19 08 24 03 CC 01 CC 00 01 (调用茶吧感应灯开的按键)
2024-09-02 04:19:45.291 - 1A AA AA AA 88 FF B0 01 FF B0 01 0F (调光器地址-茶吧灯带, 茶吧灯带明亮)
2024-09-02 04:19:53.249 - 19 08 24 03 CC 01 CD 00 01 (调用茶吧感应灯关的按键)
2024-09-02 04:19:53.283 - 1A AA AA AA 88 FF 00 01 FF 00 01 0F (调光器地址-茶吧灯带, 茶吧灯带关闭)
2024-09-02 04:23:38.560 - FF
2024-09-02 04:27:46.253 - FF
2024-09-02 04:37:40.958 - FF
2024-09-02 04:49:25.172 - EE 00 00 B1 00 00 00 FF FC FF FF (情景执行提示)
2024-09-02 04:49:25.794 - A5 00 A2 FF 00 AA (餐厅纱帘关)
2024-09-02 04:49:26.863 - A5 00 A6 FF 00 AA (餐厅窗帘关)
2024-09-02 04:49:26.912 - 55 00 A6 01 00 0E 01 75 AA 55 00 A6 01 00 0E 01 75 AA (餐厅窗帘电机状态返回)
2024-09-02 04:49:27.962 - A5 00 B7 FF 00 AA 22 0D (书房纱帘关)
2024-09-02 04:49:29.002 - A5 00 D2 FF 00 AA 22 0C (书房窗帘关)
2024-09-02 04:49:29.062 - 55 00 D2 01 00 0E 00 F2 AA 55 00 D2 01 00 0E 00 F2 FE (书房窗帘电机状态返回)
2024-09-02 04:49:30.107 - EE 00 00 B1 00 00 02 FF FC FF FF (情景完成返回主页)
2024-09-02 04:49:35.426 - 55 00 A6 00 01 67 01 75 AA 55 00 A6 00 01 67 01 75 AA (餐厅窗帘电机状态返回)
2024-09-02 04:49:36.878 - 55 00 D2 00 00 E5 00 F2 AA 55 00 D2 00 00 E5 00 F2 AA (书房窗帘电机状态返回)
2024-09-02 04:49:51.142 - FF
2024-09-02 05:03:52.440 - FF
2024-09-02 05:09:17.107 - 19 08 24 03 CC 01 54 00 01 (调用内卫感应灯开的按键)
2024-09-02 05:09:17.155 - 1A 0C 02 08 01 FF 45 01 FF 45 01 FF 00 00 0F (调光器地址-内卫射灯, 内卫射灯微光)
2024-09-02 05:12:14.454 - 19 08 24 03 CC 01 55 00 01 (调用内卫感应灯关的按键)
2024-09-02 05:12:14.486 - 1A 0C 02 08 01 FF 00 01 FF 00 01 FF 00 00 0F (调光器地址-内卫射灯, 内卫感应灯关)
2024-09-02 05:13:14.563 - 19 08 24 03 CC 01 54 00 01 (调用内卫感应灯开的按键)
2024-09-02 05:13:14.597 - 1A 0C 02 08 01 FF 45 01 FF 45 01 FF 00 00 0F (调光器地址-内卫射灯, 内卫射灯微光)
2024-09-02 05:13:40.625 - 19 08 24 03 CC 01 55 00 01 (调用内卫感应灯关的按键)
2024-09-02 05:13:40.657 - 1A 0C 02 08 01 FF 00 01 FF 00 01 FF 00 00 0F (调光器地址-内卫射灯, 内卫感应灯关)
2024-09-02 05:26:55.797 - FF
2024-09-02 05:36:49.294 - FF
2024-09-02 05:59:15.262 - FF
2024-09-02 06:06:38.184 - 1A FF FF FF 04 FC (继电器地址-东阳衣架)
2024-09-02 06:06:38.316 - 03
2024-09-02 06:11:11.441 - 19 08 24 03 CC 01 CC 00 01 (调用茶吧感应灯开的按键)
2024-09-02 06:11:11.491 - 1A AA AA AA 88 FF B0 01 FF B0 01 0F (调光器地址-茶吧灯带, 茶吧灯带明亮)
2024-09-02 06:11:18.463 - 19 08 24 03 CC 01 CD 00 01 (调用茶吧感应灯关的按键)
2024-09-02 06:11:18.514 - 1A AA AA AA 88 FF 00 01 FF 00 01 0F (调光器地址-茶吧灯带, 茶吧灯带关闭)
2024-09-02 06:16:14.623 - FF
2024-09-02 06:19:46.066 - FF
2024-09-02 06:19:51.169 - FF
2024-09-02 06:23:28.015 - FF
2024-09-02 06:26:41.663 - 53 53 48 2D 32 2E 30 2D 4F 70 65 6E 53 53 48 0D 0A
2024-09-02 06:29:55.459 - FF
2024-09-02 06:32:25.544 - FF
2024-09-02 06:33:24.282 - FF
2024-09-02 06:37:26.445 - FF
2024-09-02 06:43:14.138 - FF
2024-09-02 06:44:24.480 - EE 00 00 B1 00 00 00 FF FC FF FF (情景执行提示)
2024-09-02 06:44:25.070 - 09 06 00 0F 02 01 78 21 (提示音叮)
2024-09-02 06:44:25.663 - 50 F0 04 (开内卫影视)
2024-09-02 06:44:26.218 - 50 F0 05 (开主卧影视)
2024-09-02 06:44:26.769 - A5 00 53 FE 01 AA (主卧纱帘关)
2024-09-02 06:44:27.319 - A5 00 53 FE 01 AA (主卧纱帘关)
2024-09-02 06:44:27.862 - A5 00 52 FE 01 AA (主卧窗帘开)
2024-09-02 06:44:28.915 - A5 00 52 FE 01 AA (主卧窗帘开)
2024-09-02 06:44:29.952 - 1A 22 33 62 0F 00 02 01 0F (正反转地址-内卫卷帘, 内卫卷帘降)
2024-09-02 06:44:30.511 - 1A FF FF FF 56 00 00 00 0F (人体感应地址-内卫, 关闭内卫感应)
2024-09-02 06:44:30.613 - BC BC
2024-09-02 06:44:31.056 - 1A 20 07 01 55 00 01 00 0F (自保持开关地址-主卧顶灯, 主卧顶灯只关)
2024-09-02 06:44:32.110 - 1A 0C 02 08 01 FF F0 01 FF F0 01 FF 00 00 0F (调光器地址-内卫射灯, 内卫射灯明亮)
2024-09-02 06:44:32.705 - 1A 0C 02 04 01 FF 00 01 FF 00 01 FF 00 00 0F (调光器地址-主卧筒灯, 主卧筒灯关闭)
2024-09-02 06:44:33.302 - 1A 0C 02 04 03 FF 45 01 FF 45 01 FF 00 00 0F (调光器地址-主卧灯带, 主卧灯带微光)
2024-09-02 06:44:33.907 - 1A 0C 02 04 02 FF F0 01 FF 00 01 FF 00 00 0F (调光器地址-主卧过道, 主卧过道暖光)
2024-09-02 06:44:34.498 - 1A 0C 02 04 05 FF 00 01 FF 00 01 FF 00 00 0F (调光器地址-主卧北阅, 主卧北阅关闭)
2024-09-02 06:44:35.103 - 1A 0C 02 04 04 FF 00 01 FF 00 01 FF 00 00 0F (调光器地址-主卧南阅, 主卧南阅关闭)
2024-09-02 06:44:36.187 - 50 F1 24 (内卫—有线2)
2024-09-02 06:44:37.229 - 50 F1 25 (主卧—有线2)
2024-09-02 06:44:38.283 - AF BF CF DF C2 21 (有线2/快捷-凤凰卫视)
2024-09-02 06:44:38.833 - 1A FF FF FF 60 0B 01 01 0F (红外总线地址-主卧发射设备, 主卧电视电源)
2024-09-02 06:44:39.354 - F0 0B 01 08
2024-09-02 06:44:39.870 - 1A BE B0 DC 01 00 01 00 (继电器地址-回水泵点动, 回水泵点动)
2024-09-02 06:44:41.288 - 55 20 20 00 00 0F 02 16 AA 55 20 20 00 00 0F 02 16 AA (主卧窗帘电机状态返回)
2024-09-02 06:44:43.996 - 09 06 00 0F 02 02 38 20 (提示音咚)
2024-09-02 06:44:44.558 - EE 00 00 B1 00 00 02 FF FC FF FF (情景完成返回主页)
2024-09-02 06:44:45.658 - A1 11 11 11 11 01 (内卫浴霸取暖判断)
2024-09-02 06:44:45.883 - 14 03 00 00 00 02 C6 CE (查询内卫温湿度)
2024-09-02 06:44:45.900 - 14 03 04 01 DE 00 FC DF 75 (内卫温湿度返回)
2024-09-02 06:44:48.518 - FF
2024-09-02 06:45:11.864 - FF
2024-09-02 06:45:56.176 - FF
2024-09-02 07:11:28.442 - FF
2024-09-02 07:12:12.730 - 1A FF 03 00 00 86 86 86 0F (调用查询模块-主卧空调开关查询, 主卧空调虚拟地址)
2024-09-02 07:12:12.953 - 01 04 07 DC 00 01 F1 44 (查询主卧空调开关状态)
2024-09-02 07:12:12.985 - 01 04 02 70 01 5D 30
2024-09-02 07:12:13.970 - 1A FF 03 00 00 01 00 0F (主卧空调虚拟地址)
2024-09-02 07:12:14.149 - 1A FF 04 00 00 86 86 86 0F (调用查询模块-次卧空调开关查询, 次卧空调虚拟地址)
2024-09-02 07:12:14.378 - 01 04 07 E2 00 01 90 88 (查询次卧空调开关状态)
2024-09-02 07:12:14.395 - 01 04 02 70 00 9C F0
2024-09-02 07:12:15.381 - 1A FF 04 00 00 00 00 0F (次卧空调虚拟地址)
2024-09-02 07:12:15.483 - 1A FF 05 00 00 86 86 86 0F (调用查询模块-书房空调开关查询, 书房空调虚拟地址)
2024-09-02 07:12:15.703 - 01 04 07 E8 00 01 B0 8A (查询书房空调开关状态)
2024-09-02 07:12:15.720 - 01 04 02 70 00 9C F0
2024-09-02 07:12:16.707 - 1A FF 05 00 00 00 00 0F (书房空调虚拟地址)
2024-09-02 07:12:17.489 - 1A FF 02 00 00 86 86 86 0F (调用查询模块-餐厅空调开关查询, 餐厅空调虚拟地址)
2024-09-02 07:12:17.710 - 01 04 07 D6 00 01 D1 46 (查询餐厅空调开关状态)
2024-09-02 07:12:17.727 - 01 04 02 70 00 9C F0
2024-09-02 07:12:18.713 - 1A FF 02 00 00 00 00 0F (餐厅空调虚拟地址)
2024-09-02 07:12:19.524 - 1A FF 01 00 00 86 86 86 0F (调用查询模块-客厅空调开关查询, 客厅空调虚拟地址)
2024-09-02 07:12:19.750 - 01 04 07 D0 00 01 31 47 (查询客厅空调开关状态)
2024-09-02 07:12:19.767 - 01 04 02 70 00 9C F0
2024-09-02 07:12:19.972 - 1A 10 00 00 00 86 86 86 0F (调用查询模块-主卧测温转换, 主卧温湿度虚拟地址)
2024-09-02 07:12:20.754 - 1A FF 01 00 00 00 00 0F (客厅空调虚拟地址)
2024-09-02 07:12:21.094 - 1A 11 00 00 00 86 86 86 0F (调用查询模块-次卧测温转换, 次卧温湿度虚拟地址)
2024-09-02 07:12:21.326 - 11 03 00 00 00 02 C6 9B (查询次卧温湿度)
2024-09-02 07:12:21.350 - 11 03 04 02 5A 01 24 CB D2 (次卧温湿度返回)
2024-09-02 07:12:22.353 - 1A 11 00 00 00 00 00 01 00 00 01 00 00 01 01 24 01 02 5A 01 00 00 01 00 00 01 0F (次卧温湿度虚拟地址)
2024-09-02 07:12:22.537 - 1A 12 00 00 00 86 86 86 0F (调用查询模块-书房测温转换, 书房温湿度虚拟地址)
2024-09-02 07:12:22.760 - 12 03 00 00 00 02 C6 A8 (查询书房温湿度)
2024-09-02 07:12:22.777 - 12 03 04 02 3A 01 2E 78 CB (书房温湿度返回)
2024-09-02 07:12:23.780 - 1A 12 00 00 00 00 00 01 00 00 01 00 00 01 01 2E 01 02 3A 01 00 00 01 00 00 01 0F (书房温湿度虚拟地址)
2024-09-02 07:12:24.529 - 1A 13 00 00 00 86 86 86 0F (调用查询模块-外卫测温转换, 外卫温湿度虚拟地址)
2024-09-02 07:12:24.672 - 1A 14 00 00 00 86 86 86 0F (调用查询模块-内卫测温转换, 内卫温湿度虚拟地址)
2024-09-02 07:12:24.752 - 13 03 00 00 00 02 C7 79 (查询外卫温湿度)
2024-09-02 07:12:24.784 - 13 03 04 02 27 01 21 B8 09 (外卫温湿度返回)
2024-09-02 07:12:25.785 - 1A 13 00 00 00 00 00 01 00 00 01 00 00 01 01 21 01 02 27 01 00 00 01 00 00 01 0F (外卫温湿度虚拟地址)
2024-09-02 07:12:25.883 - 1A 15 00 00 00 86 86 86 0F (调用查询模块-客厅测温转换, 客厅温湿度虚拟地址)
2024-09-02 07:12:26.108 - 15 03 00 00 00 02 C7 1F (查询客厅温湿度)
2024-09-02 07:12:26.125 - 15 03 04 02 5C 01 1D AE 01 (客厅温湿度返回)
2024-09-02 07:12:27.129 - 1A 15 00 00 00 00 00 01 00 00 01 00 00 01 01 1D 01 02 5C 01 00 00 01 00 00 01 0F (客厅温湿度虚拟地址)
2024-09-02 07:12:27.239 - 1A 16 00 00 00 86 86 86 0F (调用查询模块-机柜测温转换, 机柜温湿度虚拟地址)
2024-09-02 07:12:27.466 - 16 03 00 00 00 02 C7 2C (查询机柜温湿度)
2024-09-02 07:12:27.486 - 16 03 04 01 D5 01 5B CD 5D (机柜温湿度返回)
2024-09-02 07:12:28.489 - 1A 16 00 00 00 00 00 01 00 00 01 00 00 01 01 5B 01 01 D5 01 00 00 01 00 00 01 0F (机柜温湿度虚拟地址)
2024-09-02 07:12:28.692 - 1A 0E 00 00 00 86 86 86 0F (调用查询模块-厨房测温转换, 厨房温湿度虚拟地址)
2024-09-02 07:12:28.914 - 0E 03 00 00 00 02 C4 F4 (查询厨房温湿度)
2024-09-02 07:12:28.944 - 0E 03 04 02 0A 01 38 24 CB (厨房温湿度返回)
2024-09-02 07:12:29.934 - 1A 0E 00 00 00 00 00 01 00 00 01 00 00 01 01 38 01 02 0A 01 00 00 01 00 00 01 0F (厨房温湿度虚拟地址)
2024-09-02 07:12:30.110 - 1A 0F 00 00 00 86 86 86 0F (调用查询模块-餐厅测温转换, 餐厅温湿度虚拟地址)
2024-09-02 07:12:30.333 - 1C 03 00 00 00 02 C7 86 (查询餐厅温湿度)
2024-09-02 07:12:30.359 - 1C 03 04 02 18 01 31 76 C9 (餐厅温湿度返回)
2024-09-02 07:12:31.353 - 1A 0F 00 00 00 00 00 01 00 00 01 00 00 01 01 31 01 02 18 01 00 00 01 00 00 01 0F (餐厅温湿度虚拟地址)
2024-09-02 07:12:31.544 - 1A 20 00 00 00 86 86 86 0F (调用查询模块-阳台测温湿气压转换, 阳台温湿气压虚拟地址)
2024-09-02 07:12:31.770 - 20 03 00 00 00 03 03 7A (查询阳台温湿度气压)
2024-09-02 07:12:31.787 - 20 03 06 01 47 01 E1 27 06 CA C2 (阳台温湿度返回)
2024-09-02 07:12:32.280 - 1A 20 00 00 00 00 00 01 00 00 01 00 00 01 01 47 01 01 E1 01 27 06 01 00 00 01 0F (阳台温湿气压虚拟地址)
2024-09-02 07:12:32.467 - 1A 21 00 00 00 86 86 86 0F (调用查询模块-储藏室测温湿气压转换, 储藏室温湿气压虚拟地址)
2024-09-02 07:12:32.693 - 21 03 00 00 00 03 02 AB (查询储藏室温湿度气压)
2024-09-02 07:12:32.709 - 21 03 06 01 47 02 8E 27 07 36 CB (储藏室温湿度返回)
2024-09-02 07:12:33.215 - 1A 21 00 00 00 00 00 01 00 00 01 00 00 01 01 47 01 02 8E 01 27 07 01 00 00 01 0F (储藏室温湿气压虚拟地址)
2024-09-02 07:12:33.590 - 1A 22 00 00 00 86 86 86 0F (调用查询模块-室外测温湿气压转换, 室外温湿气压虚拟地址)
2024-09-02 07:12:33.811 - 22 03 00 00 00 03 02 98 (查询室外温湿度气压)
2024-09-02 07:12:33.828 - 22 03 06 01 59 02 7C 27 08 6B CE (阳台温湿度返回)
2024-09-02 07:12:34.338 - 1A 22 00 00 00 00 00 01 00 00 01 00 00 01 01 59 01 02 7C 01 27 08 01 00 00 01 0F (室外温湿气压虚拟地址)
2024-09-02 07:12:34.527 - 1A FF 05 00 00 86 86 86 0F (调用查询模块-书房空调开关查询, 书房空调虚拟地址)
2024-09-02 07:12:34.751 - 01 04 07 E8 00 01 B0 8A (查询书房空调开关状态)
2024-09-02 07:12:34.780 - 01 04 02 70 00 9C F0
2024-09-02 07:12:35.755 - 1A FF 05 00 00 00 00 0F (书房空调虚拟地址)
2024-09-02 07:12:35.971 - 1A FF 02 00 00 86 86 86 0F (调用查询模块-餐厅空调开关查询, 餐厅空调虚拟地址)
2024-09-02 07:12:36.192 - 01 04 07 D6 00 01 D1 46 (查询餐厅空调开关状态)
2024-09-02 07:12:36.209 - 01 04 02 70 00 9C F0
2024-09-02 07:12:37.196 - 1A FF 02 00 00 00 00 0F (餐厅空调虚拟地址)
2024-09-02 07:12:37.447 - 1A 12 00 00 00 86 86 86 0F (调用查询模块-书房测温转换, 书房温湿度虚拟地址)
2024-09-02 07:12:37.655 - 12 03 00 00 00 02 C6 A8 (查询书房温湿度)
2024-09-02 07:12:37.689 - 12 03 04 02 3A 01 2E 78 CB (书房温湿度返回)
2024-09-02 07:12:38.692 - 1A 12 00 00 00 00 00 01 00 00 01 00 00 01 01 2E 01 02 3A 01 00 00 01 00 00 01 0F (书房温湿度虚拟地址)
2024-09-02 07:12:39.287 - 1A 20 00 00 00 86 86 86 0F (调用查询模块-阳台测温湿气压转换, 阳台温湿气压虚拟地址)
2024-09-02 07:12:39.508 - 20 03 00 00 00 03 03 7A (查询阳台温湿度气压)
2024-09-02 07:12:39.525 - 20 03 06 01 47 01 E2 27 06 3A C2 (阳台温湿度返回)
2024-09-02 07:12:40.034 - 1A 20 00 00 00 00 00 01 00 00 01 00 00 01 01 47 01 01 E2 01 27 06 01 00 00 01 0F (阳台温湿气压虚拟地址)
2024-09-02 07:12:41.871 - 1A 22 00 00 00 86 86 86 0F (调用查询模块-室外测温湿气压转换, 室外温湿气压虚拟地址)
2024-09-02 07:12:42.093 - 22 03 00 00 00 03 02 98 (查询室外温湿度气压)
2024-09-02 07:12:42.119 - 22 03 06 01 59 02 7C 27 08 6B CE (阳台温湿度返回)
2024-09-02 07:12:42.619 - 1A 22 00 00 00 00 00 01 00 00 01 00 00 01 01 59 01 02 7C 01 27 08 01 00 00 01 0F (室外温湿气压虚拟地址)
2024-09-02 07:21:29.518 - 19 08 24 03 DD 00 40 00 01 (调用情景-离开主卧)
2024-09-02 07:21:30.076 - EE 00 00 B1 00 00 00 FF FC FF FF (情景执行提示)
2024-09-02 07:21:30.669 - 09 06 00 0F 02 01 78 21 (提示音叮)
2024-09-02 07:21:31.212 - 50 F5 05 (关主卧影视)
2024-09-02 07:21:31.757 - 50 F5 04 (关内卫影视)
2024-09-02 07:21:32.309 - 01 06 07 D6 FF 60 28 9E (主卧空调关)
2024-09-02 07:21:32.346 - 01 06 07 D6 FF 60 28 9E (主卧空调关)
2024-09-02 07:21:32.900 - A5 00 52 FE 01 AA (主卧窗帘开)
2024-09-02 07:21:34.003 - A5 00 52 FE 01 AA (主卧窗帘开)
2024-09-02 07:21:35.102 - A5 00 53 FF 00 AA (主卧纱帘开)
2024-09-02 07:21:35.159 - 55 00 53 01 00 0C 02 30 AA 55 00 53 01 00 0C 02 30 AA (主卧纱帘电机状态返回)
2024-09-02 07:21:35.692 - A5 00 53 FF 00 AA (主卧纱帘开)
2024-09-02 07:21:36.251 - 1A 22 33 62 0F 00 00 01 0F (正反转地址-内卫卷帘, 内卫卷帘升)
2024-09-02 07:21:37.239 - 55 20 20 00 00 0F 02 16 AA 55 20 20 00 00 0F 02 16 AA (主卧窗帘电机状态返回)
2024-09-02 07:21:37.287 - 1A 20 07 01 40 00 01 00 0F (自保持开关地址-内卫顶灯, 内卫顶灯关)
2024-09-02 07:21:38.338 - 1A 20 07 01 55 00 01 00 0F (自保持开关地址-主卧顶灯, 主卧顶灯只关)
2024-09-02 07:21:38.899 - 1A 0C 02 08 01 FF 00 01 FF 00 01 FF 00 00 0F (调光器地址-内卫射灯, 内卫感应灯关)
2024-09-02 07:21:39.485 - 1A FF FF FF 56 00 00 01 0F (人体感应地址-内卫, 打开内卫感应)
2024-09-02 07:21:39.902 - 19 08 24 03 CC 01 54 00 01 (调用内卫感应灯开的按键)
2024-09-02 07:21:39.953 - 1A 0C 02 08 01 FF 45 01 FF 45 01 FF 00 00 0F (调光器地址-内卫射灯, 内卫射灯微光)
2024-09-02 07:21:41.825 - 19 08 24 03 CC 01 CC 00 01 (调用茶吧感应灯开的按键)
2024-09-02 07:21:41.859 - 1A AA AA AA 88 FF B0 01 FF B0 01 0F (调光器地址-茶吧灯带, 茶吧灯带明亮)
2024-09-02 07:21:43.378 - 1A 0C 02 04 FF FF 00 01 FF 00 01 FF 00 00 0F (主卧调光全关)
2024-09-02 07:21:44.476 - 09 06 00 0F 02 02 38 20 (提示音咚)
2024-09-02 07:21:45.072 - EE 00 00 B1 00 00 02 FF FC FF FF (情景完成返回主页)
2024-09-02 07:21:45.787 - 55 00 53 00 02 22 02 30 AA 55 00 53 00 02 22 02 30 AA (主卧纱帘电机状态返回)
2024-09-02 07:22:15.345 - 19 08 24 03 CC 00 D3 00 01 (调用厨房感应灯开的按键)
2024-09-02 07:22:15.393 - 55 0A 32 00 00 00 01 92 55 0A 32 00 00 00 02 93 (厨房顶灯一开, 厨房顶灯二开)
2024-09-02 07:22:27.195 - 19 08 24 03 CC 01 55 00 01 (调用内卫感应灯关的按键)
2024-09-02 07:22:27.226 - 1A 0C 02 08 01 FF 00 01 FF 00 01 FF 00 00 0F (调光器地址-内卫射灯, 内卫感应灯关)
2024-09-02 07:23:02.935 - 19 08 24 03 CC 00 D4 00 01 (调用厨房感应灯关的按键)
2024-09-02 07:23:02.968 - 55 0A 31 00 00 00 01 91 55 0A 31 00 00 00 02 92 (厨房顶灯一关, 厨房顶灯二关)
2024-09-02 07:23:27.315 - 19 08 24 03 CC 01 54 00 01 (调用内卫感应灯开的按键)
2024-09-02 07:23:27.349 - 1A 0C 02 08 01 FF 45 01 FF 45 01 FF 00 00 0F (调光器地址-内卫射灯, 内卫射灯微光)
2024-09-02 07:23:52.868 - 19 08 24 03 CC 01 55 00 01 (调用内卫感应灯关的按键)
2024-09-02 07:23:52.891 - 1A 0C 02 08 01 FF 00 01 FF 00 01 FF 00 00 0F (调光器地址-内卫射灯, 内卫感应灯关)
2024-09-02 07:25:17.763 - 19 08 24 03 CC 01 CD 00 01 (调用茶吧感应灯关的按键)
2024-09-02 07:25:17.795 - 1A AA AA AA 88 FF 00 01 FF 00 01 0F (调光器地址-茶吧灯带, 茶吧灯带关闭)
2024-09-02 07:25:19.128 - 19 08 24 03 DD 00 00 00 01 (调用情景-离家（末）)
2024-09-02 07:25:19.638 - EE 00 00 B1 00 00 00 FF FC FF FF (情景执行提示)
2024-09-02 07:25:20.236 - 09 06 00 0F 02 02 38 20 (提示音咚)
2024-09-02 07:25:20.778 - 50 F7 01 (全屋影音全关)
2024-09-02 07:25:21.383 - 01 06 07 D0 FF 60 C8 9F (客厅空调关)
2024-09-02 07:25:21.415 - 01 06 07 D0 FF 60 C8 9F (客厅空调关)
2024-09-02 07:25:21.975 - 01 06 07 D0 FF 60 C8 9F (客厅空调关)
2024-09-02 07:25:22.007 - 01 06 07 D0 FF 60 C8 9F (客厅空调关)
2024-09-02 07:25:22.581 - 01 06 07 D3 FF 60 38 9F (餐厅空调关)
2024-09-02 07:25:22.597 - 01 06 07 D3 FF 60 38 9F (餐厅空调关)
2024-09-02 07:25:23.175 - 01 06 07 D3 FF 60 38 9F (餐厅空调关)
2024-09-02 07:25:23.209 - 01 06 07 D3 FF 60 38 9F (餐厅空调关)
2024-09-02 07:25:23.777 - 01 06 07 D6 FF 60 28 9E (主卧空调关)
2024-09-02 07:25:23.809 - 01 06 07 D6 FF 60 28 9E (主卧空调关)
2024-09-02 07:25:24.367 - 01 06 07 D6 FF 60 28 9E (主卧空调关)
2024-09-02 07:25:24.400 - 01 06 07 D6 FF 60 28 9E (主卧空调关)
2024-09-02 07:25:24.973 - 01 06 07 D9 FF 60 18 9D (次卧空调关)
2024-09-02 07:25:24.995 - 01 06 07 D9 FF 60 18 9D (次卧空调关)
2024-09-02 07:25:25.563 - 01 06 07 D9 FF 60 18 9D (次卧空调关)
2024-09-02 07:25:25.607 - 01 06 07 D9 FF 60 18 9D (次卧空调关)
2024-09-02 07:25:26.169 - 01 06 07 DC FF 60 08 9C (书房空调关)
2024-09-02 07:25:26.713 - 01 06 07 DC FF 60 08 9C (书房空调关)
2024-09-02 07:25:26.747 - 01 06 07 DC FF 60 08 9C (书房空调关)
2024-09-02 07:25:27.308 - 09 06 00 0F 02 02 38 20 (提示音咚)
2024-09-02 07:25:27.859 - 1A FF FF FF 56 00 00 00 0F (人体感应地址-内卫, 关闭内卫感应)
2024-09-02 07:25:28.401 - 1A FF FF FF 55 00 00 00 0F (人体感应地址-外卫, 关闭外卫感应)
2024-09-02 07:25:28.499 - BC BC
2024-09-02 07:25:28.958 - 1A FF FF FF 57 00 00 00 0F (人体感应地址-厨房, 关闭厨房感应)
2024-09-02 07:25:29.502 - 1A FF FF FF 58 00 00 00 0F (人体感应地址-茶吧, 关闭茶吧感应)
2024-09-02 07:25:29.553 - BC
2024-09-02 07:25:30.046 - 1A 20 07 00 93 00 01 00 0F (自保持开关地址-设备区顶, 设备区顶灯关)
2024-09-02 07:25:31.102 - 1A 20 07 01 40 00 01 00 0F (自保持开关地址-内卫顶灯, 内卫顶灯关)
2024-09-02 07:25:32.148 - 1A 20 07 01 55 00 01 00 0F (自保持开关地址-主卧顶灯, 主卧顶灯只关)
2024-09-02 07:25:33.192 - 1A 20 07 00 42 00 01 00 0F (自保持开关地址-外卫顶灯, 外卫顶灯关)
2024-09-02 07:25:34.239 - 55 0D 31 00 00 00 01 94 (书房顶灯只关)
2024-09-02 07:25:35.284 - 55 0A 31 00 00 00 01 91 (厨房顶灯一关)
2024-09-02 07:25:36.330 - 55 0A 31 00 00 00 02 92 (厨房顶灯二关)
2024-09-02 07:25:37.376 - 55 0B 31 00 00 00 01 92 (厨房风扇只关)
2024-09-02 07:25:38.419 - 55 0C 31 00 00 00 01 93 (餐厅顶灯关)
2024-09-02 07:25:39.476 - 1A 20 07 01 30 00 01 00 0F (自保持开关地址-西阳顶灯, 西阳顶灯关)
2024-09-02 07:25:40.509 - 1A 18 05 21 89 00 01 00 0F (自保持开关地址-客厅顶灯, 客厅顶灯一关)
2024-09-02 07:25:41.560 - 1A 18 05 01 94 00 01 00 0F (自保持开关地址-客厅顶灯, 客厅顶灯二关)
2024-09-02 07:25:42.612 - 1A 20 07 00 70 00 01 00 0F (自保持开关地址-次卧顶灯, 次卧顶灯只关)
2024-09-02 07:25:43.653 - 1A 18 05 10 31 00 01 00 0F (自保持开关地址-门厅顶灯, 门厅顶灯关)
2024-09-02 07:25:44.701 - 1A FF FF FF 04 00 03 02 (继电器地址-东阳衣架, 东阳衣架照明关)
2024-09-02 07:25:45.252 - 09 06 00 0F 02 02 38 20 (提示音咚)
2024-09-02 07:25:45.796 - A5 00 A6 FE 01 AA (餐厅窗帘开)
2024-09-02 07:25:45.849 - 55 00 A6 02 01 67 01 75 AA 55 00 A6 02 01 67 01 75 AA (餐厅窗帘电机状态返回)
2024-09-02 07:25:46.391 - FF FF FF FF 0A 00 01 00 (继电器地址-东阳窗帘, 东阳窗帘开)
2024-09-02 07:25:46.949 - 1A BE B0 DC 04 00 01 00 (继电器地址-西阳窗帘, 西阳窗帘开)
2024-09-02 07:25:47.539 - FF FF FF FF 0E 00 01 00 (继电器地址-西阳小窗帘, 西阳小窗帘开)
2024-09-02 07:25:48.092 - 1A 22 33 62 0F 00 00 01 0F (正反转地址-内卫卷帘, 内卫卷帘升)
2024-09-02 07:25:48.638 - A5 00 52 FE 01 AA (主卧窗帘开)
2024-09-02 07:25:49.181 - A5 00 53 FF 00 AA (主卧纱帘开)
2024-09-02 07:25:49.723 - A5 00 76 FE 01 AA (次卧窗帘开)
2024-09-02 07:25:50.285 - A5 00 21 FE 01 AA (次卧纱帘开)
2024-09-02 07:25:50.829 - A5 00 D2 FE 01 AA 22 0D (书房窗帘开)
2024-09-02 07:25:50.888 - 55 00 D2 02 00 E5 00 F2 AA 55 00 D2 02 00 E5 00 F2 (书房窗帘电机状态返回)
2024-09-02 07:25:51.431 - 1A BE B0 DC 09 00 01 00 (继电器地址-客厅窗帘, 客厅窗帘开)
2024-09-02 07:25:51.973 - 1A BE B0 DC 0A 00 02 00 (继电器地址-客厅纱帘, 客厅纱帘开)
2024-09-02 07:25:52.530 - 09 06 00 0F 02 02 38 20 (提示音咚)
2024-09-02 07:25:53.566 - 1A EC A0 DC 02 00 00 00 0F (自保持开关地址-天花12V供电, 天花12V 供电关)
2024-09-02 07:25:54.125 - 1A EC A0 DC 02 00 00 00 0F (自保持开关地址-天花12V供电, 天花12V 供电关)
2024-09-02 07:25:54.671 - 1A EC A0 DC 01 00 00 00 0F (自保持开关地址-电视、设备12V供电, 12V 电视供电关)
2024-09-02 07:25:54.811 - 55 00 A6 00 00 0E 01 75 AA 55 00 A6 00 00 0E 01 75 AA (餐厅窗帘电机状态返回)
2024-09-02 07:25:55.216 - 1A EC A0 DC 01 00 00 00 0F (自保持开关地址-电视、设备12V供电, 12V 电视供电关)
2024-09-02 07:25:55.768 - 1A EC A0 DC 04 00 01 00 0F (自保持开关地址-次卧西阳内外卫供电, 内卫外卫关)
2024-09-02 07:25:56.310 - 1A EC A0 DC 04 00 01 00 0F (自保持开关地址-次卧西阳内外卫供电, 内卫外卫关)
2024-09-02 07:25:58.384 - 55 00 D2 00 00 0E 00 F2 AA 55 00 D2 00 00 0E 00 F2 AA (书房窗帘电机状态返回)
2024-09-02 07:26:14.301 - 09 06 00 0F 02 02 38 20 (提示音咚)
2024-09-02 07:26:14.842 - 1A 27 89 12 AA 00 00 00 0F (状态寄存器地址, 无人状态)
2024-09-02 07:26:15.402 - 1A 27 89 12 AA 00 00 00 0F (状态寄存器地址, 无人状态)
2024-09-02 07:26:15.995 - A1 11 11 11 4D (天花供电关闭确认)
2024-09-02 07:26:16.216 - 1A EC A0 DC 02 86 86 86 0F (查询天花供电状态, 自保持开关地址-天花12V供电)
2024-09-02 07:26:16.657 - 1A EC A0 DC 02 00 01 0F (自保持开关地址-天花12V供电)
2024-09-02 07:26:19.034 - A1 11 11 11 4E (卫生供电关闭确认)
2024-09-02 07:26:19.258 - 1A EC A0 DC 04 86 86 86 0F (查询卫生间供电状态, 自保持开关地址-次卧西阳内外卫供电)
2024-09-02 07:26:19.689 - 1A EC A0 DC 04 01 00 0F (自保持开关地址-次卧西阳内外卫供电)
2024-09-02 07:26:22.065 - A1 11 11 11 4F (电视供电关闭确认)
2024-09-02 07:26:22.302 - 1A EC A0 DC 01 86 86 86 0F (查询电视供电状态, 自保持开关地址-电视、设备12V供电)
2024-09-02 07:26:22.736 - 1A EC A0 DC 01 00 01 0F (自保持开关地址-电视、设备12V供电)
2024-09-02 07:26:25.114 - 09 06 00 0F 02 02 38 20 (提示音咚)
2024-09-02 07:26:25.657 - 09 06 00 0F 02 02 38 20 (提示音咚)
2024-09-02 07:26:26.216 - EE 00 00 B1 00 00 02 FF FC FF FF (情景完成返回主页)
2024-09-02 07:26:27.303 - BA BA EE EE BA BA (离家设置信科变量)
2024-09-02 07:26:28.354 - A1 11 11 11 46 (天热离家遮阳)
2024-09-02 07:26:28.578 - 1A 27 89 12 AA 86 86 86 0F (查询寄存器状态, 状态寄存器地址)
2024-09-02 07:26:28.960 - 1A 27 89 12 AA 00 00 00 00 00 00 00 00 00 00 00 01 00 00 00 00 0F (状态寄存器地址)
2024-09-02 07:26:29.582 - 19 08 24 03 DD 00 05 00 01 (调用情景-天热遮阳关帘)
2024-09-02 07:26:30.155 - EE 00 00 B1 00 00 00 FF FC FF FF (情景执行提示)
2024-09-02 07:26:30.746 - 09 06 00 0F 02 01 78 21 (提示音叮)
2024-09-02 07:26:31.288 - A5 00 A2 FF 00 AA (餐厅纱帘关)
2024-09-02 07:26:32.341 - A5 00 A6 FF 00 AA (餐厅窗帘关)
2024-09-02 07:26:32.389 - 55 00 A6 01 00 0E 01 75 AA 55 00 A6 01 00 0E 01 75 AA (餐厅窗帘电机状态返回)
2024-09-02 07:26:33.426 - A5 00 53 FE 01 AA (主卧纱帘关)
2024-09-02 07:26:33.489 - 55 00 53 02 02 22 02 30 AA 55 00 53 02 02 22 02 30 AA (主卧纱帘电机状态返回)
2024-09-02 07:26:34.532 - A5 00 52 FF 00 AA (主卧窗帘关)
2024-09-02 07:26:35.578 - A5 00 21 FF 00 AA (次卧纱帘关)
2024-09-02 07:26:35.626 - 55 00 21 01 00 0D 01 34 AA 55 00 21 01 00 0D 01 34 AA (次卧纱帘电机状态返回)
2024-09-02 07:26:36.675 - A5 00 76 FF 00 AA (次卧窗帘关)
2024-09-02 07:26:36.727 - 55 00 76 01 00 0E 01 1B AA 55 00 76 01 00 0E 01 1B FE (次卧窗帘电机状态返回)
2024-09-02 07:26:37.765 - A5 00 B7 FF 00 AA 22 0D (书房纱帘关)
2024-09-02 07:26:38.817 - A5 00 D2 FF 00 AA 22 0C (书房窗帘关)
2024-09-02 07:26:38.867 - 55 00 D2 01 00 0E 00 F2 AA 55 00 D2 01 00 0E 00 F2 AA (书房窗帘电机状态返回)
2024-09-02 07:26:40.415 - 1A 22 33 62 5E 00 02 01 0F (正反转地址-厨房卷帘三, 厨房卷帘一降)
2024-09-02 07:26:40.825 - 55 00 A6 00 01 67 01 75 AA 55 00 A6 00 01 67 01 75 AA (餐厅窗帘电机状态返回)
2024-09-02 07:26:41.463 - 1A 22 33 62 56 00 02 01 0F (正反转地址-厨房卷帘二, 厨房卷帘二降)
2024-09-02 07:26:42.506 - 1A 22 33 62 4F 00 00 01 0F (正反转地址-厨房卷帘一, 厨房卷帘三降)
2024-09-02 07:26:42.896 - 55 00 21 00 01 27 01 34 AA 55 00 21 00 01 27 01 34 AA (次卧纱帘电机状态返回)
2024-09-02 07:26:43.552 - 1A BE B0 DC 04 00 02 00 (继电器地址-西阳窗帘, 西阳窗帘关)
2024-09-02 07:26:44.324 - 55 00 53 00 00 0C 02 30 AA 55 00 53 00 00 0C 02 30 AA (主卧纱帘电机状态返回)
2024-09-02 07:26:44.597 - FF FF FF FF 0E 00 02 00 (继电器地址-西阳小窗帘, 西阳小窗帘关)
2024-09-02 07:26:45.644 - 1A BE B0 DC 03 00 03 00 (继电器地址-西阳天幕, 西阳天幕关)
2024-09-02 07:26:46.688 - 55 00 D2 00 00 E5 00 F2 AA 9D E4 83 E3 03 00 03 00 FF (书房窗帘电机状态返回)
2024-09-02 07:26:46.910 - 55 20 20 00 02 09 02 16 AA 55 20 20 00 02 09 02 16 AA (主卧窗帘电机状态返回)
2024-09-02 07:26:47.879 - 09 06 00 0F 02 02 38 20 (提示音咚)
2024-09-02 07:26:48.491 - EE 00 00 B1 00 00 02 FF FC FF FF (情景完成返回主页)
2024-09-02 07:41:05.061 - 1A BE B0 DC 04 (继电器地址-西阳窗帘)
2024-09-02 07:41:05.749 - FF FF FF FF 0E FC (继电器地址-西阳小窗帘)
2024-09-02 07:41:05.877 - FF
2024-09-02 07:41:07.731 - 1A BE B0 DC 02 (正反转地址-外卫卷帘)
2024-09-02 07:41:07.870 - FF
2024-09-02 07:41:09.858 - 1A BE B0 DC 03 FC (继电器地址-西阳天幕)
2024-09-02 07:41:10.597 - 1A BE B0 DC 09 (继电器地址-客厅窗帘)
2024-09-02 07:41:10.725 - FF
2024-09-02 07:41:11.473 - 1A BE B0 DC 0A FE (继电器地址-客厅纱帘)
2024-09-02 07:41:11.609 - FE
2024-09-02 07:42:09.620 - 1A BE B0 DC 01 (继电器地址-回水泵点动)
2024-09-02 07:42:19.619 - FF FF FF FF 0A FC (继电器地址-东阳窗帘)
2024-09-02 07:42:19.752 - FF
2024-09-02 08:32:16.904 - 1A FF FF FF 60 (红外总线地址-主卧发射设备)
2024-09-02 09:27:43.119 - 1A FF FF FF 04 (继电器地址-东阳衣架)
2024-09-02 09:27:43.247 - 00
2024-09-02 10:07:01.578 - 1B 03 00 00 00 02 C6 31 (查询室外光线)
2024-09-02 10:07:01.604 - 1B 03 04 00 00 08 0D 87 F7 (室外光线返回)
2024-09-02 10:07:01.924 - 1A EC A0 DC 02 00 00 01 0F (自保持开关地址-天花12V供电, 天花12V 供电开)
2024-09-02 10:07:02.226 - 19 08 24 03 DD 00 0C 00 01 (调用情景-信科调用进门亮)
2024-09-02 10:07:02.446 - 1A AA AA AA 88 (调光器地址-茶吧灯带)
2024-09-02 10:07:02.752 - EE 00 00 B1 00 00 00 FF FC FF FF (情景执行提示)
2024-09-02 10:07:03.358 - 09 06 00 0F 02 01 78 21 (提示音叮)
2024-09-02 10:07:03.995 - 1A EC A0 DC 02 00 00 01 0F (自保持开关地址-天花12V供电, 天花12V 供电开)
2024-09-02 10:07:04.554 - 1A EC A0 DC 04 00 01 01 0F (自保持开关地址-次卧西阳内外卫供电, 内卫外卫开)
2024-09-02 10:07:05.098 - 1A EC A0 DC 04 00 01 01 0F (自保持开关地址-次卧西阳内外卫供电, 内卫外卫开)
2024-09-02 10:07:05.642 - 1A EC A0 DC 01 00 00 01 0F (自保持开关地址-电视、设备12V供电, 12V 电视供电开)
2024-09-02 10:07:10.678 - 1A 27 89 12 AA 00 00 01 0F (状态寄存器地址, 有人状态)
2024-09-02 10:07:11.238 - 1A 27 89 12 AA 00 00 01 0F (状态寄存器地址, 有人状态)
2024-09-02 10:07:11.794 - 1A 0C 02 08 01 FF 45 01 FF 45 01 FF 00 00 0F (调光器地址-内卫射灯, 内卫射灯微光)
2024-09-02 10:07:12.384 - 1A 0D 01 07 01 FF 45 01 FF 45 01 FF 00 00 0F (调光器地址-外卫射灯, 外卫感应灯开)
2024-09-02 10:07:12.976 - 1A FF FF FF 57 00 00 01 0F (人体感应地址-厨房, 打开厨房感应)
2024-09-02 10:07:13.517 - 1A FF FF FF 58 00 00 01 0F (人体感应地址-茶吧, 打开茶吧感应)
2024-09-02 10:07:13.581 - BC BC
2024-09-02 10:07:14.125 - 1A BE B0 DC 01 00 01 00 (继电器地址-回水泵点动, 回水泵点动)
2024-09-02 10:07:14.674 - 1A BE B0 DC 01 00 01 00 (继电器地址-回水泵点动, 回水泵点动)
2024-09-02 10:07:15.224 - 09 06 00 0F 02 01 78 21 (提示音叮)
2024-09-02 10:07:15.767 - 09 06 00 0F 02 01 78 21 (提示音叮)
2024-09-02 10:07:16.309 - EE 00 00 B1 00 00 02 FF FC FF FF (情景完成返回主页)
2024-09-02 10:07:16.902 - A1 11 11 11 50 (天花供电打开确认)
2024-09-02 10:07:17.139 - 1A EC A0 DC 02 86 86 86 0F (查询天花供电状态, 自保持开关地址-天花12V供电)
2024-09-02 10:07:17.569 - 1A EC A0 DC 02 01 01 0F (自保持开关地址-天花12V供电)
2024-09-02 10:07:19.452 - A1 11 11 11 51 (卫生供电打开确认)
2024-09-02 10:07:19.675 - 1A EC A0 DC 04 86 86 86 0F (查询卫生间供电状态, 自保持开关地址-次卧西阳内外卫供电)
2024-09-02 10:07:20.105 - 1A EC A0 DC 04 01 01 0F (自保持开关地址-次卧西阳内外卫供电)
2024-09-02 10:07:21.986 - A1 11 11 11 52 (电视供电打开确认)
2024-09-02 10:07:22.209 - 1A EC A0 DC 01 86 86 86 0F (查询电视供电状态, 自保持开关地址-电视、设备12V供电)
2024-09-02 10:07:22.656 - 1A EC A0 DC 01 01 01 0F (自保持开关地址-电视、设备12V供电)
2024-09-02 10:07:27.028 - A1 11 11 11 47 (天热回家开帘)
2024-09-02 10:07:27.251 - 1A 27 89 12 AA 86 86 86 0F (查询寄存器状态, 状态寄存器地址)
2024-09-02 10:07:27.634 - 1A 27 89 12 AA 01 00 00 00 00 00 00 00 00 00 00 01 00 00 00 00 0F (状态寄存器地址)
2024-09-02 10:07:28.256 - 19 08 24 03 DD 00 06 00 01 (调用情景-天热遮阳开帘)
2024-09-02 10:07:28.831 - EE 00 00 B1 00 00 00 FF FC FF FF (情景执行提示)
2024-09-02 10:07:29.422 - 09 06 00 0F 02 01 78 21 (提示音叮)
2024-09-02 10:07:29.965 - A5 00 A6 FE 01 AA (餐厅窗帘开)
2024-09-02 10:07:30.012 - 55 00 A6 02 01 67 01 75 AA 55 00 A6 02 01 67 01 75 AA (餐厅窗帘电机状态返回)
2024-09-02 10:07:31.067 - A5 00 52 FE 01 AA (主卧窗帘开)
2024-09-02 10:07:32.104 - A5 00 53 FF 00 AA (主卧纱帘开)
2024-09-02 10:07:32.164 - 55 00 53 01 00 0C 02 30 AA 55 00 53 01 00 0C 02 30 AA (主卧纱帘电机状态返回)
2024-09-02 10:07:33.209 - A5 00 76 FE 01 AA (次卧窗帘开)
2024-09-02 10:07:33.260 - 55 00 76 02 01 0E 01 1B AA 55 00 76 02 01 0E 01 1B AA (次卧窗帘电机状态返回)
2024-09-02 10:07:34.303 - A5 00 21 FE 01 AA (次卧纱帘开)
2024-09-02 10:07:34.351 - 55 00 21 02 01 27 01 34 AA 55 00 21 02 01 27 01 34 AA (次卧纱帘电机状态返回)
2024-09-02 10:07:35.405 - 1A BE B0 DC 04 00 01 00 (继电器地址-西阳窗帘, 西阳窗帘开)
2024-09-02 10:07:36.442 - FF FF FF FF 0E 00 01 00 (继电器地址-西阳小窗帘, 西阳小窗帘开)
2024-09-02 10:07:37.493 - A5 00 D2 FE 01 AA 22 0D (书房窗帘开)
2024-09-02 10:07:37.544 - 55 00 D2 02 00 E5 00 F2 AA 55 00 D2 02 00 E5 00 F2 AA (书房窗帘电机状态返回)
2024-09-02 10:07:38.594 - 09 06 00 0F 02 02 38 20 (提示音咚)
2024-09-02 10:07:39.143 - EE 00 00 B1 00 00 02 FF FC FF FF (情景完成返回主页)
2024-09-02 10:07:40.146 - 55 00 76 00 00 0E 01 1B AA 55 00 76 00 00 0E 01 1B AA (次卧窗帘电机状态返回)
2024-09-02 10:07:41.781 - 55 00 21 00 00 0D 01 34 AA 55 00 21 00 00 0D 01 34 AA (次卧纱帘电机状态返回)
2024-09-02 10:07:43.280 - 55 00 53 00 02 22 02 30 AA 55 00 53 00 02 22 02 30 AA (主卧纱帘电机状态返回)
2024-09-02 10:07:43.904 - 55 20 20 00 00 0F 02 16 AA 55 20 20 00 00 0F 02 16 AA (主卧窗帘电机状态返回)
2024-09-02 10:07:44.939 - 55 00 D2 00 00 0E 00 F2 AA 55 00 D2 00 00 0E 00 F2 AA (书房窗帘电机状态返回)
2024-09-02 10:07:47.338 - A1 11 11 11 42 (主卧空调自动开)
2024-09-02 10:07:47.559 - 19 08 24 03 F0 BB 78 02 02 00
2024-09-02 10:07:47.610 - 23 AA 56 02 0A 08 19 18 09 02 01 73 65 6F 6B 65 6E 64
2024-09-02 10:07:48.577 - 01 10 07 D6 00 03 06 70 61 00 02 00 F0 0F 3E (主卧空调冷24度)
2024-09-02 10:07:48.614 - 01 10 07 D6 00 03 06 70 61 00 02 00 F0 0F 3E (主卧空调冷24度)
2024-09-02 10:07:53.141 - 19 08 24 03 DD 00 10 00 01 (调用情景-客餐厅空调开)
2024-09-02 10:07:53.684 - EE 00 00 B1 00 00 00 FF FC FF FF (情景执行提示)
2024-09-02 10:07:54.291 - 09 06 00 0F 02 01 78 21 (提示音叮)
2024-09-02 10:07:54.832 - A1 11 11 11 40 (客厅空调自动开)
2024-09-02 10:07:55.056 - 19 08 24 03 F0 BB 78 02 02 00
2024-09-02 10:07:55.102 - 23 AA 56 02 0A 08 20 18 09 02 01 73 65 6F 6B 65 6E 64
2024-09-02 10:07:56.065 - 01 10 07 D0 00 03 06 70 61 00 02 00 FA 6F 26 (客厅空调冷25度)
2024-09-02 10:07:56.099 - 01 10 07 D0 00 03 06 70 61 00 02 00 FA 6F 26 (客厅空调冷25度)
2024-09-02 10:07:58.870 - A1 11 11 11 41 (餐厅空调自动开)
2024-09-02 10:07:59.092 - 19 08 24 03 F0 BB 78 02 02 00
2024-09-02 10:07:59.142 - 23 AA 56 02 0A 08 24 18 09 02 01 73 65 6F 6B 65 6E 64
2024-09-02 10:08:00.097 - 01 10 07 D3 00 03 06 70 61 00 02 00 FA 9F 29 (餐厅空调冷25度)
2024-09-02 10:08:00.146 - 01 10 07 D3 00 03 06 70 61 00 02 00 FA 9F 29 (餐厅空调冷25度)
2024-09-02 10:08:02.905 - 09 06 00 0F 02 02 38 20 (提示音咚)
2024-09-02 10:08:03.462 - EE 00 00 B1 00 00 02 FF FC FF FF (情景完成返回主页)
2024-09-02 10:08:03.701 - 19 08 24 03 CC 01 CC 00 01 (调用茶吧感应灯开的按键)
2024-09-02 10:08:03.750 - 1A AA AA AA 88 FF B0 01 FF B0 01 0F (调光器地址-茶吧灯带, 茶吧灯带明亮)
2024-09-02 10:08:14.725 - 19 08 24 03 CC 01 CD 00 01 (调用茶吧感应灯关的按键)
2024-09-02 10:08:14.757 - 1A AA AA AA 88 FF 00 01 FF 00 01 0F (调光器地址-茶吧灯带, 茶吧灯带关闭)
2024-09-02 10:08:32.765 - 19 08 24 03 CC 01 CC 00 01 (调用茶吧感应灯开的按键)
2024-09-02 10:08:32.799 - 1A AA AA AA 88 FF B0 01 FF B0 01 0F (调光器地址-茶吧灯带, 茶吧灯带明亮)
2024-09-02 10:08:44.788 - 19 08 24 03 CC 01 CD 00 01 (调用茶吧感应灯关的按键)
2024-09-02 10:08:44.822 - 1A AA AA AA 88 FF 00 01 FF 00 01 0F (调光器地址-茶吧灯带, 茶吧灯带关闭)
2024-09-02 10:08:56.317 - 19 08 24 03 CC 01 CC 00 01 (调用茶吧感应灯开的按键)
2024-09-02 10:08:56.335 - 1A AA AA AA 88 FF B0 01 FF B0 01 0F (调光器地址-茶吧灯带, 茶吧灯带明亮)
2024-09-02 10:09:13.851 - 19 08 24 03 CC 01 CD 00 01 (调用茶吧感应灯关的按键)
2024-09-02 10:09:13.868 - 1A AA AA AA 88 FF 00 01 FF 00 01 0F (调光器地址-茶吧灯带, 茶吧灯带关闭)
2024-09-02 10:10:01.436 - 19 08 24 03 CC 01 CC 00 01 (调用茶吧感应灯开的按键)
2024-09-02 10:10:01.470 - 1A AA AA AA 88 FF B0 01 FF B0 01 0F (调光器地址-茶吧灯带, 茶吧灯带明亮)
2024-09-02 10:10:13.970 - 19 08 24 03 CC 01 CD 00 01 (调用茶吧感应灯关的按键)
2024-09-02 10:10:13.987 - 1A AA AA AA 88 FF 00 01 FF 00 01 0F (调光器地址-茶吧灯带, 茶吧灯带关闭)
2024-09-02 10:11:32.469 - FF
2024-09-02 10:11:32.696 - EE 00 71 B1 01 00 02 FF FC FF FF
2024-09-02 10:11:41.639 - 19 08 24 03 CC 01 CC 00 01 (调用茶吧感应灯开的按键)
2024-09-02 10:11:41.690 - 1A AA AA AA 88 FF B0 01 FF B0 01 0F (调光器地址-茶吧灯带, 茶吧灯带明亮)
2024-09-02 10:12:51.768 - 19 08 24 03 CC 01 CD 00 01 (调用茶吧感应灯关的按键)
2024-09-02 10:12:51.802 - 1A AA AA AA 88 FF 00 01 FF 00 01 0F (调光器地址-茶吧灯带, 茶吧灯带关闭)
2024-09-02 10:18:08.908 - 19 08 24 03 CC 01 CC 00 01 (调用茶吧感应灯开的按键)
2024-09-02 10:18:08.932 - 1A AA AA AA 88 FF B0 01 FF B0 01 0F (调光器地址-茶吧灯带, 茶吧灯带明亮)
2024-09-02 10:20:17.573 - FF
2024-09-02 10:20:20.224 - 55 0B 32 00 00 00 01 93 (厨房风扇只开)
2024-09-02 10:20:22.317 - 55 0B 31 00 00 00 01 92 (厨房风扇只关)
2024-09-02 10:22:32.162 - FF
2024-09-02 10:25:51.802 - FF
2024-09-02 10:25:51.914 - EE 00 73 07 FF FC FF FF
2024-09-02 10:25:58.051 - A5 00 A6 FF 00 AA (餐厅窗帘关)
2024-09-02 10:25:58.102 - 55 00 A6 01 00 0E 01 75 AA 55 00 A6 01 00 0E 01 75 AA (餐厅窗帘电机状态返回)
2024-09-02 10:25:59.464 - A5 00 A6 FE 01 AA (餐厅窗帘开)
2024-09-02 10:25:59.927 - 55 00 A6 02 00 33 01 75 AA 55 00 A6 02 00 33 01 75 AA (餐厅窗帘电机状态返回)
2024-09-02 10:26:03.386 - 55 00 A6 00 00 0E 01 75 AA 55 00 A6 00 00 0E 01 75 AA (餐厅窗帘电机状态返回)
2024-09-02 10:26:15.367 - 19 08 24 03 CC 01 CD 00 01 (调用茶吧感应灯关的按键)
2024-09-02 10:26:15.418 - 1A AA AA AA 88 FF 00 01 FF 00 01 0F (调光器地址-茶吧灯带, 茶吧灯带关闭)
2024-09-02 10:54:41.099 - E0
2024-09-02 10:54:41.482 - EE 00 79 07 FF FC FF FF
2024-09-02 10:54:44.083 - 1A 20 07 01 55 00 01 02 0F (自保持开关地址-主卧顶灯, 主卧顶灯开关)
2024-09-02 10:54:45.589 - 1A 20 07 01 55 00 01 02 0F (自保持开关地址-主卧顶灯, 主卧顶灯开关)
2024-09-02 10:54:46.141 - 1A 20 07 01 55 00 01 02 0F (自保持开关地址-主卧顶灯, 主卧顶灯开关)
2024-09-02 10:54:46.923 - 1A 20 07 01 55 00 01 02 0F (自保持开关地址-主卧顶灯, 主卧顶灯开关)
2024-09-02 10:58:16.614 - FA
2024-09-02 10:58:16.975 - EE 00 79 07 FF FC FF FF
2024-09-02 10:58:33.487 - 1A 20 07 01 55 00 01 02 0F (自保持开关地址-主卧顶灯, 主卧顶灯开关)
2024-09-02 10:58:34.524 - 1A 20 07 01 55 00 01 02 0F (自保持开关地址-主卧顶灯, 主卧顶灯开关)
2024-09-02 10:58:45.501 - 19 08 24 03 CC 00 5C 00 01
2024-09-02 10:58:45.533 - 1A 0C 02 04 01 FF F0 01 FF F0 01 FF 00 00 0F (调光器地址-主卧筒灯, 主卧筒灯明亮)
2024-09-02 10:58:49.886 - 19 08 24 03 CC 00 5B 00 01
2024-09-02 10:58:49.918 - 1A 0C 02 04 01 FF 00 01 FF 00 01 FF 00 00 0F (调光器地址-主卧筒灯, 主卧筒灯关闭)
2024-09-02 11:01:51.752 - 1A BE B0 DC 04 (继电器地址-西阳窗帘)
2024-09-02 11:01:51.888 - FF
2024-09-02 11:01:53.131 - FF FF FF FF 0E (继电器地址-西阳小窗帘)
2024-09-02 11:01:53.266 - FF
2024-09-02 11:01:59.210 - 1A BE B0 DC 09 (继电器地址-客厅窗帘)
2024-09-02 11:01:59.339 - FF
2024-09-02 11:02:01.415 - 1A BE B0 DC 02 FC (正反转地址-外卫卷帘)
2024-09-02 11:02:01.554 - FF
2024-09-02 11:02:02.224 - 1A BE B0 DC 0A FC (继电器地址-客厅纱帘)
2024-09-02 11:02:02.352 - FF
2024-09-02 11:02:08.221 - 1A BE B0 DC 03 FC (继电器地址-西阳天幕)
2024-09-02 11:02:08.364 - FF
2024-09-02 11:03:07.901 - 1A BE B0 DC 01 FC (继电器地址-回水泵点动)
2024-09-02 11:03:08.030 - FF
2024-09-02 11:04:57.153 - FF FF FF FF 0A (继电器地址-东阳窗帘)
2024-09-02 11:04:57.296 - FE
2024-09-02 11:11:05.346 - 1A 18 05 01 94 (自保持开关地址-客厅顶灯)
2024-09-02 11:11:05.618 - 0A
2024-09-02 11:11:05.618 - 90 EE 41
2024-09-02 11:11:05.761 - FF
2024-09-02 11:11:06.993 - 69 86 FF
2024-09-02 11:11:07.133 - 1A BE B0 DC 03 (继电器地址-西阳天幕)
2024-09-02 11:11:07.564 - FF
2024-09-02 11:11:08.183 - FE
2024-09-02 11:11:08.507 - 68 86 FE
2024-09-02 11:21:02.773 - 1A FF 03 00 00 86 86 86 0F (调用查询模块-主卧空调开关查询, 主卧空调虚拟地址)
2024-09-02 11:21:02.994 - 01 04 07 DC 00 01 F1 44 (查询主卧空调开关状态)
2024-09-02 11:21:03.024 - 01 04 02 70 01 5D 30
2024-09-02 11:21:04.000 - 1A FF 03 00 00 01 00 0F (主卧空调虚拟地址)
2024-09-02 11:21:04.185 - 1A FF 04 00 00 86 86 86 0F (调用查询模块-次卧空调开关查询, 次卧空调虚拟地址)
2024-09-02 11:21:04.405 - 01 04 07 E2 00 01 90 88 (查询次卧空调开关状态)
2024-09-02 11:21:04.430 - 01 04 02 70 00 9C F0
2024-09-02 11:21:05.409 - 1A FF 04 00 00 00 00 0F (次卧空调虚拟地址)
2024-09-02 11:21:05.613 - 1A FF 05 00 00 86 86 86 0F (调用查询模块-书房空调开关查询, 书房空调虚拟地址)
2024-09-02 11:21:05.834 - 01 04 07 E8 00 01 B0 8A (查询书房空调开关状态)
2024-09-02 11:21:05.865 - 01 04 02 70 00 9C F0
2024-09-02 11:21:06.838 - 1A FF 05 00 00 00 00 0F (书房空调虚拟地址)
2024-09-02 11:21:07.556 - 1A FF 02 00 00 86 86 86 0F (调用查询模块-餐厅空调开关查询, 餐厅空调虚拟地址)
2024-09-02 11:21:07.779 - 01 04 07 D6 00 01 D1 46 (查询餐厅空调开关状态)
2024-09-02 11:21:07.811 - 01 04 02 70 01 5D 30
2024-09-02 11:21:08.784 - 1A FF 02 00 00 01 00 0F (餐厅空调虚拟地址)
2024-09-02 11:21:09.199 - 1A FF 01 00 00 86 86 86 0F (调用查询模块-客厅空调开关查询, 客厅空调虚拟地址)
2024-09-02 11:21:09.406 - 01 04 07 D0 00 01 31 47 (查询客厅空调开关状态)
2024-09-02 11:21:09.438 - 01 04 02 70 01 5D 30
2024-09-02 11:21:10.411 - 1A FF 01 00 00 01 00 0F (客厅空调虚拟地址)
2024-09-02 11:21:10.969 - 1A 10 00 00 00 86 86 86 0F (调用查询模块-主卧测温转换, 主卧温湿度虚拟地址)
2024-09-02 11:21:11.192 - 1D 03 00 00 00 02 C6 57 (查询主卧温湿度)
2024-09-02 11:21:11.224 - 1D 03 04 02 18 01 03 E7 DC (主卧温湿度返回)
2024-09-02 11:21:12.227 - 1A 10 00 00 00 00 00 01 00 00 01 00 00 01 01 03 01 02 18 01 00 00 01 00 00 01 0F (主卧温湿度虚拟地址)
2024-09-02 11:21:12.372 - 1A 11 00 00 00 86 86 86 0F (调用查询模块-次卧测温转换, 次卧温湿度虚拟地址)
2024-09-02 11:21:12.596 - 11 03 00 00 00 02 C6 9B (查询次卧温湿度)
2024-09-02 11:21:12.618 - 11 03 04 02 49 01 29 FB D2 (次卧温湿度返回)
2024-09-02 11:21:13.617 - 1A 11 00 00 00 00 00 01 00 00 01 00 00 01 01 29 01 02 49 01 00 00 01 00 00 01 0F (次卧温湿度虚拟地址)
2024-09-02 11:21:13.793 - 1A 12 00 00 00 86 86 86 0F (调用查询模块-书房测温转换, 书房温湿度虚拟地址)
2024-09-02 11:21:14.029 - 12 03 00 00 00 02 C6 A8 (查询书房温湿度)
2024-09-02 11:21:14.048 - 12 03 04 01 AD 01 22 C9 66 (区域高光指令（AD+区域+暖光+冷光+AE）, 书房温湿度返回)
2024-09-02 11:21:15.053 - 1A 12 00 00 00 00 00 01 00 00 01 00 00 01 01 22 01 01 AD 01 00 00 01 00 00 01 0F (区域高光指令（AD+区域+暖光+冷光+AE）, 书房温湿度虚拟地址)
2024-09-02 11:21:15.237 - 1A 13 00 00 00 86 86 86 0F (调用查询模块-外卫测温转换, 外卫温湿度虚拟地址)
2024-09-02 11:21:15.459 - 13 03 00 00 00 02 C7 79 (查询外卫温湿度)
2024-09-02 11:21:15.484 - 13 03 04 01 BA 01 0C E9 BE (外卫温湿度返回)
2024-09-02 11:21:16.479 - 1A 13 00 00 00 00 00 01 00 00 01 00 00 01 01 0C 01 01 BA 01 00 00 01 00 00 01 0F (外卫温湿度虚拟地址)
2024-09-02 11:21:16.972 - 1A 14 00 00 00 86 86 86 0F (调用查询模块-内卫测温转换, 内卫温湿度虚拟地址)
2024-09-02 11:21:17.207 - 14 03 00 00 00 02 C6 CE (查询内卫温湿度)
2024-09-02 11:21:18.230 - 1A 14 00 00 00 00 00 01 00 00 01 00 00 01 86 86 01 00 00 01 00 00 01 00 00 01 0F (内卫温湿度虚拟地址)
2024-09-02 11:21:18.451 - 1A 15 00 00 00 86 86 86 0F (调用查询模块-客厅测温转换, 客厅温湿度虚拟地址)
2024-09-02 11:21:18.675 - 15 03 00 00 00 02 C7 1F (查询客厅温湿度)
2024-09-02 11:21:18.691 - 15 03 04 01 DB 00 F9 1F B7 (客厅温湿度返回)
2024-09-02 11:21:19.696 - 1A 15 00 00 00 00 00 01 00 00 01 00 00 01 00 F9 01 01 DB 01 00 00 01 00 00 01 0F (客厅温湿度虚拟地址)
2024-09-02 11:21:20.412 - 1A 16 00 00 00 86 86 86 0F (调用查询模块-机柜测温转换, 机柜温湿度虚拟地址)
2024-09-02 11:21:20.476 - 1A 0E 00 00 00 86 86 86 0F (调用查询模块-厨房测温转换, 厨房温湿度虚拟地址)
2024-09-02 11:21:20.645 - 16 03 00 00 00 02 C7 2C (查询机柜温湿度)
2024-09-02 11:21:20.667 - 16 03 04 01 BB 01 07 AC B9 (机柜温湿度返回)
2024-09-02 11:21:21.666 - 1A 16 00 00 00 00 00 01 00 00 01 00 00 01 01 07 01 01 BB 01 00 00 01 00 00 01 0F (机柜温湿度虚拟地址)
2024-09-02 11:21:22.198 - 1A 0F 00 00 00 86 86 86 0F (调用查询模块-餐厅测温转换, 餐厅温湿度虚拟地址)
2024-09-02 11:21:22.421 - 1C 03 00 00 00 02 C7 86 (查询餐厅温湿度)
2024-09-02 11:21:22.453 - 1C 03 04 01 A0 01 16 B6 B2 (餐厅温湿度返回)
2024-09-02 11:21:23.451 - 1A 0F 00 00 00 00 00 01 00 00 01 00 00 01 01 16 01 01 A0 01 00 00 01 00 00 01 0F (餐厅温湿度虚拟地址)
2024-09-02 11:21:23.842 - 1A 20 00 00 00 86 86 86 0F (调用查询模块-阳台测温湿气压转换, 阳台温湿气压虚拟地址)
2024-09-02 11:21:24.062 - 20 03 00 00 00 03 03 7A (查询阳台温湿度气压)
2024-09-02 11:21:24.079 - 20 03 06 01 77 01 32 27 09 3B 3B (阳台温湿度返回)
2024-09-02 11:21:24.573 - 1A 20 00 00 00 00 00 01 00 00 01 00 00 01 01 77 01 01 32 01 27 09 01 00 00 01 0F (阳台温湿气压虚拟地址)
2024-09-02 11:21:24.764 - 1A 21 00 00 00 86 86 86 0F (调用查询模块-储藏室测温湿气压转换, 储藏室温湿气压虚拟地址)
2024-09-02 11:21:24.980 - 21 03 00 00 00 03 02 AB (查询储藏室温湿度气压)
2024-09-02 11:21:25.003 - 21 03 06 01 4D 02 6B 27 0B BF 38 (储藏室温湿度返回)
2024-09-02 11:21:25.507 - 1A 21 00 00 00 00 00 01 00 00 01 00 00 01 01 4D 01 02 6B 01 27 0B 01 00 00 01 0F (储藏室温湿气压虚拟地址)
2024-09-02 11:21:25.785 - 1A 22 00 00 00 86 86 86 0F (调用查询模块-室外测温湿气压转换, 室外温湿气压虚拟地址)
2024-09-02 11:21:26.007 - 22 03 00 00 00 03 02 98 (查询室外温湿度气压)
2024-09-02 11:21:26.023 - 22 03 06 01 61 02 61 27 0A DB CC (阳台温湿度返回)
2024-09-02 11:21:26.527 - 1A 22 00 00 00 00 00 01 00 00 01 00 00 01 01 61 01 02 61 01 27 0A 01 00 00 01 0F (室外温湿气压虚拟地址)
2024-09-02 11:21:26.748 - 1A 15 00 00 00 86 86 86 0F (调用查询模块-客厅测温转换, 客厅温湿度虚拟地址)
2024-09-02 11:21:26.970 - 15 03 00 00 00 02 C7 1F (查询客厅温湿度)
2024-09-02 11:21:26.987 - 15 03 04 01 E0 00 F9 6E 7A (客厅温湿度返回)
2024-09-02 11:21:27.990 - 1A 15 00 00 00 00 00 01 00 00 01 00 00 01 00 F9 01 01 E0 01 00 00 01 00 00 01 0F (客厅温湿度虚拟地址)
2024-09-02 11:49:10.703 - 19 08 24 03 CC 01 CC 00 01 (调用茶吧感应灯开的按键)
2024-09-02 11:49:10.788 - 1A AA AA AA 88 FF B0 01 FF B0 01 0F (调光器地址-茶吧灯带, 茶吧灯带明亮)
2024-09-02 11:49:41.768 - 19 08 24 03 CC 01 CD 00 01 (调用茶吧感应灯关的按键)
2024-09-02 11:49:41.801 - 1A AA AA AA 88 FF 00 01 FF 00 01 0F (调光器地址-茶吧灯带, 茶吧灯带关闭)
2024-09-02 11:51:04.934 - 19 08 24 03 CC 01 CC 00 01 (调用茶吧感应灯开的按键)
2024-09-02 11:51:04.958 - 1A AA AA AA 88 FF B0 01 FF B0 01 0F (调光器地址-茶吧灯带, 茶吧灯带明亮)
2024-09-02 11:52:15.062 - 19 08 24 03 CC 01 CD 00 01 (调用茶吧感应灯关的按键)
2024-09-02 11:52:15.094 - 1A AA AA AA 88 FF 00 01 FF 00 01 0F (调光器地址-茶吧灯带, 茶吧灯带关闭)
2024-09-02 11:53:24.197 - 19 08 24 03 CC 01 CC 00 01 (调用茶吧感应灯开的按键)
2024-09-02 11:53:24.228 - 1A AA AA AA 88 FF B0 01 FF B0 01 0F (调光器地址-茶吧灯带, 茶吧灯带明亮)
2024-09-02 11:54:20.820 - 19 08 24 03 CC 01 CD 00 01 (调用茶吧感应灯关的按键)
2024-09-02 11:54:20.841 - 1A AA AA AA 88 FF 00 01 FF 00 01 0F (调光器地址-茶吧灯带, 茶吧灯带关闭)
2024-09-02 11:58:07.763 - 19 08 24 03 CC 01 CC 00 01 (调用茶吧感应灯开的按键)
2024-09-02 11:58:07.797 - 1A AA AA AA 88 FF B0 01 FF B0 01 0F (调光器地址-茶吧灯带, 茶吧灯带明亮)
2024-09-02 11:58:37.821 - 19 08 24 03 CC 01 CD 00 01 (调用茶吧感应灯关的按键)
2024-09-02 11:58:37.853 - 1A AA AA AA 88 FF 00 01 FF 00 01 0F (调光器地址-茶吧灯带, 茶吧灯带关闭)
2024-09-02 12:07:12.344 - 19 08 24 03 CC 01 CC 00 01 (调用茶吧感应灯开的按键)
2024-09-02 12:07:12.368 - 1A AA AA AA 88 FF B0 01 FF B0 01 0F (调光器地址-茶吧灯带, 茶吧灯带明亮)
2024-09-02 12:09:15.585 - 19 08 24 03 CC 01 CD 00 01 (调用茶吧感应灯关的按键)
2024-09-02 12:09:15.617 - 1A AA AA AA 88 FF 00 01 FF 00 01 0F (调光器地址-茶吧灯带, 茶吧灯带关闭)
2024-09-02 12:48:53.033 - 1A FF FF FF 04 (继电器地址-东阳衣架)
2024-09-02 13:00:44.356 - FF
2024-09-02 13:25:20.602 - 19 08 24 03 CC 01 CC 00 01 (调用茶吧感应灯开的按键)
2024-09-02 13:25:20.644 - 1A AA AA AA 88 FF B0 01 FF B0 01 0F (调光器地址-茶吧灯带, 茶吧灯带明亮)
2024-09-02 13:25:28.109 - 19 08 24 03 CC 01 CD 00 01 (调用茶吧感应灯关的按键)
2024-09-02 13:25:28.141 - 1A AA AA AA 88 FF 00 01 FF 00 01 0F (调光器地址-茶吧灯带, 茶吧灯带关闭)
2024-09-02 13:27:01.794 - 19 08 24 03 CC 01 CC 00 01 (调用茶吧感应灯开的按键)
2024-09-02 13:27:01.828 - 1A AA AA AA 88 FF B0 01 FF B0 01 0F (调光器地址-茶吧灯带, 茶吧灯带明亮)
2024-09-02 13:27:09.312 - 19 08 24 03 CC 01 CD 00 01 (调用茶吧感应灯关的按键)
2024-09-02 13:27:09.346 - 1A AA AA AA 88 FF 00 01 FF 00 01 0F (调光器地址-茶吧灯带, 茶吧灯带关闭)
2024-09-02 13:31:12.289 - 19 08 24 03 CC 01 CC 00 01 (调用茶吧感应灯开的按键)
2024-09-02 13:31:12.323 - 1A AA AA AA 88 FF B0 01 FF B0 01 0F (调光器地址-茶吧灯带, 茶吧灯带明亮)
2024-09-02 13:31:26.726 - 19 08 24 03 CC 00 D3 00 01 (调用厨房感应灯开的按键)
2024-09-02 13:31:26.760 - 55 0A 32 00 00 00 01 92 55 0A 32 00 00 00 02 93 (厨房顶灯一开, 厨房顶灯二开)
2024-09-02 13:32:07.395 - 19 08 24 03 CC 01 CD 00 01 (调用茶吧感应灯关的按键)
2024-09-02 13:32:07.427 - 1A AA AA AA 88 FF 00 01 FF 00 01 0F (调光器地址-茶吧灯带, 茶吧灯带关闭)
2024-09-02 13:32:39.467 - 19 08 24 03 CC 01 CC 00 01 (调用茶吧感应灯开的按键)
2024-09-02 13:32:39.486 - 1A AA AA AA 88 FF B0 01 FF B0 01 0F (调光器地址-茶吧灯带, 茶吧灯带明亮)
2024-09-02 13:33:15.538 - 19 08 24 03 CC 01 CD 00 01 (调用茶吧感应灯关的按键)
2024-09-02 13:33:15.564 - 1A AA AA AA 88 FF 00 01 FF 00 01 0F (调光器地址-茶吧灯带, 茶吧灯带关闭)
2024-09-02 13:33:31.475 - 19 08 24 03 CC 00 D4 00 01 (调用厨房感应灯关的按键)
2024-09-02 13:33:31.509 - 55 0A 31 00 00 00 01 91 55 0A 31 00 00 00 02 92 (厨房顶灯一关, 厨房顶灯二关)
2024-09-02 13:33:42.583 - 19 08 24 03 CC 01 CC 00 01 (调用茶吧感应灯开的按键)
2024-09-02 13:33:42.617 - 1A AA AA AA 88 FF B0 01 FF B0 01 0F (调光器地址-茶吧灯带, 茶吧灯带明亮)
2024-09-02 13:33:48.009 - 19 08 24 03 CC 00 D3 00 01 (调用厨房感应灯开的按键)
2024-09-02 13:33:48.043 - 55 0A 32 00 00 00 01 92 55 0A 32 00 00 00 02 93 (厨房顶灯一开, 厨房顶灯二开)
2024-09-02 13:34:30.174 - 19 08 24 03 CC 01 CD 00 01 (调用茶吧感应灯关的按键)
2024-09-02 13:34:30.205 - 1A AA AA AA 88 FF 00 01 FF 00 01 0F (调光器地址-茶吧灯带, 茶吧灯带关闭)
2024-09-02 13:34:55.643 - 19 08 24 03 CC 00 D4 00 01 (调用厨房感应灯关的按键)
2024-09-02 13:34:55.681 - 55 0A 31 00 00 00 01 91 55 0A 31 00 00 00 02 92 (厨房顶灯一关, 厨房顶灯二关)
2024-09-02 13:37:53.215 - 19 08 24 03 DD 00 00 00 01 (调用情景-离家（末）)
2024-09-02 13:37:53.767 - EE 00 00 B1 00 00 00 FF FC FF FF (情景执行提示)
2024-09-02 13:37:54.357 - 09 06 00 0F 02 02 38 20 (提示音咚)
2024-09-02 13:37:54.900 - 50 F7 01 (全屋影音全关)
2024-09-02 13:37:55.459 - 01 06 07 D0 FF 60 C8 9F (客厅空调关)
2024-09-02 13:37:55.476 - 01 06 07 D0 FF 60 C8 9F (客厅空调关)
2024-09-02 13:37:56.055 - 01 06 07 D0 FF 60 C8 9F (客厅空调关)
2024-09-02 13:37:56.081 - 01 06 07 D0 FF 60 C8 9F (客厅空调关)
2024-09-02 13:37:56.654 - 01 06 07 D3 FF 60 38 9F (餐厅空调关)
2024-09-02 13:37:56.687 - 01 06 07 D3 FF 60 38 9F (餐厅空调关)
2024-09-02 13:37:57.246 - 01 06 07 D3 FF 60 38 9F (餐厅空调关)
2024-09-02 13:37:57.280 - 01 06 07 D3 FF 60 38 9F (餐厅空调关)
2024-09-02 13:37:57.851 - 01 06 07 D6 FF 60 28 9E (主卧空调关)
2024-09-02 13:37:57.882 - 01 06 07 D6 FF 60 28 9E (主卧空调关)
2024-09-02 13:37:58.440 - 01 06 07 D6 FF 60 28 9E (主卧空调关)
2024-09-02 13:37:58.472 - 01 06 07 D6 FF 60 28 9E (主卧空调关)
2024-09-02 13:37:59.048 - 01 06 07 D9 FF 60 18 9D (次卧空调关)
2024-09-02 13:37:59.082 - 01 06 07 D9 FF 60 18 9D (次卧空调关)
2024-09-02 13:37:59.643 - 01 06 07 D9 FF 60 18 9D (次卧空调关)
2024-09-02 13:37:59.677 - 01 06 07 D9 FF 60 18 9D (次卧空调关)
2024-09-02 13:38:00.242 - 01 06 07 DC FF 60 08 9C (书房空调关)
2024-09-02 13:38:00.273 - 01 06 07 DC FF 60 08 9C (书房空调关)
2024-09-02 13:38:00.835 - 01 06 07 DC FF 60 08 9C (书房空调关)
2024-09-02 13:38:00.869 - 01 06 07 DC FF 60 08 9C (书房空调关)
2024-09-02 13:38:01.436 - 09 06 00 0F 02 02 38 20 (提示音咚)
2024-09-02 13:38:01.979 - 1A FF FF FF 56 00 00 00 0F (人体感应地址-内卫, 关闭内卫感应)
2024-09-02 13:38:01.995 - BC BC
2024-09-02 13:38:02.586 - 1A FF FF FF 55 00 00 00 0F (人体感应地址-外卫, 关闭外卫感应)
2024-09-02 13:38:02.601 - BC BC
2024-09-02 13:38:03.182 - 1A FF FF FF 57 00 00 00 0F (人体感应地址-厨房, 关闭厨房感应)
2024-09-02 13:38:03.734 - 1A FF FF FF 58 00 00 00 0F (人体感应地址-茶吧, 关闭茶吧感应)
2024-09-02 13:38:03.782 - BC BC
2024-09-02 13:38:04.324 - 1A 20 07 00 93 00 01 00 0F (自保持开关地址-设备区顶, 设备区顶灯关)
2024-09-02 13:38:05.378 - 1A 20 07 01 40 00 01 00 0F (自保持开关地址-内卫顶灯, 内卫顶灯关)
2024-09-02 13:38:06.415 - 1A 20 07 01 55 00 01 00 0F (自保持开关地址-主卧顶灯, 主卧顶灯只关)
2024-09-02 13:38:07.469 - 1A 20 07 00 42 00 01 00 0F (自保持开关地址-外卫顶灯, 外卫顶灯关)
2024-09-02 13:38:08.507 - 55 0D 31 00 00 00 01 94 (书房顶灯只关)
2024-09-02 13:38:09.562 - 55 0A 31 00 00 00 01 91 (厨房顶灯一关)
2024-09-02 13:38:10.598 - 55 0A 31 00 00 00 02 92 (厨房顶灯二关)
2024-09-02 13:38:11.653 - 55 0B 31 00 00 00 01 92 (厨房风扇只关)
2024-09-02 13:38:12.701 - 55 0C 31 00 00 00 01 93 (餐厅顶灯关)
2024-09-02 13:38:13.744 - 1A 20 07 01 30 00 01 00 0F (自保持开关地址-西阳顶灯, 西阳顶灯关)
2024-09-02 13:38:14.798 - 1A 18 05 21 89 00 01 00 0F (自保持开关地址-客厅顶灯, 客厅顶灯一关)
2024-09-02 13:38:15.844 - 1A 18 05 01 94 00 01 00 0F (自保持开关地址-客厅顶灯, 客厅顶灯二关)
2024-09-02 13:38:16.888 - 1A 20 07 00 70 00 01 00 0F (自保持开关地址-次卧顶灯, 次卧顶灯只关)
2024-09-02 13:38:17.936 - 1A 18 05 10 31 00 01 00 0F (自保持开关地址-门厅顶灯, 门厅顶灯关)
2024-09-02 13:38:18.980 - 1A FF FF FF 04 00 03 02 (继电器地址-东阳衣架, 东阳衣架照明关)
2024-09-02 13:38:19.530 - 09 06 00 0F 02 02 38 20 (提示音咚)
2024-09-02 13:38:20.073 - A5 00 A6 FE 01 AA (餐厅窗帘开)
2024-09-02 13:38:20.615 - FF FF FF FF 0A 00 01 00 (继电器地址-东阳窗帘, 东阳窗帘开)
2024-09-02 13:38:21.175 - 1A BE B0 DC 04 00 01 00 (继电器地址-西阳窗帘, 西阳窗帘开)
2024-09-02 13:38:21.770 - FF FF FF FF 0E 00 01 00 (继电器地址-西阳小窗帘, 西阳小窗帘开)
2024-09-02 13:38:22.321 - 1A 22 33 62 0F 00 00 01 0F (正反转地址-内卫卷帘, 内卫卷帘升)
2024-09-02 13:38:22.863 - A5 00 52 FE 01 AA (主卧窗帘开)
2024-09-02 13:38:23.405 - A5 00 53 FF 00 AA (主卧纱帘开)
2024-09-02 13:38:23.964 - A5 00 76 FE 01 AA (次卧窗帘开)
2024-09-02 13:38:24.509 - A5 00 21 FE 01 AA (次卧纱帘开)
2024-09-02 13:38:25.065 - A5 00 D2 FE 01 AA 22 0D (书房窗帘开)
2024-09-02 13:38:25.607 - 1A BE B0 DC 09 00 01 00 (继电器地址-客厅窗帘, 客厅窗帘开)
2024-09-02 13:38:26.159 - 1A BE B0 DC 0A 00 02 00 (继电器地址-客厅纱帘, 客厅纱帘开)
2024-09-02 13:38:26.703 - 09 06 00 0F 02 02 38 20 (提示音咚)
2024-09-02 13:38:27.745 - 1A EC A0 DC 02 00 00 00 0F (自保持开关地址-天花12V供电, 天花12V 供电关)
2024-09-02 13:38:28.302 - 1A EC A0 DC 02 00 00 00 0F (自保持开关地址-天花12V供电, 天花12V 供电关)
2024-09-02 13:38:28.846 - 1A EC A0 DC 01 00 00 00 0F (自保持开关地址-电视、设备12V供电, 12V 电视供电关)
2024-09-02 13:38:29.390 - 1A EC A0 DC 01 00 00 00 0F (自保持开关地址-电视、设备12V供电, 12V 电视供电关)
2024-09-02 13:38:29.946 - 1A EC A0 DC 04 00 01 00 0F (自保持开关地址-次卧西阳内外卫供电, 内卫外卫关)
2024-09-02 13:38:30.489 - 1A EC A0 DC 04 00 01 00 0F (自保持开关地址-次卧西阳内外卫供电, 内卫外卫关)
2024-09-02 13:38:48.581 - 09 06 00 0F 02 02 38 20 (提示音咚)
2024-09-02 13:38:49.171 - 1A 27 89 12 AA 00 00 00 0F (状态寄存器地址, 无人状态)
2024-09-02 13:38:49.732 - 1A 27 89 12 AA 00 00 00 0F (状态寄存器地址, 无人状态)
2024-09-02 13:38:50.271 - A1 11 11 11 4D (天花供电关闭确认)
2024-09-02 13:38:50.497 - 1A EC A0 DC 02 86 86 86 0F (查询天花供电状态, 自保持开关地址-天花12V供电)
2024-09-02 13:38:50.925 - 1A EC A0 DC 02 00 01 0F (自保持开关地址-天花12V供电)
2024-09-02 13:38:53.304 - A1 11 11 11 4E (卫生供电关闭确认)
2024-09-02 13:38:53.540 - 1A EC A0 DC 04 86 86 86 0F (查询卫生间供电状态, 自保持开关地址-次卧西阳内外卫供电)
2024-09-02 13:38:53.971 - 1A EC A0 DC 04 01 00 0F (自保持开关地址-次卧西阳内外卫供电)
2024-09-02 13:38:56.347 - A1 11 11 11 4F (电视供电关闭确认)
2024-09-02 13:38:56.571 - 1A EC A0 DC 01 86 86 86 0F (查询电视供电状态, 自保持开关地址-电视、设备12V供电)
2024-09-02 13:38:57.010 - 1A EC A0 DC 01 00 01 0F (自保持开关地址-电视、设备12V供电)
2024-09-02 13:38:59.395 - 09 06 00 0F 02 02 38 20 (提示音咚)
2024-09-02 13:38:59.937 - 09 06 00 0F 02 02 38 20 (提示音咚)
2024-09-02 13:39:00.497 - EE 00 00 B1 00 00 02 FF FC FF FF (情景完成返回主页)
2024-09-02 13:39:01.586 - BA BA EE EE BA BA (离家设置信科变量)
2024-09-02 13:39:02.633 - A1 11 11 11 46 (天热离家遮阳)
2024-09-02 13:39:02.856 - 1A 27 89 12 AA 86 86 86 0F (查询寄存器状态, 状态寄存器地址)
2024-09-02 13:39:03.239 - 1A 27 89 12 AA 00 00 00 00 00 00 00 00 00 00 00 01 00 00 00 00 0F (状态寄存器地址)
2024-09-02 13:39:03.860 - 19 08 24 03 DD 00 05 00 01 (调用情景-天热遮阳关帘)
2024-09-02 13:39:04.387 - EE 00 00 B1 00 00 00 FF FC FF FF (情景执行提示)
2024-09-02 13:39:04.977 - 09 06 00 0F 02 01 78 21 (提示音叮)
2024-09-02 13:39:05.521 - A5 00 A2 FF 00 AA (餐厅纱帘关)
2024-09-02 13:39:06.572 - A5 00 A6 FF 00 AA (餐厅窗帘关)
2024-09-02 13:39:06.620 - 55 00 A6 01 00 0E 01 75 AA 55 00 A6 01 00 0E 01 75 AA (餐厅窗帘电机状态返回)
2024-09-02 13:39:07.658 - A5 00 53 FE 01 AA (主卧纱帘关)
2024-09-02 13:39:07.724 - 55 00 53 02 02 22 02 30 AA 55 00 53 02 02 22 02 FF (主卧纱帘电机状态返回)
2024-09-02 13:39:08.761 - A5 00 52 FF 00 AA (主卧窗帘关)
2024-09-02 13:39:09.812 - A5 00 21 FF 00 AA (次卧纱帘关)
2024-09-02 13:39:09.860 - 55 00 21 01 00 0D 01 34 AA 55 00 21 01 00 0D 01 34 AA (次卧纱帘电机状态返回)
2024-09-02 13:39:10.904 - A5 00 76 FF 00 AA (次卧窗帘关)
2024-09-02 13:39:10.955 - 55 00 76 01 00 0E 01 1B AA 55 00 76 01 00 0E 01 1B AA (次卧窗帘电机状态返回)
2024-09-02 13:39:11.997 - A5 00 B7 FF 00 AA 22 0D (书房纱帘关)
2024-09-02 13:39:13.051 - A5 00 D2 FF 00 AA 22 0C (书房窗帘关)
2024-09-02 13:39:13.099 - 55 00 D2 01 00 0E 00 F2 AA 55 00 D2 01 00 0E 00 F2 FE (书房窗帘电机状态返回)
2024-09-02 13:39:14.647 - 1A 22 33 62 5E 00 02 01 0F (正反转地址-厨房卷帘三, 厨房卷帘一降)
2024-09-02 13:39:15.250 - 55 00 A6 00 01 67 01 75 AA 55 00 A6 00 01 67 01 75 AA (餐厅窗帘电机状态返回)
2024-09-02 13:39:15.697 - 1A 22 33 62 56 00 02 01 0F (正反转地址-厨房卷帘二, 厨房卷帘二降)
2024-09-02 13:39:16.738 - 1A 22 33 62 4F 00 00 01 0F (正反转地址-厨房卷帘一, 厨房卷帘三降)
2024-09-02 13:39:16.973 - 55 00 21 00 01 27 01 34 AA 55 00 21 00 01 27 01 34 AA (次卧纱帘电机状态返回)
2024-09-02 13:39:17.786 - 55 00 76 00 01 0E 01 1B AA 55 00 76 00 01 0E 01 1B AA (次卧窗帘电机状态返回)
2024-09-02 13:39:17.802 - 1A BE B0 DC 04 00 02 00 (继电器地址-西阳窗帘, 西阳窗帘关)
2024-09-02 13:39:18.881 - FF FF FF FF 0E 00 02 00 (继电器地址-西阳小窗帘, 西阳小窗帘关)
2024-09-02 13:39:19.463 - 55 00 53 00 00 0C 02 30 AA 55 00 53 00 00 0C 02 30 AA (主卧纱帘电机状态返回)
2024-09-02 13:39:19.925 - 1A BE B0 DC 03 00 03 00 (继电器地址-西阳天幕, 西阳天幕关)
2024-09-02 13:39:20.394 - 55 20 20 00 02 09 02 16 AA 55 20 20 00 02 09 02 16 AA (主卧窗帘电机状态返回)
2024-09-02 13:39:20.888 - 55 00 D2 00 00 E5 00 F2 AA 55 00 D2 00 00 E5 00 F2 AA (书房窗帘电机状态返回)
2024-09-02 13:39:20.979 - 1A BE B0 DC 03 00 03 00 (继电器地址-西阳天幕, 西阳天幕关)
2024-09-02 13:39:22.015 - 09 06 00 0F 02 02 38 20 (提示音咚)
2024-09-02 13:39:22.574 - EE 00 00 B1 00 00 02 FF FC FF FF (情景完成返回主页)
2024-09-02 14:03:13.036 - FF
2024-09-02 14:22:31.798 - FF FF FF FF 0E FC (继电器地址-西阳小窗帘)
2024-09-02 14:22:31.927 - FF
2024-09-02 14:23:37.386 - 1A BE B0 DC 02 (正反转地址-外卫卷帘)
2024-09-02 14:24:43.113 - 1A BE B0 DC 01 (继电器地址-回水泵点动)
2024-09-02 14:24:43.241 - FE
2024-09-02 14:25:38.287 - FF FF FF FF 0A (继电器地址-东阳窗帘)
2024-09-02 14:25:38.426 - FE
2024-09-02 14:31:29.283 - 1A BE B0 DC 04 (继电器地址-西阳窗帘)
2024-09-02 14:32:37.079 - 1A BE B0 DC 09 FC (继电器地址-客厅窗帘)
2024-09-02 14:32:37.216 - FF
2024-09-02 14:32:40.996 - 1A BE B0 DC 0A (继电器地址-客厅纱帘)
2024-09-02 14:32:41.140 - FF
2024-09-02 14:32:43.628 - 1A BE B0 DC 03 (继电器地址-西阳天幕)
2024-09-02 14:32:43.763 - FE
2024-09-02 16:10:07.640 - 1A FF FF FF 04 (继电器地址-东阳衣架)
2024-09-02 16:10:07.780 - 03
2024-09-02 17:07:23.691 - 1B 03 00 00 00 02 C6 31 (查询室外光线)
2024-09-02 17:07:23.710 - 1B 03 04 00 00 00 B5 80 45 (室外光线返回)
2024-09-02 17:07:24.026 - 1A EC A0 DC 02 00 00 01 0F (自保持开关地址-天花12V供电, 天花12V 供电开)
2024-09-02 17:07:24.329 - 19 08 24 03 DD 00 0C 00 01 (调用情景-信科调用进门亮)
2024-09-02 17:07:24.544 - 1A AA AA AA 88 (调光器地址-茶吧灯带)
2024-09-02 17:07:24.850 - EE 00 00 B1 00 00 00 FF FC FF FF (情景执行提示)
2024-09-02 17:07:25.445 - 09 06 00 0F 02 01 78 21 (提示音叮)
2024-09-02 17:07:25.989 - 1A EC A0 DC 02 00 00 01 0F (自保持开关地址-天花12V供电, 天花12V 供电开)
2024-09-02 17:07:26.533 - 1A EC A0 DC 04 00 01 01 0F (自保持开关地址-次卧西阳内外卫供电, 内卫外卫开)
2024-09-02 17:07:27.088 - 1A EC A0 DC 04 00 01 01 0F (自保持开关地址-次卧西阳内外卫供电, 内卫外卫开)
2024-09-02 17:07:27.638 - 1A EC A0 DC 01 00 00 01 0F (自保持开关地址-电视、设备12V供电, 12V 电视供电开)
2024-09-02 17:07:32.723 - 1A 27 89 12 AA 00 00 01 0F (状态寄存器地址, 有人状态)
2024-09-02 17:07:33.276 - 1A 27 89 12 AA 00 00 01 0F (状态寄存器地址, 有人状态)
2024-09-02 17:07:33.829 - 1A 0C 02 08 01 FF 45 01 FF 45 01 FF 00 00 0F (调光器地址-内卫射灯, 内卫射灯微光)
2024-09-02 17:07:34.424 - 1A 0D 01 07 01 FF 45 01 FF 45 01 FF 00 00 0F (调光器地址-外卫射灯, 外卫感应灯开)
2024-09-02 17:07:35.019 - 1A FF FF FF 57 00 00 01 0F (人体感应地址-厨房, 打开厨房感应)
2024-09-02 17:07:35.563 - 1A FF FF FF 58 00 00 01 0F (人体感应地址-茶吧, 打开茶吧感应)
2024-09-02 17:07:35.620 - BC BC
2024-09-02 17:07:36.162 - 1A BE B0 DC 01 00 01 00 (继电器地址-回水泵点动, 回水泵点动)
2024-09-02 17:07:36.705 - 1A BE B0 DC 01 00 01 00 (继电器地址-回水泵点动, 回水泵点动)
2024-09-02 17:07:37.310 - 09 06 00 0F 02 01 78 21 (提示音叮)
2024-09-02 17:07:37.859 - 09 06 00 0F 02 01 78 21 (提示音叮)
2024-09-02 17:07:38.413 - EE 00 00 B1 00 00 02 FF FC FF FF (情景完成返回主页)
2024-09-02 17:07:39.003 - A1 11 11 11 50 (天花供电打开确认)
2024-09-02 17:07:39.227 - 1A EC A0 DC 02 86 86 86 0F (查询天花供电状态, 自保持开关地址-天花12V供电)
2024-09-02 17:07:39.663 - 1A EC A0 DC 02 01 01 0F (自保持开关地址-天花12V供电)
2024-09-02 17:07:41.539 - A1 11 11 11 51 (卫生供电打开确认)
2024-09-02 17:07:41.762 - 1A EC A0 DC 04 86 86 86 0F (查询卫生间供电状态, 自保持开关地址-次卧西阳内外卫供电)
2024-09-02 17:07:42.197 - 1A EC A0 DC 04 01 01 0F (自保持开关地址-次卧西阳内外卫供电)
2024-09-02 17:07:44.106 - A1 11 11 11 52 (电视供电打开确认)
2024-09-02 17:07:44.346 - 1A EC A0 DC 01 86 86 86 0F (查询电视供电状态, 自保持开关地址-电视、设备12V供电)
2024-09-02 17:07:44.782 - 1A EC A0 DC 01 01 01 0F (自保持开关地址-电视、设备12V供电)
2024-09-02 17:07:45.639 - 19 08 24 03 CC 01 CC 00 01 (调用茶吧感应灯开的按键)
2024-09-02 17:07:45.688 - 1A AA AA AA 88 FF B0 01 FF B0 01 0F (调光器地址-茶吧灯带, 茶吧灯带明亮)
2024-09-02 17:07:48.150 - 19 08 24 03 CC 00 D3 00 01 (调用厨房感应灯开的按键)
2024-09-02 17:07:48.184 - 55 0A 32 00 00 00 01 92 55 0A 32 00 00 00 02 93 (厨房顶灯一开, 厨房顶灯二开)
2024-09-02 17:07:49.171 - A1 11 11 11 47 (天热回家开帘)
2024-09-02 17:07:49.389 - 1A 27 89 12 AA 86 86 86 0F (查询寄存器状态, 状态寄存器地址)
2024-09-02 17:07:49.772 - 1A 27 89 12 AA 01 00 00 00 00 00 00 00 00 00 00 01 00 00 00 00 0F (状态寄存器地址)
2024-09-02 17:07:50.395 - 19 08 24 03 DD 00 06 00 01 (调用情景-天热遮阳开帘)
2024-09-02 17:07:50.920 - EE 00 00 B1 00 00 00 FF FC FF FF (情景执行提示)
2024-09-02 17:07:51.511 - 09 06 00 0F 02 01 78 21 (提示音叮)
2024-09-02 17:07:52.053 - A5 00 A6 FE 01 AA (餐厅窗帘开)
2024-09-02 17:07:52.117 - 55 00 A6 02 01 67 01 75 AA 55 00 A6 02 01 67 01 75 (餐厅窗帘电机状态返回)
2024-09-02 17:07:53.154 - A5 00 52 FE 01 AA (主卧窗帘开)
2024-09-02 17:07:54.192 - A5 00 53 FF 00 AA (主卧纱帘开)
2024-09-02 17:07:54.257 - 55 00 53 01 00 0C 02 30 AA 55 00 53 01 00 0C C2 (主卧纱帘电机状态返回)
2024-09-02 17:07:55.295 - A5 00 76 FE 01 AA (次卧窗帘开)
2024-09-02 17:07:55.346 - 55 00 76 02 01 0E 01 1B AA 55 00 76 02 01 0E 01 1B AA (次卧窗帘电机状态返回)
2024-09-02 17:07:56.392 - A5 00 21 FE 01 AA (次卧纱帘开)
2024-09-02 17:07:56.440 - 55 00 21 02 01 27 01 34 AA 55 00 21 02 01 27 01 34 AA (次卧纱帘电机状态返回)
2024-09-02 17:07:57.493 - 1A BE B0 DC 04 00 01 00 (继电器地址-西阳窗帘, 西阳窗帘开)
2024-09-02 17:07:58.528 - FF FF FF FF 0E 00 01 00 (继电器地址-西阳小窗帘, 西阳小窗帘开)
2024-09-02 17:07:59.582 - A5 00 D2 FE 01 AA 22 0D (书房窗帘开)
2024-09-02 17:07:59.633 - 55 00 D2 02 00 E5 00 F2 AA 55 00 D2 02 00 E5 FE (书房窗帘电机状态返回)
2024-09-02 17:08:00.682 - 09 06 00 0F 02 02 38 20 (提示音咚)
2024-09-02 17:08:00.891 - 55 00 A6 00 00 0E 01 75 AA 55 00 A6 00 00 0E 01 75 AA (餐厅窗帘电机状态返回)
2024-09-02 17:08:01.231 - EE 00 00 B1 00 00 02 FF FC FF FF (情景完成返回主页)
2024-09-02 17:08:02.197 - 55 00 76 00 00 0E 01 1B AA 55 00 76 00 00 0E 01 1B AA (次卧窗帘电机状态返回)
2024-09-02 17:08:03.732 - 55 00 21 00 00 0D 01 34 AA 55 00 21 00 00 0D 01 34 AA (次卧纱帘电机状态返回)
2024-09-02 17:08:05.370 - 55 00 53 00 02 22 02 30 AA 55 00 53 00 02 22 02 30 AA (主卧纱帘电机状态返回)
2024-09-02 17:08:05.434 - 55 20 20 00 00 0F 02 16 AA 55 20 20 00 00 0F 02 16 AA (主卧窗帘电机状态返回)
2024-09-02 17:08:06.184 - 19 08 24 03 CC 01 CD 00 01 (调用茶吧感应灯关的按键)
2024-09-02 17:08:06.232 - 1A AA AA AA 88 FF 00 01 FF 00 01 0F (调光器地址-茶吧灯带, 茶吧灯带关闭)
2024-09-02 17:08:07.048 - 55 00 D2 00 00 0E 00 F2 AA 55 00 D2 00 00 0E 00 F2 AA (书房窗帘电机状态返回)
2024-09-02 17:08:08.689 - 19 08 24 03 CC 01 CC 00 01 (调用茶吧感应灯开的按键)
2024-09-02 17:08:08.767 - 1A AA AA AA 88 FF B0 01 FF B0 01 0F (调光器地址-茶吧灯带, 茶吧灯带明亮)
2024-09-02 17:08:20.716 - 19 08 24 03 CC 01 CD 00 01 (调用茶吧感应灯关的按键)
2024-09-02 17:08:20.737 - 1A AA AA AA 88 FF 00 01 FF 00 01 0F (调光器地址-茶吧灯带, 茶吧灯带关闭)
2024-09-02 17:09:15.822 - 19 08 24 03 CC 01 CC 00 01 (调用茶吧感应灯开的按键)
2024-09-02 17:09:15.856 - 1A AA AA AA 88 FF B0 01 FF B0 01 0F (调光器地址-茶吧灯带, 茶吧灯带明亮)
2024-09-02 17:09:23.836 - 19 08 24 03 CC 00 D4 00 01 (调用厨房感应灯关的按键)
2024-09-02 17:09:23.868 - 55 0A 31 00 00 00 01 91 55 0A 31 00 00 00 02 92 (厨房顶灯一关, 厨房顶灯二关)
2024-09-02 17:09:32.353 - 19 08 24 03 CC 01 CD 00 01 (调用茶吧感应灯关的按键)
2024-09-02 17:09:32.387 - 1A AA AA AA 88 FF 00 01 FF 00 01 0F (调光器地址-茶吧灯带, 茶吧灯带关闭)
2024-09-02 17:09:44.873 - 19 08 24 03 CC 01 CC 00 01 (调用茶吧感应灯开的按键)
2024-09-02 17:09:44.905 - 1A AA AA AA 88 FF B0 01 FF B0 01 0F (调光器地址-茶吧灯带, 茶吧灯带明亮)
2024-09-02 17:09:49.599 - 19 08 24 03 DD 00 65 00 01 (调用情景-厨房照明全开)
2024-09-02 17:09:50.110 - EE 00 00 B1 00 00 00 FF FC FF FF (情景执行提示)
2024-09-02 17:09:50.714 - 09 06 00 0F 02 01 78 21 (提示音叮)
2024-09-02 17:09:51.760 - 1A FF FF FF 57 00 00 00 0F (人体感应地址-厨房, 关闭厨房感应)
2024-09-02 17:09:52.804 - 55 0A 32 00 00 00 01 92 (厨房顶灯一开)
2024-09-02 17:09:53.851 - 55 0A 32 00 00 00 02 93 (厨房顶灯二开)
2024-09-02 17:09:54.893 - 09 06 00 0F 02 02 38 20 (提示音咚)
2024-09-02 17:09:55.452 - EE 00 00 B1 00 00 02 FF FC FF FF (情景完成返回主页)
2024-09-02 17:10:05.418 - 19 08 24 03 CC 01 CD 00 01 (调用茶吧感应灯关的按键)
2024-09-02 17:10:05.452 - 1A AA AA AA 88 FF 00 01 FF 00 01 0F (调光器地址-茶吧灯带, 茶吧灯带关闭)
2024-09-02 17:10:18.449 - 19 08 24 03 CC 01 CC 00 01 (调用茶吧感应灯开的按键)
2024-09-02 17:10:18.479 - 1A AA AA AA 88 FF B0 01 FF B0 01 0F (调光器地址-茶吧灯带, 茶吧灯带明亮)
2024-09-02 17:10:31.471 - 19 08 24 03 CC 01 CD 00 01 (调用茶吧感应灯关的按键)
2024-09-02 17:10:31.505 - 1A AA AA AA 88 FF 00 01 FF 00 01 0F (调光器地址-茶吧灯带, 茶吧灯带关闭)
2024-09-02 17:10:32.220 - 19 08 24 03 DD 00 02 00 01 (调用情景-进门（暗）)
2024-09-02 17:10:32.729 - 1A FF 01 FF FF FF 45 01 FF 45 01 FF 00 00 0F (调光器地址-公共区域统配地址, 公共区域微光)
2024-09-02 17:10:33.317 - 1A EC A0 DC 02 00 00 01 0F (自保持开关地址-天花12V供电, 天花12V 供电开)
2024-09-02 17:10:33.869 - 1A FF 01 FF FF FF 45 01 FF 45 01 FF 00 00 0F (调光器地址-公共区域统配地址, 公共区域微光)
2024-09-02 17:10:34.961 - EE 00 00 B1 00 00 00 FF FC FF FF (情景执行提示)
2024-09-02 17:10:35.553 - 1A EC A0 DC 01 00 00 01 0F (自保持开关地址-电视、设备12V供电, 12V 电视供电开)
2024-09-02 17:10:36.158 - 1A EC A0 DC 01 00 00 01 0F (自保持开关地址-电视、设备12V供电, 12V 电视供电开)
2024-09-02 17:10:36.732 - 1A EC A0 DC 04 00 01 01 0F (自保持开关地址-次卧西阳内外卫供电, 内卫外卫开)
2024-09-02 17:10:37.307 - 1A EC A0 DC 04 00 01 01 0F (自保持开关地址-次卧西阳内外卫供电, 内卫外卫开)
2024-09-02 17:10:42.346 - 1A 27 89 12 AA 00 00 01 0F (状态寄存器地址, 有人状态)
2024-09-02 17:10:42.888 - 1A 27 89 12 AA 00 00 01 0F (状态寄存器地址, 有人状态)
2024-09-02 17:10:43.431 - 1A FF FF FF 56 00 00 01 0F (人体感应地址-内卫, 打开内卫感应)
2024-09-02 17:10:43.549 - BC BC
2024-09-02 17:10:43.991 - 1A FF FF FF 55 00 00 01 0F (人体感应地址-外卫, 打开外卫感应)
2024-09-02 17:10:44.535 - 1A FF FF FF 57 00 00 01 0F (人体感应地址-厨房, 打开厨房感应)
2024-09-02 17:10:44.637 - BC BC
2024-09-02 17:10:45.079 - 1A FF FF FF 58 00 00 01 0F (人体感应地址-茶吧, 打开茶吧感应)
2024-09-02 17:10:45.096 - BC BC
2024-09-02 17:10:45.682 - 1A BE B0 DC 01 00 01 00 (继电器地址-回水泵点动, 回水泵点动)
2024-09-02 17:10:46.273 - 1A BE B0 DC 01 00 01 00 (继电器地址-回水泵点动, 回水泵点动)
2024-09-02 17:10:46.830 - A5 00 B7 FF 00 AA 22 0D (书房纱帘关)
2024-09-02 17:10:47.375 - A5 00 A2 FF 00 AA (餐厅纱帘关)
2024-09-02 17:10:47.919 - 09 06 00 0F 02 01 78 21 (提示音叮)
2024-09-02 17:10:48.474 - 09 06 00 0F 02 01 78 21 (提示音叮)
2024-09-02 17:10:49.016 - 19 08 24 3B 0F
2024-09-02 17:10:49.024 - 00 B1 00 00 02 FF FC FF FF
2024-09-02 17:10:49.620 - A1 11 11 11 50 (天花供电打开确认)
2024-09-02 17:10:49.841 - 1A EC A0 DC 02 86 86 86 0F (查询天花供电状态, 自保持开关地址-天花12V供电)
2024-09-02 17:10:50.266 - 1A EC A0 DC 02 01 01 0F (自保持开关地址-天花12V供电)
2024-09-02 17:10:51.661 - 19 08 24 03 CC 00 D3 00 01 (调用厨房感应灯开的按键)
2024-09-02 17:10:51.713 - 55 0A 32 00 00 00 01 92 55 0A 32 00 00 00 02 93 (厨房顶灯一开, 厨房顶灯二开)
2024-09-02 17:10:52.655 - A1 11 11 11 51 (卫生供电打开确认)
2024-09-02 17:10:52.878 - 1A EC A0 DC 04 86 86 86 0F (查询卫生间供电状态, 自保持开关地址-次卧西阳内外卫供电)
2024-09-02 17:10:53.312 - 1A EC A0 DC 04 01 01 0F (自保持开关地址-次卧西阳内外卫供电)
2024-09-02 17:10:55.693 - A1 11 11 11 52 (电视供电打开确认)
2024-09-02 17:10:55.914 - 1A EC A0 DC 01 86 86 86 0F (查询电视供电状态, 自保持开关地址-电视、设备12V供电)
2024-09-02 17:10:56.356 - 1A EC A0 DC 01 01 01 0F (自保持开关地址-电视、设备12V供电)
2024-09-02 17:10:58.738 - A1 11 11 11 47 (天热回家开帘)
2024-09-02 17:10:58.959 - 1A 27 89 12 AA 86 86 86 0F (查询寄存器状态, 状态寄存器地址)
2024-09-02 17:10:59.338 - 1A 27 89 12 AA 01 00 00 00 00 00 00 00 00 00 00 01 00 00 00 00 0F (状态寄存器地址)
2024-09-02 17:10:59.963 - 19 08 24 03 DD 00 06 00 01 (调用情景-天热遮阳开帘)
2024-09-02 17:11:00.507 - EE 00 00 B1 00 00 00 FF FC FF FF (情景执行提示)
2024-09-02 17:11:01.034 - 19 08 24 03 CC 01 CD 00 01 (调用茶吧感应灯关的按键)
2024-09-02 17:11:01.068 - 1A AA AA AA 88 FF 00 01 FF 00 01 0F (调光器地址-茶吧灯带, 茶吧灯带关闭)
2024-09-02 17:11:01.460 - 09 06 00 0F 02 01 78 21 (提示音叮)
2024-09-02 17:11:02.072 - A5 00 A6 FE 01 AA (餐厅窗帘开)
2024-09-02 17:11:03.119 - A5 00 52 FE 01 AA (主卧窗帘开)
2024-09-02 17:11:04.165 - A5 00 53 FF 00 AA (主卧纱帘开)
2024-09-02 17:11:05.208 - A5 00 76 FE 01 AA (次卧窗帘开)
2024-09-02 17:11:06.260 - A5 00 21 FE 01 AA (次卧纱帘开)
2024-09-02 17:11:06.484 - 55 20 20 00 00 0E 02 16 AA 55 20 20 00 00 0E 02 16 AA (主卧窗帘电机状态返回)
2024-09-02 17:11:07.311 - 1A BE B0 DC 04 00 01 00 (继电器地址-西阳窗帘, 西阳窗帘开)
2024-09-02 17:11:08.351 - FF FF FF FF 0E 00 01 00 (继电器地址-西阳小窗帘, 西阳小窗帘开)
2024-09-02 17:11:09.403 - A5 00 D2 FE 01 AA 22 0D (书房窗帘开)
2024-09-02 17:11:10.440 - 09 06 00 0F 02 02 38 20 (提示音咚)
2024-09-02 17:11:11.015 - EE 00 00 B1 00 00 02 FF FC FF FF (情景完成返回主页)
2024-09-02 17:16:10.558 - FF
2024-09-02 17:16:31.131 - FF
2024-09-02 17:20:14.666 - FF
2024-09-02 17:23:12.489 - 19 08 24 03 CC 01 CC 00 01 (调用茶吧感应灯开的按键)
2024-09-02 17:23:12.532 - 1A AA AA AA 88 FF B0 01 FF B0 01 0F (调光器地址-茶吧灯带, 茶吧灯带明亮)
2024-09-02 17:23:23.510 - 19 08 24 03 CC 01 CD 00 01 (调用茶吧感应灯关的按键)
2024-09-02 17:23:23.556 - 1A AA AA AA 88 FF 00 01 FF 00 01 0F (调光器地址-茶吧灯带, 茶吧灯带关闭)
2024-09-02 17:23:38.040 - 19 08 24 03 CC 01 CC 00 01 (调用茶吧感应灯开的按键)
2024-09-02 17:23:38.067 - 1A AA AA AA 88 FF B0 01 FF B0 01 0F (调光器地址-茶吧灯带, 茶吧灯带明亮)
2024-09-02 17:23:51.554 - 19 08 24 03 CC 01 CD 00 01 (调用茶吧感应灯关的按键)
2024-09-02 17:23:51.588 - 1A AA AA AA 88 FF 00 01 FF 00 01 0F (调光器地址-茶吧灯带, 茶吧灯带关闭)
2024-09-02 17:25:16.725 - 19 08 24 03 CC 01 CC 00 01 (调用茶吧感应灯开的按键)
2024-09-02 17:25:16.757 - 1A AA AA AA 88 FF B0 01 FF B0 01 0F (调光器地址-茶吧灯带, 茶吧灯带明亮)
2024-09-02 17:25:57.955 - 19 08 24 03 CC 00 D4 00 01 (调用厨房感应灯关的按键)
2024-09-02 17:25:58.021 - 55 0A 31 00 00 00 01 91 55 0A 31 00 00 00 02 92 (厨房顶灯一关, 厨房顶灯二关)
2024-09-02 17:26:05.965 - 19 08 24 03 CC 00 D3 00 01 (调用厨房感应灯开的按键)
2024-09-02 17:26:05.999 - 55 0A 32 00 00 00 01 92 55 0A 32 00 00 00 02 93 (厨房顶灯一开, 厨房顶灯二开)
2024-09-02 17:26:16.352 - 19 08 24 03 CC 01 CD 00 01 (调用茶吧感应灯关的按键)
2024-09-02 17:26:16.374 - 1A AA AA AA 88 FF 00 01 FF 00 01 0F (调光器地址-茶吧灯带, 茶吧灯带关闭)
2024-09-02 17:31:29.972 - 19 08 24 03 CC 01 CC 00 01 (调用茶吧感应灯开的按键)
2024-09-02 17:31:30.002 - 1A AA AA AA 88 FF B0 01 FF B0 01 0F (调光器地址-茶吧灯带, 茶吧灯带明亮)
2024-09-02 17:32:11.187 - 19 08 24 03 CC 00 D4 00 01 (调用厨房感应灯关的按键)
2024-09-02 17:32:11.221 - 55 0A 31 00 00 00 01 91 55 0A 31 00 00 00 02 92 (厨房顶灯一关, 厨房顶灯二关)
2024-09-02 17:32:29.713 - 19 08 24 03 CC 00 D3 00 01 (调用厨房感应灯开的按键)
2024-09-02 17:32:29.760 - 55 0A 32 00 00 00 01 92 55 0A 32 00 00 00 02 93 (厨房顶灯一开, 厨房顶灯二开)
2024-09-02 17:32:40.611 - 19 08 24 03 CC 01 CD 00 01 (调用茶吧感应灯关的按键)
2024-09-02 17:32:40.635 - 1A AA AA AA 88 FF 00 01 FF 00 01 0F (调光器地址-茶吧灯带, 茶吧灯带关闭)
2024-09-02 17:34:46.850 - 19 08 24 03 CC 01 CC 00 01 (调用茶吧感应灯开的按键)
2024-09-02 17:34:46.884 - 1A AA AA AA 88 FF B0 01 FF B0 01 0F (调光器地址-茶吧灯带, 茶吧灯带明亮)
2024-09-02 17:35:10.401 - 19 08 24 03 CC 01 CD 00 01 (调用茶吧感应灯关的按键)
2024-09-02 17:35:10.433 - 1A AA AA AA 88 FF 00 01 FF 00 01 0F (调光器地址-茶吧灯带, 茶吧灯带关闭)
2024-09-02 17:42:48.306 - 19 08 24 03 CC 01 CC 00 01 (调用茶吧感应灯开的按键)
2024-09-02 17:42:48.337 - 1A AA AA AA 88 FF B0 01 FF B0 01 0F (调光器地址-茶吧灯带, 茶吧灯带明亮)
2024-09-02 17:43:06.842 - 19 08 24 03 CC 01 CD 00 01 (调用茶吧感应灯关的按键)
2024-09-02 17:43:06.875 - 1A AA AA AA 88 FF 00 01 FF 00 01 0F (调光器地址-茶吧灯带, 茶吧灯带关闭)
2024-09-02 17:43:31.666 - FF FF FF FF 0E FC (继电器地址-西阳小窗帘)
2024-09-02 17:43:31.796 - FF
2024-09-02 17:44:35.771 - 1A BE B0 DC 02 FE (正反转地址-外卫卷帘)
2024-09-02 17:44:35.914 - FF
2024-09-02 17:46:39.752 - 1A BE B0 DC 01 FC (继电器地址-回水泵点动)
2024-09-02 17:49:18.878 - FF FF FF FF 0A (继电器地址-东阳窗帘)
2024-09-02 17:49:19.014 - FF
2024-09-02 17:49:47.627 - 19 08 24 03 CC 01 CC 00 01 (调用茶吧感应灯开的按键)
2024-09-02 17:49:47.679 - 1A AA AA AA 88 FF B0 01 FF B0 01 0F (调光器地址-茶吧灯带, 茶吧灯带明亮)
2024-09-02 17:50:00.280 - 19 08 24 03 CC 00 D4 00 01 (调用厨房感应灯关的按键)
2024-09-02 17:50:00.344 - 55 0A 31 00 00 00 01 91 55 0A 31 00 00 00 02 92 (厨房顶灯一关, 厨房顶灯二关)
2024-09-02 17:50:10.306 - 19 08 24 03 CC 00 D3 00 01 (调用厨房感应灯开的按键)
2024-09-02 17:50:10.343 - 55 0A 32 00 00 00 01 92 55 0A 32 00 00 00 02 93 (厨房顶灯一开, 厨房顶灯二开)
2024-09-02 17:50:49.757 - 19 08 24 03 CC 01 CD 00 01 (调用茶吧感应灯关的按键)
2024-09-02 17:50:49.791 - 1A AA AA AA 88 FF 00 01 FF 00 01 0F (调光器地址-茶吧灯带, 茶吧灯带关闭)
2024-09-02 17:52:28.815 - 1A BE B0 DC 04 (继电器地址-西阳窗帘)
2024-09-02 17:53:32.909 - 1A BE B0 DC 09 (继电器地址-客厅窗帘)
2024-09-02 17:53:35.487 - 1A BE B0 DC 0A FE (继电器地址-客厅纱帘)
2024-09-02 17:54:40.368 - 1A BE B0 DC 03 (继电器地址-西阳天幕)
2024-09-02 17:57:02.497 - 19 08 24 03 CC 01 CC 00 01 (调用茶吧感应灯开的按键)
2024-09-02 17:57:02.547 - 1A AA AA AA 88 FF B0 01 FF B0 01 0F (调光器地址-茶吧灯带, 茶吧灯带明亮)
2024-09-02 17:57:17.527 - 19 08 24 03 CC 01 CD 00 01 (调用茶吧感应灯关的按键)
2024-09-02 17:57:17.575 - 1A AA AA AA 88 FF 00 01 FF 00 01 0F (调光器地址-茶吧灯带, 茶吧灯带关闭)
2024-09-02 18:00:07.360 - 19 08 24 03 CC 01 CC 00 01 (调用茶吧感应灯开的按键)
2024-09-02 18:00:07.394 - 1A AA AA AA 88 FF B0 01 FF B0 01 0F (调光器地址-茶吧灯带, 茶吧灯带明亮)
2024-09-02 18:00:28.894 - 19 08 24 03 CC 01 CD 00 01 (调用茶吧感应灯关的按键)
2024-09-02 18:00:28.925 - 1A AA AA AA 88 FF 00 01 FF 00 01 0F (调光器地址-茶吧灯带, 茶吧灯带关闭)
2024-09-02 18:03:32.768 - 19 08 24 03 CC 01 CC 00 01 (调用茶吧感应灯开的按键)
2024-09-02 18:03:32.789 - 1A AA AA AA 88 FF B0 01 FF B0 01 0F (调光器地址-茶吧灯带, 茶吧灯带明亮)
2024-09-02 18:03:42.402 - 19 08 24 03 CC 00 D4 00 01 (调用厨房感应灯关的按键)
2024-09-02 18:03:42.433 - 55 0A 31 00 00 00 01 91 55 0A 31 00 00 00 02 92 (厨房顶灯一关, 厨房顶灯二关)
2024-09-02 18:03:49.917 - 19 08 24 03 CC 00 D3 00 01 (调用厨房感应灯开的按键)
2024-09-02 18:03:49.951 - 55 0A 32 00 00 00 01 92 55 0A 32 00 00 00 02 93 (厨房顶灯一开, 厨房顶灯二开)
2024-09-02 18:04:02.825 - 19 08 24 03 CC 01 CD 00 01 (调用茶吧感应灯关的按键)
2024-09-02 18:04:02.853 - 1A AA AA AA 88 FF 00 01 FF 00 01 0F (调光器地址-茶吧灯带, 茶吧灯带关闭)
2024-09-02 18:05:17.845 - 1A FF 03 00 00 86 86 86 0F (调用查询模块-主卧空调开关查询, 主卧空调虚拟地址)
2024-09-02 18:05:18.070 - 01 04 07 DC 00 01 F1 44 (查询主卧空调开关状态)
2024-09-02 18:05:18.087 - 01 04 02 70 00 9C F0
2024-09-02 18:05:19.073 - 1A FF 03 00 00 00 00 0F (主卧空调虚拟地址)
2024-09-02 18:05:19.248 - 1A FF 04 00 00 86 86 86 0F (调用查询模块-次卧空调开关查询, 次卧空调虚拟地址)
2024-09-02 18:05:19.464 - 01 04 07 E2 00 01 90 88 (查询次卧空调开关状态)
2024-09-02 18:05:19.488 - 01 04 02 70 00 9C F0
2024-09-02 18:05:20.468 - 1A FF 04 00 00 00 00 0F (次卧空调虚拟地址)
2024-09-02 18:05:20.655 - 1A FF 05 00 00 86 86 86 0F (调用查询模块-书房空调开关查询, 书房空调虚拟地址)
2024-09-02 18:05:20.891 - 01 04 07 E8 00 01 B0 8A (查询书房空调开关状态)
2024-09-02 18:05:20.910 - 01 04 02 70 00 9C F0
2024-09-02 18:05:21.881 - 1A FF 05 00 00 00 00 0F (书房空调虚拟地址)
2024-09-02 18:05:22.057 - 1A FF 02 00 00 86 86 86 0F (调用查询模块-餐厅空调开关查询, 餐厅空调虚拟地址)
2024-09-02 18:05:22.280 - 01 04 07 D6 00 01 D1 46 (查询餐厅空调开关状态)
2024-09-02 18:05:22.305 - 01 04 02 70 01 5D 30
2024-09-02 18:05:23.285 - 1A FF 02 00 00 01 00 0F (餐厅空调虚拟地址)
2024-09-02 18:05:23.479 - 1A FF 01 00 00 86 86 86 0F (调用查询模块-客厅空调开关查询, 客厅空调虚拟地址)
2024-09-02 18:05:23.700 - 01 04 07 D0 00 01 31 47 (查询客厅空调开关状态)
2024-09-02 18:05:23.732 - 01 04 02 70 01 5D 30
2024-09-02 18:05:24.705 - 1A FF 01 00 00 01 00 0F (客厅空调虚拟地址)
2024-09-02 18:05:24.912 - 1A 10 00 00 00 86 86 86 0F (调用查询模块-主卧测温转换, 主卧温湿度虚拟地址)
2024-09-02 18:05:25.135 - 1D 03 00 00 00 02 C6 57 (查询主卧温湿度)
2024-09-02 18:05:25.163 - 1D 03 04 02 3C 01 13 A6 1B (主卧温湿度返回)
2024-09-02 18:05:26.156 - 1A 10 00 00 00 00 00 01 00 00 01 00 00 01 01 13 01 02 3C 01 00 00 01 00 00 01 0F (主卧温湿度虚拟地址)
2024-09-02 18:05:26.337 - 1A 11 00 00 00 86 86 86 0F (调用查询模块-次卧测温转换, 次卧温湿度虚拟地址)
2024-09-02 18:05:26.555 - 11 03 00 00 00 02 C6 9B (查询次卧温湿度)
2024-09-02 18:05:26.575 - 11 03 04 02 4A 01 27 8A 16 (次卧温湿度返回)
2024-09-02 18:05:27.578 - 1A 11 00 00 00 00 00 01 00 00 01 00 00 01 01 27 01 02 4A 01 00 00 01 00 00 01 0F (次卧温湿度虚拟地址)
2024-09-02 18:05:27.782 - 1A 12 00 00 00 86 86 86 0F (调用查询模块-书房测温转换, 书房温湿度虚拟地址)
2024-09-02 18:05:28.006 - 12 03 00 00 00 02 C6 A8 (查询书房温湿度)
2024-09-02 18:05:28.022 - 12 03 04 01 E3 01 27 69 72 (书房温湿度返回)
2024-09-02 18:05:29.028 - 1A 12 00 00 00 00 00 01 00 00 01 00 00 01 01 27 01 01 E3 01 00 00 01 00 00 01 0F (书房温湿度虚拟地址)
2024-09-02 18:05:29.251 - 1A 13 00 00 00 86 86 86 0F (调用查询模块-外卫测温转换, 外卫温湿度虚拟地址)
2024-09-02 18:05:29.483 - 13 03 00 00 00 02 C7 79 (查询外卫温湿度)
2024-09-02 18:05:29.507 - 13 03 04 01 F2 01 0F 29 A9 (外卫温湿度返回)
2024-09-02 18:05:30.503 - 1A 13 00 00 00 00 00 01 00 00 01 00 00 01 01 0F 01 01 F2 01 00 00 01 00 00 01 0F (外卫温湿度虚拟地址)
2024-09-02 18:05:30.654 - 1A 14 00 00 00 86 86 86 0F (调用查询模块-内卫测温转换, 内卫温湿度虚拟地址)
2024-09-02 18:05:30.877 - 14 03 00 00 00 02 C6 CE (查询内卫温湿度)
2024-09-02 18:05:30.894 - 14 03 04 02 73 01 1E CF 09 (内卫温湿度返回)
2024-09-02 18:05:31.899 - 1A 14 00 00 00 00 00 01 00 00 01 00 00 01 01 1E 01 02 73 01 00 00 01 00 00 01 0F (内卫温湿度虚拟地址)
2024-09-02 18:05:32.089 - 1A 15 00 00 00 86 86 86 0F (调用查询模块-客厅测温转换, 客厅温湿度虚拟地址)
2024-09-02 18:05:32.313 - 15 03 00 00 00 02 C7 1F (查询客厅温湿度)
2024-09-02 18:05:32.339 - 15 03 04 02 24 00 FD 2E 00 (客厅温湿度返回)
2024-09-02 18:05:33.342 - 1A 15 00 00 00 00 00 01 00 00 01 00 00 01 00 FD 01 02 24 01 00 00 01 00 00 01 0F (客厅温湿度虚拟地址)
2024-09-02 18:05:33.563 - 1A 16 00 00 00 86 86 86 0F (调用查询模块-机柜测温转换, 机柜温湿度虚拟地址)
2024-09-02 18:05:33.795 - 16 03 00 00 00 02 C7 2C (查询机柜温湿度)
2024-09-02 18:05:34.816 - 1A 16 00 00 00 00 00 01 00 00 01 00 00 01 86 86 01 00 00 01 00 00 01 00 00 01 0F (机柜温湿度虚拟地址)
2024-09-02 18:05:34.976 - 1A 0E 00 00 00 86 86 86 0F (调用查询模块-厨房测温转换, 厨房温湿度虚拟地址)
2024-09-02 18:05:35.199 - 0E 03 00 00 00 02 C4 F4 (查询厨房温湿度)
2024-09-02 18:05:35.230 - 0E 03 04 01 B4 01 33 05 6C (厨房温湿度返回)
2024-09-02 18:05:35.553 - 1A 20 00 00 00 86 86 86 0F (调用查询模块-阳台测温湿气压转换, 阳台温湿气压虚拟地址)
2024-09-02 18:05:36.220 - 1A 0E 00 00 00 00 00 01 00 00 01 00 00 01 86 86 01 00 00 01 00 00 01 00 00 01 0F (厨房温湿度虚拟地址)
2024-09-02 18:05:36.443 - 1A 0F 00 00 00 86 86 86 0F (调用查询模块-餐厅测温转换, 餐厅温湿度虚拟地址)
2024-09-02 18:05:36.667 - 1C 03 00 00 00 02 C7 86 (查询餐厅温湿度)
2024-09-02 18:05:36.693 - 1C 03 04 01 DF 01 1A 87 6F (餐厅温湿度返回)
2024-09-02 18:05:37.257 - 1A 22 00 00 00 86 86 86 0F (调用查询模块-室外测温湿气压转换, 室外温湿气压虚拟地址)
2024-09-02 18:05:37.687 - 1A 0F 00 00 00 00 00 01 00 00 01 00 00 01 86 86 01 00 00 01 00 00 01 00 00 01 0F (餐厅温湿度虚拟地址)
2024-09-02 18:05:37.850 - 1A 20 00 00 00 86 86 86 0F (调用查询模块-阳台测温湿气压转换, 阳台温湿气压虚拟地址)
2024-09-02 18:05:38.071 - 20 03 00 00 00 03 03 7A (查询阳台温湿度气压)
2024-09-02 18:05:38.088 - 20 03 06 01 65 01 A9 26 F5 F3 06 (阳台温湿度返回)
2024-09-02 18:05:38.599 - 1A 20 00 00 00 00 00 01 00 00 01 00 00 01 01 65 01 01 A9 01 26 F5 01 00 00 01 0F (阳台温湿气压虚拟地址)
2024-09-02 18:05:38.819 - 1A 21 00 00 00 86 86 86 0F (调用查询模块-储藏室测温湿气压转换, 储藏室温湿气压虚拟地址)
2024-09-02 18:05:39.042 - 21 03 00 00 00 03 02 AB (查询储藏室温湿度气压)
2024-09-02 18:05:39.058 - 21 03 06 01 51 02 78 26 F7 9E EE (储藏室温湿度返回)
2024-09-02 18:05:39.282 - 1A 21 00 00 00 86 86 86 0F (调用查询模块-储藏室测温湿气压转换, 储藏室温湿气压虚拟地址)
2024-09-02 18:05:39.569 - 1A 21 00 00 00 00 00 01 00 00 01 00 00 01 00 00 01 86 86 01 86 0F 01 00 00 01 0F (储藏室温湿气压虚拟地址)
2024-09-02 18:05:39.721 - 1A 22 00 00 00 86 86 86 0F (调用查询模块-室外测温湿气压转换, 室外温湿气压虚拟地址)
2024-09-02 18:05:39.936 - 22 03 00 00 00 03 02 98 (查询室外温湿度气压)
2024-09-02 18:05:39.959 - 22 03 06 01 49 02 79 26 F6 3A 1C (阳台温湿度返回)
2024-09-02 18:05:40.462 - 1A 22 00 00 00 00 00 01 00 00 01 00 00 01 01 49 01 02 79 01 26 F6 01 00 00 01 0F (室外温湿气压虚拟地址)
2024-09-02 18:05:53.022 - A1 11 11 11 42 (主卧空调自动开)
2024-09-02 18:05:53.243 - 19 08 24 03 F0 BB 78 02 02 00
2024-09-02 18:05:53.499 - 23 AA 56 02 12 06 1F 18 09 02 01 73 65 6F 6B 65 6E 64
2024-09-02 18:05:54.247 - 01 10 07 D6 00 03 06 70 61 00 02 00 F0 0F 3E (主卧空调冷24度)
2024-09-02 18:05:54.290 - 01 10 07 D6 00 03 06 70 61 00 02 00 F0 0F 3E (主卧空调冷24度)
2024-09-02 18:07:07.292 - 19 08 24 03 CC 01 CC 00 01 (调用茶吧感应灯开的按键)
2024-09-02 18:07:07.342 - 1A AA AA AA 88 FF B0 01 FF B0 01 0F (调光器地址-茶吧灯带, 茶吧灯带明亮)
2024-09-02 18:07:33.336 - 19 08 24 03 CC 01 CD 00 01 (调用茶吧感应灯关的按键)
2024-09-02 18:07:33.370 - 1A AA AA AA 88 FF 00 01 FF 00 01 0F (调光器地址-茶吧灯带, 茶吧灯带关闭)
2024-09-02 18:14:39.178 - 19 08 24 03 CC 01 CC 00 01 (调用茶吧感应灯开的按键)
2024-09-02 18:14:39.212 - 1A AA AA AA 88 FF B0 01 FF B0 01 0F (调光器地址-茶吧灯带, 茶吧灯带明亮)
2024-09-02 18:14:53.705 - 19 08 24 03 CC 01 CD 00 01 (调用茶吧感应灯关的按键)
2024-09-02 18:14:53.736 - 1A AA AA AA 88 FF 00 01 FF 00 01 0F (调光器地址-茶吧灯带, 茶吧灯带关闭)
2024-09-02 18:18:07.591 - 19 08 24 03 CC 01 CC 00 01 (调用茶吧感应灯开的按键)
2024-09-02 18:18:07.625 - 1A AA AA AA 88 FF B0 01 FF B0 01 0F (调光器地址-茶吧灯带, 茶吧灯带明亮)
2024-09-02 18:18:32.634 - 19 08 24 03 CC 01 CD 00 01 (调用茶吧感应灯关的按键)
2024-09-02 18:18:32.666 - 1A AA AA AA 88 FF 00 01 FF 00 01 0F (调光器地址-茶吧灯带, 茶吧灯带关闭)
2024-09-02 18:20:23.865 - 19 08 24 03 CC 01 CC 00 01 (调用茶吧感应灯开的按键)
2024-09-02 18:20:23.888 - 1A AA AA AA 88 FF B0 01 FF B0 01 0F (调光器地址-茶吧灯带, 茶吧灯带明亮)
2024-09-02 18:20:38.883 - 19 08 24 03 CC 01 CD 00 01 (调用茶吧感应灯关的按键)
2024-09-02 18:20:38.917 - 1A AA AA AA 88 FF 00 01 FF 00 01 0F (调光器地址-茶吧灯带, 茶吧灯带关闭)
2024-09-02 18:20:46.910 - 19 08 24 03 CC 01 CC 00 01 (调用茶吧感应灯开的按键)
2024-09-02 18:20:46.938 - 1A AA AA AA 88 FF B0 01 FF B0 01 0F (调光器地址-茶吧灯带, 茶吧灯带明亮)
2024-09-02 18:21:05.936 - 19 08 24 03 CC 01 CD 00 01 (调用茶吧感应灯关的按键)
2024-09-02 18:21:05.970 - 1A AA AA AA 88 FF 00 01 FF 00 01 0F (调光器地址-茶吧灯带, 茶吧灯带关闭)
2024-09-02 18:22:34.119 - 19 08 24 03 CC 01 CC 00 01 (调用茶吧感应灯开的按键)
2024-09-02 18:22:34.150 - 1A AA AA AA 88 FF B0 01 FF B0 01 0F (调光器地址-茶吧灯带, 茶吧灯带明亮)
2024-09-02 18:22:53.659 - 19 08 24 03 CC 01 CD 00 01 (调用茶吧感应灯关的按键)
2024-09-02 18:22:53.691 - 1A AA AA AA 88 FF 00 01 FF 00 01 0F (调光器地址-茶吧灯带, 茶吧灯带关闭)
2024-09-02 18:23:04.171 - 19 08 24 03 CC 01 CC 00 01 (调用茶吧感应灯开的按键)
2024-09-02 18:23:04.203 - 1A AA AA AA 88 FF B0 01 FF B0 01 0F (调光器地址-茶吧灯带, 茶吧灯带明亮)
2024-09-02 18:23:48.761 - 19 08 24 03 CC 01 CD 00 01 (调用茶吧感应灯关的按键)
2024-09-02 18:23:48.795 - 1A AA AA AA 88 FF 00 01 FF 00 01 0F (调光器地址-茶吧灯带, 茶吧灯带关闭)
2024-09-02 18:27:15.676 - 19 08 24 03 CC 01 CC 00 01 (调用茶吧感应灯开的按键)
2024-09-02 18:27:15.708 - 1A AA AA AA 88 FF B0 01 FF B0 01 0F (调光器地址-茶吧灯带, 茶吧灯带明亮)
2024-09-02 18:27:21.230 - EE 00 71 B1 01 00 03 FF FC FF FF
2024-09-02 18:27:21.773 - 55 0C 30 00 00 00 01 92 (餐厅顶灯开关)
2024-09-02 18:27:40.224 - 19 08 24 03 CC 01 CD 00 01 (调用茶吧感应灯关的按键)
2024-09-02 18:27:40.272 - 1A AA AA AA 88 FF 00 01 FF 00 01 0F (调光器地址-茶吧灯带, 茶吧灯带关闭)
2024-09-02 18:28:58.878 - 19 08 24 03 CC 01 CC 00 01 (调用茶吧感应灯开的按键)
2024-09-02 18:28:58.910 - 1A AA AA AA 88 FF B0 01 FF B0 01 0F (调光器地址-茶吧灯带, 茶吧灯带明亮)
2024-09-02 18:29:59.558 - EE 00 71 B1 01 00 02 FF FC FF FF
2024-09-02 18:30:00.168 - 19 08 24 03 DD 00 12 00 01 (调用情景-公共灯光开)
2024-09-02 18:30:00.712 - EE 00 00 B1 00 00 00 FF FC FF FF (情景执行提示)
2024-09-02 18:30:01.313 - 09 06 00 0F 02 01 78 21 (提示音叮)
2024-09-02 18:30:01.868 - 1A 0D 01 01 01 FF 55 01 FF 55 01 FF 00 00 0F (调光器地址-客厅筒灯, 客厅筒灯微光)
2024-09-02 18:30:02.464 - 1A 0D 01 01 03 FF 55 01 FF 55 01 FF 00 00 0F (调光器地址-客厅过道, 客厅过道微光)
2024-09-02 18:30:03.059 - 1A 0D 01 01 02 FF 55 01 FF 55 01 FF 00 00 0F (调光器地址-客厅灯带, 客厅灯带微光)
2024-09-02 18:30:03.659 - 1A 0B 01 02 02 FF 45 01 FF 45 01 FF 00 00 0F (调光器地址-门厅射灯, 门厅背景微光)
2024-09-02 18:30:04.250 - 1A 0B 01 02 01 FF 45 01 FF 45 01 FF 00 00 0F (调光器地址-门厅灯带, 门厅灯带微光)
2024-09-02 18:30:04.855 - 1A 0B 01 03 01 FF 45 01 FF 45 01 FF 00 00 0F (调光器地址-餐厅筒灯, 餐厅筒灯微光)
2024-09-02 18:30:05.475 - 1A 0B 01 03 02 FF 45 01 FF 45 01 FF 00 00 0F (调光器地址-餐桌筒灯, 餐桌筒灯微光)
2024-09-02 18:30:06.054 - 1A 0B 01 03 03 FF 45 01 FF 45 01 FF 00 00 0F (调光器地址-餐厅灯带, 餐厅灯带微光)
2024-09-02 18:30:06.642 - 55 0A 32 00 00 00 01 92 (厨房顶灯一开)
2024-09-02 18:30:07.194 - 55 0A 32 00 00 00 02 93 (厨房顶灯二开)
2024-09-02 18:30:07.743 - 09 06 00 0F 02 02 38 20 (提示音咚)
2024-09-02 18:30:08.286 - EE 00 00 B1 00 00 02 FF FC FF FF (情景完成返回主页)
2024-09-02 18:31:11.142 - 19 08 24 03 CC 01 CD 00 01 (调用茶吧感应灯关的按键)
2024-09-02 18:31:11.163 - 1A AA AA AA 88 FF 00 01 FF 00 01 0F (调光器地址-茶吧灯带, 茶吧灯带关闭)
2024-09-02 18:31:31.198 - 19 08 24 03 CC 00 D4 00 01 (调用厨房感应灯关的按键)
2024-09-02 18:31:31.230 - 55 0A 31 00 00 00 01 91 55 0A 31 00 00 00 02 92 (厨房顶灯一关, 厨房顶灯二关)
2024-09-02 18:45:03.786 - 19 08 24 03 CC 01 CC 00 01 (调用茶吧感应灯开的按键)
2024-09-02 18:45:03.818 - 1A AA AA AA 88 FF B0 01 FF B0 01 0F (调光器地址-茶吧灯带, 茶吧灯带明亮)
2024-09-02 18:45:09.819 - 19 08 24 03 CC 00 D3 00 01 (调用厨房感应灯开的按键)
2024-09-02 18:45:09.854 - 55 0A 32 00 00 00 01 92 55 0A 32 00 00 00 02 93 (厨房顶灯一开, 厨房顶灯二开)
2024-09-02 18:45:16.316 - 19 08 24 03 CC 01 CD 00 01 (调用茶吧感应灯关的按键)
2024-09-02 18:45:16.340 - 1A AA AA AA 88 FF 00 01 FF 00 01 0F (调光器地址-茶吧灯带, 茶吧灯带关闭)
2024-09-02 18:45:35.851 - 19 08 24 03 CC 01 CC 00 01 (调用茶吧感应灯开的按键)
2024-09-02 18:45:35.885 - 1A AA AA AA 88 FF B0 01 FF B0 01 0F (调光器地址-茶吧灯带, 茶吧灯带明亮)
2024-09-02 18:45:47.877 - 19 08 24 03 CC 01 CD 00 01 (调用茶吧感应灯关的按键)
2024-09-02 18:45:47.902 - 1A AA AA AA 88 FF 00 01 FF 00 01 0F (调光器地址-茶吧灯带, 茶吧灯带关闭)
2024-09-02 18:46:13.949 - 19 08 24 03 CC 00 D4 00 01 (调用厨房感应灯关的按键)
2024-09-02 18:46:13.981 - 55 0A 31 00 00 00 01 91 55 0A 31 00 00 00 02 92 (厨房顶灯一关, 厨房顶灯二关)
2024-09-02 18:57:58.311 - 19 08 24 03 CC 01 CC 00 01 (调用茶吧感应灯开的按键)
2024-09-02 18:57:58.343 - 1A AA AA AA 88 FF B0 01 FF B0 01 0F (调光器地址-茶吧灯带, 茶吧灯带明亮)
2024-09-02 18:58:01.342 - 19 08 24 03 CC 00 D3 00 01 (调用厨房感应灯开的按键)
2024-09-02 18:58:01.374 - 55 0A 32 00 00 00 01 92 55 0A 32 00 00 00 02 93 (厨房顶灯一开, 厨房顶灯二开)
2024-09-02 18:58:16.845 - 19 08 24 03 CC 01 CD 00 01 (调用茶吧感应灯关的按键)
2024-09-02 18:58:16.877 - 1A AA AA AA 88 FF 00 01 FF 00 01 0F (调光器地址-茶吧灯带, 茶吧灯带关闭)
2024-09-02 18:58:49.912 - 19 08 24 03 CC 01 CC 00 01 (调用茶吧感应灯开的按键)
2024-09-02 18:58:49.944 - 1A AA AA AA 88 FF B0 01 FF B0 01 0F (调光器地址-茶吧灯带, 茶吧灯带明亮)
2024-09-02 19:01:28.735 - 19 08 24 03 CC 01 CD 00 01 (调用茶吧感应灯关的按键)
2024-09-02 19:01:28.766 - 1A AA AA AA 88 FF 00 01 FF 00 01 0F (调光器地址-茶吧灯带, 茶吧灯带关闭)
2024-09-02 19:01:35.740 - 19 08 24 03 CC 01 CC 00 01 (调用茶吧感应灯开的按键)
2024-09-02 19:01:35.774 - 1A AA AA AA 88 FF B0 01 FF B0 01 0F (调光器地址-茶吧灯带, 茶吧灯带明亮)
2024-09-02 19:02:18.830 - 19 08 24 03 CC 01 CD 00 01 (调用茶吧感应灯关的按键)
2024-09-02 19:02:18.862 - 1A AA AA AA 88 FF 00 01 FF 00 01 0F (调光器地址-茶吧灯带, 茶吧灯带关闭)
2024-09-02 19:03:26.454 - 19 08 24 03 CC 01 CC 00 01 (调用茶吧感应灯开的按键)
2024-09-02 19:03:26.488 - 1A AA AA AA 88 FF B0 01 FF B0 01 0F (调光器地址-茶吧灯带, 茶吧灯带明亮)
2024-09-02 19:04:19.067 - 19 08 24 03 CC 01 CD 00 01 (调用茶吧感应灯关的按键)
2024-09-02 19:04:19.099 - 1A AA AA AA 88 FF 00 01 FF 00 01 0F (调光器地址-茶吧灯带, 茶吧灯带关闭)
2024-09-02 19:04:44.115 - 19 08 24 03 CC 01 CC 00 01 (调用茶吧感应灯开的按键)
2024-09-02 19:04:44.149 - 1A AA AA AA 88 FF B0 01 FF B0 01 0F (调光器地址-茶吧灯带, 茶吧灯带明亮)
2024-09-02 19:04:55.138 - 19 08 24 03 CC 01 52 00 01 (调用外卫感应灯开的按键)
2024-09-02 19:04:55.182 - 1A 0D 01 07 01 FF 45 01 FF 45 01 FF 00 00 0F (调光器地址-外卫射灯, 外卫感应灯开)
2024-09-02 19:04:56.142 - 19 08 24 03 CC 01 CD 00 01 (调用茶吧感应灯关的按键)
2024-09-02 19:04:56.172 - 1A AA AA AA 88 FF 00 01 FF 00 01 0F (调光器地址-茶吧灯带, 茶吧灯带关闭)
2024-09-02 19:06:18.293 - 19 08 24 03 CC 01 CC 00 01 (调用茶吧感应灯开的按键)
2024-09-02 19:06:18.327 - 1A AA AA AA 88 FF B0 01 FF B0 01 0F (调光器地址-茶吧灯带, 茶吧灯带明亮)
2024-09-02 19:06:30.318 - 19 08 24 03 CC 01 54 00 01 (调用内卫感应灯开的按键)
2024-09-02 19:06:30.355 - 1A 0C 02 08 01 FF 45 01 FF 45 01 FF 00 00 0F (调光器地址-内卫射灯, 内卫射灯微光)
2024-09-02 19:06:30.828 - 19 08 24 03 CC 01 CD 00 01 (调用茶吧感应灯关的按键)
2024-09-02 19:06:30.862 - 1A AA AA AA 88 FF 00 01 FF 00 01 0F (调光器地址-茶吧灯带, 茶吧灯带关闭)
2024-09-02 19:06:57.397 - 19 08 24 03 CC 00 D4 00 01 (调用厨房感应灯关的按键)
2024-09-02 19:06:57.431 - 55 0A 31 00 00 00 01 91 55 0A 31 00 00 00 02 92 (厨房顶灯一关, 厨房顶灯二关)
2024-09-02 19:07:33.948 - 19 08 24 03 CC 01 CC 00 01 (调用茶吧感应灯开的按键)
2024-09-02 19:07:33.982 - 1A AA AA AA 88 FF B0 01 FF B0 01 0F (调光器地址-茶吧灯带, 茶吧灯带明亮)
2024-09-02 19:07:37.471 - 19 08 24 03 CC 01 53 00 01 (调用外卫感应灯关的按键)
2024-09-02 19:07:37.504 - 1A 0D 01 07 01 FF 00 01 FF 00 01 FF 00 00 0F (调光器地址-外卫射灯, 外卫感应灯关)
2024-09-02 19:07:41.984 - 19 08 24 03 CC 00 D3 00 01 (调用厨房感应灯开的按键)
2024-09-02 19:07:42.016 - 55 0A 32 00 00 00 01 92 55 0A 32 00 00 00 02 93 (厨房顶灯一开, 厨房顶灯二开)
2024-09-02 19:07:52.486 - 19 08 24 03 CC 01 CD 00 01 (调用茶吧感应灯关的按键)
2024-09-02 19:07:52.520 - 1A AA AA AA 88 FF 00 01 FF 00 01 0F (调光器地址-茶吧灯带, 茶吧灯带关闭)
2024-09-02 19:09:59.741 - 19 08 24 03 CC 01 CC 00 01 (调用茶吧感应灯开的按键)
2024-09-02 19:09:59.773 - 1A AA AA AA 88 FF B0 01 FF B0 01 0F (调光器地址-茶吧灯带, 茶吧灯带明亮)
2024-09-02 19:10:21.774 - 19 08 24 03 CC 01 55 00 01 (调用内卫感应灯关的按键)
2024-09-02 19:10:21.808 - 1A 0C 02 08 01 FF 00 01 FF 00 01 FF 00 00 0F (调光器地址-内卫射灯, 内卫感应灯关)
2024-09-02 19:10:56.857 - 19 08 24 03 CC 01 CD 00 01 (调用茶吧感应灯关的按键)
2024-09-02 19:10:56.876 - 1A AA AA AA 88 FF 00 01 FF 00 01 0F (调光器地址-茶吧灯带, 茶吧灯带关闭)
2024-09-02 19:12:02.975 - 19 08 24 03 CC 01 54 00 01 (调用内卫感应灯开的按键)
2024-09-02 19:12:03.009 - 1A 0C 02 08 01 FF 45 01 FF 45 01 FF 00 00 0F (调光器地址-内卫射灯, 内卫射灯微光)
2024-09-02 19:12:12.005 - 19 08 24 03 CC 01 CC 00 01 (调用茶吧感应灯开的按键)
2024-09-02 19:12:12.024 - 1A AA AA AA 88 FF B0 01 FF B0 01 0F (调光器地址-茶吧灯带, 茶吧灯带明亮)
2024-09-02 19:12:28.020 - 19 08 24 03 CC 01 55 00 01 (调用内卫感应灯关的按键)
2024-09-02 19:12:28.051 - 1A 0C 02 08 01 FF 00 01 FF 00 01 FF 00 00 0F (调光器地址-内卫射灯, 内卫感应灯关)
2024-09-02 19:12:42.059 - EE 00 71 B1 01 00 03 FF FC FF FF
2024-09-02 19:12:42.384 - 55 0C 30 00 00 00 01 92 (餐厅顶灯开关)
2024-09-02 19:12:52.098 - 19 08 24 03 CC 01 CD 00 01 (调用茶吧感应灯关的按键)
2024-09-02 19:12:52.143 - 1A AA AA AA 88 FF 00 01 FF 00 01 0F (调光器地址-茶吧灯带, 茶吧灯带关闭)
2024-09-02 19:13:21.647 - 19 08 24 03 CC 01 CC 00 01 (调用茶吧感应灯开的按键)
2024-09-02 19:13:21.681 - 1A AA AA AA 88 FF B0 01 FF B0 01 0F (调光器地址-茶吧灯带, 茶吧灯带明亮)
2024-09-02 19:13:29.719 - 19 08 24 03 CC 00 D4 00 01 (调用厨房感应灯关的按键)
2024-09-02 19:13:29.752 - 55 0A 31 00 00 00 01 91 55 0A 31 00 00 00 02 92 (厨房顶灯一关, 厨房顶灯二关)
2024-09-02 19:13:34.678 - 19 08 24 03 CC 01 CD 00 01 (调用茶吧感应灯关的按键)
2024-09-02 19:13:34.712 - 1A AA AA AA 88 FF 00 01 FF 00 01 0F (调光器地址-茶吧灯带, 茶吧灯带关闭)
2024-09-02 19:13:41.685 - 19 08 24 03 CC 01 CC 00 01 (调用茶吧感应灯开的按键)
2024-09-02 19:13:41.719 - 1A AA AA AA 88 FF B0 01 FF B0 01 0F (调光器地址-茶吧灯带, 茶吧灯带明亮)
2024-09-02 19:13:57.776 - 19 08 24 03 CC 00 D3 00 01 (调用厨房感应灯开的按键)
2024-09-02 19:13:57.812 - 55 0A 32 00 00 00 01 92 55 0A 32 00 00 00 02 93 (厨房顶灯一开, 厨房顶灯二开)
2024-09-02 19:13:59.200 - 19 08 24 03 CC 01 54 00 01 (调用内卫感应灯开的按键)
2024-09-02 19:13:59.264 - 1A 0C 02 08 01 FF 45 01 FF 45 01 FF 00 00 0F (调光器地址-内卫射灯, 内卫射灯微光)
2024-09-02 19:14:07.239 - 19 08 24 03 CC 01 CD 00 01 (调用茶吧感应灯关的按键)
2024-09-02 19:14:07.270 - 1A AA AA AA 88 FF 00 01 FF 00 01 0F (调光器地址-茶吧灯带, 茶吧灯带关闭)
2024-09-02 19:14:12.120 - EE 00 6E B1 01 00 03 FF FC FF FF
2024-09-02 19:14:12.663 - EE 00 6E B1 01 00 08 FF FC FF FF
2024-09-02 19:14:13.134 - 1A BE B0 DC 0A 00 01 00 (继电器地址-客厅纱帘, 客厅纱帘关)
2024-09-02 19:14:25.754 - 19 08 24 03 CC 01 55 00 01 (调用内卫感应灯关的按键)
2024-09-02 19:14:25.805 - 1A 0C 02 08 01 FF 00 01 FF 00 01 FF 00 00 0F (调光器地址-内卫射灯, 内卫感应灯关)
2024-09-02 19:14:27.724 - EE 00 6E B1 01 00 02 FF FC FF FF
2024-09-02 19:14:28.253 - 19 08 24 03 DD 00 1A 00 01 (调用情景-客厅电视播放)
2024-09-02 19:14:28.808 - EE 00 00 B1 00 00 00 FF FC FF FF (情景执行提示)
2024-09-02 19:14:29.410 - 09 06 00 0F 02 01 78 21 (提示音叮)
2024-09-02 19:14:29.941 - 50 F0 08 (开客厅影视)
2024-09-02 19:14:33.834 - FF
2024-09-02 19:14:34.791 - 19 08 24 03 CC 01 CC 00 01 (调用茶吧感应灯开的按键)
2024-09-02 19:14:34.839 - 1A AA AA AA 88 FF B0 01 FF B0 01 0F (调光器地址-茶吧灯带, 茶吧灯带明亮)
2024-09-02 19:14:38.972 - 50 F1 28 (客厅—有线2)
2024-09-02 19:14:39.515 - 09 06 00 0F 02 01 78 21 (提示音叮)
2024-09-02 19:14:40.077 - EE 00 00 B1 00 00 02 FF FC FF FF (情景完成返回主页)
2024-09-02 19:14:50.821 - 19 08 24 03 CC 01 CD 00 01 (调用茶吧感应灯关的按键)
2024-09-02 19:14:50.872 - 1A AA AA AA 88 FF 00 01 FF 00 01 0F (调光器地址-茶吧灯带, 茶吧灯带关闭)
2024-09-02 19:14:53.833 - 19 08 24 03 CC 01 CC 00 01 (调用茶吧感应灯开的按键)
2024-09-02 19:14:53.865 - 1A AA AA AA 88 FF B0 01 FF B0 01 0F (调光器地址-茶吧灯带, 茶吧灯带明亮)
2024-09-02 19:15:03.359 - 19 08 24 03 CC 01 CD 00 01 (调用茶吧感应灯关的按键)
2024-09-02 19:15:03.375 - 1A AA AA AA 88 FF 00 01 FF 00 01 0F (调光器地址-茶吧灯带, 茶吧灯带关闭)
2024-09-02 19:15:12.868 - 19 08 24 03 CC 01 CC 00 01 (调用茶吧感应灯开的按键)
2024-09-02 19:15:12.899 - 1A AA AA AA 88 FF B0 01 FF B0 01 0F (调光器地址-茶吧灯带, 茶吧灯带明亮)
2024-09-02 19:15:30.897 - 19 08 24 03 CC 01 CD 00 01 (调用茶吧感应灯关的按键)
2024-09-02 19:15:30.931 - 1A AA AA AA 88 FF 00 01 FF 00 01 0F (调光器地址-茶吧灯带, 茶吧灯带关闭)
2024-09-02 19:16:04.949 - 19 08 24 03 CC 01 54 00 01 (调用内卫感应灯开的按键)
2024-09-02 19:16:04.983 - 1A 0C 02 08 01 FF 45 01 FF 45 01 FF 00 00 0F (调光器地址-内卫射灯, 内卫射灯微光)
2024-09-02 19:16:25.519 - 19 08 24 03 CC 01 CC 00 01 (调用茶吧感应灯开的按键)
2024-09-02 19:16:25.550 - 1A AA AA AA 88 FF B0 01 FF B0 01 0F (调光器地址-茶吧灯带, 茶吧灯带明亮)
2024-09-02 19:16:30.500 - 19 08 24 03 CC 01 55 00 01 (调用内卫感应灯关的按键)
2024-09-02 19:16:30.534 - 1A 0C 02 08 01 FF 00 01 FF 00 01 FF 00 00 0F (调光器地址-内卫射灯, 内卫感应灯关)
2024-09-02 19:16:43.052 - 19 08 24 03 CC 01 CD 00 01 (调用茶吧感应灯关的按键)
2024-09-02 19:16:43.080 - 1A AA AA AA 88 FF 00 01 FF 00 01 0F (调光器地址-茶吧灯带, 茶吧灯带关闭)
2024-09-02 19:17:08.671 - 19 08 24 03 CC 00 D4 00 01 (调用厨房感应灯关的按键)
2024-09-02 19:17:08.704 - 55 0A 31 00 00 00 01 91 55 0A 31 00 00 00 02 92 (厨房顶灯一关, 厨房顶灯二关)
2024-09-02 19:31:20.600 - 1A FF FF FF 04 (继电器地址-东阳衣架)
2024-09-02 19:31:20.730 - FB
2024-09-02 20:06:07.401 - 19 08 24 03 CC 01 52 00 01 (调用外卫感应灯开的按键)
2024-09-02 20:06:07.452 - 1A 0D 01 07 01 FF 45 01 FF 45 01 FF 00 00 0F (调光器地址-外卫射灯, 外卫感应灯开)
2024-09-02 20:08:28.426 - EE 00 00 B1 00 00 00 FF FC FF FF (情景执行提示)
2024-09-02 20:08:29.020 - 09 06 00 0F 02 01 78 21 (提示音叮)
2024-09-02 20:08:29.569 - 1A BE B0 DC 02 00 01 00 (正反转地址-外卫卷帘, 外卫卷帘降)
2024-09-02 20:08:30.150 - 50 F0 03 (开外卫影视)
2024-09-02 20:08:30.765 - 1A FF FF FF 55 00 00 00 0F (人体感应地址-外卫, 关闭外卫感应)
