2025-09-08 22:12:46.958 - 01 04 07 D0 00 06 70 85
2025-09-08 22:12:46.994 - 01 04 0C 00 00 00 00 00 00 00 00 00 00 00 00 95 B7
2025-09-08 22:12:47.464 - 01 04 07 D6 00 06 90 84
2025-09-08 22:12:47.500 - 01 04 0C 00 00 00 00 00 00 00 00 00 00 00 00 95 B7
2025-09-08 22:12:47.969 - 01 04 07 DC 00 06 B0 86
2025-09-08 22:12:48.005 - 01 04 0C 00 00 00 00 00 00 00 00 00 00 00 00 95 B7
2025-09-08 22:12:48.482 - 01 04 07 E2 00 06 D1 4A
2025-09-08 22:12:48.519 - 01 04 0C 00 00 00 00 00 00 00 00 00 00 00 00 95 B7
2025-09-08 22:12:49.000 - 01 04 07 E8 00 06 F1 48
2025-09-08 22:12:49.036 - 01 04 0C 00 00 00 00 00 00 00 00 00 00 00 00 95 B7
2025-09-08 22:13:08.888 - 19 08 24 03 CC 01 54 00 01 (调用内卫感应灯开的按键)
2025-09-08 22:13:08.941 - 1A 0C 02 08 01 FF 45 01 FF 45 01 FF 00 00 0F (调光器地址-内卫射灯, 内卫射灯微光)
2025-09-08 22:13:09.193 - 01 04 07 D0 00 06 70 85
2025-09-08 22:13:09.222 - 01 04 0C 00 00 00 00 00 00 00 00 00 00 00 00 95 B7
2025-09-08 22:13:24.713 - 01 04 07 D0 00 06 70 85
2025-09-08 22:13:24.746 - 01 04 0C 70 01 42 02 00 FA 00 00 01 04 00 00 70 78
2025-09-08 22:13:25.766 - 01 04 07 D6 00 06 90 84
2025-09-08 22:13:25.794 - 01 04 0C 70 01 42 02 00 FA 00 00 01 22 00 00 91 B3
2025-09-08 22:13:26.814 - 01 04 07 DC 00 06 B0 86
2025-09-08 22:13:26.846 - 01 04 0C 70 01 42 02 00 F0 00 00 01 18 00 00 1B BE
2025-09-08 22:13:27.869 - 01 04 07 E2 00 06 D1 4A
2025-09-08 22:13:27.896 - 01 04 0C 70 00 42 02 00 FA 00 00 01 0E 00 00 54 86
2025-09-08 22:13:28.912 - 01 04 07 E8 00 06 F1 48
2025-09-08 22:13:28.946 - 01 04 0C 70 00 42 02 00 DC 00 00 01 22 00 00 D2 8D
2025-09-08 22:13:29.432 - 19 08 24 03 CC 01 55 00 01 (调用内卫感应灯关的按键)
2025-09-08 22:13:29.488 - 1A 0C 02 08 01 FF 00 01 FF 00 01 FF 00 00 0F (调光器地址-内卫射灯, 内卫感应灯关)
2025-09-08 22:13:29.959 - 01 06 07 D8 00 E6 89 0F
2025-09-08 22:13:29.988 - 01 06 07 D8 00 E6 89 0F
2025-09-08 22:13:31.176 - 01 04 07 DC 00 06 B0 86
2025-09-08 22:13:31.209 - 01 04 0C 70 01 42 02 00 E6 00 00 01 18 00 00 6C 7F
2025-09-08 22:14:07.519 - 01 04 07 D0 00 06 70 85
2025-09-08 22:14:07.554 - 01 04 0C 70 01 42 02 00 FA 00 00 01 04 00 00 70 78
2025-09-08 22:14:08.577 - 01 04 07 D6 00 06 90 84
2025-09-08 22:14:08.615 - 01 04 0C 70 01 42 02 00 FA 00 00 01 22 00 00 91 B3
2025-09-08 22:14:09.638 - 01 04 07 DC 00 06 B0 86
2025-09-08 22:14:09.665 - 01 04 0C 70 01 42 02 00 E6 00 00 01 18 00 00 6C 7F
2025-09-08 22:14:10.691 - 01 04 07 E2 00 06 D1 4A
2025-09-08 22:14:10.725 - 01 04 0C 70 00 42 02 00 FA 00 00 01 0E 00 00 54 86
2025-09-08 22:14:11.751 - 01 04 07 E8 00 06 F1 48
2025-09-08 22:14:11.786 - 01 04 0C 70 00 42 02 00 DC 00 00 01 22 00 00 D2 8D
2025-09-08 22:14:12.798 - 01 06 07 D8 00 E6 89 0F
2025-09-08 22:14:12.830 - 01 06 07 D8 00 E6 89 0F
2025-09-08 22:14:13.967 - 01 04 07 DC 00 06 B0 86
2025-09-08 22:14:13.997 - 01 04 0C 70 01 42 02 00 E6 00 00 01 18 00 00 6C 7F
2025-09-08 22:14:24.277 - 01 04 07 D0 00 06 70 85
2025-09-08 22:14:24.308 - 01 04 0C 70 01 42 02 00 FA 00 00 01 04 00 00 70 78
2025-09-08 22:14:24.790 - 01 04 07 D6 00 06 90 84
2025-09-08 22:14:24.823 - 01 04 0C 70 01 42 02 00 FA 00 00 01 22 00 00 91 B3
2025-09-08 22:14:25.302 - 01 04 07 DC 00 06 B0 86
2025-09-08 22:14:25.339 - 01 04 0C 70 01 42 02 00 E6 00 00 01 18 00 00 6C 7F
2025-09-08 22:14:25.816 - 01 04 07 E2 00 06 D1 4A
2025-09-08 22:14:25.854 - 01 04 0C 70 00 42 02 00 FA 00 00 01 0E 00 00 54 86
2025-09-08 22:14:26.318 - 01 04 07 E8 00 06 F1 48
2025-09-08 22:14:26.349 - 01 04 0C 70 00 42 02 00 DC 00 00 01 22 00 00 D2 8D
2025-09-08 22:14:38.628 - 01 06 07 D6 50 FF 15 06
2025-09-08 22:14:38.659 - 01 06 07 D6 50 FF 15 06
2025-09-08 22:14:40.145 - 01 04 07 DC 00 06 B0 86
2025-09-08 22:14:40.183 - 01 04 0C 50 01 42 02 00 E6 00 00 01 18 00 00 ED C0
2025-09-08 22:14:56.229 - 01 06 07 D8 00 DC 09 1C
2025-09-08 22:14:56.262 - 01 06 07 D8 00 DC 09 1C
2025-09-08 22:15:04.008 - 01 06 07 D8 00 A0 08 FD
2025-09-08 22:15:04.038 - 01 06 07 D8 00 A0 08 FD
2025-09-08 22:15:10.024 - 01 04 07 DC 00 06 B0 86
2025-09-08 22:15:10.056 - 01 04 0C 50 01 42 02 00 A0 00 00 01 18 00 00 CA 04
2025-09-08 22:15:21.076 - 01 06 07 D8 00 DC 09 1C
2025-09-08 22:15:21.106 - 01 06 07 D8 00 DC 09 1C
2025-09-08 22:15:35.226 - 01 06 07 D7 00 07 79 44
2025-09-08 22:15:35.254 - 01 06 07 D7 00 07 79 44
2025-09-08 22:15:45.026 - 01 06 07 D7 00 02 B9 47
2025-09-08 22:15:45.061 - 01 06 07 D7 00 02 B9 47
2025-09-08 22:15:46.141 - 01 04 07 DC 00 06 B0 86
2025-09-08 22:15:46.170 - 01 04 0C 50 01 42 02 00 DC 00 00 01 18 00 00 77 C3
2025-09-08 22:16:11.484 - 01 10 07 D6 00 03 06 50 60 00 02 00 DC 34 43
2025-09-08 22:16:11.528 - 01 10 07 D6 00 03 06 50 60 00 02 00 DC 34 43
2025-09-08 22:16:13.623 - 01 04 07 DC 00 06 B0 86
2025-09-08 22:16:13.660 - 01 04 0C 50 00 42 02 00 DC 00 00 01 18 00 00 73 3F
2025-09-08 22:16:18.922 - 01 10 07 D6 00 03 06 50 61 00 02 00 DC 09 83
2025-09-08 22:16:18.962 - 01 10 07 D6 00 03 06 50 61 00 02 00 DC 09 83
2025-09-08 22:17:03.665 - 01 04 07 DC 00 06 B0 86
2025-09-08 22:17:03.700 - 01 04 0C 50 01 42 02 00 DC 00 00 01 18 00 00 77 C3
2025-09-08 22:18:27.566 - 19 08 24 03 CC 01 52 00 01 (调用外卫感应灯开的按键)
2025-09-08 22:18:27.619 - 1A 0D 01 07 01 FF 45 01 FF 45 01 FF 00 00 0F (调光器地址-外卫射灯, 外卫感应灯开)
2025-09-08 22:19:15.065 - 01 04 07 D0 00 06 70 85
2025-09-08 22:19:15.097 - 01 04 0C 70 01 42 02 00 FA 00 00 01 04 00 00 70 78
2025-09-08 22:19:15.568 - 01 04 07 D6 00 06 90 84
2025-09-08 22:19:15.603 - 01 04 0C 70 01 42 02 00 FA 00 00 01 22 00 00 91 B3
2025-09-08 22:19:16.084 - 01 04 07 DC 00 06 B0 86
2025-09-08 22:19:16.118 - 01 04 0C 50 01 42 02 00 DC 00 00 01 18 00 00 77 C3
2025-09-08 22:19:16.596 - 01 04 07 E2 00 06 D1 4A
2025-09-08 22:19:16.633 - 01 04 0C 70 00 42 02 00 FA 00 00 01 0E 00 00 54 86
2025-09-08 22:19:17.111 - 01 04 07 E8 00 06 F1 48
2025-09-08 22:19:17.147 - 01 04 0C 70 00 42 02 00 DC 00 00 01 22 00 00 D2 8D
2025-09-08 22:23:11.498 - 1A BE B0 DC 02 (正反转地址-外卫卷帘)
2025-09-08 22:23:11.637 - FC
2025-09-08 22:23:33.169 - 19 08 24 03 CC 01 53 00 01 (调用外卫感应灯关的按键)
2025-09-08 22:23:33.219 - 1A 0D 01 07 01 FF 00 01 FF 00 01 FF 00 00 0F (调光器地址-外卫射灯, 外卫感应灯关)
2025-09-08 22:23:38.680 - 19 08 24 03 CC 01 52 00 01 (调用外卫感应灯开的按键)
2025-09-08 22:23:38.733 - 1A 0D 01 07 01 FF 45 01 FF 45 01 FF 00 00 0F (调光器地址-外卫射灯, 外卫感应灯开)
2025-09-08 22:24:04.861 - 19 08 24 03 CC 01 CC 00 01 (调用茶吧感应灯开的按键)
2025-09-08 22:24:04.892 - 1A AA AA AA 88 FF B0 01 FF B0 01 0F (调光器地址-茶吧灯带, 茶吧灯带明亮)
2025-09-08 22:24:10.244 - 19 08 24 03 CC 01 53 00 01 (调用外卫感应灯关的按键)
2025-09-08 22:24:10.274 - 1A 0D 01 07 01 FF 00 01 FF 00 01 FF 00 00 0F (调光器地址-外卫射灯, 外卫感应灯关)
2025-09-08 22:25:13.496 - 19 08 24 03 CC 01 CD 00 01 (调用茶吧感应灯关的按键)
2025-09-08 22:25:13.527 - 1A AA AA AA 88 FF 00 01 FF 00 01 0F (调光器地址-茶吧灯带, 茶吧灯带关闭)
2025-09-08 22:25:13.867 - 19 08 24 03 CC 01 52 00 01 (调用外卫感应灯开的按键)
2025-09-08 22:25:24.370 - 19 08 24 03 DD 00 3E 00 01 (调用情景-外卫照明关帘)
2025-09-08 22:25:24.901 - EE 00 00 B1 00 00 00 FF FC FF FF (情景执行提示)
2025-09-08 22:25:25.498 - 09 06 00 0F 02 01 78 21 (提示音叮)
2025-09-08 22:25:26.047 - 1A FF FF FF 55 00 00 00 0F (人体感应地址-外卫, 关闭外卫感应)
2025-09-08 22:25:26.151 - BF BF
2025-09-08 22:25:27.148 - 1A 0D 01 07 01 FF F0 01 FF F0 01 FF 00 00 0F (调光器地址-外卫射灯, 外卫射灯明亮)
2025-09-08 22:25:27.740 - 09 06 00 0F 02 02 38 20 (提示音咚)
2025-09-08 22:25:28.291 - EE 00 00 B1 00 00 02 FF FC FF FF (情景完成返回主页)
2025-09-08 22:26:26.623 - 01 04 07 D0 00 06 70 85
2025-09-08 22:26:26.656 - 01 04 0C 70 01 42 02 00 FA 00 00 01 04 00 00 70 78
2025-09-08 22:26:27.131 - 01 04 07 D6 00 06 90 84
2025-09-08 22:26:27.161 - 01 04 0C 70 01 42 02 00 FA 00 00 01 22 00 00 91 B3
2025-09-08 22:26:27.641 - 01 04 07 DC 00 06 B0 86
2025-09-08 22:26:27.675 - 01 04 0C 50 01 42 02 00 DC 00 00 01 18 00 00 77 C3
2025-09-08 22:26:28.220 - 01 04 07 E2 00 06 D1 4A
2025-09-08 22:26:28.252 - 01 04 0C 70 00 42 02 00 FA 00 00 01 0E 00 00 54 86
2025-09-08 22:26:28.658 - 01 04 07 E8 00 06 F1 48
2025-09-08 22:26:28.696 - 01 04 0C 70 00 42 02 00 DC 00 00 01 22 00 00 D2 8D
