2024-08-29 08:02:43.835 - 1A FF FF FF 04 FC (继电器地址-东阳衣架)
2024-08-29 08:02:43.977 - FF
2024-08-29 09:18:06.005 - FF
2024-08-29 11:02:30.351 - 1A BE B0 DC 04 (继电器地址-西阳窗帘)
2024-08-29 11:02:39.377 - FF FF FF FF 0E (继电器地址-西阳小窗帘)
2024-08-29 11:03:07.008 - 1A BE B0 DC 09 (继电器地址-客厅窗帘)
2024-08-29 11:03:07.136 - FF
2024-08-29 11:03:13.696 - 1A BE B0 DC 02 (正反转地址-外卫卷帘)
2024-08-29 11:03:20.282 - 1A BE B0 DC 0A FF (继电器地址-客厅纱帘)
2024-08-29 11:03:37.914 - 1A BE B0 DC 01 (继电器地址-回水泵点动)
2024-08-29 11:03:38.053 - FF
2024-08-29 11:03:40.499 - 1A BE B0 DC 03 FC (继电器地址-西阳天幕)
2024-08-29 11:06:03.357 - FF FF FF FF 0A FC (继电器地址-东阳窗帘)
2024-08-29 11:06:03.499 - FF
2024-08-29 11:23:47.607 - 1A FF FF FF 04 (继电器地址-东阳衣架)
2024-08-29 11:23:47.743 - 03
2024-08-29 14:22:23.984 - 1A BE B0 DC 04 (继电器地址-西阳窗帘)
2024-08-29 14:22:24.117 - FF
2024-08-29 14:22:40.121 - FF FF FF FF 0E (继电器地址-西阳小窗帘)
2024-08-29 14:22:40.255 - FF
2024-08-29 14:23:29.931 - 1A BE B0 DC 09 FC (继电器地址-客厅窗帘)
2024-08-29 14:23:30.067 - FF
2024-08-29 14:23:44.911 - 1A BE B0 DC 02 FC (正反转地址-外卫卷帘)
2024-08-29 14:23:45.052 - FF
2024-08-29 14:23:54.524 - 1A BE B0 DC 0A FC (继电器地址-客厅纱帘)
2024-08-29 14:23:54.654 - FF
2024-08-29 14:24:31.458 - 1A BE B0 DC 01 FC (继电器地址-回水泵点动)
2024-08-29 14:24:31.591 - FF
2024-08-29 14:24:37.743 - 1A BE B0 DC 03 (继电器地址-西阳天幕)
2024-08-29 14:24:37.883 - FE
2024-08-29 14:26:17.952 - FF FF FF FF 0A (继电器地址-东阳窗帘)
2024-08-29 14:44:54.248 - 1A FF FF FF 04 (继电器地址-东阳衣架)
2024-08-29 14:44:54.386 - 03
2024-08-29 14:54:53.696 - 1A FF FF FF 60 (红外总线地址-主卧发射设备)
2024-08-29 17:14:28.070 - FF
2024-08-29 17:42:17.980 - 1A BE B0 DC 04 (继电器地址-西阳窗帘)
2024-08-29 17:43:17.581 - FF FF FF FF 0E FE (继电器地址-西阳小窗帘)
2024-08-29 17:43:17.724 - FF
2024-08-29 17:43:53.839 - 1A BE B0 DC 09 FC (继电器地址-客厅窗帘)
2024-08-29 17:44:16.184 - 1A BE B0 DC 02 FC (正反转地址-外卫卷帘)
2024-08-29 17:44:28.127 - 1A BE B0 DC 0A FC (继电器地址-客厅纱帘)
2024-08-29 17:45:24.770 - 1A BE B0 DC 01 (继电器地址-回水泵点动)
2024-08-29 17:45:34.832 - 1A BE B0 DC 03 FC (继电器地址-西阳天幕)
2024-08-29 17:45:34.960 - FF
2024-08-29 17:46:32.916 - FF FF FF FF 0A (继电器地址-东阳窗帘)
2024-08-29 17:46:33.058 - FF
2024-08-29 17:56:16.001 - FF
2024-08-29 17:58:19.010 - EE 00 00 B1 00 00 00 FF FC FF FF (情景执行提示)
2024-08-29 17:58:19.635 - 09 06 00 0F 02 01 78 21 (提示音叮)
2024-08-29 17:58:20.203 - A1 11 11 11 40 (客厅空调自动开)
2024-08-29 17:58:20.425 - 19 08 24 03 F0 BB 78 02 02 00
2024-08-29 17:58:20.476 - 23 AA 56 02 11 3A 30 18 08 1D 04 73 65 6F 6B 65 6E 64
2024-08-29 17:58:21.434 - 01 10 07 D0 00 03 06 70 61 00 02 00 FA 6F 26 (客厅空调冷25度)
2024-08-29 17:58:21.473 - 01 10 07 D0 00 03 06 70 61 00 02 00 FA 6F 26 (客厅空调冷25度)
2024-08-29 17:58:24.237 - A1 11 11 11 41 (餐厅空调自动开)
2024-08-29 17:58:24.467 - 19 08 24 03 F0 BB 78 02 02 00
2024-08-29 17:58:24.518 - 23 AA 56 02 11 3A 34 18 08 1D 04 73 65 6F 6B 65 6E 64
2024-08-29 17:58:25.476 - 01 10 07 D3 00 03 06 70 61 00 02 00 FA 9F 29 (餐厅空调冷25度)
2024-08-29 17:58:25.511 - 01 10 07 D3 00 03 06 70 61 00 02 00 FA 9F 29 (餐厅空调冷25度)
2024-08-29 17:58:28.272 - A1 11 11 11 42 (主卧空调自动开)
2024-08-29 17:58:28.500 - 19 08 24 03 F0 BB 78 02 02 00
2024-08-29 17:58:28.550 - 23 AA 56 02 11 3A 38 18 08 1D 04 73 65 6F 6B 65 6E 64
2024-08-29 17:58:28.823 - 09 06 00 0F 02 02 38 20 (提示音咚)
2024-08-29 17:58:29.509 - 01 10 07 D6 00 03 06 70 61 00 02 00 F0 0F 3E (主卧空调冷24度)
2024-08-29 17:58:29.552 - 01 10 07 D6 00 03 06 70 61 00 02 00 F0 0F 3E (主卧空调冷24度)
2024-08-29 17:58:29.873 - EE 00 00 B1 00 00 02 FF FC FF FF (情景完成返回主页)
2024-08-29 17:59:57.876 - EE 00 00 B1 00 00 00 FF FC FF FF (情景执行提示)
2024-08-29 17:59:58.471 - 09 06 00 0F 02 01 78 21 (提示音叮)
2024-08-29 17:59:59.015 - A1 11 11 11 40 (客厅空调自动开)
2024-08-29 17:59:59.235 - 19 08 24 03 F0 BB 78 02 02 00
2024-08-29 17:59:59.286 - 23 AA 56 02 12 00 1B 18 08 1D 04 73 65 6F 6B 65 6E 64
2024-08-29 18:00:00.250 - 01 10 07 D0 00 03 06 70 61 00 02 00 FA 6F 26 (客厅空调冷25度)
2024-08-29 18:00:00.290 - 01 10 07 D0 00 03 06 70 61 00 02 00 FA 6F 26 (客厅空调冷25度)
2024-08-29 18:00:03.099 - A1 11 11 11 41 (餐厅空调自动开)
2024-08-29 18:00:03.330 - 19 08 24 03 F0 BB 78 02 02 00
2024-08-29 18:00:03.381 - 23 AA 56 02 12 00 1F 18 08 1D 04 73 65 6F 6B 65 6E 64
2024-08-29 18:00:04.334 - 01 10 07 D3 00 03 06 70 61 00 02 00 FA 9F 29 (餐厅空调冷25度)
2024-08-29 18:00:04.377 - 01 10 07 D3 00 03 06 70 61 00 02 00 FA 9F 29 (餐厅空调冷25度)
2024-08-29 18:00:07.134 - A1 11 11 11 42 (主卧空调自动开)
2024-08-29 18:00:07.361 - 19 08 24 03 F0 BB 78 02 02 00
2024-08-29 18:00:07.412 - 23 AA 56 02 12 00 23 18 08 1D 04 73 65 6F 6B 65 6E 64
2024-08-29 18:00:08.364 - 01 10 07 D6 00 03 06 70 61 00 02 00 F0 0F 3E (主卧空调冷24度)
2024-08-29 18:00:08.409 - 01 10 07 D6 00 03 06 70 61 00 02 00 F0 0F 3E (主卧空调冷24度)
2024-08-29 18:00:09.180 - 09 06 00 0F 02 02 38 20 (提示音咚)
2024-08-29 18:00:09.732 - EE 00 00 B1 00 00 02 FF FC FF FF (情景完成返回主页)
2024-08-29 18:06:00.878 - 1A FF FF FF 04 (继电器地址-东阳衣架)
2024-08-29 18:06:01.007 - 03
2024-08-29 18:31:02.552 - 1B 03 00 00 00 02 C6 31 (查询室外光线)
2024-08-29 18:31:02.580 - 1B 03 04 00 00 00 07 00 30 (室外光线返回)
2024-08-29 18:31:02.899 - 1A EC A0 DC 02 00 00 01 0F (自保持开关地址-天花12V供电, 天花12V 供电开)
2024-08-29 18:31:03.409 - 1A AA AA AA 88 (调光器地址-茶吧灯带)
2024-08-29 18:31:03.605 - 1A FF 01 FF FF FF 60 01 FF 60 01 FF 00 00 0F (调光器地址-公共区域统配地址)
2024-08-29 18:31:04.591 - 19 08 24 03 DD 00 0D 00 01 (调用情景-信科调用进门暗)
2024-08-29 18:31:06.615 - 1A EC A0 DC 01 00 00 01 0F (自保持开关地址-电视、设备12V供电, 12V 电视供电开)
2024-08-29 18:31:07.159 - 1A EC A0 DC 01 00 00 01 0F (自保持开关地址-电视、设备12V供电, 12V 电视供电开)
2024-08-29 18:31:07.704 - 1A EC A0 DC 04 00 01 01 0F (自保持开关地址-次卧西阳内外卫供电, 内卫外卫开)
2024-08-29 18:31:08.256 - 1A EC A0 DC 04 00 01 01 0F (自保持开关地址-次卧西阳内外卫供电, 内卫外卫开)
2024-08-29 18:31:13.301 - 1A 27 89 12 AA 00 00 01 0F (状态寄存器地址, 有人状态)
2024-08-29 18:31:13.845 - 1A 27 89 12 AA 00 00 01 0F (状态寄存器地址, 有人状态)
2024-08-29 18:31:14.389 - 1A BE B0 DC 01 00 01 00 (继电器地址-回水泵点动, 回水泵点动)
2024-08-29 18:31:14.941 - 1A FF FF FF 56 00 00 01 0F (人体感应地址-内卫, 打开内卫感应)
2024-08-29 18:31:15.483 - 1A FF FF FF 55 00 00 01 0F (人体感应地址-外卫, 打开外卫感应)
2024-08-29 18:31:15.579 - BC BC
2024-08-29 18:31:16.041 - 1A FF FF FF 57 00 00 01 0F (人体感应地址-厨房, 打开厨房感应)
2024-08-29 18:31:16.635 - 1A FF FF FF 58 00 00 01 0F (人体感应地址-茶吧, 打开茶吧感应)
2024-08-29 18:31:16.686 - BC BC
2024-08-29 18:31:17.062 - 19 08 24 03 CC 01 55 00 01 (调用内卫感应灯关的按键)
2024-08-29 18:31:17.111 - 1A 0C 02 08 01 FF 00 01 FF 00 01 FF 00 00 0F (调光器地址-内卫射灯, 内卫感应灯关)
2024-08-29 18:31:17.519 - 1A BE B0 DC 01 00 01 00 (继电器地址-回水泵点动, 回水泵点动)
2024-08-29 18:31:18.131 - A5 00 B7 FF 00 AA 22 0D (书房纱帘关)
2024-08-29 18:31:18.675 - A5 00 A2 FF 00 AA (餐厅纱帘关)
2024-08-29 18:31:19.231 - 09 06 00 0F 02 01 78 21 (提示音叮)
2024-08-29 18:31:19.772 - 09 06 00 0F 02 01 78 21 (提示音叮)
2024-08-29 18:31:20.325 - EE 00 00 B1 00 00 02 FF FC FF FF (情景完成返回主页)
2024-08-29 18:31:20.920 - A1 11 11 11 50 (天花供电打开确认)
2024-08-29 18:31:21.074 - 19 08 24 03 CC 01 54 00 01 (调用内卫感应灯开的按键)
2024-08-29 18:31:21.108 - 1A 0C 02 08 01 FF 45 01 FF 45 01 FF 00 00 0F (调光器地址-内卫射灯, 内卫射灯微光)
2024-08-29 18:31:23.458 - A1 11 11 11 51 (卫生供电打开确认)
2024-08-29 18:31:23.682 - 1A EC A0 DC 04 86 86 86 0F (查询卫生间供电状态, 自保持开关地址-次卧西阳内外卫供电)
2024-08-29 18:31:24.118 - 1A EC A0 DC 04 01 01 0F (自保持开关地址-次卧西阳内外卫供电)
2024-08-29 18:31:25.994 - A1 11 11 11 52 (电视供电打开确认)
2024-08-29 18:31:26.227 - 1A EC A0 DC 01 86 86 86 0F (查询电视供电状态, 自保持开关地址-电视、设备12V供电)
2024-08-29 18:31:26.652 - 1A EC A0 DC 01 01 01 0F (自保持开关地址-电视、设备12V供电)
2024-08-29 18:31:31.035 - A1 11 11 11 47 (天热回家开帘)
2024-08-29 18:31:31.261 - 1A 27 89 12 AA 86 86 86 0F (查询寄存器状态, 状态寄存器地址)
2024-08-29 18:31:31.641 - 1A 27 89 12 AA 01 00 00 00 00 00 00 00 00 00 00 01 00 00 00 00 0F (状态寄存器地址)
2024-08-29 18:31:32.264 - 19 08 24 03 DD 00 06 00 01 (调用情景-天热遮阳开帘)
2024-08-29 18:31:32.789 - EE 00 00 B1 00 00 00 FF FC FF FF (情景执行提示)
2024-08-29 18:31:33.379 - 09 06 00 0F 02 01 78 21 (提示音叮)
2024-08-29 18:31:33.921 - A5 00 A6 FE 01 AA (餐厅窗帘开)
2024-08-29 18:31:33.985 - 55 00 A6 02 01 67 01 75 AA 55 00 A6 02 01 67 01 75 FE (餐厅窗帘电机状态返回)
2024-08-29 18:31:35.021 - A5 00 52 FE 01 AA (主卧窗帘开)
2024-08-29 18:31:36.058 - A5 00 53 FF 00 AA (主卧纱帘开)
2024-08-29 18:31:36.124 - 55 00 53 01 00 0C 02 30 AA 55 00 53 01 00 0C 02 F0 (主卧纱帘电机状态返回)
2024-08-29 18:31:37.162 - A5 00 76 FE 01 AA (次卧窗帘开)
2024-08-29 18:31:37.222 - 55 00 76 02 01 0E 01 1B AA 55 00 76 02 01 0E FD (次卧窗帘电机状态返回)
2024-08-29 18:31:38.260 - A5 00 21 FE 01 AA (次卧纱帘开)
2024-08-29 18:31:38.308 - 55 00 21 02 01 27 01 34 AA 55 00 21 02 01 27 01 34 AA (次卧纱帘电机状态返回)
2024-08-29 18:31:39.361 - 1A BE B0 DC 04 00 01 00 (继电器地址-西阳窗帘, 西阳窗帘开)
2024-08-29 18:31:40.411 - FF FF FF FF 0E 00 01 00 (继电器地址-西阳小窗帘, 西阳小窗帘开)
2024-08-29 18:31:41.451 - A5 00 D2 FE 01 AA 22 0D (书房窗帘开)
2024-08-29 18:31:41.499 - 55 00 D2 02 00 E5 00 F2 AA 55 00 D2 02 00 E5 00 F2 AA (书房窗帘电机状态返回)
2024-08-29 18:31:42.553 - 09 06 00 0F 02 02 38 20 (提示音咚)
2024-08-29 18:31:42.706 - 55 00 A6 00 00 0E 01 75 AA 55 00 A6 00 00 0E 01 75 AA (餐厅窗帘电机状态返回)
2024-08-29 18:31:43.097 - EE 00 00 B1 00 00 02 FF FC FF FF (情景完成返回主页)
2024-08-29 18:31:44.220 - 55 00 76 00 00 0E 01 1B AA 55 00 76 00 00 0E 01 1B AA (次卧窗帘电机状态返回)
2024-08-29 18:31:45.791 - 55 00 21 00 00 0D 01 34 AA 55 00 21 00 00 0D 01 34 AA (次卧纱帘电机状态返回)
2024-08-29 18:31:47.133 - 55 20 20 00 00 0E 02 16 AA 55 20 20 00 00 0E 02 16 AA (主卧窗帘电机状态返回)
2024-08-29 18:31:47.282 - 55 00 53 00 02 22 02 30 AA 55 00 53 00 02 22 02 30 AA (主卧纱帘电机状态返回)
2024-08-29 18:31:48.930 - 55 00 D2 00 00 0E 00 F2 AA 55 00 D2 00 00 0E 00 F2 AA (书房窗帘电机状态返回)
2024-08-29 18:31:49.587 - 19 08 24 03 DD 00 12 00 01 (调用情景-公共灯光开)
2024-08-29 18:31:50.129 - EE 00 00 B1 00 00 00 FF FC FF FF (情景执行提示)
2024-08-29 18:31:50.720 - 09 06 00 0F 02 01 78 21 (提示音叮)
2024-08-29 18:31:51.279 - 1A 0D 01 01 01 FF 55 01 FF 55 01 FF 00 00 0F (调光器地址-客厅筒灯, 客厅筒灯微光)
2024-08-29 18:31:51.873 - 1A 0D 01 01 03 FF 55 01 FF 55 01 FF 00 00 0F (调光器地址-客厅过道, 客厅过道微光)
2024-08-29 18:31:52.473 - 1A 0D 01 01 02 FF 55 01 FF 55 01 FF 00 00 0F (调光器地址-客厅灯带, 客厅灯带微光)
2024-08-29 18:31:53.064 - 1A 0B 01 02 02 FF 45 01 FF 45 01 FF 00 00 0F (调光器地址-门厅射灯, 门厅背景微光)
2024-08-29 18:31:53.670 - 1A 0B 01 02 01 FF 45 01 FF 45 01 FF 00 00 0F (调光器地址-门厅灯带, 门厅灯带微光)
2024-08-29 18:31:54.271 - 1A 0B 01 03 01 FF 45 01 FF 45 01 FF 00 00 0F (调光器地址-餐厅筒灯, 餐厅筒灯微光)
2024-08-29 18:31:54.867 - 1A 0B 01 03 02 FF 45 01 FF 45 01 FF 00 00 0F (调光器地址-餐桌筒灯, 餐桌筒灯微光)
2024-08-29 18:31:55.462 - 1A 0B 01 03 03 FF 45 01 FF 45 01 FF 00 00 0F (调光器地址-餐厅灯带, 餐厅灯带微光)
2024-08-29 18:31:55.792 - 19 08 24 03 CC 01 CD 00 01 (调用茶吧感应灯关的按键)
2024-08-29 18:31:55.824 - 1A AA AA AA 88 FF 00 01 FF 00 01 0F (调光器地址-茶吧灯带, 茶吧灯带关闭)
2024-08-29 18:31:56.222 - 55 0A 32 00 00 00 01 92 (厨房顶灯一开)
2024-08-29 18:31:56.806 - 55 0A 32 00 00 00 02 93 (厨房顶灯二开)
2024-08-29 18:31:57.354 - 09 06 00 0F 02 02 38 20 (提示音咚)
2024-08-29 18:31:57.537 - 1A 20 07 01 55 00 01 02 0F (自保持开关地址-主卧顶灯, 主卧顶灯开关)
2024-08-29 18:31:57.946 - EE 00 00 B1 00 00 02 FF FC FF FF (情景完成返回主页)
2024-08-29 18:31:58.167 - 19 08 24 03 CC 01 55 00 01 (调用内卫感应灯关的按键)
2024-08-29 18:31:58.201 - 1A 0C 02 08 01 FF 00 01 FF 00 01 FF 00 00 0F (调光器地址-内卫射灯, 内卫感应灯关)
2024-08-29 18:32:44.844 - 19 08 24 03 CC 00 D3 00 01 (调用厨房感应灯开的按键)
2024-08-29 18:32:44.876 - 55 0A 32 00 00 00 01 92 55 0A 32 00 00 00 02 93 (厨房顶灯一开, 厨房顶灯二开)
2024-08-29 18:33:42.959 - 19 08 24 03 CC 00 D4 00 01 (调用厨房感应灯关的按键)
2024-08-29 18:33:42.990 - 55 0A 31 00 00 00 01 91 55 0A 31 00 00 00 02 92 (厨房顶灯一关, 厨房顶灯二关)
2024-08-29 18:34:26.542 - 19 08 24 03 CC 00 D3 00 01 (调用厨房感应灯开的按键)
2024-08-29 18:34:26.588 - 55 0A 32 00 00 00 01 92 55 0A 32 00 00 00 02 93 (厨房顶灯一开, 厨房顶灯二开)
2024-08-29 18:34:41.887 - 1A 20 07 01 55 00 01 02 0F (自保持开关地址-主卧顶灯, 主卧顶灯开关)
2024-08-29 18:34:50.151 - 19 08 24 03 CC 01 CC 00 01 (调用茶吧感应灯开的按键)
2024-08-29 18:34:50.184 - 1A AA AA AA 88 FF B0 01 FF B0 01 0F (调光器地址-茶吧灯带, 茶吧灯带明亮)
2024-08-29 18:35:25.163 - 19 08 24 03 CC 00 D4 00 01 (调用厨房感应灯关的按键)
2024-08-29 18:35:25.203 - 55 0A 31 00 00 00 01 91 55 0A 31 00 00 00 02 92 (厨房顶灯一关, 厨房顶灯二关)
2024-08-29 18:35:27.227 - 19 08 24 03 CC 01 CD 00 01 (调用茶吧感应灯关的按键)
2024-08-29 18:35:27.260 - 1A AA AA AA 88 FF 00 01 FF 00 01 0F (调光器地址-茶吧灯带, 茶吧灯带关闭)
2024-08-29 18:35:31.670 - 19 08 24 03 CC 00 D3 00 01 (调用厨房感应灯开的按键)
2024-08-29 18:35:31.701 - 55 0A 32 00 00 00 01 92 55 0A 32 00 00 00 02 93 (厨房顶灯一开, 厨房顶灯二开)
2024-08-29 18:36:20.273 - 19 08 24 03 CC 00 D4 00 01 (调用厨房感应灯关的按键)
2024-08-29 18:36:20.307 - 55 0A 31 00 00 00 01 91 55 0A 31 00 00 00 02 92 (厨房顶灯一关, 厨房顶灯二关)
2024-08-29 18:37:34.922 - 19 08 24 03 CC 00 D3 00 01 (调用厨房感应灯开的按键)
2024-08-29 18:37:34.954 - 55 0A 32 00 00 00 01 92 55 0A 32 00 00 00 02 93 (厨房顶灯一开, 厨房顶灯二开)
2024-08-29 18:37:50.003 - 19 08 24 03 CC 01 CC 00 01 (调用茶吧感应灯开的按键)
2024-08-29 18:37:50.037 - 1A AA AA AA 88 FF B0 01 FF B0 01 0F (调光器地址-茶吧灯带, 茶吧灯带明亮)
2024-08-29 18:38:19.058 - 19 08 24 03 CC 01 CD 00 01 (调用茶吧感应灯关的按键)
2024-08-29 18:38:19.090 - 1A AA AA AA 88 FF 00 01 FF 00 01 0F (调光器地址-茶吧灯带, 茶吧灯带关闭)
2024-08-29 18:38:30.530 - 19 08 24 03 CC 00 D4 00 01 (调用厨房感应灯关的按键)
2024-08-29 18:38:30.564 - 55 0A 31 00 00 00 01 91 55 0A 31 00 00 00 02 92 (厨房顶灯一关, 厨房顶灯二关)
2024-08-29 18:39:02.466 - EE 00 6E B1 01 00 03 FF FC FF FF
2024-08-29 18:39:03.034 - EE 00 6E B1 01 00 08 FF FC FF FF
2024-08-29 18:39:03.504 - 1A BE B0 DC 0A 00 01 00 (继电器地址-客厅纱帘, 客厅纱帘关)
2024-08-29 18:39:46.675 - 19 08 24 03 CC 00 D3 00 01 (调用厨房感应灯开的按键)
2024-08-29 18:39:46.735 - 55 0A 32 00 00 00 01 92 55 0A 32 00 00 00 02 93 (厨房顶灯一开, 厨房顶灯二开)
2024-08-29 18:40:01.616 - 19 08 24 03 CC 01 54 00 01 (调用内卫感应灯开的按键)
2024-08-29 18:40:01.650 - 1A 0C 02 08 01 FF 45 01 FF 45 01 FF 00 00 0F (调光器地址-内卫射灯, 内卫射灯微光)
2024-08-29 18:40:21.736 - 19 08 24 03 CC 00 D4 00 01 (调用厨房感应灯关的按键)
2024-08-29 18:40:21.783 - 55 0A 31 00 00 00 01 91 55 0A 31 00 00 00 02 92 (厨房顶灯一关, 厨房顶灯二关)
2024-08-29 18:40:57.320 - 19 08 24 03 CC 00 D3 00 01 (调用厨房感应灯开的按键)
2024-08-29 18:40:57.352 - 55 0A 32 00 00 00 01 92 55 0A 32 00 00 00 02 93 (厨房顶灯一开, 厨房顶灯二开)
2024-08-29 18:41:10.908 - 19 08 24 03 CC 01 CC 00 01 (调用茶吧感应灯开的按键)
2024-08-29 18:41:10.940 - 1A AA AA AA 88 FF B0 01 FF B0 01 0F (调光器地址-茶吧灯带, 茶吧灯带明亮)
2024-08-29 18:41:12.360 - 19 08 24 03 DD 00 3B 00 01 (调用情景-书房照明关帘)
2024-08-29 18:41:12.863 - EE 00 00 B1 00 00 00 FF FC FF FF (情景执行提示)
2024-08-29 18:41:13.457 - 09 06 00 0F 02 01 78 21 (提示音叮)
2024-08-29 18:41:14.064 - 1A 0A 04 06 01 FF F0 01 FF F0 01 FF 00 00 0F (调光器地址-书房射灯, 书房射灯明亮)
2024-08-29 18:41:18.144 - A5 00 B7 FF 00 AA 22 0D (书房纱帘关)
2024-08-29 18:41:19.181 - A5 00 D2 FF 00 AA 22 0C (书房窗帘关)
2024-08-29 18:41:19.232 - 55 00 D2 01 00 0E 00 F2 AA 55 00 D2 01 00 0E 00 F2 AA (书房窗帘电机状态返回)
2024-08-29 18:41:20.286 - 09 06 00 0F 02 02 38 20 (提示音咚)
2024-08-29 18:41:20.865 - EE 00 00 B1 00 00 02 FF FC FF FF (情景完成返回主页)
2024-08-29 18:41:21.273 - 19 08 24 03 CC 01 55 00 01 (调用内卫感应灯关的按键)
2024-08-29 18:41:21.324 - 1A 0C 02 08 01 FF 00 01 FF 00 01 FF 00 00 0F (调光器地址-内卫射灯, 内卫感应灯关)
2024-08-29 18:41:26.445 - 19 08 24 03 CC 01 CD 00 01 (调用茶吧感应灯关的按键)
2024-08-29 18:41:26.479 - 1A AA AA AA 88 FF 00 01 FF 00 01 0F (调光器地址-茶吧灯带, 茶吧灯带关闭)
2024-08-29 18:41:27.060 - 55 00 D2 00 00 E5 00 F2 AA 55 00 D2 00 00 E5 00 F2 AA (书房窗帘电机状态返回)
2024-08-29 18:41:47.936 - 19 08 24 03 CC 00 D4 00 01 (调用厨房感应灯关的按键)
2024-08-29 18:41:47.991 - 55 0A 31 00 00 00 01 91 55 0A 31 00 00 00 02 92 (厨房顶灯一关, 厨房顶灯二关)
2024-08-29 18:43:02.974 - 19 08 24 03 CC 01 54 00 01 (调用内卫感应灯开的按键)
2024-08-29 18:43:03.008 - 1A 0C 02 08 01 FF 45 01 FF 45 01 FF 00 00 0F (调光器地址-内卫射灯, 内卫射灯微光)
2024-08-29 18:43:28.523 - 19 08 24 03 CC 01 55 00 01 (调用内卫感应灯关的按键)
2024-08-29 18:43:28.559 - 1A 0C 02 08 01 FF 00 01 FF 00 01 FF 00 00 0F (调光器地址-内卫射灯, 内卫感应灯关)
2024-08-29 18:44:28.249 - 19 08 24 03 CC 00 D3 00 01 (调用厨房感应灯开的按键)
2024-08-29 18:44:28.281 - 55 0A 32 00 00 00 01 92 55 0A 32 00 00 00 02 93 (厨房顶灯一开, 厨房顶灯二开)
2024-08-29 18:45:03.317 - 19 08 24 03 CC 00 D4 00 01 (调用厨房感应灯关的按键)
2024-08-29 18:45:03.351 - 55 0A 31 00 00 00 01 91 55 0A 31 00 00 00 02 92 (厨房顶灯一关, 厨房顶灯二关)
2024-08-29 18:46:00.430 - 19 08 24 03 CC 00 D3 00 01 (调用厨房感应灯开的按键)
2024-08-29 18:46:00.462 - 55 0A 32 00 00 00 01 92 55 0A 32 00 00 00 02 93 (厨房顶灯一开, 厨房顶灯二开)
2024-08-29 18:46:35.999 - 19 08 24 03 CC 00 D4 00 01 (调用厨房感应灯关的按键)
2024-08-29 18:46:36.033 - 55 0A 31 00 00 00 01 91 55 0A 31 00 00 00 02 92 (厨房顶灯一关, 厨房顶灯二关)
2024-08-29 18:47:13.075 - 19 08 24 03 CC 00 D3 00 01 (调用厨房感应灯开的按键)
2024-08-29 18:47:13.112 - 55 0A 32 00 00 00 01 92 55 0A 32 00 00 00 02 93 (厨房顶灯一开, 厨房顶灯二开)
2024-08-29 18:47:53.653 - 19 08 24 03 CC 00 D4 00 01 (调用厨房感应灯关的按键)
2024-08-29 18:47:53.685 - 55 0A 31 00 00 00 01 91 55 0A 31 00 00 00 02 92 (厨房顶灯一关, 厨房顶灯二关)
2024-08-29 18:48:42.327 - 19 08 24 03 CC 01 CC 00 01 (调用茶吧感应灯开的按键)
2024-08-29 18:48:42.361 - 1A AA AA AA 88 FF B0 01 FF B0 01 0F (调光器地址-茶吧灯带, 茶吧灯带明亮)
2024-08-29 18:48:49.181 - 19 08 24 03 DD 00 3A 00 01 (调用情景-离开书房)
2024-08-29 18:48:49.691 - EE 00 00 B1 00 00 00 FF FC FF FF (情景执行提示)
2024-08-29 18:48:50.291 - 09 06 00 0F 02 01 78 21 (提示音叮)
2024-08-29 18:48:50.833 - 01 06 07 DC FF 60 08 9C (书房空调关)
2024-08-29 18:48:50.865 - 01 06 07 DC FF 60 08 9C (书房空调关)
2024-08-29 18:48:51.425 - 50 F5 07 (关书房影视)
2024-08-29 18:48:51.981 - A5 00 D2 FE 01 AA 22 0D (书房窗帘开)
2024-08-29 18:48:52.038 - 55 00 D2 02 00 E5 00 F2 AA 55 00 D2 02 00 E5 00 F2 AA (书房窗帘电机状态返回)
2024-08-29 18:48:53.082 - A5 00 B7 FF 00 AA 22 0D (书房纱帘关)
2024-08-29 18:48:54.119 - 55 0D 31 00 00 00 01 94 (书房顶灯只关)
2024-08-29 18:48:55.172 - 1A 0A 04 06 01 FF 00 01 FF 00 01 FF 00 00 0F (调光器地址-书房射灯, 书房射灯关闭)
2024-08-29 18:48:58.968 - 55 00 D2 00 00 0E 00 F2 AA 55 00 D2 00 00 0E 00 F2 AA (书房窗帘电机状态返回)
2024-08-29 18:48:59.256 - 09 06 00 0F 02 02 38 20 (提示音咚)
2024-08-29 18:48:59.813 - EE 00 00 B1 00 00 02 FF FC FF FF (情景完成返回主页)
2024-08-29 18:49:02.286 - 19 08 24 03 CC 00 D3 00 01 (调用厨房感应灯开的按键)
2024-08-29 18:49:02.346 - 55 0A 32 00 00 00 01 92 55 0A 32 00 00 00 02 93 (厨房顶灯一开, 厨房顶灯二开)
2024-08-29 18:49:53.485 - 19 08 24 03 CC 01 CD 00 01 (调用茶吧感应灯关的按键)
2024-08-29 18:49:53.502 - 1A AA AA AA 88 FF 00 01 FF 00 01 0F (调光器地址-茶吧灯带, 茶吧灯带关闭)
2024-08-29 18:50:25.958 - 19 08 24 03 CC 00 D4 00 01 (调用厨房感应灯关的按键)
2024-08-29 18:50:25.990 - 55 0A 31 00 00 00 01 91 55 0A 31 00 00 00 02 92 (厨房顶灯一关, 厨房顶灯二关)
