2024-08-18 12:17:30.295 - 1A FF 03 00 00 86 86 86 0F (调用查询模块-主卧空调开关查询, 主卧空调虚拟地址)
2024-08-18 12:17:30.516 - 01 04 07 DC 00 01 F1 44 (查询主卧空调开关状态)
2024-08-18 12:17:30.550 - 01 04 02 70 00 9C F0
2024-08-18 12:17:31.524 - 1A FF 03 00 00 00 00 0F (主卧空调虚拟地址)
2024-08-18 12:17:31.656 - 1A FF 04 00 00 86 86 86 0F (调用查询模块-次卧空调开关查询, 次卧空调虚拟地址)
2024-08-18 12:17:31.885 - 01 04 07 E2 00 01 90 88 (查询次卧空调开关状态)
2024-08-18 12:17:31.912 - 01 04 02 70 00 9C F0
2024-08-18 12:17:32.878 - 1A FF 04 00 00 00 00 0F (次卧空调虚拟地址)
2024-08-18 12:17:33.050 - 1A FF 05 00 00 86 86 86 0F (调用查询模块-书房空调开关查询, 书房空调虚拟地址)
2024-08-18 12:17:33.258 - 01 04 07 E8 00 01 B0 8A (查询书房空调开关状态)
2024-08-18 12:17:33.292 - 01 04 02 70 00 9C F0
2024-08-18 12:17:34.262 - 1A FF 05 00 00 00 00 0F (书房空调虚拟地址)
2024-08-18 12:17:34.475 - 1A FF 02 00 00 86 86 86 0F (调用查询模块-餐厅空调开关查询, 餐厅空调虚拟地址)
2024-08-18 12:17:34.699 - 01 04 07 D6 00 01 D1 46 (查询餐厅空调开关状态)
2024-08-18 12:17:34.725 - 01 04 02 70 01 5D 30
2024-08-18 12:17:35.702 - 1A FF 02 00 00 01 00 0F (餐厅空调虚拟地址)
2024-08-18 12:17:35.924 - 1A FF 01 00 00 86 86 86 0F (调用查询模块-客厅空调开关查询, 客厅空调虚拟地址)
2024-08-18 12:17:36.146 - 01 04 07 D0 00 01 31 47 (查询客厅空调开关状态)
2024-08-18 12:17:36.164 - 01 04 02 70 01 5D 30
2024-08-18 12:17:37.150 - 1A FF 01 00 00 01 00 0F (客厅空调虚拟地址)
2024-08-18 12:17:37.369 - 1A 10 00 00 00 86 86 86 0F (调用查询模块-主卧测温转换, 主卧温湿度虚拟地址)
2024-08-18 12:17:37.599 - 1D 03 00 00 00 02 C6 57 (查询主卧温湿度)
2024-08-18 12:17:37.613 - 1D 03 04 01 C9 01 0F B7 A4 (主卧温湿度返回)
2024-08-18 12:17:38.620 - 1A 10 00 00 00 00 00 01 00 00 01 00 00 01 01 0F 01 01 C9 01 00 00 01 00 00 01 0F (主卧温湿度虚拟地址)
2024-08-18 12:17:38.798 - 1A 11 00 00 00 86 86 86 0F (调用查询模块-次卧测温转换, 次卧温湿度虚拟地址)
2024-08-18 12:17:39.019 - 11 03 00 00 00 02 C6 9B (查询次卧温湿度)
2024-08-18 12:17:39.054 - 11 03 04 01 AF 01 0D 1A 7A (次卧温湿度返回)
2024-08-18 12:17:40.055 - 1A 11 00 00 00 00 00 01 00 00 01 00 00 01 01 0D 01 01 AF 01 00 00 01 00 00 01 0F (次卧温湿度虚拟地址)
2024-08-18 12:17:41.410 - 1A 12 00 00 00 86 86 86 0F (调用查询模块-书房测温转换, 书房温湿度虚拟地址)
2024-08-18 12:17:41.633 - 12 03 00 00 00 02 C6 A8 (查询书房温湿度)
2024-08-18 12:17:41.656 - 12 03 04 01 93 01 1F 69 7B (书房温湿度返回)
2024-08-18 12:17:42.320 - 1A 13 00 00 00 86 86 86 0F (调用查询模块-外卫测温转换, 外卫温湿度虚拟地址)
2024-08-18 12:17:42.662 - 1A 12 00 00 00 00 00 01 00 00 01 00 00 01 86 86 01 00 00 01 00 00 01 00 00 01 0F (书房温湿度虚拟地址)
2024-08-18 12:17:42.818 - 1A 14 00 00 00 86 86 86 0F (调用查询模块-内卫测温转换, 内卫温湿度虚拟地址)
2024-08-18 12:17:43.051 - 14 03 00 00 00 02 C6 CE (查询内卫温湿度)
2024-08-18 12:17:43.086 - 14 03 04 01 D7 01 15 CF 69 (内卫温湿度返回)
2024-08-18 12:17:44.071 - 1A 14 00 00 00 00 00 01 00 00 01 00 00 01 01 15 01 01 D7 01 00 00 01 00 00 01 0F (内卫温湿度虚拟地址)
2024-08-18 12:17:44.292 - 1A 15 00 00 00 86 86 86 0F (调用查询模块-客厅测温转换, 客厅温湿度虚拟地址)
2024-08-18 12:17:44.513 - 15 03 00 00 00 02 C7 1F (查询客厅温湿度)
2024-08-18 12:17:44.537 - 15 03 04 01 DC 00 F1 AF B0 (客厅温湿度返回)
2024-08-18 12:17:45.534 - 1A 15 00 00 00 00 00 01 00 00 01 00 00 01 00 F1 01 01 DC 01 00 00 01 00 00 01 0F (客厅温湿度虚拟地址)
2024-08-18 12:17:47.711 - 1A 0E 00 00 00 86 86 86 0F (调用查询模块-厨房测温转换, 厨房温湿度虚拟地址)
2024-08-18 12:17:47.932 - 0E 03 00 00 00 02 C4 F4 (查询厨房温湿度)
2024-08-18 12:17:47.974 - 0E 03 04 01 6F 01 2D F5 5F (厨房温湿度返回)
2024-08-18 12:17:48.955 - 1A 0E 00 00 00 00 00 01 00 00 01 00 00 01 01 2D 01 01 6F 01 00 00 01 00 00 01 0F (厨房温湿度虚拟地址)
2024-08-18 12:17:49.113 - 1A 0F 00 00 00 86 86 86 0F (调用查询模块-餐厅测温转换, 餐厅温湿度虚拟地址)
2024-08-18 12:17:49.343 - 1C 03 00 00 00 02 C7 86 (查询餐厅温湿度)
2024-08-18 12:17:49.360 - 1C 03 04 01 98 01 12 36 BC (餐厅温湿度返回)
2024-08-18 12:17:50.363 - 1A 0F 00 00 00 00 00 01 00 00 01 00 00 01 01 12 01 01 98 01 00 00 01 00 00 01 0F (餐厅温湿度虚拟地址)
2024-08-18 12:17:50.550 - 1A 20 00 00 00 86 86 86 0F (调用查询模块-阳台测温湿气压转换, 阳台温湿气压虚拟地址)
2024-08-18 12:17:50.773 - 20 03 00 00 00 03 03 7A (查询阳台温湿度气压)
2024-08-18 12:17:50.789 - 20 03 06 01 41 01 5F 26 F3 E3 31 (阳台温湿度返回)
2024-08-18 12:17:51.299 - 1A 20 00 00 00 00 00 01 00 00 01 00 00 01 01 41 01 01 5F 01 26 F3 01 00 00 01 0F (阳台温湿气压虚拟地址)
2024-08-18 12:17:51.506 - 1A 11 00 00 00 86 86 86 0F (调用查询模块-次卧测温转换, 次卧温湿度虚拟地址)
2024-08-18 12:17:51.729 - 11 03 00 00 00 02 C6 9B (查询次卧温湿度)
2024-08-18 12:17:51.745 - 11 03 04 01 B4 01 0D 6A 7D (次卧温湿度返回)
2024-08-18 12:17:52.752 - 1A 11 00 00 00 00 00 01 00 00 01 00 00 01 01 0D 01 01 B4 01 00 00 01 00 00 01 0F (次卧温湿度虚拟地址)
2024-08-18 12:17:52.915 - 1A 16 00 00 00 86 86 86 0F (调用查询模块-机柜测温转换, 机柜温湿度虚拟地址)
2024-08-18 12:17:53.137 - 16 03 00 00 00 02 C7 2C (查询机柜温湿度)
2024-08-18 12:17:53.164 - 16 03 04 01 BC 01 03 1C BB (机柜温湿度返回)
2024-08-18 12:17:54.157 - 1A 16 00 00 00 00 00 01 00 00 01 00 00 01 01 03 01 01 BC 01 00 00 01 00 00 01 0F (机柜温湿度虚拟地址)
2024-08-18 12:17:55.194 - 1A 20 00 00 00 86 86 86 0F (调用查询模块-阳台测温湿气压转换, 阳台温湿气压虚拟地址)
2024-08-18 12:17:55.415 - 20 03 00 00 00 03 03 7A (查询阳台温湿度气压)
2024-08-18 12:17:55.449 - 20 03 06 01 42 01 5E 26 F3 F6 F1 (阳台温湿度返回)
2024-08-18 12:17:55.942 - 1A 20 00 00 00 00 00 01 00 00 01 00 00 01 01 42 01 01 5E 01 26 F3 01 00 00 01 0F (阳台温湿气压虚拟地址)
2024-08-18 12:17:58.144 - 1A 20 00 00 00 86 86 86 0F (调用查询模块-阳台测温湿气压转换, 阳台温湿气压虚拟地址)
2024-08-18 12:17:58.367 - 20 03 00 00 00 03 03 7A (查询阳台温湿度气压)
2024-08-18 12:17:58.393 - 20 03 06 01 42 01 5C 26 F3 57 31 (阳台温湿度返回)
2024-08-18 12:17:58.895 - 1A 20 00 00 00 00 00 01 00 00 01 00 00 01 01 42 01 01 5C 01 26 F3 01 00 00 01 0F (阳台温湿气压虚拟地址)
2024-08-18 12:18:04.131 - 1A 20 00 00 00 86 86 86 0F (调用查询模块-阳台测温湿气压转换, 阳台温湿气压虚拟地址)
2024-08-18 12:18:04.355 - 20 03 00 00 00 03 03 7A (查询阳台温湿度气压)
2024-08-18 12:18:04.371 - 20 03 06 01 43 01 5A 26 F3 8A F0 (阳台温湿度返回)
2024-08-18 12:18:04.875 - 1A 20 00 00 00 00 00 01 00 00 01 00 00 01 01 43 01 01 5A 01 26 F3 01 00 00 01 0F (阳台温湿气压虚拟地址)
2024-08-18 12:19:17.627 - 1A 20 00 00 00 86 86 86 0F (调用查询模块-阳台测温湿气压转换, 阳台温湿气压虚拟地址)
2024-08-18 12:19:17.855 - 20 03 00 00 00 03 03 7A (查询阳台温湿度气压)
2024-08-18 12:19:17.872 - 20 03 06 01 4C 01 4B 26 F3 8E F4 (阳台温湿度返回)
2024-08-18 12:19:18.375 - 1A 20 00 00 00 00 00 01 00 00 01 00 00 01 01 4C 01 01 4B 01 26 F3 01 00 00 01 0F (阳台温湿气压虚拟地址)
2024-08-18 12:20:34.637 - 19 08 24 03 CC 00 D3 00 01 (调用厨房感应灯开的按键)
2024-08-18 12:20:34.700 - 55 0A 32 00 00 00 01 92 55 0A 32 00 00 00 02 93 (厨房顶灯一开, 厨房顶灯二开)
2024-08-18 12:21:09.708 - 19 08 24 03 CC 00 D4 00 01 (调用厨房感应灯关的按键)
2024-08-18 12:21:09.742 - 55 0A 31 00 00 00 01 91 55 0A 31 00 00 00 02 92 (厨房顶灯一关, 厨房顶灯二关)
2024-08-18 12:26:34.846 - 19 08 24 03 CC 00 D3 00 01 (调用厨房感应灯开的按键)
2024-08-18 12:26:34.881 - 55 0A 32 00 00 00 01 92 55 0A 32 00 00 00 02 93 (厨房顶灯一开, 厨房顶灯二开)
2024-08-18 12:28:43.601 - 19 08 24 03 CC 00 D4 00 01 (调用厨房感应灯关的按键)
2024-08-18 12:28:43.635 - 55 0A 31 00 00 00 01 91 55 0A 31 00 00 00 02 92 (厨房顶灯一关, 厨房顶灯二关)
2024-08-18 12:39:20.658 - 1A 20 00 00 00 86 86 86 0F (调用查询模块-阳台测温湿气压转换, 阳台温湿气压虚拟地址)
2024-08-18 12:39:20.888 - 20 03 00 00 00 03 03 7A (查询阳台温湿度气压)
2024-08-18 12:39:20.912 - 20 03 06 01 80 01 19 26 F1 BE F4 (阳台温湿度返回)
2024-08-18 12:39:21.408 - 1A 20 00 00 00 00 00 01 00 00 01 00 00 01 01 80 01 01 19 01 26 F1 01 00 00 01 0F (阳台温湿气压虚拟地址)
2024-08-18 12:39:49.480 - 1A 21 00 00 00 86 86 86 0F
2024-08-18 12:39:49.712 - 21 03 00 00 00 03 02 AB
2024-08-18 12:39:50.234 - 1A 21 00 00 00 00 00 01 00 00 01 00 00 01 00 00 01 86 86 01 86 0F 01 00 00 01 0F
2024-08-18 12:39:56.203 - 1A 22 00 00 00 86 86 86 0F
2024-08-18 12:39:56.444 - 22 03 00 00 00 03 02 98
2024-08-18 12:39:56.967 - 1A 22 00 00 00 00 00 01 00 00 01 00 00 01 00 00 01 86 86 01 86 0F 01 00 00 01 0F
2024-08-18 12:45:27.292 - 19 08 24 03 CC 01 54 00 01 (调用内卫感应灯开的按键)
2024-08-18 12:45:27.343 - 1A 0C 02 08 01 FF 45 01 FF 45 01 FF 00 00 0F (调光器地址-内卫射灯, 内卫射灯微光)
2024-08-18 12:46:45.940 - 19 08 24 03 CC 01 55 00 01 (调用外卫感应灯关的按键)
2024-08-18 12:46:45.975 - 1A 0C 02 08 01 FF 00 01 FF 00 01 FF 00 00 0F (调光器地址-内卫射灯, 内卫感应灯关)
2024-08-18 12:47:00.975 - 19 08 24 03 CC 01 54 00 01 (调用内卫感应灯开的按键)
2024-08-18 12:47:01.011 - 1A 0C 02 08 01 FF 45 01 FF 45 01 FF 00 00 0F (调光器地址-内卫射灯, 内卫射灯微光)
2024-08-18 12:47:23.021 - 19 08 24 03 CC 01 55 00 01 (调用外卫感应灯关的按键)
2024-08-18 12:47:23.054 - 1A 0C 02 08 01 FF 00 01 FF 00 01 FF 00 00 0F (调光器地址-内卫射灯, 内卫感应灯关)
2024-08-18 12:47:32.037 - 19 08 24 03 CC 01 54 00 01 (调用内卫感应灯开的按键)
2024-08-18 12:47:32.071 - 1A 0C 02 08 01 FF 45 01 FF 45 01 FF 00 00 0F (调光器地址-内卫射灯, 内卫射灯微光)
2024-08-18 12:48:07.100 - 19 08 24 03 CC 01 55 00 01 (调用外卫感应灯关的按键)
2024-08-18 12:48:07.141 - 1A 0C 02 08 01 FF 00 01 FF 00 01 FF 00 00 0F (调光器地址-内卫射灯, 内卫感应灯关)
2024-08-18 12:48:39.171 - 19 08 24 03 CC 01 54 00 01 (调用内卫感应灯开的按键)
2024-08-18 12:48:39.193 - 1A 0C 02 08 01 FF 45 01 FF 45 01 FF 00 00 0F (调光器地址-内卫射灯, 内卫射灯微光)
2024-08-18 12:48:56.699 - 19 08 24 03 CC 01 55 00 01 (调用外卫感应灯关的按键)
2024-08-18 12:48:56.731 - 1A 0C 02 08 01 FF 00 01 FF 00 01 FF 00 00 0F (调光器地址-内卫射灯, 内卫感应灯关)
2024-08-18 12:49:24.257 - 19 08 24 03 CC 01 54 00 01 (调用内卫感应灯开的按键)
2024-08-18 12:49:24.287 - 1A 0C 02 08 01 FF 45 01 FF 45 01 FF 00 00 0F (调光器地址-内卫射灯, 内卫射灯微光)
2024-08-18 12:49:44.792 - 19 08 24 03 CC 01 55 00 01 (调用外卫感应灯关的按键)
2024-08-18 12:49:44.824 - 1A 0C 02 08 01 FF 00 01 FF 00 01 FF 00 00 0F (调光器地址-内卫射灯, 内卫感应灯关)
2024-08-18 12:51:32.512 - 19 08 24 03 CC 01 54 00 01 (调用内卫感应灯开的按键)
2024-08-18 12:51:32.544 - 1A 0C 02 08 01 FF 45 01 FF 45 01 FF 00 00 0F (调光器地址-内卫射灯, 内卫射灯微光)
2024-08-18 12:51:49.537 - 19 08 24 03 CC 01 55 00 01 (调用外卫感应灯关的按键)
2024-08-18 12:51:49.569 - 1A 0C 02 08 01 FF 00 01 FF 00 01 FF 00 00 0F (调光器地址-内卫射灯, 内卫感应灯关)
2024-08-18 12:54:00.297 - 19 08 24 03 CC 01 54 00 01 (调用内卫感应灯开的按键)
2024-08-18 12:54:00.329 - 1A 0C 02 08 01 FF 45 01 FF 45 01 FF 00 00 0F (调光器地址-内卫射灯, 内卫射灯微光)
2024-08-18 12:54:34.368 - 19 08 24 03 CC 01 55 00 01 (调用外卫感应灯关的按键)
2024-08-18 12:54:34.402 - 1A 0C 02 08 01 FF 00 01 FF 00 01 FF 00 00 0F (调光器地址-内卫射灯, 内卫感应灯关)
2024-08-18 12:54:41.876 - 19 08 24 03 CC 01 54 00 01 (调用内卫感应灯开的按键)
2024-08-18 12:54:41.912 - 1A 0C 02 08 01 FF 45 01 FF 45 01 FF 00 00 0F (调光器地址-内卫射灯, 内卫射灯微光)
2024-08-18 12:54:44.746 - 1A 20 07 00 93 00 01 02 0F (自保持开关地址-设备区顶, 设备区顶灯开关)
2024-08-18 12:55:12.440 - 19 08 24 03 CC 01 55 00 01 (调用外卫感应灯关的按键)
2024-08-18 12:55:12.477 - 1A 0C 02 08 01 FF 00 01 FF 00 01 FF 00 00 0F (调光器地址-内卫射灯, 内卫感应灯关)
2024-08-18 12:55:38.995 - 19 08 24 03 CC 01 54 00 01 (调用内卫感应灯开的按键)
2024-08-18 12:55:39.028 - 1A 0C 02 08 01 FF 45 01 FF 45 01 FF 00 00 0F (调光器地址-内卫射灯, 内卫射灯微光)
2024-08-18 12:56:04.536 - 19 08 24 03 CC 01 55 00 01 (调用外卫感应灯关的按键)
2024-08-18 12:56:04.568 - 1A 0C 02 08 01 FF 00 01 FF 00 01 FF 00 00 0F (调光器地址-内卫射灯, 内卫感应灯关)
2024-08-18 12:56:30.596 - 19 08 24 03 CC 01 54 00 01 (调用内卫感应灯开的按键)
2024-08-18 12:56:30.631 - 1A 0C 02 08 01 FF 45 01 FF 45 01 FF 00 00 0F (调光器地址-内卫射灯, 内卫射灯微光)
2024-08-18 12:57:15.682 - 19 08 24 03 CC 01 55 00 01 (调用外卫感应灯关的按键)
2024-08-18 12:57:15.715 - 1A 0C 02 08 01 FF 00 01 FF 00 01 FF 00 00 0F (调光器地址-内卫射灯, 内卫感应灯关)
2024-08-18 12:57:55.259 - 19 08 24 03 CC 01 54 00 01 (调用内卫感应灯开的按键)
2024-08-18 12:57:55.297 - 1A 0C 02 08 01 FF 45 01 FF 45 01 FF 00 00 0F (调光器地址-内卫射灯, 内卫射灯微光)
2024-08-18 12:58:15.298 - 19 08 24 03 CC 01 55 00 01 (调用外卫感应灯关的按键)
2024-08-18 12:58:15.338 - 1A 0C 02 08 01 FF 00 01 FF 00 01 FF 00 00 0F (调光器地址-内卫射灯, 内卫感应灯关)
2024-08-18 12:58:48.865 - 19 08 24 03 CC 01 54 00 01 (调用内卫感应灯开的按键)
2024-08-18 12:58:48.899 - 1A 0C 02 08 01 FF 45 01 FF 45 01 FF 00 00 0F (调光器地址-内卫射灯, 内卫射灯微光)
2024-08-18 12:59:16.493 - 1A FF FF FF 04 FE (继电器地址-东阳衣架)
2024-08-18 12:59:16.623 - 03
2024-08-18 12:59:19.418 - 19 08 24 03 CC 01 55 00 01 (调用外卫感应灯关的按键)
2024-08-18 12:59:19.479 - 1A 0C 02 08 01 FF 00 01 FF 00 01 FF 00 00 0F (调光器地址-内卫射灯, 内卫感应灯关)
2024-08-18 12:59:35.960 - 19 08 24 03 CC 01 54 00 01 (调用内卫感应灯开的按键)
2024-08-18 12:59:36.010 - 1A 0C 02 08 01 FF 45 01 FF 45 01 FF 00 00 0F (调光器地址-内卫射灯, 内卫射灯微光)
2024-08-18 13:00:03.394 - 1A 20 07 00 93 00 01 02 0F (自保持开关地址-设备区顶, 设备区顶灯开关)
2024-08-18 13:00:27.563 - 19 08 24 03 CC 01 55 00 01 (调用外卫感应灯关的按键)
2024-08-18 13:00:27.597 - 1A 0C 02 08 01 FF 00 01 FF 00 01 FF 00 00 0F (调光器地址-内卫射灯, 内卫感应灯关)
2024-08-18 13:00:51.898 - 1B 03 00 00 00 02 C6 31 (查询室外光线)
2024-08-18 13:00:51.930 - 1B 03 04 00 00 00 5D 80 0B (室外光线返回)
2024-08-18 13:00:53.238 - 1B 03 00 00 00 02 C6 31 (查询室外光线)
2024-08-18 13:00:53.256 - 1B 03 04 00 00 00 5D 80 0B (室外光线返回)
2024-08-18 13:00:54.795 - 1B 03 00 00 00 02 C6 31 (查询室外光线)
2024-08-18 13:00:54.820 - 1B 03 04 00 00 00 5D 80 0B (室外光线返回)
2024-08-18 13:01:03.996 - 1A 21 00 00 00 86 86 86 0F
2024-08-18 13:01:04.225 - 21 03 00 00 00 03 02 AB
2024-08-18 13:01:04.251 - 21 03 06 01 4A 01 FB 26 F0 4A 82
2024-08-18 13:01:04.743 - 1A 21 00 00 00 00 00 01 00 00 01 00 00 01 01 4A 01 01 FB 01 26 F0 01 00 00 01 0F
