2024-09-22 13:24:15.149 - 19 08 24 03 CC 01 CC 00 01 (调用茶吧感应灯开的按键)
2024-09-22 13:24:15.181 - 1A AA AA AA 88 FF B0 01 FF B0 01 0F (调光器地址-茶吧灯带, 茶吧灯带明亮)
2024-09-22 13:24:30.966 - 19 08 24 03 CC 00 D3 00 01 (调用厨房感应灯开的按键)
2024-09-22 13:24:31.001 - 55 0A 32 00 00 00 01 92 55 0A 32 00 00 00 02 93 (厨房顶灯一开, 厨房顶灯二开)
2024-09-22 13:24:41.702 - 19 08 24 03 CC 01 CD 00 01 (调用茶吧感应灯关的按键)
2024-09-22 13:24:41.733 - 1A AA AA AA 88 FF 00 01 FF 00 01 0F (调光器地址-茶吧灯带, 茶吧灯带关闭)
2024-09-22 13:25:08.255 - 19 08 24 03 CC 01 CC 00 01 (调用茶吧感应灯开的按键)
2024-09-22 13:25:08.286 - 1A AA AA AA 88 FF B0 01 FF B0 01 0F (调光器地址-茶吧灯带, 茶吧灯带明亮)
2024-09-22 13:25:19.776 - 19 08 24 03 CC 01 CD 00 01 (调用茶吧感应灯关的按键)
2024-09-22 13:25:19.809 - 1A AA AA AA 88 FF 00 01 FF 00 01 0F (调光器地址-茶吧灯带, 茶吧灯带关闭)
2024-09-22 13:25:36.722 - 19 08 24 03 DD 00 00 00 01 (调用情景-离家（末）)
2024-09-22 13:25:37.238 - EE 00 00 B1 00 00 00 FF FC FF FF (情景执行提示)
2024-09-22 13:25:37.833 - 09 06 00 0F 02 02 38 20 (提示音咚)
2024-09-22 13:25:38.376 - 50 F7 01 (全屋影音全关)
2024-09-22 13:25:38.928 - 01 06 07 D0 FF 60 C8 9F (客厅空调关)
2024-09-22 13:25:38.964 - 01 06 07 D0 FF 60 C8 9F (客厅空调关)
2024-09-22 13:25:39.528 - 01 06 07 D0 FF 60 C8 9F (客厅空调关)
2024-09-22 13:25:39.562 - 01 06 07 D0 FF 60 C8 9F (客厅空调关)
2024-09-22 13:25:40.126 - 01 06 07 D3 FF 60 38 9F (餐厅空调关)
2024-09-22 13:25:40.157 - 01 06 07 D3 FF 60 38 9F (餐厅空调关)
2024-09-22 13:25:40.724 - 01 06 07 D3 FF 60 38 9F (餐厅空调关)
2024-09-22 13:25:40.753 - 01 06 07 D3 FF 60 38 9F (餐厅空调关)
2024-09-22 13:25:41.322 - 01 06 07 D6 FF 60 28 9E (主卧空调关)
2024-09-22 13:25:41.347 - 01 06 07 D6 FF 60 28 9E (主卧空调关)
2024-09-22 13:25:41.918 - 01 06 07 D6 FF 60 28 9E (主卧空调关)
2024-09-22 13:25:41.954 - 01 06 07 D6 FF 60 28 9E (主卧空调关)
2024-09-22 13:25:42.517 - 01 06 07 D9 FF 60 18 9D (次卧空调关)
2024-09-22 13:25:42.549 - 01 06 07 D9 FF 60 18 9D (次卧空调关)
2024-09-22 13:25:43.115 - 01 06 07 D9 FF 60 18 9D (次卧空调关)
2024-09-22 13:25:43.146 - 01 06 07 D9 FF 60 18 9D (次卧空调关)
2024-09-22 13:25:43.712 - 01 06 07 DC FF 60 08 9C (书房空调关)
2024-09-22 13:25:43.741 - 01 06 07 DC FF 60 08 9C (书房空调关)
2024-09-22 13:25:44.310 - 01 06 07 DC FF 60 08 9C (书房空调关)
2024-09-22 13:25:44.337 - 01 06 07 DC FF 60 08 9C (书房空调关)
2024-09-22 13:25:44.908 - 09 06 00 0F 02 02 38 20 (提示音咚)
2024-09-22 13:25:45.458 - 1A FF FF FF 56 00 00 00 0F (人体感应地址-内卫, 关闭内卫感应)
2024-09-22 13:25:46.005 - 1A FF FF FF 55 00 00 00 0F (人体感应地址-外卫, 关闭外卫感应)
2024-09-22 13:25:46.102 - BC BC
2024-09-22 13:25:46.553 - 1A FF FF FF 57 00 00 00 0F (人体感应地址-厨房, 关闭厨房感应)
2024-09-22 13:25:47.101 - 1A FF FF FF 58 00 00 00 0F (人体感应地址-茶吧, 关闭茶吧感应)
2024-09-22 13:25:47.152 - BC BC
2024-09-22 13:25:47.699 - 1A 20 07 00 93 00 01 00 0F (自保持开关地址-设备区顶, 设备区顶灯关)
2024-09-22 13:25:48.747 - 1A 20 07 01 40 00 01 00 0F (自保持开关地址-内卫顶灯, 内卫顶灯关)
2024-09-22 13:25:49.793 - 1A 20 07 01 55 00 01 00 0F (自保持开关地址-主卧顶灯, 主卧顶灯只关)
2024-09-22 13:25:50.838 - 1A 20 07 00 42 00 01 00 0F (自保持开关地址-外卫顶灯, 外卫顶灯关)
2024-09-22 13:25:51.884 - 55 0D 31 00 00 00 01 94 (书房顶灯只关)
2024-09-22 13:25:52.931 - 55 0A 31 00 00 00 01 91 (厨房顶灯一关)
2024-09-22 13:25:53.976 - 55 0A 31 00 00 00 02 92 (厨房顶灯二关)
2024-09-22 13:25:55.023 - 55 0B 31 00 00 00 01 92 (厨房风扇只关)
2024-09-22 13:25:56.070 - 55 0C 31 00 00 00 01 93 (餐厅顶灯关)
2024-09-22 13:25:57.117 - 1A 20 07 01 30 00 01 00 0F (自保持开关地址-西阳顶灯, 西阳顶灯关)
2024-09-22 13:25:58.164 - 1A 18 05 21 89 00 01 00 0F (自保持开关地址-客厅顶灯, 客厅顶灯一关)
2024-09-22 13:25:59.210 - 1A 18 05 01 94 00 01 00 0F (自保持开关地址-客厅顶灯, 客厅顶灯二关)
2024-09-22 13:26:00.257 - 1A 20 07 00 70 00 01 00 0F (自保持开关地址-次卧顶灯, 次卧顶灯只关)
2024-09-22 13:26:01.303 - 1A 18 05 10 31 00 01 00 0F (自保持开关地址-门厅顶灯, 门厅顶灯关)
2024-09-22 13:26:02.348 - 1A FF FF FF 04 00 03 02 (继电器地址-东阳衣架, 东阳衣架照明关)
2024-09-22 13:26:02.897 - 09 06 00 0F 02 02 38 20 (提示音咚)
2024-09-22 13:26:03.442 - A5 00 A6 FE 01 AA (餐厅窗帘开)
2024-09-22 13:26:03.992 - FF FF FF FF 0A 00 01 00 (继电器地址-东阳窗帘, 东阳窗帘开)
2024-09-22 13:26:04.540 - 1A BE B0 DC 04 00 01 00 (继电器地址-西阳窗帘, 西阳窗帘开)
2024-09-22 13:26:05.090 - FF FF FF FF 0E 00 01 00 (继电器地址-西阳小窗帘, 西阳小窗帘开)
2024-09-22 13:26:05.638 - 1A 22 33 62 0F 00 00 01 0F (正反转地址-内卫卷帘, 内卫卷帘升)
2024-09-22 13:26:06.182 - A5 00 52 FE 01 AA (主卧窗帘开)
2024-09-22 13:26:06.781 - A5 00 53 FF 00 AA (主卧纱帘开)
2024-09-22 13:26:07.329 - A5 00 76 FE 01 AA (次卧窗帘开)
2024-09-22 13:26:07.876 - A5 00 21 FE 01 AA (次卧纱帘开)
2024-09-22 13:26:08.426 - A5 00 D2 FE 01 AA 22 0D (书房窗帘开)
2024-09-22 13:26:08.976 - 1A BE B0 DC 09 00 01 00 (继电器地址-客厅窗帘, 客厅窗帘开)
2024-09-22 13:26:09.524 - 1A BE B0 DC 0A 00 02 00 (继电器地址-客厅纱帘, 客厅纱帘开)
2024-09-22 13:26:10.072 - 09 06 00 0F 02 02 38 20 (提示音咚)
2024-09-22 13:26:11.120 - 1A EC A0 DC 02 00 00 00 0F (自保持开关地址-天花12V供电, 天花12V 供电关)
2024-09-22 13:26:11.668 - 1A EC A0 DC 02 00 00 00 0F (自保持开关地址-天花12V供电, 天花12V 供电关)
2024-09-22 13:26:12.215 - 1A EC A0 DC 01 00 00 00 0F (自保持开关地址-电视、设备12V供电, 12V 电视供电关)
2024-09-22 13:26:12.763 - 1A EC A0 DC 01 00 00 00 0F (自保持开关地址-电视、设备12V供电, 12V 电视供电关)
2024-09-22 13:26:13.312 - 1A EC A0 DC 04 00 01 00 0F (自保持开关地址-次卧西阳内外卫供电, 内卫外卫关)
2024-09-22 13:26:13.861 - 1A EC A0 DC 04 00 01 00 0F (自保持开关地址-次卧西阳内外卫供电, 内卫外卫关)
2024-09-22 13:26:15.402 - 1A BB BB BB 01 02 00 (开水器电源关)
2024-09-22 13:26:28.402 - 09 06 00 0F 02 02 38 20 (提示音咚)
2024-09-22 13:26:28.952 - 1A 27 89 12 AA 00 00 00 0F (状态寄存器地址, 无人状态)
2024-09-22 13:26:29.500 - 1A 27 89 12 AA 00 00 00 0F (状态寄存器地址, 无人状态)
2024-09-22 13:26:30.044 - A1 11 11 11 4D (天花供电关闭确认)
2024-09-22 13:26:30.267 - 1A EC A0 DC 02 86 86 86 0F (查询天花供电状态, 自保持开关地址-天花12V供电)
2024-09-22 13:26:30.698 - 1A EC A0 DC 02 00 01 0F (自保持开关地址-天花12V供电)
2024-09-22 13:26:33.082 - A1 11 11 11 4E (卫生供电关闭确认)
2024-09-22 13:26:33.312 - 1A EC A0 DC 04 86 86 86 0F (查询卫生间供电状态, 自保持开关地址-次卧西阳内外卫供电)
2024-09-22 13:26:33.743 - 1A EC A0 DC 04 01 00 0F (自保持开关地址-次卧西阳内外卫供电)
2024-09-22 13:26:36.123 - A1 11 11 11 4F (电视供电关闭确认)
2024-09-22 13:26:36.351 - 1A EC A0 DC 01 86 86 86 0F (查询电视供电状态, 自保持开关地址-电视、设备12V供电)
2024-09-22 13:26:36.782 - 1A EC A0 DC 01 00 01 0F (自保持开关地址-电视、设备12V供电)
2024-09-22 13:26:39.193 - 09 06 00 0F 02 02 38 20 (提示音咚)
2024-09-22 13:26:39.763 - 09 06 00 0F 02 02 38 20 (提示音咚)
2024-09-22 13:26:40.315 - EE 00 00 B1 00 00 02 FF FC FF FF (情景完成返回主页)
2024-09-22 13:26:41.404 - BA BA EE EE BA BA (离家设置信科变量)
2024-09-22 13:26:42.450 - A1 11 11 11 46 (天热离家遮阳)
2024-09-22 13:26:42.676 - 1A 27 89 12 AA 86 86 86 0F (查询寄存器状态, 状态寄存器地址)
2024-09-22 13:26:43.058 - 1A 27 89 12 AA 00 00 00 00 00 00 00 00 00 00 00 00 00 00 00 00 0F (状态寄存器地址)
2024-09-22 14:08:09.311 - 1A BE B0 DC 04 FC (继电器地址-西阳窗帘)
2024-09-22 14:08:09.444 - FF
2024-09-22 14:10:11.115 - FF FF FF FF 0E (继电器地址-西阳小窗帘)
2024-09-22 14:10:11.251 - FF
2024-09-22 14:26:14.348 - 1A BE B0 DC 02 FE (正反转地址-外卫卷帘)
2024-09-22 14:26:14.481 - FE
2024-09-22 14:27:02.616 - 1A FF FF FF 04 FD (继电器地址-东阳衣架)
2024-09-22 14:27:02.752 - FF
2024-09-22 14:37:18.763 - 1A BE B0 DC 01 (继电器地址-回水泵点动)
2024-09-22 14:37:18.897 - FF
2024-09-22 14:40:21.625 - 1A BE B0 DC 03 (继电器地址-西阳天幕)
2024-09-22 14:41:10.815 - 1A BE B0 DC 09 (继电器地址-客厅窗帘)
2024-09-22 14:41:10.951 - FF
2024-09-22 14:48:17.329 - 1A BE B0 DC 0A FC (继电器地址-客厅纱帘)
2024-09-22 14:48:17.462 - FF
2024-09-22 15:06:50.889 - 03 00 00 2F 2A E0 00 00 00 00 00 43 6F 6F 6B 69 65 3A 20 6D 73 74 73 68 61 73 68 3D 41 64 6D 69
2024-09-22 15:06:50.906 - 6E 69 73 74 72 0D 0A 01 00 08 00 03 00 00 00
2024-09-22 15:27:01.656 - FF FF FF FF 0A (继电器地址-东阳窗帘)
2024-09-22 16:46:11.517 - 1B 03 00 00 00 02 C6 31 (查询室外光线)
2024-09-22 16:46:11.538 - 1B 03 04 00 00 01 8E C0 06 (室外光线返回)
2024-09-22 16:46:12.315 - 1A EC A0 DC 02 00 00 01 0F (自保持开关地址-天花12V供电, 天花12V 供电开)
2024-09-22 16:46:12.617 - 19 08 24 03 DD 00 0C 00 01 (调用情景-信科调用进门亮)
2024-09-22 16:46:12.894 - 1A AA AA AA 88 (调光器地址-茶吧灯带)
2024-09-22 16:46:13.158 - EE 00 00 B1 00 00 00 FF FC FF FF (情景执行提示)
2024-09-22 16:46:13.780 - 09 06 00 0F 02 01 78 21 (提示音叮)
2024-09-22 16:46:14.353 - 1A EC A0 DC 02 00 00 01 0F (自保持开关地址-天花12V供电, 天花12V 供电开)
2024-09-22 16:46:14.901 - 1A EC A0 DC 04 00 01 01 0F (自保持开关地址-次卧西阳内外卫供电, 内卫外卫开)
2024-09-22 16:46:15.449 - 1A EC A0 DC 04 00 01 01 0F (自保持开关地址-次卧西阳内外卫供电, 内卫外卫开)
2024-09-22 16:46:15.998 - 1A EC A0 DC 01 00 00 01 0F (自保持开关地址-电视、设备12V供电, 12V 电视供电开)
2024-09-22 16:46:16.543 - 1A BB BB BB 01 01 00 (开水器电源开)
2024-09-22 16:46:18.088 - 1A 27 89 12 AA 00 00 01 0F (状态寄存器地址, 有人状态)
2024-09-22 16:46:18.638 - 1A 27 89 12 AA 00 00 01 0F (状态寄存器地址, 有人状态)
2024-09-22 16:46:19.191 - 1A 0C 02 08 01 FF 45 01 FF 45 01 FF 00 00 0F (调光器地址-内卫射灯, 内卫射灯微光)
2024-09-22 16:46:19.788 - 1A 0D 01 07 01 FF 45 01 FF 45 01 FF 00 00 0F (调光器地址-外卫射灯, 外卫感应灯开)
2024-09-22 16:46:20.380 - 1A FF FF FF 57 00 00 01 0F (人体感应地址-厨房, 打开厨房感应)
2024-09-22 16:46:20.788 - 19 08 24 03 CC 00 D4 00 01 (调用厨房感应灯关的按键)
2024-09-22 16:46:20.872 - 55 0A 31 00 00 00 01 91 55 0A 31 00 00 00 02 92 (厨房顶灯一关, 厨房顶灯二关)
2024-09-22 16:46:21.272 - 1A FF FF FF 58 00 00 01 0F (人体感应地址-茶吧, 打开茶吧感应)
2024-09-22 16:46:21.321 - BC BC
2024-09-22 16:46:21.874 - 1A BE B0 DC 01 00 01 00 (继电器地址-回水泵点动, 回水泵点动)
2024-09-22 16:46:22.422 - 1A BE B0 DC 01 00 01 00 (继电器地址-回水泵点动, 回水泵点动)
2024-09-22 16:46:22.970 - 09 06 00 0F 02 01 78 21 (提示音叮)
2024-09-22 16:46:23.518 - 09 06 00 0F 02 01 78 21 (提示音叮)
2024-09-22 16:46:24.069 - EE 00 00 B1 00 00 02 FF FC FF FF (情景完成返回主页)
2024-09-22 16:46:24.662 - A1 11 11 11 50 (天花供电打开确认)
2024-09-22 16:46:24.885 - 1A EC A0 DC 02 86 86 86 0F (查询天花供电状态, 自保持开关地址-天花12V供电)
2024-09-22 16:46:25.319 - 1A EC A0 DC 02 01 01 0F (自保持开关地址-天花12V供电)
2024-09-22 16:46:25.840 - 19 08 24 03 CC 01 CC 00 01 (调用茶吧感应灯开的按键)
2024-09-22 16:46:25.890 - 1A AA AA AA 88 FF B0 01 FF B0 01 0F (调光器地址-茶吧灯带, 茶吧灯带明亮)
2024-09-22 16:46:27.203 - A1 11 11 11 51 (卫生供电打开确认)
2024-09-22 16:46:27.422 - 1A EC A0 DC 04 86 86 86 0F (查询卫生间供电状态, 自保持开关地址-次卧西阳内外卫供电)
2024-09-22 16:46:27.857 - 1A EC A0 DC 04 01 01 0F (自保持开关地址-次卧西阳内外卫供电)
2024-09-22 16:46:29.744 - A1 11 11 11 52 (电视供电打开确认)
2024-09-22 16:46:29.972 - 1A EC A0 DC 01 86 86 86 0F (查询电视供电状态, 自保持开关地址-电视、设备12V供电)
2024-09-22 16:46:30.403 - 1A EC A0 DC 01 01 01 0F (自保持开关地址-电视、设备12V供电)
2024-09-22 16:46:34.016 - 19 08 24 03 CC 00 D3 00 01 (调用厨房感应灯开的按键)
2024-09-22 16:46:34.069 - 55 0A 32 00 00 00 01 92 55 0A 32 00 00 00 02 93 (厨房顶灯一开, 厨房顶灯二开)
2024-09-22 16:46:34.777 - A1 11 11 11 47 (天热回家开帘)
2024-09-22 16:46:35.003 - 1A 27 89 12 AA 86 86 86 0F (查询寄存器状态, 状态寄存器地址)
2024-09-22 16:46:35.387 - 1A 27 89 12 AA 01 00 00 00 00 00 00 00 00 00 00 00 00 00 00 00 0F (状态寄存器地址)
2024-09-22 16:46:52.392 - 19 08 24 03 CC 01 CD 00 01 (调用茶吧感应灯关的按键)
2024-09-22 16:46:52.442 - 1A AA AA AA 88 FF 00 01 FF 00 01 0F (调光器地址-茶吧灯带, 茶吧灯带关闭)
2024-09-22 16:47:10.428 - 19 08 24 03 CC 01 CC 00 01 (调用茶吧感应灯开的按键)
2024-09-22 16:47:10.459 - 1A AA AA AA 88 FF B0 01 FF B0 01 0F (调光器地址-茶吧灯带, 茶吧灯带明亮)
2024-09-22 16:47:54.680 - 19 08 24 03 CC 00 D4 00 01 (调用厨房感应灯关的按键)
2024-09-22 16:47:54.716 - 55 0A 31 00 00 00 01 91 55 0A 31 00 00 00 02 92 (厨房顶灯一关, 厨房顶灯二关)
2024-09-22 16:48:17.726 - 19 08 24 03 CC 00 D3 00 01 (调用厨房感应灯开的按键)
2024-09-22 16:48:17.760 - 55 0A 32 00 00 00 01 92 55 0A 32 00 00 00 02 93 (厨房顶灯一开, 厨房顶灯二开)
2024-09-22 16:48:27.581 - 19 08 24 03 CC 01 CD 00 01 (调用茶吧感应灯关的按键)
2024-09-22 16:48:27.612 - 1A AA AA AA 88 FF 00 01 FF 00 01 0F (调光器地址-茶吧灯带, 茶吧灯带关闭)
2024-09-22 16:48:31.088 - 19 08 24 03 CC 01 CC 00 01 (调用茶吧感应灯开的按键)
2024-09-22 16:48:31.118 - 1A AA AA AA 88 FF B0 01 FF B0 01 0F (调光器地址-茶吧灯带, 茶吧灯带明亮)
2024-09-22 16:48:50.124 - 19 08 24 03 CC 01 CD 00 01 (调用茶吧感应灯关的按键)
2024-09-22 16:48:50.155 - 1A AA AA AA 88 FF 00 01 FF 00 01 0F (调光器地址-茶吧灯带, 茶吧灯带关闭)
2024-09-22 16:49:09.327 - 19 08 24 03 CC 00 D4 00 01 (调用厨房感应灯关的按键)
2024-09-22 16:49:09.361 - 55 0A 31 00 00 00 01 91 55 0A 31 00 00 00 02 92 (厨房顶灯一关, 厨房顶灯二关)
2024-09-22 16:53:33.589 - FF
2024-09-22 16:54:55.948 - 30 50 FA 01 48 01 48
2024-09-22 16:54:56.129 - 30
2024-09-22 16:54:56.132 - 50
2024-09-22 16:54:56.134 - FC
2024-09-22 16:54:56.136 - 01
2024-09-22 16:54:56.138 - 00
2024-09-22 16:54:56.142 - 00
2024-09-22 16:54:56.142 - 01
2024-09-22 16:54:58.297 - 30 50 FA 01 48 01 48
2024-09-22 16:54:58.358 - 30
2024-09-22 16:54:58.362 - 50
2024-09-22 16:54:58.363 - FC
2024-09-22 16:54:58.365 - 01
2024-09-22 16:54:58.367 - 00
2024-09-22 16:54:58.370 - 00
2024-09-22 16:54:58.372 - 01
2024-09-22 16:54:59.981 - 30 50 FA 01 48 01 48
2024-09-22 16:55:00.034 - 30
2024-09-22 16:55:00.035 - 50
2024-09-22 16:55:00.036 - FC
2024-09-22 16:55:01.615 - 30 50 FA 01 48 01 48
2024-09-22 16:55:01.651 - 30
2024-09-22 16:55:01.653 - 50
2024-09-22 16:55:01.653 - FC
2024-09-22 16:55:01.657 - 01
2024-09-22 16:55:01.659 - 00
2024-09-22 16:55:01.662 - 00
2024-09-22 16:55:01.662 - 01
2024-09-22 16:55:03.848 - 30 50 FA 01 48 01 48
2024-09-22 16:55:06.114 - 30 50 FA 01 48 01 48
2024-09-22 16:55:06.243 - 30
2024-09-22 16:55:06.245 - 50
2024-09-22 16:55:06.248 - FC
2024-09-22 16:55:06.250 - 01
2024-09-22 16:55:06.251 - 00
2024-09-22 16:55:06.254 - 00
2024-09-22 16:55:06.256 - 01
2024-09-22 16:55:08.764 - 30 50 FA 01 48 01 48
2024-09-22 16:55:08.888 - 30
2024-09-22 16:55:08.890 - 50
2024-09-22 16:55:08.891 - FC
2024-09-22 16:55:08.893 - 01
2024-09-22 16:55:08.895 - 00
2024-09-22 16:55:08.898 - 00
2024-09-22 16:55:08.902 - 01
2024-09-22 16:55:10.897 - 30 50 FA 01 48 01 48
2024-09-22 16:55:11.116 - 30
2024-09-22 16:55:11.118 - 50
2024-09-22 16:55:11.121 - FC
2024-09-22 16:55:11.122 - 01
2024-09-22 16:55:11.124 - 00
2024-09-22 16:55:11.128 - 00
2024-09-22 16:55:11.133 - 01
2024-09-22 16:55:12.381 - 30 50 FA 01 48 01 48
2024-09-22 16:55:12.455 - 30
2024-09-22 16:55:12.456 - 50
2024-09-22 16:55:12.460 - FC
2024-09-22 16:55:12.460 - 01
2024-09-22 16:55:12.461 - 00
2024-09-22 16:55:12.465 - 00
2024-09-22 16:55:12.467 - 01
2024-09-22 16:55:15.480 - 30 50 FA 01 48 01 48
2024-09-22 16:55:15.698 - 30
2024-09-22 16:55:15.700 - 50
2024-09-22 16:55:15.702 - FC
2024-09-22 16:55:15.703 - 01
2024-09-22 16:55:15.707 - 00
2024-09-22 16:55:15.708 - 00
2024-09-22 16:55:15.712 - 01
2024-09-22 16:56:28.283 - 30 50 FA 01 47 01 47
2024-09-22 16:56:28.321 - 30
2024-09-22 16:56:28.323 - 50
2024-09-22 16:56:28.324 - FC
2024-09-22 16:56:28.326 - 01
2024-09-22 16:56:28.327 - 00
2024-09-22 16:56:28.331 - 00
2024-09-22 16:56:28.333 - 01
2024-09-22 16:56:30.500 - 30 50 FA 01 47 01 47
2024-09-22 16:56:51.967 - 30 50 FA 01 46 01 46
2024-09-22 16:56:52.099 - 30
2024-09-22 16:56:52.102 - 50
2024-09-22 16:56:52.105 - FC
2024-09-22 16:56:52.105 - 01
2024-09-22 16:56:52.110 - 00
2024-09-22 16:56:52.110 - 00
2024-09-22 16:56:52.112 - 01
2024-09-22 16:56:54.247 - 30 50 FA 01 46 01 46
2024-09-22 16:56:54.426 - 30
2024-09-22 16:56:54.428 - 50
2024-09-22 16:56:54.430 - FC
2024-09-22 16:56:54.431 - 01
2024-09-22 16:56:54.433 - 00
2024-09-22 16:56:54.436 - 00
2024-09-22 16:56:54.438 - 01
2024-09-22 16:56:55.882 - 30 50 FA 01 46 01 46
2024-09-22 16:56:56.112 - 30
2024-09-22 16:56:56.113 - 50
2024-09-22 16:56:56.116 - FC
2024-09-22 16:56:56.118 - 01
2024-09-22 16:56:56.118 - 00
2024-09-22 16:56:56.122 - 00
2024-09-22 16:56:56.127 - 01
2024-09-22 16:56:57.099 - 30 50 FA 01 46 01 46
2024-09-22 16:56:57.135 - 30
2024-09-22 16:56:57.137 - 50
2024-09-22 16:56:57.139 - FC
2024-09-22 16:56:57.140 - 01
2024-09-22 16:56:57.142 - 00
2024-09-22 16:56:57.144 - 00
2024-09-22 16:56:57.147 - 01
2024-09-22 16:56:58.416 - 30 50 FA 01 46 01 46
2024-09-22 16:56:58.449 - 30
2024-09-22 16:56:58.453 - 50
2024-09-22 16:56:58.455 - FC
2024-09-22 16:56:58.456 - 01
2024-09-22 16:56:58.460 - 00
2024-09-22 16:56:58.460 - 00
2024-09-22 16:56:58.461 - 01
2024-09-22 16:57:10.416 - 30 50 FA 01 4A 01 4A
2024-09-22 16:57:10.646 - 30
2024-09-22 16:57:10.649 - 50
2024-09-22 16:57:10.651 - FC
2024-09-22 16:57:10.653 - 01
2024-09-22 16:57:10.655 - 00
2024-09-22 16:57:10.656 - 00
2024-09-22 16:57:10.660 - 01
2024-09-22 16:57:13.248 - 30 50 FA 01 4A 01 4A
2024-09-22 16:57:13.285 - 30
2024-09-22 16:57:13.287 - 50
2024-09-22 16:57:13.290 - FC
2024-09-22 16:57:13.290 - 01
2024-09-22 16:57:13.293 - 00
2024-09-22 16:57:13.294 - 00
2024-09-22 16:57:13.296 - 01
2024-09-22 16:57:16.614 - 30 50 FA 01 4A 01 4A
2024-09-22 16:57:16.650 - 30
2024-09-22 16:57:16.651 - 50
2024-09-22 16:57:16.655 - FC
2024-09-22 16:57:16.657 - 01
2024-09-22 16:57:16.660 - 00
2024-09-22 16:57:16.660 - 00
2024-09-22 16:57:16.662 - 01
2024-09-22 16:57:18.163 - 30 50 FA 01 4A 01 4A
2024-09-22 16:57:22.448 - 30 50 FA 01 4A 01 4A
2024-09-22 16:57:22.485 - 30
2024-09-22 16:57:22.486 - 50
2024-09-22 16:57:22.490 - FC
2024-09-22 16:57:22.490 - 01
2024-09-22 16:57:22.491 - 00
2024-09-22 16:57:22.495 - 00
2024-09-22 16:57:22.496 - 01
2024-09-22 16:57:23.814 - 30 50 FA 01 4A 01 4A
2024-09-22 16:57:23.851 - 30
2024-09-22 16:57:23.851 - 50
2024-09-22 16:57:23.853 - FC
2024-09-22 16:57:23.857 - 01
2024-09-22 16:57:23.858 - 00
2024-09-22 16:57:23.860 - 00
2024-09-22 16:57:23.862 - 01
2024-09-22 16:57:25.349 - 30 50 FA 01 4A 01 4A
2024-09-22 16:57:27.133 - 30 50 FA 01 4A 01 4A
2024-09-22 16:57:27.169 - 30
2024-09-22 16:57:27.173 - 50
2024-09-22 16:57:27.174 - FC
2024-09-22 16:57:27.177 - 01
2024-09-22 16:57:27.178 - 00
2024-09-22 16:57:27.180 - 00
2024-09-22 16:57:27.184 - 01
2024-09-22 16:57:28.915 - 30 50 FA 01 4A 01 4A
2024-09-22 16:57:28.950 - 30
2024-09-22 16:57:28.952 - 50
2024-09-22 16:57:28.955 - FC
2024-09-22 16:57:28.955 - 01
2024-09-22 16:57:28.959 - 00
2024-09-22 16:57:28.961 - 00
2024-09-22 16:57:28.962 - 01
2024-09-22 16:57:30.647 - 30 50 FA 01 4A 01 4A
2024-09-22 16:57:30.686 - 30
2024-09-22 16:57:30.688 - 50
2024-09-22 16:57:30.690 - FC
2024-09-22 16:57:30.693 - 01
2024-09-22 16:57:30.695 - 00
2024-09-22 16:57:30.696 - 00
2024-09-22 16:57:30.699 - 01
2024-09-22 16:57:32.531 - 30 50 FA 01 4A 01 4A
2024-09-22 16:57:32.648 - D4
2024-09-22 16:57:32.650 - FC
2024-09-22 16:57:32.651 - 01
2024-09-22 16:57:32.655 - 00
2024-09-22 16:57:32.657 - 00
2024-09-22 16:57:32.658 - 01
2024-09-22 16:57:34.232 - 30 50 FA 01 4A 01 4A
2024-09-22 16:57:34.270 - 30
2024-09-22 16:57:34.272 - 50
2024-09-22 16:57:34.276 - FC
2024-09-22 16:57:34.276 - 01
2024-09-22 16:57:34.280 - 00
2024-09-22 16:57:34.280 - 00
2024-09-22 16:57:34.282 - 01
2024-09-22 16:57:36.146 - 30 50 FA 01 4A 01 4A
2024-09-22 16:57:36.294 - 30
2024-09-22 16:57:36.297 - 50
2024-09-22 16:57:36.299 - FC
2024-09-22 16:57:36.300 - 01
2024-09-22 16:57:36.302 - 00
2024-09-22 16:57:36.306 - 00
2024-09-22 16:57:36.309 - 01
2024-09-22 16:57:40.364 - 30 50 FA 01 4A 01 4A
2024-09-22 16:57:40.458 - 30
2024-09-22 16:57:40.460 - 50
2024-09-22 16:57:40.463 - FC
2024-09-22 16:57:40.464 - 01
2024-09-22 16:57:40.466 - 00
2024-09-22 16:57:40.467 - 00
2024-09-22 16:57:40.471 - 01
2024-09-22 16:57:42.247 - 30 50 FA 01 4A 01 4A
2024-09-22 16:57:42.368 - 30
2024-09-22 16:57:42.371 - 50
2024-09-22 16:57:42.373 - FC
2024-09-22 16:57:42.375 - 01
2024-09-22 16:57:42.377 - 00
2024-09-22 16:57:42.379 - 00
2024-09-22 16:57:42.379 - 01
2024-09-22 16:57:46.452 - 30 50 FA 01 4A 01 4A
2024-09-22 16:57:46.518 - 30
2024-09-22 16:57:46.520 - 50
2024-09-22 16:57:46.523 - FC
2024-09-22 16:57:46.524 - 01
2024-09-22 16:57:46.525 - 00
2024-09-22 16:57:46.529 - 00
2024-09-22 16:57:46.531 - 01
2024-09-22 16:57:49.449 - 30 50 FA 01 4A 01 4A
2024-09-22 16:57:49.485 - 30
2024-09-22 16:57:49.487 - 50
2024-09-22 16:57:49.488 - FC
2024-09-22 16:57:49.490 - 01
2024-09-22 16:57:49.492 - 00
2024-09-22 16:57:49.495 - 00
2024-09-22 16:57:49.495 - 01
2024-09-22 16:57:53.334 - 30 50 FA 01 4A 01 4A
2024-09-22 16:57:56.415 - 30 50 FA 01 4A 01 4A
2024-09-22 16:57:56.453 - 30
2024-09-22 16:57:56.455 - 50
2024-09-22 16:57:56.457 - FC
2024-09-22 16:57:56.460 - 01
2024-09-22 16:57:56.462 - 00
2024-09-22 16:57:56.464 - 00
2024-09-22 16:57:56.465 - 01
2024-09-22 16:57:59.947 - 30 50 FA 01 4A 01 4A
2024-09-22 16:57:59.983 - 30
2024-09-22 16:57:59.985 - 50
2024-09-22 16:57:59.988 - FC
2024-09-22 16:57:59.990 - 01
2024-09-22 16:57:59.992 - 00
2024-09-22 16:57:59.995 - 00
2024-09-22 16:57:59.995 - 01
2024-09-22 16:58:01.595 - 30 50 FA 01 4A 01 4A
2024-09-22 16:58:01.632 - 30
2024-09-22 16:58:01.636 - 50
2024-09-22 16:58:01.638 - FC
2024-09-22 16:58:01.639 - 01
2024-09-22 16:58:01.643 - 00
2024-09-22 16:58:01.643 - 00
2024-09-22 16:58:01.646 - 01
2024-09-22 17:26:58.620 - 19 08 24 03 DD 00 00 00 01 (调用情景-离家（末）)
2024-09-22 17:26:59.192 - EE 00 00 B1 00 00 00 FF FC FF FF (情景执行提示)
2024-09-22 17:26:59.786 - 09 06 00 0F 02 02 38 20 (提示音咚)
2024-09-22 17:27:00.330 - 50 F7 01 (全屋影音全关)
2024-09-22 17:27:00.933 - 01 06 07 D0 FF 60 C8 9F (客厅空调关)
2024-09-22 17:27:00.960 - 01 06 07 D0 FF 60 C8 9F (客厅空调关)
2024-09-22 17:27:01.529 - 01 06 07 D0 FF 60 C8 9F (客厅空调关)
2024-09-22 17:27:01.565 - 01 06 07 D0 FF 60 C8 9F (客厅空调关)
2024-09-22 17:27:02.127 - 01 06 07 D3 FF 60 38 9F (餐厅空调关)
2024-09-22 17:27:02.162 - 01 06 07 D3 FF 60 38 9F (餐厅空调关)
2024-09-22 17:27:02.726 - 01 06 07 D3 FF 60 38 9F (餐厅空调关)
2024-09-22 17:27:02.758 - 01 06 07 D3 FF 60 38 9F (餐厅空调关)
2024-09-22 17:27:03.324 - 01 06 07 D6 FF 60 28 9E (主卧空调关)
2024-09-22 17:27:03.353 - 01 06 07 D6 FF 60 28 9E (主卧空调关)
2024-09-22 17:27:03.921 - 01 06 07 D6 FF 60 28 9E (主卧空调关)
2024-09-22 17:27:03.950 - 01 06 07 D6 FF 60 28 9E (主卧空调关)
2024-09-22 17:27:04.519 - 01 06 07 D9 FF 60 18 9D (次卧空调关)
2024-09-22 17:27:04.555 - 01 06 07 D9 FF 60 18 9D (次卧空调关)
2024-09-22 17:27:05.117 - 01 06 07 D9 FF 60 18 9D (次卧空调关)
2024-09-22 17:27:05.151 - 01 06 07 D9 FF 60 18 9D (次卧空调关)
2024-09-22 17:27:05.716 - 01 06 07 DC FF 60 08 9C (书房空调关)
2024-09-22 17:27:05.747 - 01 06 07 DC FF 60 08 9C (书房空调关)
2024-09-22 17:27:06.314 - 01 06 07 DC FF 60 08 9C (书房空调关)
2024-09-22 17:27:06.343 - 01 06 07 DC FF 60 08 9C (书房空调关)
2024-09-22 17:27:06.911 - 09 06 00 0F 02 02 38 20 (提示音咚)
2024-09-22 17:27:07.461 - 1A FF FF FF 56 00 00 00 0F (人体感应地址-内卫, 关闭内卫感应)
2024-09-22 17:27:07.474 - BC BC
2024-09-22 17:27:08.058 - 1A FF FF FF 55 00 00 00 0F (人体感应地址-外卫, 关闭外卫感应)
2024-09-22 17:27:08.072 - BC BC
2024-09-22 17:27:08.656 - 1A FF FF FF 57 00 00 00 0F (人体感应地址-厨房, 关闭厨房感应)
2024-09-22 17:27:09.205 - 1A FF FF FF 58 00 00 00 0F (人体感应地址-茶吧, 关闭茶吧感应)
2024-09-22 17:27:09.255 - BC BC
2024-09-22 17:27:09.832 - 1A 20 07 00 93 00 01 00 0F (自保持开关地址-设备区顶, 设备区顶灯关)
2024-09-22 17:27:10.899 - 1A 20 07 01 40 00 01 00 0F (自保持开关地址-内卫顶灯, 内卫顶灯关)
2024-09-22 17:27:11.945 - 1A 20 07 01 55 00 01 00 0F (自保持开关地址-主卧顶灯, 主卧顶灯只关)
2024-09-22 17:27:12.991 - 1A 20 07 00 42 00 01 00 0F (自保持开关地址-外卫顶灯, 外卫顶灯关)
2024-09-22 17:27:14.037 - 55 0D 31 00 00 00 01 94 (书房顶灯只关)
2024-09-22 17:27:15.083 - 55 0A 31 00 00 00 01 91 (厨房顶灯一关)
2024-09-22 17:27:16.129 - 55 0A 31 00 00 00 02 92 (厨房顶灯二关)
2024-09-22 17:27:17.176 - 55 0B 31 00 00 00 01 92 (厨房风扇只关)
2024-09-22 17:27:18.221 - 55 0C 31 00 00 00 01 93 (餐厅顶灯关)
2024-09-22 17:27:19.269 - 1A 20 07 01 30 00 01 00 0F (自保持开关地址-西阳顶灯, 西阳顶灯关)
2024-09-22 17:27:20.315 - 1A 18 05 21 89 00 01 00 0F (自保持开关地址-客厅顶灯, 客厅顶灯一关)
2024-09-22 17:27:21.362 - 1A 18 05 01 94 00 01 00 0F (自保持开关地址-客厅顶灯, 客厅顶灯二关)
2024-09-22 17:27:22.409 - 1A 20 07 00 70 00 01 00 0F (自保持开关地址-次卧顶灯, 次卧顶灯只关)
2024-09-22 17:27:23.455 - 1A 18 05 10 31 00 01 00 0F (自保持开关地址-门厅顶灯, 门厅顶灯关)
2024-09-22 17:27:24.499 - 1A FF FF FF 04 00 03 02 (继电器地址-东阳衣架, 东阳衣架照明关)
2024-09-22 17:27:25.048 - 09 06 00 0F 02 02 38 20 (提示音咚)
2024-09-22 17:27:25.593 - A5 00 A6 FE 01 AA (餐厅窗帘开)
2024-09-22 17:27:26.144 - FF FF FF FF 0A 00 01 00 (继电器地址-东阳窗帘, 东阳窗帘开)
2024-09-22 17:27:26.693 - 1A BE B0 DC 04 00 01 00 (继电器地址-西阳窗帘, 西阳窗帘开)
2024-09-22 17:27:27.240 - FF FF FF FF 0E 00 01 00 (继电器地址-西阳小窗帘, 西阳小窗帘开)
2024-09-22 17:27:27.788 - 1A 22 33 62 0F 00 00 01 0F (正反转地址-内卫卷帘, 内卫卷帘升)
2024-09-22 17:27:28.334 - A5 00 52 FE 01 AA (主卧窗帘开)
2024-09-22 17:27:28.881 - A5 00 53 FF 00 AA (主卧纱帘开)
2024-09-22 17:27:29.429 - A5 00 76 FE 01 AA (次卧窗帘开)
2024-09-22 17:27:29.978 - A5 00 21 FE 01 AA (次卧纱帘开)
2024-09-22 17:27:30.528 - A5 00 D2 FE 01 AA 22 0D (书房窗帘开)
2024-09-22 17:27:31.075 - 1A BE B0 DC 09 00 01 00 (继电器地址-客厅窗帘, 客厅窗帘开)
2024-09-22 17:27:31.624 - 1A BE B0 DC 0A 00 02 00 (继电器地址-客厅纱帘, 客厅纱帘开)
2024-09-22 17:27:32.173 - 09 06 00 0F 02 02 38 20 (提示音咚)
2024-09-22 17:27:33.220 - 1A EC A0 DC 02 00 00 00 0F (自保持开关地址-天花12V供电, 天花12V 供电关)
2024-09-22 17:27:33.767 - 1A EC A0 DC 02 00 00 00 0F (自保持开关地址-天花12V供电, 天花12V 供电关)
2024-09-22 17:27:34.316 - 1A EC A0 DC 01 00 00 00 0F (自保持开关地址-电视、设备12V供电, 12V 电视供电关)
2024-09-22 17:27:34.864 - 1A EC A0 DC 01 00 00 00 0F (自保持开关地址-电视、设备12V供电, 12V 电视供电关)
2024-09-22 17:27:35.463 - 1A EC A0 DC 04 00 01 00 0F (自保持开关地址-次卧西阳内外卫供电, 内卫外卫关)
2024-09-22 17:27:36.010 - 1A EC A0 DC 04 00 01 00 0F (自保持开关地址-次卧西阳内外卫供电, 内卫外卫关)
2024-09-22 17:27:37.603 - 1A BB BB BB 01 02 00 (开水器电源关)
2024-09-22 17:27:50.721 - 09 06 00 0F 02 02 38 20 (提示音咚)
2024-09-22 17:27:51.271 - 1A 27 89 12 AA 00 00 00 0F (状态寄存器地址, 无人状态)
2024-09-22 17:27:51.819 - 1A 27 89 12 AA 00 00 00 0F (状态寄存器地址, 无人状态)
2024-09-22 17:27:52.361 - A1 11 11 11 4D (天花供电关闭确认)
2024-09-22 17:27:52.584 - 1A EC A0 DC 02 86 86 86 0F (查询天花供电状态, 自保持开关地址-天花12V供电)
2024-09-22 17:27:53.018 - 1A EC A0 DC 02 00 01 0F (自保持开关地址-天花12V供电)
2024-09-22 17:27:55.401 - A1 11 11 11 4E (卫生供电关闭确认)
2024-09-22 17:27:55.633 - 1A EC A0 DC 04 86 86 86 0F (查询卫生间供电状态, 自保持开关地址-次卧西阳内外卫供电)
2024-09-22 17:27:56.063 - 1A EC A0 DC 04 01 00 0F (自保持开关地址-次卧西阳内外卫供电)
2024-09-22 17:27:58.441 - A1 11 11 11 4F (电视供电关闭确认)
2024-09-22 17:27:58.671 - 1A EC A0 DC 01 86 86 86 0F (查询电视供电状态, 自保持开关地址-电视、设备12V供电)
2024-09-22 17:27:59.106 - 1A EC A0 DC 01 00 01 0F (自保持开关地址-电视、设备12V供电)
2024-09-22 17:28:01.483 - 09 06 00 0F 02 02 38 20 (提示音咚)
2024-09-22 17:28:02.031 - 09 06 00 0F 02 02 38 20 (提示音咚)
2024-09-22 17:28:02.633 - EE 00 00 B1 00 00 02 FF FC FF FF (情景完成返回主页)
2024-09-22 17:28:03.723 - BA BA EE EE BA BA (离家设置信科变量)
2024-09-22 17:28:04.768 - A1 11 11 11 46 (天热离家遮阳)
2024-09-22 17:28:04.998 - 1A 27 89 12 AA 86 86 86 0F (查询寄存器状态, 状态寄存器地址)
2024-09-22 17:28:05.380 - 1A 27 89 12 AA 00 00 00 00 00 00 00 00 00 00 00 00 00 00 00 00 0F (状态寄存器地址)
2024-09-22 17:29:45.638 - 1A BE B0 DC 04 FC (继电器地址-西阳窗帘)
2024-09-22 17:29:45.772 - FF
2024-09-22 17:31:45.091 - FF FF FF FF 0E FC (继电器地址-西阳小窗帘)
2024-09-22 17:31:45.224 - FF
2024-09-22 17:36:27.136 - FF
2024-09-22 17:48:42.792 - 1A BE B0 DC 02 FC (正反转地址-外卫卷帘)
2024-09-22 17:48:42.927 - FF
2024-09-22 17:48:59.124 - 1A FF FF FF 04 (继电器地址-东阳衣架)
2024-09-22 17:48:59.260 - FE
2024-09-22 17:59:44.150 - 1A BE B0 DC 01 FC (继电器地址-回水泵点动)
2024-09-22 17:59:44.285 - FF
2024-09-22 18:02:45.187 - 1A BE B0 DC 03 (继电器地址-西阳天幕)
2024-09-22 18:02:45.322 - FE
2024-09-22 18:03:42.086 - 1A BE B0 DC 09 (继电器地址-客厅窗帘)
2024-09-22 18:03:42.222 - FE
2024-09-22 18:10:25.717 - 1B 03 00 00 00 02 C6 31 (查询室外光线)
2024-09-22 18:10:25.739 - 1B 03 04 00 00 00 00 41 F2 (室外光线返回)
2024-09-22 18:10:26.517 - 1A EC A0 DC 02 00 00 01 0F (自保持开关地址-天花12V供电, 天花12V 供电开)
2024-09-22 18:10:27.098 - 1A AA AA AA 88 (调光器地址-茶吧灯带)
2024-09-22 18:10:27.206 - 8D
2024-09-22 18:10:27.220 - 01 FF FF FF 60 01 FF 60 01 FF 00 00 0F
2024-09-22 18:10:28.211 - 19 08 24 03 DD 00 0D 00 01 (调用情景-信科调用进门暗)
2024-09-22 18:10:30.274 - 1A FF 01 FF FF FF 60 01 FF 60 01 FF 00 00 0F (调光器地址-公共区域统配地址)
2024-09-22 18:10:32.359 - 1A EC A0 DC 01 00 00 01 0F (自保持开关地址-电视、设备12V供电, 12V 电视供电开)
2024-09-22 18:10:32.908 - 1A EC A0 DC 01 00 00 01 0F (自保持开关地址-电视、设备12V供电, 12V 电视供电开)
2024-09-22 18:10:33.456 - 1A EC A0 DC 04 00 01 01 0F (自保持开关地址-次卧西阳内外卫供电, 内卫外卫开)
2024-09-22 18:10:34.055 - 1A EC A0 DC 04 00 01 01 0F (自保持开关地址-次卧西阳内外卫供电, 内卫外卫开)
2024-09-22 18:10:34.600 - 1A BB BB BB 01 01 00 (开水器电源开)
2024-09-22 18:10:36.145 - 1A 27 89 12 AA 00 00 01 0F (状态寄存器地址, 有人状态)
2024-09-22 18:10:36.694 - 1A 27 89 12 AA 00 00 01 0F (状态寄存器地址, 有人状态)
2024-09-22 18:10:37.241 - 1A BE B0 DC 01 00 01 00 (继电器地址-回水泵点动, 回水泵点动)
2024-09-22 18:10:37.789 - 1A FF FF FF 56 00 00 01 0F (人体感应地址-内卫, 打开内卫感应)
2024-09-22 18:10:38.338 - 1A FF FF FF 55 00 00 01 0F (人体感应地址-外卫, 打开外卫感应)
2024-09-22 18:10:38.434 - BC BC
2024-09-22 18:10:38.885 - 1A FF FF FF 57 00 00 01 0F (人体感应地址-厨房, 打开厨房感应)
2024-09-22 18:10:39.434 - 1A FF FF FF 58 00 00 01 0F (人体感应地址-茶吧, 打开茶吧感应)
2024-09-22 18:10:39.483 - BC BC
2024-09-22 18:10:40.031 - 1A BE B0 DC 01 00 01 00 (继电器地址-回水泵点动, 回水泵点动)
2024-09-22 18:10:40.579 - A5 00 B7 FF 00 AA 22 0D (书房纱帘关)
2024-09-22 18:10:41.174 - A5 00 A2 FF 00 AA (餐厅纱帘关)
2024-09-22 18:10:41.725 - 09 06 00 0F 02 01 78 21 (提示音叮)
2024-09-22 18:10:42.274 - 09 06 00 0F 02 01 78 21 (提示音叮)
2024-09-22 18:10:42.824 - EE 00 00 B1 00 00 02 FF FC FF FF (情景完成返回主页)
2024-09-22 18:10:43.416 - A1 11 11 11 50 (天花供电打开确认)
2024-09-22 18:10:43.644 - 1A EC A0 DC 02 86 86 86 0F (查询天花供电状态, 自保持开关地址-天花12V供电)
2024-09-22 18:10:44.078 - 1A EC A0 DC 02 01 01 0F (自保持开关地址-天花12V供电)
2024-09-22 18:10:44.344 - 1A BE B0 DC 0A (继电器地址-客厅纱帘)
2024-09-22 18:10:44.481 - FF
2024-09-22 18:10:45.956 - A1 11 11 11 51 (卫生供电打开确认)
2024-09-22 18:10:46.181 - 1A EC A0 DC 04 86 86 86 0F (查询卫生间供电状态, 自保持开关地址-次卧西阳内外卫供电)
2024-09-22 18:10:46.612 - 1A EC A0 DC 04 01 01 0F (自保持开关地址-次卧西阳内外卫供电)
2024-09-22 18:10:48.498 - A1 11 11 11 52 (电视供电打开确认)
2024-09-22 18:10:48.720 - 1A EC A0 DC 01 86 86 86 0F (查询电视供电状态, 自保持开关地址-电视、设备12V供电)
2024-09-22 18:10:49.150 - 1A EC A0 DC 01 01 01 0F (自保持开关地址-电视、设备12V供电)
2024-09-22 18:10:53.530 - A1 11 11 11 47 (天热回家开帘)
2024-09-22 18:10:53.753 - 1A 27 89 12 AA 86 86 86 0F (查询寄存器状态, 状态寄存器地址)
2024-09-22 18:10:54.136 - 1A 27 89 12 AA 01 00 00 00 00 00 00 00 00 00 00 00 00 00 00 00 0F (状态寄存器地址)
2024-09-22 18:12:45.748 - 19 08 24 03 CC 01 CC 00 01 (调用茶吧感应灯开的按键)
2024-09-22 18:12:45.798 - 1A AA AA AA 88 FF B0 01 FF B0 01 0F (调光器地址-茶吧灯带, 茶吧灯带明亮)
2024-09-22 18:13:23.322 - 19 08 24 03 CC 01 CD 00 01 (调用茶吧感应灯关的按键)
2024-09-22 18:13:23.353 - 1A AA AA AA 88 FF 00 01 FF 00 01 0F (调光器地址-茶吧灯带, 茶吧灯带关闭)
2024-09-22 18:13:40.356 - 19 08 24 03 CC 01 CC 00 01 (调用茶吧感应灯开的按键)
2024-09-22 18:13:40.387 - 1A AA AA AA 88 FF B0 01 FF B0 01 0F (调光器地址-茶吧灯带, 茶吧灯带明亮)
2024-09-22 18:13:42.378 - 19 08 24 03 CC 00 D3 00 01 (调用厨房感应灯开的按键)
2024-09-22 18:13:42.414 - 55 0A 32 00 00 00 01 92 55 0A 32 00 00 00 02 93 (厨房顶灯一开, 厨房顶灯二开)
2024-09-22 18:13:52.379 - 19 08 24 03 CC 01 CD 00 01 (调用茶吧感应灯关的按键)
2024-09-22 18:13:52.411 - 1A AA AA AA 88 FF 00 01 FF 00 01 0F (调光器地址-茶吧灯带, 茶吧灯带关闭)
2024-09-22 18:13:58.390 - 19 08 24 03 CC 01 CC 00 01 (调用茶吧感应灯开的按键)
2024-09-22 18:13:58.421 - 1A AA AA AA 88 FF B0 01 FF B0 01 0F (调光器地址-茶吧灯带, 茶吧灯带明亮)
2024-09-22 18:14:10.414 - 19 08 24 03 CC 01 CD 00 01 (调用茶吧感应灯关的按键)
2024-09-22 18:14:10.445 - 1A AA AA AA 88 FF 00 01 FF 00 01 0F (调光器地址-茶吧灯带, 茶吧灯带关闭)
2024-09-22 18:14:35.984 - 19 08 24 03 CC 00 D4 00 01 (调用厨房感应灯关的按键)
2024-09-22 18:14:36.018 - 55 0A 31 00 00 00 01 91 55 0A 31 00 00 00 02 92 (厨房顶灯一关, 厨房顶灯二关)
2024-09-22 18:16:21.637 - 19 08 24 03 CC 01 52 00 01 (调用外卫感应灯开的按键)
2024-09-22 18:16:21.671 - 1A 0D 01 07 01 FF 45 01 FF 45 01 FF 00 00 0F (调光器地址-外卫射灯, 外卫感应灯开)
2024-09-22 18:16:47.688 - 19 08 24 03 CC 01 53 00 01 (调用外卫感应灯关的按键)
2024-09-22 18:16:47.722 - 1A 0D 01 07 01 FF 00 01 FF 00 01 FF 00 00 0F (调光器地址-外卫射灯, 外卫感应灯关)
2024-09-22 18:17:21.082 - 19 08 24 03 DD 00 00 00 01 (调用情景-离家（末）)
2024-09-22 18:17:21.602 - EE 00 00 B1 00 00 00 FF FC FF FF (情景执行提示)
2024-09-22 18:17:22.196 - 09 06 00 0F 02 02 38 20 (提示音咚)
2024-09-22 18:17:22.740 - 50 F7 01 (全屋影音全关)
2024-09-22 18:17:23.294 - 01 06 07 D0 FF 60 C8 9F (客厅空调关)
2024-09-22 18:17:23.330 - 01 06 07 D0 FF 60 C8 9F (客厅空调关)
2024-09-22 18:17:23.920 - 01 06 07 D0 FF 60 C8 9F (客厅空调关)
2024-09-22 18:17:23.955 - 01 06 07 D0 FF 60 C8 9F (客厅空调关)
2024-09-22 18:17:24.489 - 01 06 07 D3 FF 60 38 9F (餐厅空调关)
2024-09-22 18:17:24.520 - 01 06 07 D3 FF 60 38 9F (餐厅空调关)
2024-09-22 18:17:25.086 - 01 06 07 D3 FF 60 38 9F (餐厅空调关)
2024-09-22 18:17:25.116 - 01 06 07 D3 FF 60 38 9F (餐厅空调关)
2024-09-22 18:17:25.684 - 01 06 07 D6 FF 60 28 9E (主卧空调关)
2024-09-22 18:17:25.712 - 01 06 07 D6 FF 60 28 9E (主卧空调关)
2024-09-22 18:17:26.283 - 01 06 07 D6 FF 60 28 9E (主卧空调关)
2024-09-22 18:17:26.319 - 01 06 07 D6 FF 60 28 9E (主卧空调关)
2024-09-22 18:17:26.880 - 01 06 07 D9 FF 60 18 9D (次卧空调关)
2024-09-22 18:17:26.914 - 01 06 07 D9 FF 60 18 9D (次卧空调关)
2024-09-22 18:17:27.479 - 01 06 07 D9 FF 60 18 9D (次卧空调关)
2024-09-22 18:17:27.510 - 01 06 07 D9 FF 60 18 9D (次卧空调关)
2024-09-22 18:17:28.076 - 01 06 07 DC FF 60 08 9C (书房空调关)
2024-09-22 18:17:28.105 - 01 06 07 DC FF 60 08 9C (书房空调关)
2024-09-22 18:17:28.673 - 01 06 07 DC FF 60 08 9C (书房空调关)
2024-09-22 18:17:28.701 - 01 06 07 DC FF 60 08 9C (书房空调关)
2024-09-22 18:17:29.271 - 09 06 00 0F 02 02 38 20 (提示音咚)
2024-09-22 18:17:29.821 - 1A FF FF FF 56 00 00 00 0F (人体感应地址-内卫, 关闭内卫感应)
2024-09-22 18:17:30.369 - 1A FF FF FF 55 00 00 00 0F (人体感应地址-外卫, 关闭外卫感应)
2024-09-22 18:17:30.465 - BC BC
2024-09-22 18:17:30.917 - 1A FF FF FF 57 00 00 00 0F (人体感应地址-厨房, 关闭厨房感应)
2024-09-22 18:17:31.465 - 1A FF FF FF 58 00 00 00 0F (人体感应地址-茶吧, 关闭茶吧感应)
2024-09-22 18:17:31.515 - BC BC
2024-09-22 18:17:32.063 - 1A 20 07 00 93 00 01 00 0F (自保持开关地址-设备区顶, 设备区顶灯关)
2024-09-22 18:17:33.109 - 1A 20 07 01 40 00 01 00 0F (自保持开关地址-内卫顶灯, 内卫顶灯关)
2024-09-22 18:17:34.156 - 1A 20 07 01 55 00 01 00 0F (自保持开关地址-主卧顶灯, 主卧顶灯只关)
2024-09-22 18:17:35.202 - 1A 20 07 00 42 00 01 00 0F (自保持开关地址-外卫顶灯, 外卫顶灯关)
2024-09-22 18:17:36.248 - 55 0D 31 00 00 00 01 94 (书房顶灯只关)
2024-09-22 18:17:37.293 - 55 0A 31 00 00 00 01 91 (厨房顶灯一关)
2024-09-22 18:17:38.339 - 55 0A 31 00 00 00 02 92 (厨房顶灯二关)
2024-09-22 18:17:39.385 - 55 0B 31 00 00 00 01 92 (厨房风扇只关)
2024-09-22 18:17:40.433 - 55 0C 31 00 00 00 01 93 (餐厅顶灯关)
2024-09-22 18:17:41.480 - 1A 20 07 01 30 00 01 00 0F (自保持开关地址-西阳顶灯, 西阳顶灯关)
2024-09-22 18:17:42.525 - 1A 18 05 21 89 00 01 00 0F (自保持开关地址-客厅顶灯, 客厅顶灯一关)
2024-09-22 18:17:43.572 - 1A 18 05 01 94 00 01 00 0F (自保持开关地址-客厅顶灯, 客厅顶灯二关)
2024-09-22 18:17:44.618 - 1A 20 07 00 70 00 01 00 0F (自保持开关地址-次卧顶灯, 次卧顶灯只关)
2024-09-22 18:17:45.664 - 1A 18 05 10 31 00 01 00 0F (自保持开关地址-门厅顶灯, 门厅顶灯关)
2024-09-22 18:17:46.710 - 1A FF FF FF 04 00 03 02 (继电器地址-东阳衣架, 东阳衣架照明关)
2024-09-22 18:17:47.257 - 09 06 00 0F 02 02 38 20 (提示音咚)
2024-09-22 18:17:47.804 - A5 00 A6 FE 01 AA (餐厅窗帘开)
2024-09-22 18:17:48.353 - FF FF FF FF 0A 00 01 00 (继电器地址-东阳窗帘, 东阳窗帘开)
2024-09-22 18:17:48.901 - 1A BE B0 DC 04 00 01 00 (继电器地址-西阳窗帘, 西阳窗帘开)
2024-09-22 18:17:49.450 - FF FF FF FF 0E 00 01 00 (继电器地址-西阳小窗帘, 西阳小窗帘开)
2024-09-22 18:17:49.999 - 1A 22 33 62 0F 00 00 01 0F (正反转地址-内卫卷帘, 内卫卷帘升)
2024-09-22 18:17:50.544 - A5 00 52 FE 01 AA (主卧窗帘开)
2024-09-22 18:17:51.092 - A5 00 53 FF 00 AA (主卧纱帘开)
2024-09-22 18:17:51.690 - A5 00 76 FE 01 AA (次卧窗帘开)
2024-09-22 18:17:52.238 - A5 00 21 FE 01 AA (次卧纱帘开)
2024-09-22 18:17:52.789 - A5 00 D2 FE 01 AA 22 0D (书房窗帘开)
2024-09-22 18:17:53.336 - 1A BE B0 DC 09 00 01 00 (继电器地址-客厅窗帘, 客厅窗帘开)
2024-09-22 18:17:53.884 - 1A BE B0 DC 0A 00 02 00 (继电器地址-客厅纱帘, 客厅纱帘开)
2024-09-22 18:17:54.433 - 09 06 00 0F 02 02 38 20 (提示音咚)
2024-09-22 18:17:55.479 - 1A EC A0 DC 02 00 00 00 0F (自保持开关地址-天花12V供电, 天花12V 供电关)
2024-09-22 18:17:56.027 - 1A EC A0 DC 02 00 00 00 0F (自保持开关地址-天花12V供电, 天花12V 供电关)
2024-09-22 18:17:56.576 - 1A EC A0 DC 01 00 00 00 0F (自保持开关地址-电视、设备12V供电, 12V 电视供电关)
2024-09-22 18:17:57.124 - 1A EC A0 DC 01 00 00 00 0F (自保持开关地址-电视、设备12V供电, 12V 电视供电关)
2024-09-22 18:17:57.671 - 1A EC A0 DC 04 00 01 00 0F (自保持开关地址-次卧西阳内外卫供电, 内卫外卫关)
2024-09-22 18:17:58.220 - 1A EC A0 DC 04 00 01 00 0F (自保持开关地址-次卧西阳内外卫供电, 内卫外卫关)
2024-09-22 18:17:59.762 - 1A BB BB BB 01 02 00 (开水器电源关)
2024-09-22 18:18:12.980 - 09 06 00 0F 02 02 38 20 (提示音咚)
2024-09-22 18:18:13.530 - 1A 27 89 12 AA 00 00 00 0F (状态寄存器地址, 无人状态)
2024-09-22 18:18:14.078 - 1A 27 89 12 AA 00 00 00 0F (状态寄存器地址, 无人状态)
2024-09-22 18:18:14.621 - A1 11 11 11 4D (天花供电关闭确认)
2024-09-22 18:18:14.842 - 1A EC A0 DC 02 86 86 86 0F (查询天花供电状态, 自保持开关地址-天花12V供电)
2024-09-22 18:18:15.274 - 1A EC A0 DC 02 00 01 0F (自保持开关地址-天花12V供电)
2024-09-22 18:18:17.660 - A1 11 11 11 4E (卫生供电关闭确认)
2024-09-22 18:18:17.891 - 1A EC A0 DC 04 86 86 86 0F (查询卫生间供电状态, 自保持开关地址-次卧西阳内外卫供电)
2024-09-22 18:18:18.321 - 1A EC A0 DC 04 01 00 0F (自保持开关地址-次卧西阳内外卫供电)
2024-09-22 18:18:20.700 - A1 11 11 11 4F (电视供电关闭确认)
2024-09-22 18:18:20.930 - 1A EC A0 DC 01 86 86 86 0F (查询电视供电状态, 自保持开关地址-电视、设备12V供电)
2024-09-22 18:18:21.361 - 1A EC A0 DC 01 00 01 0F (自保持开关地址-电视、设备12V供电)
2024-09-22 18:18:23.742 - 09 06 00 0F 02 02 38 20 (提示音咚)
2024-09-22 18:18:24.290 - 09 06 00 0F 02 02 38 20 (提示音咚)
2024-09-22 18:18:24.891 - EE 00 00 B1 00 00 02 FF FC FF FF (情景完成返回主页)
2024-09-22 18:18:25.982 - BA BA EE EE BA BA (离家设置信科变量)
2024-09-22 18:18:27.028 - A1 11 11 11 46 (天热离家遮阳)
2024-09-22 18:18:27.248 - 1A 27 89 12 AA 86 86 86 0F (查询寄存器状态, 状态寄存器地址)
2024-09-22 18:18:27.630 - 1A 27 89 12 AA 00 00 00 00 00 00 00 00 00 00 00 00 00 00 00 00 0F (状态寄存器地址)
2024-09-22 18:26:32.958 - FF
2024-09-22 18:40:39.571 - FF
2024-09-22 18:51:03.369 - FF FF FF FF 0A FC (继电器地址-东阳窗帘)
2024-09-22 18:51:03.503 - FF
2024-09-22 19:04:01.151 - FF
2024-09-22 19:31:53.521 - 1A 18 05 21 89 00 01 02 0F (自保持开关地址-客厅顶灯, 客厅顶灯一开关)
2024-09-22 19:52:43.211 - 1B 03 00 00 00 02 C6 31 (查询室外光线)
2024-09-22 19:52:43.230 - 1B 03 04 00 00 00 00 41 F2 (室外光线返回)
2024-09-22 19:52:44.010 - 1A EC A0 DC 02 00 00 01 0F (自保持开关地址-天花12V供电, 天花12V 供电开)
2024-09-22 19:52:44.541 - 1A AA AA AA 88 (调光器地址-茶吧灯带)
2024-09-22 19:52:44.713 - 1A FF 01 FF FF FF 60 01 FF 60 01 FF 00 00 0F (调光器地址-公共区域统配地址)
2024-09-22 19:52:45.706 - 19 08 24 03 DD 00 0D 00 01 (调用情景-信科调用进门暗)
2024-09-22 19:52:47.733 - 1A FF 01 FF FF FF 60 01 FF 60 01 FF 00 00 0F (调光器地址-公共区域统配地址)
2024-09-22 19:52:49.870 - 1A EC A0 DC 01 00 00 01 0F (自保持开关地址-电视、设备12V供电, 12V 电视供电开)
2024-09-22 19:52:50.418 - 1A EC A0 DC 01 00 00 01 0F (自保持开关地址-电视、设备12V供电, 12V 电视供电开)
2024-09-22 19:52:50.967 - 1A EC A0 DC 04 00 01 01 0F (自保持开关地址-次卧西阳内外卫供电, 内卫外卫开)
2024-09-22 19:52:51.513 - 1A EC A0 DC 04 00 01 01 0F (自保持开关地址-次卧西阳内外卫供电, 内卫外卫开)
2024-09-22 19:52:52.061 - 1A BB BB BB 01 01 00 (开水器电源开)
2024-09-22 19:52:53.606 - 1A 27 89 12 AA 00 00 01 0F (状态寄存器地址, 有人状态)
2024-09-22 19:52:54.154 - 1A 27 89 12 AA 00 00 01 0F (状态寄存器地址, 有人状态)
2024-09-22 19:52:54.702 - 1A BE B0 DC 01 00 01 00 (继电器地址-回水泵点动, 回水泵点动)
2024-09-22 19:52:55.251 - 1A FF FF FF 56 00 00 01 0F (人体感应地址-内卫, 打开内卫感应)
2024-09-22 19:52:55.849 - 1A FF FF FF 55 00 00 01 0F (人体感应地址-外卫, 打开外卫感应)
2024-09-22 19:52:55.944 - BC BC
2024-09-22 19:52:56.396 - 1A FF FF FF 57 00 00 01 0F (人体感应地址-厨房, 打开厨房感应)
2024-09-22 19:52:56.995 - 1A FF FF FF 58 00 00 01 0F (人体感应地址-茶吧, 打开茶吧感应)
2024-09-22 19:52:57.045 - BC BC
2024-09-22 19:52:57.593 - 1A BE B0 DC 01 00 01 00 (继电器地址-回水泵点动, 回水泵点动)
2024-09-22 19:52:58.140 - A5 00 B7 FF 00 AA 22 0D (书房纱帘关)
2024-09-22 19:52:58.686 - A5 00 A2 FF 00 AA (餐厅纱帘关)
2024-09-22 19:52:59.235 - 09 06 00 0F 02 01 78 21 (提示音叮)
2024-09-22 19:52:59.784 - 09 06 00 0F 02 01 78 21 (提示音叮)
2024-09-22 19:53:00.336 - EE 00 00 B1 00 00 02 FF FC FF FF (情景完成返回主页)
2024-09-22 19:53:00.927 - A1 11 11 11 50 (天花供电打开确认)
2024-09-22 19:53:01.059 - 19 08 24 03 CC 01 CC 00 01 (调用茶吧感应灯开的按键)
2024-09-22 19:53:01.109 - 1A AA AA AA 88 FF B0 01 FF B0 01 0F (调光器地址-茶吧灯带, 茶吧灯带明亮)
2024-09-22 19:53:03.467 - A1 11 11 11 51 (卫生供电打开确认)
2024-09-22 19:53:03.692 - 1A EC A0 DC 04 86 86 86 0F (查询卫生间供电状态, 自保持开关地址-次卧西阳内外卫供电)
2024-09-22 19:53:04.123 - 1A EC A0 DC 04 01 01 0F (自保持开关地址-次卧西阳内外卫供电)
2024-09-22 19:53:06.008 - A1 11 11 11 52 (电视供电打开确认)
2024-09-22 19:53:06.239 - 1A EC A0 DC 01 86 86 86 0F (查询电视供电状态, 自保持开关地址-电视、设备12V供电)
2024-09-22 19:53:06.675 - 1A EC A0 DC 01 01 01 0F (自保持开关地址-电视、设备12V供电)
2024-09-22 19:53:11.042 - A1 11 11 11 47 (天热回家开帘)
2024-09-22 19:53:11.263 - 1A 27 89 12 AA 86 86 86 0F (查询寄存器状态, 状态寄存器地址)
2024-09-22 19:53:11.646 - 1A 27 89 12 AA 01 00 00 00 00 00 00 00 00 00 00 00 00 00 00 00 0F (状态寄存器地址)
2024-09-22 19:53:13.045 - 19 08 24 03 CC 00 D3 00 01 (调用厨房感应灯开的按键)
2024-09-22 19:53:13.100 - 55 0A 32 00 00 00 01 92 55 0A 32 00 00 00 02 93 (厨房顶灯一开, 厨房顶灯二开)
2024-09-22 19:54:10.159 - 19 08 24 03 CC 00 D4 00 01 (调用厨房感应灯关的按键)
2024-09-22 19:54:10.193 - 55 0A 31 00 00 00 01 91 55 0A 31 00 00 00 02 92 (厨房顶灯一关, 厨房顶灯二关)
2024-09-22 19:54:54.245 - 19 08 24 03 CC 00 D3 00 01 (调用厨房感应灯开的按键)
2024-09-22 19:54:54.281 - 55 0A 32 00 00 00 01 92 55 0A 32 00 00 00 02 93 (厨房顶灯一开, 厨房顶灯二开)
2024-09-22 19:55:07.827 - 19 08 24 03 CC 01 CD 00 01 (调用茶吧感应灯关的按键)
2024-09-22 19:55:07.857 - 1A AA AA AA 88 FF 00 01 FF 00 01 0F (调光器地址-茶吧灯带, 茶吧灯带关闭)
2024-09-22 19:56:11.452 - 19 08 24 03 CC 01 CC 00 01 (调用茶吧感应灯开的按键)
2024-09-22 19:56:11.483 - 1A AA AA AA 88 FF B0 01 FF B0 01 0F (调光器地址-茶吧灯带, 茶吧灯带明亮)
2024-09-22 19:56:43.015 - 19 08 24 03 CC 01 CD 00 01 (调用茶吧感应灯关的按键)
2024-09-22 19:56:43.046 - 1A AA AA AA 88 FF 00 01 FF 00 01 0F (调光器地址-茶吧灯带, 茶吧灯带关闭)
2024-09-22 19:58:07.180 - 19 08 24 03 CC 01 CC 00 01 (调用茶吧感应灯开的按键)
2024-09-22 19:58:07.211 - 1A AA AA AA 88 FF B0 01 FF B0 01 0F (调光器地址-茶吧灯带, 茶吧灯带明亮)
2024-09-22 19:58:28.223 - 19 08 24 03 CC 01 CD 00 01 (调用茶吧感应灯关的按键)
2024-09-22 19:58:28.254 - 1A AA AA AA 88 FF 00 01 FF 00 01 0F (调光器地址-茶吧灯带, 茶吧灯带关闭)
2024-09-22 19:58:38.243 - 19 08 24 03 CC 01 CC 00 01 (调用茶吧感应灯开的按键)
2024-09-22 19:58:38.272 - 1A AA AA AA 88 FF B0 01 FF B0 01 0F (调光器地址-茶吧灯带, 茶吧灯带明亮)
2024-09-22 19:58:47.555 - EE 00 6E B1 01 00 03 FF FC FF FF
2024-09-22 19:58:48.144 - EE 00 6E B1 01 00 08 FF FC FF FF
2024-09-22 19:58:48.638 - 1A BE B0 DC 0A 00 01 00 (继电器地址-客厅纱帘, 客厅纱帘关)
2024-09-22 19:58:50.265 - 19 08 24 03 CC 01 CD 00 01 (调用茶吧感应灯关的按键)
2024-09-22 19:58:50.316 - 1A AA AA AA 88 FF 00 01 FF 00 01 0F (调光器地址-茶吧灯带, 茶吧灯带关闭)
2024-09-22 19:58:51.579 - 19 08 24 03 DD 00 42 00 01 (调用情景-主卧电视空调)
2024-09-22 19:58:52.086 - EE 00 00 B1 00 00 00 FF FC FF FF (情景执行提示)
2024-09-22 19:58:52.681 - 09 06 00 0F 02 01 78 21 (提示音叮)
2024-09-22 19:58:53.224 - 50 F0 05 (开主卧影视)
2024-09-22 19:58:54.269 - 50 F0 04 (开内卫影视)
2024-09-22 19:58:54.823 - 1A FF FF FF 56 00 00 00 0F (人体感应地址-内卫, 关闭内卫感应)
2024-09-22 19:58:55.421 - 1A 22 33 62 0F 00 02 01 0F (正反转地址-内卫卷帘, 内卫卷帘降)
2024-09-22 19:58:55.995 - A5 00 53 FE 01 AA (主卧纱帘关)
2024-09-22 19:58:56.052 - 55 00 53 02 02 22 02 2F AA 55 00 53 02 02 22 F2 (主卧纱帘电机状态返回)
2024-09-22 19:58:57.063 - A5 00 52 FF 00 AA (主卧窗帘关)
2024-09-22 19:58:58.119 - 1A 0C 02 04 FF FF 45 01 FF 45 01 FF 00 00 0F (主卧调光微光)
2024-09-22 19:59:02.203 - 1A 0C 02 08 01 FF 45 01 FF 45 01 FF 00 00 0F (调光器地址-内卫射灯, 内卫射灯微光)
2024-09-22 19:59:02.790 - 50 F1 25 (主卧—有线2)
2024-09-22 19:59:03.369 - A1 11 11 11 42 (主卧空调自动开)
2024-09-22 19:59:03.595 - 19 08 24 03 F0 BB 78 02 02 00
2024-09-22 19:59:03.645 - 23 AA 56 02 13 3B 23 18 09 16 07 73 65 6F 6B 65 6E 64
2024-09-22 19:59:03.936 - 50 F1 24 (内卫—有线2)
2024-09-22 19:59:04.605 - 01 10 07 D6 00 03 06 70 61 00 02 00 F0 0F 3E (主卧空调冷24度)
2024-09-22 19:59:04.646 - 01 10 07 D6 00 03 06 70 61 00 02 00 F0 0F 3E (主卧空调冷24度)
2024-09-22 19:59:05.981 - AF BF CF DF C2 21 (有线2/快捷-凤凰卫视)
2024-09-22 19:59:07.293 - 55 00 53 00 00 0C 02 2F AA 55 00 53 00 00 0C 02 2F AA (主卧纱帘电机状态返回)
2024-09-22 19:59:08.027 - 1A FF FF FF 60 0B 01 01 0F (红外总线地址-主卧发射设备, 主卧电视电源)
2024-09-22 19:59:08.541 - F0 0B 01 08
2024-09-22 19:59:08.570 - 55 20 20 00 02 09 02 16 AA 55 20 20 00 02 09 02 16 AA (主卧窗帘电机状态返回)
2024-09-22 19:59:16.050 - 09 06 00 0F 02 02 38 20 (提示音咚)
2024-09-22 19:59:16.602 - EE 00 00 B1 00 00 02 FF FC FF FF (情景完成返回主页)
2024-09-22 19:59:16.761 - 19 08 24 03 CC 00 D4 00 01 (调用厨房感应灯关的按键)
2024-09-22 19:59:16.820 - 55 0A 31 00 00 00 01 91 55 0A 31 00 00 00 02 92 (厨房顶灯一关, 厨房顶灯二关)
2024-09-22 20:09:17.436 - FF
2024-09-22 20:45:40.193 - FF
2024-09-22 20:50:55.184 - 1A BE B0 DC 04 FD (继电器地址-西阳窗帘)
2024-09-22 20:50:55.318 - FF
2024-09-22 20:52:58.600 - FF FF FF FF 0E FC (继电器地址-西阳小窗帘)
2024-09-22 21:05:16.128 - FF
2024-09-22 21:09:56.630 - 1A FF FF FF 04 FC (继电器地址-东阳衣架)
2024-09-22 21:09:56.765 - FE
2024-09-22 21:10:03.467 - 1A BE B0 DC 02 (正反转地址-外卫卷帘)
2024-09-22 21:12:02.955 - FF
2024-09-22 21:14:57.988 - FF
2024-09-22 21:21:08.739 - 1A BE B0 DC 01 (继电器地址-回水泵点动)
2024-09-22 21:24:12.050 - 1A BE B0 DC 03 (继电器地址-西阳天幕)
2024-09-22 21:24:12.187 - FE
2024-09-22 21:26:56.882 - 1A BE B0 DC 09 (继电器地址-客厅窗帘)
2024-09-22 21:26:57.018 - FC
2024-09-22 21:32:03.463 - 1A BE B0 DC 0A FE (继电器地址-客厅纱帘)
2024-09-22 21:32:03.596 - FF
2024-09-22 21:59:01.890 - FF
2024-09-22 22:09:42.494 - 53 53 48 2D 32 2E 30 2D 4F 70 65 6E 53 53 48 0D 0A
2024-09-22 22:12:37.859 - FF FF FF FF 0A (继电器地址-东阳窗帘)
2024-09-22 22:12:37.994 - FC
2024-09-22 22:21:26.347 - FF
2024-09-22 22:38:19.192 - FF
2024-09-22 22:42:56.043 - FF
2024-09-22 22:53:24.798 - 53 53 48 2D 32 2E 30 2D 4F 70 65 6E 53 53 48 0D 0A
2024-09-22 22:56:53.383 - 19 08 24 03 CC 01 CC 00 01 (调用茶吧感应灯开的按键)
2024-09-22 22:56:53.432 - 1A AA AA AA 88 FF B0 01 FF B0 01 0F (调光器地址-茶吧灯带, 茶吧灯带明亮)
2024-09-22 22:56:55.732 - 19 08 24 03 CC 00 D3 00 01 (调用厨房感应灯开的按键)
2024-09-22 22:56:55.767 - 55 0A 32 00 00 00 01 92 55 0A 32 00 00 00 02 93 (厨房顶灯一开, 厨房顶灯二开)
2024-09-22 22:57:05.907 - 19 08 24 03 CC 01 CD 00 01 (调用茶吧感应灯关的按键)
2024-09-22 22:57:05.938 - 1A AA AA AA 88 FF 00 01 FF 00 01 0F (调光器地址-茶吧灯带, 茶吧灯带关闭)
2024-09-22 22:57:44.984 - 19 08 24 03 CC 01 CC 00 01 (调用茶吧感应灯开的按键)
2024-09-22 22:57:45.015 - 1A AA AA AA 88 FF B0 01 FF B0 01 0F (调光器地址-茶吧灯带, 茶吧灯带明亮)
2024-09-22 22:58:23.904 - 19 08 24 03 CC 00 D4 00 01 (调用厨房感应灯关的按键)
2024-09-22 22:58:23.940 - 55 0A 31 00 00 00 01 91 55 0A 31 00 00 00 02 92 (厨房顶灯一关, 厨房顶灯二关)
2024-09-22 22:58:24.564 - 19 08 24 03 CC 01 CD 00 01 (调用茶吧感应灯关的按键)
2024-09-22 22:58:24.593 - 1A AA AA AA 88 FF 00 01 FF 00 01 0F (调光器地址-茶吧灯带, 茶吧灯带关闭)
2024-09-22 22:58:34.324 - 19 08 24 03 DD 00 13 00 01 (调用情景-公共区域关)
2024-09-22 22:58:34.874 - EE 00 00 B1 00 00 00 FF FC FF FF (情景执行提示)
2024-09-22 22:58:35.470 - 09 06 00 0F 02 01 78 21 (提示音叮)
2024-09-22 22:58:36.017 - 55 0B 31 00 00 00 01 92 (厨房风扇只关)
2024-09-22 22:58:37.064 - 01 06 07 D3 FF 60 38 9F (餐厅空调关)
2024-09-22 22:58:37.091 - 01 06 07 D3 FF 60 38 9F (餐厅空调关)
2024-09-22 22:58:38.159 - 01 06 07 D0 FF 60 C8 9F (客厅空调关)
2024-09-22 22:58:38.192 - 01 06 07 D0 FF 60 C8 9F (客厅空调关)
2024-09-22 22:58:42.243 - 50 F5 02 (关厨房影视)
2024-09-22 22:58:43.290 - 50 F5 01 (关餐厅影视)
2024-09-22 22:58:44.363 - 50 F5 08 (关客厅影视)
2024-09-22 22:58:45.432 - 50 F5 03 (关外卫影视)
2024-09-22 22:58:46.484 - 55 0A 31 00 00 00 01 91 (厨房顶灯一关)
2024-09-22 22:58:47.531 - 55 0A 31 00 00 00 02 92 (厨房顶灯二关)
2024-09-22 22:58:48.576 - 55 0C 31 00 00 00 01 93 (餐厅顶灯关)
2024-09-22 22:58:49.622 - 1A 18 05 10 31 00 01 00 0F (自保持开关地址-门厅顶灯, 门厅顶灯关)
2024-09-22 22:58:50.669 - 1A 20 07 00 42 00 01 00 0F (自保持开关地址-外卫顶灯, 外卫顶灯关)
2024-09-22 22:58:51.716 - 1A 18 05 21 89 00 01 00 0F (自保持开关地址-客厅顶灯, 客厅顶灯一关)
2024-09-22 22:58:52.762 - 1A 18 05 01 94 00 01 00 0F (自保持开关地址-客厅顶灯, 客厅顶灯二关)
2024-09-22 22:58:53.809 - 1A 20 07 01 30 00 01 00 0F (自保持开关地址-西阳顶灯, 西阳顶灯关)
2024-09-22 22:58:54.861 - 1A FF 01 FF FF FF 00 01 FF 00 01 FF 00 00 0F (调光器地址-公共区域统配地址, 公共区域灯光全关)
2024-09-22 22:58:55.949 - 09 06 00 0F 02 02 38 20 (提示音咚)
2024-09-22 22:58:55.989 - EE 00 6E B1 01 00 02 FF FC FF FF
2024-09-22 22:58:56.818 - EE 00 6E B1 01 00 09 FF FC FF FF
2024-09-22 22:58:58.044 - EE 00 00 B1 00 00 02 FF FC FF FF (情景完成返回主页)
2024-09-22 22:58:59.518 - EE 00 6E B1 01 00 09 FF FC FF FF
2024-09-22 22:59:01.463 - 19 08 24 03 CC 01 65 00 01
2024-09-22 23:04:07.988 - FF
2024-09-22 23:19:28.998 - EE 00 6E B1 01 00 02 FF FC FF FF
2024-09-22 23:19:29.538 - 19 08 24 03 DD 00 1B 00 01 (调用情景-外卫使用)
2024-09-22 23:19:30.103 - EE 00 00 B1 00 00 00 FF FC FF FF (情景执行提示)
2024-09-22 23:19:30.698 - 09 06 00 0F 02 01 78 21 (提示音叮)
2024-09-22 23:19:31.245 - 1A BE B0 DC 02 00 01 00 (正反转地址-外卫卷帘, 外卫卷帘降)
2024-09-22 23:19:31.789 - 50 F0 03 (开外卫影视)
2024-09-22 23:19:32.343 - 1A FF FF FF 55 00 00 00 0F (人体感应地址-外卫, 关闭外卫感应)
2024-09-22 23:19:32.897 - 1A 0D 01 07 01 FF 45 01 FF 45 01 FF 00 00 0F (调光器地址-外卫射灯, 外卫感应灯开)
2024-09-22 23:19:34.984 - 1A BE B0 DC 01 00 01 00 (继电器地址-回水泵点动, 回水泵点动)
2024-09-22 23:19:36.030 - 1A BE B0 DC 01 00 01 00 (继电器地址-回水泵点动, 回水泵点动)
2024-09-22 23:19:37.075 - 1A BE B0 DC 01 00 01 00 (继电器地址-回水泵点动, 回水泵点动)
2024-09-22 23:19:38.117 - 50 F1 43 (外卫—CH4)
2024-09-22 23:19:55.113 - A1 11 11 11 11 05 (外卫使用浴霸判断)
2024-09-22 23:19:55.339 - 13 03 00 00 00 02 C7 79 (查询外卫温湿度)
2024-09-22 23:19:57.159 - 09 06 00 0F 02 02 38 20 (提示音咚)
2024-09-22 23:19:59.205 - EE 00 00 B1 00 00 02 FF FC FF FF (情景完成返回主页)
2024-09-22 23:28:02.792 - 19 08 24 03 DD 00 1C 00 01 (调用情景-外卫使用完毕)
2024-09-22 23:28:03.324 - EE 00 00 B1 00 00 00 FF FC FF FF (情景执行提示)
2024-09-22 23:28:03.920 - 09 06 00 0F 02 01 78 21 (提示音叮)
2024-09-22 23:28:04.473 - 1A 0D 01 07 01 FF 00 01 FF 00 01 FF 00 00 0F (调光器地址-外卫射灯, 外卫感应灯关)
2024-09-22 23:28:05.060 - 50 F5 03 (关外卫影视)
2024-09-22 23:28:05.614 - 1A 20 07 00 42 00 01 00 0F (自保持开关地址-外卫顶灯, 外卫顶灯关)
2024-09-22 23:28:06.162 - 1A FF FF FF 55 00 00 01 0F (人体感应地址-外卫, 打开外卫感应)
2024-09-22 23:28:06.258 - BC BC
2024-09-22 23:28:06.565 - 19 08 24 03 CC 01 52 00 01 (调用外卫感应灯开的按键)
2024-09-22 23:28:06.618 - 1A 0D 01 07 01 FF 45 01 FF 45 01 FF 00 00 0F (调光器地址-外卫射灯, 外卫感应灯开)
2024-09-22 23:28:09.004 - 09 06 00 0F 02 02 38 20 (提示音咚)
2024-09-22 23:28:09.555 - EE 00 00 B1 00 00 02 FF FC FF FF (情景完成返回主页)
2024-09-22 23:28:16.789 - 19 08 24 03 CC 01 53 00 01 (调用外卫感应灯关的按键)
2024-09-22 23:28:16.822 - 1A 0D 01 07 01 FF 00 01 FF 00 01 FF 00 00 0F (调光器地址-外卫射灯, 外卫感应灯关)
2024-09-22 23:31:56.172 - 19 08 24 03 DD 00 4F 00 01 (调用情景-内卫使用完毕)
2024-09-22 23:31:56.691 - EE 00 00 B1 00 00 00 FF FC FF FF (情景执行提示)
2024-09-22 23:31:57.286 - 09 06 00 0F 02 01 78 21 (提示音叮)
2024-09-22 23:31:57.842 - 1A 0C 02 08 01 FF 00 01 FF 00 01 FF 00 00 0F (调光器地址-内卫射灯, 内卫感应灯关)
2024-09-22 23:32:01.915 - 50 F5 04 (关内卫影视)
2024-09-22 23:32:02.468 - 1A 20 07 01 40 00 01 00 0F (自保持开关地址-内卫顶灯, 内卫顶灯关)
2024-09-22 23:32:03.016 - 1A FF FF FF 56 00 00 01 0F (人体感应地址-内卫, 打开内卫感应)
2024-09-22 23:32:03.097 - BC BC
2024-09-22 23:32:03.405 - 19 08 24 03 CC 01 54 00 01 (调用内卫感应灯开的按键)
2024-09-22 23:32:03.458 - 1A 0C 02 08 01 FF 45 01 FF 45 01 FF 00 00 0F (调光器地址-内卫射灯, 内卫射灯微光)
2024-09-22 23:32:05.938 - 09 06 00 0F 02 02 38 20 (提示音咚)
2024-09-22 23:32:06.510 - EE 00 00 B1 00 00 02 FF FC FF FF (情景完成返回主页)
2024-09-22 23:32:19.640 - 19 08 24 03 CC 01 55 00 01 (调用内卫感应灯关的按键)
2024-09-22 23:32:19.673 - 1A 0C 02 08 01 FF 00 01 FF 00 01 FF 00 00 0F (调光器地址-内卫射灯, 内卫感应灯关)
2024-09-22 23:46:57.012 - 53 53 48 2D 32 2E 30 2D 4F 70 65 6E 53 53 48 0D 0A
2024-09-23 00:13:48.593 - 1A BE B0 DC 04 FC (继电器地址-西阳窗帘)
2024-09-23 00:13:48.726 - FF
2024-09-23 00:15:51.686 - FF FF FF FF 0E (继电器地址-西阳小窗帘)
2024-09-23 00:30:51.792 - 1A FF FF FF 04 (继电器地址-东阳衣架)
2024-09-23 00:33:54.923 - 1A BE B0 DC 02 (正反转地址-外卫卷帘)
2024-09-23 00:33:55.059 - FF
2024-09-23 00:44:59.576 - 1A BE B0 DC 01 (继电器地址-回水泵点动)
2024-09-23 00:44:59.712 - FF
2024-09-23 00:48:01.983 - 1A BE B0 DC 03 (继电器地址-西阳天幕)
2024-09-23 00:50:11.132 - 1A BE B0 DC 09 FD (继电器地址-客厅窗帘)
2024-09-23 00:50:11.265 - FF
2024-09-23 00:52:20.875 - FF
2024-09-23 00:54:20.013 - FF
2024-09-23 00:55:54.394 - 1A BE B0 DC 0A (继电器地址-客厅纱帘)
2024-09-23 01:00:50.552 - FF
2024-09-23 01:35:31.988 - FF FF FF FF 0A FE (继电器地址-东阳窗帘)
2024-09-23 01:35:32.122 - FE
2024-09-23 01:42:04.553 - FF
2024-09-23 01:46:31.826 - FF
2024-09-23 01:49:33.881 - FF
2024-09-23 01:59:30.533 - 19 08 24 03 CC 01 54 00 01 (调用内卫感应灯开的按键)
2024-09-23 01:59:30.586 - 1A 0C 02 08 01 FF 45 01 FF 45 01 FF 00 00 0F (调光器地址-内卫射灯, 内卫射灯微光)
2024-09-23 02:00:54.299 - FF
2024-09-23 02:01:35.780 - 19 08 24 03 CC 01 55 00 01 (调用内卫感应灯关的按键)
2024-09-23 02:01:35.833 - 1A 0C 02 08 01 FF 00 01 FF 00 01 FF 00 00 0F (调光器地址-内卫射灯, 内卫感应灯关)
2024-09-23 02:01:59.717 - 19 08 24 03 DD 00 4B 00 01 (调用情景-主卧睡觉)
2024-09-23 02:02:00.245 - EE 00 00 B1 00 00 00 FF FC FF FF (情景执行提示)
2024-09-23 02:02:00.841 - 09 06 00 0F 02 01 78 21 (提示音叮)
2024-09-23 02:02:01.383 - 50 F5 04 (关内卫影视)
2024-09-23 02:02:01.983 - A5 00 53 FE 01 AA (主卧纱帘关)
2024-09-23 02:02:03.029 - A5 00 52 FF 00 AA (主卧窗帘关)
2024-09-23 02:02:04.081 - 1A 22 33 62 0F 00 02 01 0F (正反转地址-内卫卷帘, 内卫卷帘降)
2024-09-23 02:02:05.125 - 1A 20 07 01 40 00 01 00 0F (自保持开关地址-内卫顶灯, 内卫顶灯关)
2024-09-23 02:02:06.172 - 1A 20 07 01 55 00 01 00 0F (自保持开关地址-主卧顶灯, 主卧顶灯只关)
2024-09-23 02:02:06.721 - 1A FF FF FF 56 00 00 01 0F (人体感应地址-内卫, 打开内卫感应)
2024-09-23 02:02:06.733 - BC BC
2024-09-23 02:02:10.316 - 1A 0C 02 08 01 FF 00 01 FF 00 01 FF 00 00 0F (调光器地址-内卫射灯, 内卫感应灯关)
2024-09-23 02:02:10.916 - 1A 0C 02 04 01 FF 00 01 FF 00 01 FF 00 00 0F (调光器地址-主卧筒灯, 主卧筒灯关闭)
2024-09-23 02:02:11.513 - 1A 0C 02 04 03 FF 00 01 FF 00 01 FF 00 00 0F (调光器地址-主卧灯带, 主卧灯带关闭)
2024-09-23 02:02:12.110 - 1A 0C 02 04 04 FF 00 01 FF 00 01 FF 00 00 0F (调光器地址-主卧南阅, 主卧南阅关闭)
2024-09-23 02:02:12.709 - 1A 0C 02 04 05 FF 00 01 FF 00 01 FF 00 00 0F (调光器地址-主卧北阅, 主卧北阅关闭)
2024-09-23 02:02:13.307 - 1A 0C 02 04 02 FF 00 01 FF 00 01 FF 00 00 0F (调光器地址-主卧过道, 主卧过道关闭)
2024-09-23 02:02:13.897 - 09 06 00 0F 02 02 38 20 (提示音咚)
2024-09-23 02:02:14.448 - EE 00 00 B1 00 00 02 FF FC FF FF (情景完成返回主页)
2024-09-23 02:03:13.473 - 19 08 24 03 CC 01 54 00 01 (调用内卫感应灯开的按键)
2024-09-23 02:03:13.526 - 1A 0C 02 08 01 FF 45 01 FF 45 01 FF 00 00 0F (调光器地址-内卫射灯, 内卫射灯微光)
2024-09-23 02:03:34.514 - 19 08 24 03 CC 01 55 00 01 (调用内卫感应灯关的按键)
2024-09-23 02:03:34.548 - 1A 0C 02 08 01 FF 00 01 FF 00 01 FF 00 00 0F (调光器地址-内卫射灯, 内卫感应灯关)
2024-09-23 02:47:27.700 - 19 08 24 03 CC 01 54 00 01 (调用内卫感应灯开的按键)
2024-09-23 02:47:27.732 - 1A 0C 02 08 01 FF 45 01 FF 45 01 FF 00 00 0F (调光器地址-内卫射灯, 内卫射灯微光)
2024-09-23 02:51:54.225 - 19 08 24 03 CC 01 55 00 01 (调用内卫感应灯关的按键)
2024-09-23 02:51:54.291 - 1A 0C 02 08 01 FF 00 01 FF 00 01 FF 00 00 0F (调光器地址-内卫射灯, 内卫感应灯关)
2024-09-23 02:51:57.231 - 19 08 24 03 CC 01 54 00 01 (调用内卫感应灯开的按键)
2024-09-23 02:51:57.263 - 1A 0C 02 08 01 FF 45 01 FF 45 01 FF 00 00 0F (调光器地址-内卫射灯, 内卫射灯微光)
2024-09-23 02:55:58.706 - 19 08 24 03 CC 01 55 00 01 (调用内卫感应灯关的按键)
2024-09-23 02:55:58.739 - 1A 0C 02 08 01 FF 00 01 FF 00 01 FF 00 00 0F (调光器地址-内卫射灯, 内卫感应灯关)
2024-09-23 02:57:41.408 - 19 08 24 03 CC 01 54 00 01 (调用内卫感应灯开的按键)
2024-09-23 02:57:41.441 - 1A 0C 02 08 01 FF 45 01 FF 45 01 FF 00 00 0F (调光器地址-内卫射灯, 内卫射灯微光)
2024-09-23 02:58:02.448 - 19 08 24 03 CC 01 55 00 01 (调用内卫感应灯关的按键)
2024-09-23 02:58:02.483 - 1A 0C 02 08 01 FF 00 01 FF 00 01 FF 00 00 0F (调光器地址-内卫射灯, 内卫感应灯关)
2024-09-23 02:59:29.734 - 50 F7 01 (全屋影音全关)
2024-09-23 03:33:32.514 - 1A BE B0 DC 04 (继电器地址-西阳窗帘)
2024-09-23 03:33:32.648 - FF
2024-09-23 03:36:39.827 - FF FF FF FF 0E (继电器地址-西阳小窗帘)
2024-09-23 03:51:45.881 - 1A FF FF FF 04 (继电器地址-东阳衣架)
2024-09-23 03:52:55.471 - 19 08 24 03 CC 01 CC 00 01 (调用茶吧感应灯开的按键)
2024-09-23 03:52:55.519 - 1A AA AA AA 88 FF B0 01 FF B0 01 0F (调光器地址-茶吧灯带, 茶吧灯带明亮)
2024-09-23 03:53:02.986 - 19 08 24 03 CC 01 CD 00 01 (调用茶吧感应灯关的按键)
2024-09-23 03:53:03.035 - 1A AA AA AA 88 FF 00 01 FF 00 01 0F (调光器地址-茶吧灯带, 茶吧灯带关闭)
2024-09-23 03:54:49.820 - 1A BE B0 DC 02 FC (正反转地址-外卫卷帘)
2024-09-23 04:05:58.374 - 1A BE B0 DC 01 (继电器地址-回水泵点动)
2024-09-23 04:05:58.509 - FF
2024-09-23 04:09:03.472 - 1A BE B0 DC 03 (继电器地址-西阳天幕)
2024-09-23 04:09:03.608 - FF
2024-09-23 04:10:41.317 - 1A BE B0 DC 09 FC (继电器地址-客厅窗帘)
2024-09-23 04:10:41.452 - FE
2024-09-23 04:16:51.739 - 1A BE B0 DC 0A (继电器地址-客厅纱帘)
2024-09-23 04:49:29.943 - EE 00 00 B1 00 00 00 FF FC FF FF (情景执行提示)
2024-09-23 04:49:30.564 - A5 00 A2 FF 00 AA (餐厅纱帘关)
2024-09-23 04:49:31.632 - A5 00 A6 FF 00 AA (餐厅窗帘关)
2024-09-23 04:49:31.688 - 55 00 A6 01 00 0E 01 74 AA 55 00 A6 01 00 0E 01 F4 (餐厅窗帘电机状态返回)
2024-09-23 04:49:32.730 - A5 00 B7 FF 00 AA 22 0D (书房纱帘关)
2024-09-23 04:49:33.777 - A5 00 D2 FF 00 AA 22 0C (书房窗帘关)
2024-09-23 04:49:33.824 - 55 00 D2 01 00 0D 01 0B AA 55 00 D2 01 00 0D 01 0B AA (书房窗帘电机状态返回)
2024-09-23 04:49:34.877 - EE 00 00 B1 00 00 02 FF FC FF FF (情景完成返回主页)
2024-09-23 04:49:40.445 - 55 00 A6 00 01 66 01 74 AA 55 00 A6 00 01 66 01 74 AA (餐厅窗帘电机状态返回)
2024-09-23 04:49:43.675 - 55 00 D2 00 00 FE 01 0B AA 55 00 D2 00 00 FE 01 0B AA (书房窗帘电机状态返回)
2024-09-23 04:51:55.406 - 19 08 24 03 CC 01 54 00 01 (调用内卫感应灯开的按键)
2024-09-23 04:51:55.460 - 1A 0C 02 08 01 FF 45 01 FF 45 01 FF 00 00 0F (调光器地址-内卫射灯, 内卫射灯微光)
2024-09-23 04:54:01.655 - 19 08 24 03 CC 01 55 00 01 (调用内卫感应灯关的按键)
2024-09-23 04:54:01.689 - 1A 0C 02 08 01 FF 00 01 FF 00 01 FF 00 00 0F (调光器地址-内卫射灯, 内卫感应灯关)
2024-09-23 04:55:43.855 - 19 08 24 03 CC 01 54 00 01 (调用内卫感应灯开的按键)
2024-09-23 04:55:43.890 - 1A 0C 02 08 01 FF 45 01 FF 45 01 FF 00 00 0F (调光器地址-内卫射灯, 内卫射灯微光)
2024-09-23 04:56:04.897 - 19 08 24 03 CC 01 55 00 01 (调用内卫感应灯关的按键)
2024-09-23 04:56:04.931 - 1A 0C 02 08 01 FF 00 01 FF 00 01 FF 00 00 0F (调光器地址-内卫射灯, 内卫感应灯关)
2024-09-23 04:56:22.026 - FF FF FF FF 0A FC (继电器地址-东阳窗帘)
2024-09-23 05:32:30.259 - FF
2024-09-23 05:46:29.956 - FF
2024-09-23 06:29:30.584 - EE 00 00 B1 00 00 00 FF FC FF FF (情景执行提示)
2024-09-23 06:29:31.281 - 09 06 00 0F 02 01 78 21 (提示音叮)
2024-09-23 06:29:31.977 - 50 F0 04 (开内卫影视)
2024-09-23 06:29:32.679 - 50 F0 04 (开内卫影视)
2024-09-23 06:29:33.379 - 50 F0 05 (开主卧影视)
2024-09-23 06:29:34.080 - 50 F0 05 (开主卧影视)
2024-09-23 06:29:34.786 - FF FF FF FF 09 00 01 00
2024-09-23 06:29:35.489 - FF FF FF FF 08 00 01 00
2024-09-23 06:29:36.191 - FF FF FF FF 08 00 01 00
2024-09-23 06:29:36.890 - 1A 22 33 62 0F 00 02 01 0F (正反转地址-内卫卷帘, 内卫卷帘降)
2024-09-23 06:29:37.589 - 1A FF FF FF 56 0C 00 01 (人体感应地址-内卫)
2024-09-23 06:29:37.816 - 1A FF FF FF 56 00 00 00 0F (人体感应地址-内卫, 关闭内卫感应)
2024-09-23 06:29:38.292 - 1A FF FF FF A5 00 01 02
2024-09-23 06:29:38.997 - 1A AA AA AA 84 FF B0 01 FF 00 00 0F
2024-09-23 06:29:40.700 - 1A AA AA AA 27 FF 00 01 FF 00 00 0F
2024-09-23 06:29:42.401 - 1A AA AA AA 6F FF 27 01 FF 00 00 0F
2024-09-23 06:29:44.104 - 1A AA AA AA 55 FF 45 01 FF 00 00 0F
2024-09-23 06:29:45.807 - 1A AA AA AA 2C FF 00 00 FF 00 01 0F
2024-09-23 06:29:47.560 - 1A AA AA AA 84 FF 00 00 FF B0 01 0F
2024-09-23 06:29:49.263 - 1A AA AA AA 5B FF 00 01 FF 00 00 0F
2024-09-23 06:29:50.964 - 1A AA AA AA 27 FF 00 00 FF 00 01 0F
2024-09-23 06:29:52.667 - 1A AA AA AA 6F FF 00 00 FF 27 01 0F
2024-09-23 06:29:54.369 - 1A AA AA AA 55 FF 00 00 FF 45 01 0F
2024-09-23 06:29:56.122 - 1A AA AA AA 2C FF 00 01 FF 00 00 0F
2024-09-23 06:29:57.825 - 1A AA AA AA 5B FF 00 00 FF 00 01 0F
2024-09-23 06:29:59.517 - 50 F1 25 (主卧—有线2)
2024-09-23 06:30:01.220 - 50 F1 25 (主卧—有线2)
2024-09-23 06:30:02.927 - A1 11 11 11 11 01 (内卫浴霸取暖判断)
2024-09-23 06:30:03.150 - 14 03 00 00 00 02 C6 CE (查询内卫温湿度)
2024-09-23 06:30:03.184 - 14 03 04 01 E6 00 F2 DF 7C (内卫温湿度返回)
2024-09-23 06:30:04.205 - 1A BE B0 DC 01 00 01 00 (继电器地址-回水泵点动, 回水泵点动)
2024-09-23 06:30:05.429 - 1A BE B0 DC 01 00 01 00 (继电器地址-回水泵点动, 回水泵点动)
2024-09-23 06:30:07.635 - 1A BE B0 DC 01 00 01 00 (继电器地址-回水泵点动, 回水泵点动)
2024-09-23 06:30:09.337 - 1A FF FF FF 60 0B 01 01 0F (红外总线地址-主卧发射设备, 主卧电视电源)
2024-09-23 06:30:09.858 - F0 0B 01 08
2024-09-23 06:30:12.485 - EE 00 00 B1 00 00 02 FF FC FF FF (情景完成返回主页)
2024-09-23 06:44:30.101 - EE 00 00 B1 00 00 00 FF FC FF FF (情景执行提示)
2024-09-23 06:44:30.726 - 09 06 00 0F 02 01 78 21 (提示音叮)
2024-09-23 06:44:31.290 - 50 F0 04 (开内卫影视)
2024-09-23 06:44:31.837 - 50 F0 05 (开主卧影视)
2024-09-23 06:44:32.388 - A5 00 53 FE 01 AA (主卧纱帘关)
2024-09-23 06:44:32.936 - A5 00 53 FE 01 AA (主卧纱帘关)
2024-09-23 06:44:33.485 - A5 00 52 FE 01 AA (主卧窗帘开)
2024-09-23 06:44:34.531 - A5 00 52 FE 01 AA (主卧窗帘开)
2024-09-23 06:44:35.580 - 1A 22 33 62 0F 00 02 01 0F (正反转地址-内卫卷帘, 内卫卷帘降)
2024-09-23 06:44:36.129 - 1A FF FF FF 56 00 00 00 0F (人体感应地址-内卫, 关闭内卫感应)
2024-09-23 06:44:36.141 - BC BC
2024-09-23 06:44:36.727 - 1A 20 07 01 55 00 01 00 0F (自保持开关地址-主卧顶灯, 主卧顶灯只关)
2024-09-23 06:44:37.779 - 1A 0C 02 08 01 FF F0 01 FF F0 01 FF 00 00 0F (调光器地址-内卫射灯, 内卫射灯明亮)
2024-09-23 06:44:38.377 - 1A 0C 02 04 01 FF 00 01 FF 00 01 FF 00 00 0F (调光器地址-主卧筒灯, 主卧筒灯关闭)
2024-09-23 06:44:38.975 - 1A 0C 02 04 03 FF 45 01 FF 45 01 FF 00 00 0F (调光器地址-主卧灯带, 主卧灯带微光)
2024-09-23 06:44:39.572 - 1A 0C 02 04 02 FF F0 01 FF 00 01 FF 00 00 0F (调光器地址-主卧过道, 主卧过道暖光)
2024-09-23 06:44:40.171 - 1A 0C 02 04 05 FF 00 01 FF 00 01 FF 00 00 0F (调光器地址-主卧北阅, 主卧北阅关闭)
2024-09-23 06:44:40.769 - 1A 0C 02 04 04 FF 00 01 FF 00 01 FF 00 00 0F (调光器地址-主卧南阅, 主卧南阅关闭)
2024-09-23 06:44:41.854 - 50 F1 24 (内卫—有线2)
2024-09-23 06:44:42.898 - 50 F1 25 (主卧—有线2)
2024-09-23 06:44:43.949 - AF BF CF DF C2 21 (有线2/快捷-凤凰卫视)
2024-09-23 06:44:44.500 - 1A FF FF FF 60 0B 01 01 0F (红外总线地址-主卧发射设备, 主卧电视电源)
2024-09-23 06:44:45.018 - F0 0B 01 08
2024-09-23 06:44:45.544 - 1A BE B0 DC 01 00 01 00 (继电器地址-回水泵点动, 回水泵点动)
2024-09-23 06:44:46.751 - 55 20 20 00 00 0F 02 16 AA 55 20 20 00 00 0F 02 16 AA (主卧窗帘电机状态返回)
2024-09-23 06:44:49.584 - 09 06 00 0F 02 02 38 20 (提示音咚)
2024-09-23 06:44:50.135 - EE 00 00 B1 00 00 02 FF FC FF FF (情景完成返回主页)
2024-09-23 06:44:51.226 - A1 11 11 11 11 01 (内卫浴霸取暖判断)
2024-09-23 06:44:51.449 - 14 03 00 00 00 02 C6 CE (查询内卫温湿度)
2024-09-23 06:44:51.472 - 14 03 04 01 E0 00 F0 BE BC (内卫温湿度返回)
2024-09-23 06:54:44.691 - 1A BE B0 DC 04 FC (继电器地址-西阳窗帘)
2024-09-23 06:54:44.825 - FE
2024-09-23 06:57:44.659 - FF FF FF FF 0E (继电器地址-西阳小窗帘)
2024-09-23 07:13:10.405 - 1A FF FF FF 04 (继电器地址-东阳衣架)
2024-09-23 07:13:10.541 - FF
2024-09-23 07:16:43.371 - 1A BE B0 DC 02 FE (正反转地址-外卫卷帘)
2024-09-23 07:27:05.581 - 19 08 24 03 DD 00 40 00 01 (调用情景-离开主卧)
2024-09-23 07:27:06.107 - EE 00 00 B1 00 00 00 FF FC FF FF (情景执行提示)
2024-09-23 07:27:06.703 - 09 06 00 0F 02 01 78 21 (提示音叮)
2024-09-23 07:27:07.246 - 50 F5 05 (关主卧影视)
2024-09-23 07:27:07.795 - 50 F5 04 (关内卫影视)
2024-09-23 07:27:08.349 - 01 06 07 D6 FF 60 28 9E (主卧空调关)
2024-09-23 07:27:08.381 - 01 06 07 D6 FF 60 28 9E (主卧空调关)
2024-09-23 07:27:08.972 - A5 00 52 FE 01 AA (主卧窗帘开)
2024-09-23 07:27:10.040 - A5 00 52 FE 01 AA (主卧窗帘开)
2024-09-23 07:27:11.085 - A5 00 53 FF 00 AA (主卧纱帘开)
2024-09-23 07:27:11.138 - 55 00 53 01 00 0C 02 2F AA 55 00 53 01 00 0C 02 2F AA (主卧纱帘电机状态返回)
2024-09-23 07:27:11.683 - A5 00 53 FF 00 AA (主卧纱帘开)
2024-09-23 07:27:12.235 - 1A 22 33 62 0F 00 00 01 0F (正反转地址-内卫卷帘, 内卫卷帘升)
2024-09-23 07:27:12.950 - 55 20 20 00 00 0F 02 16 AA 55 20 20 00 00 0F 02 16 AA (主卧窗帘电机状态返回)
2024-09-23 07:27:13.282 - 1A 20 07 01 40 00 01 00 0F (自保持开关地址-内卫顶灯, 内卫顶灯关)
2024-09-23 07:27:14.328 - 1A 20 07 01 55 00 01 00 0F (自保持开关地址-主卧顶灯, 主卧顶灯只关)
2024-09-23 07:27:14.882 - 1A 0C 02 08 01 FF 00 01 FF 00 01 FF 00 00 0F (调光器地址-内卫射灯, 内卫感应灯关)
2024-09-23 07:27:15.402 - 19 08 24 03 CC 01 CC 00 01 (调用茶吧感应灯开的按键)
2024-09-23 07:27:15.493 - 1A AA AA AA 88 FF B0 01 FF B0 01 0F (调光器地址-茶吧灯带, 茶吧灯带明亮)
2024-09-23 07:27:15.893 - 1A FF FF FF 56 00 00 01 0F (人体感应地址-内卫, 打开内卫感应)
2024-09-23 07:27:15.995 - BC BC
2024-09-23 07:27:16.303 - 19 08 24 03 CC 01 54 00 01 (调用内卫感应灯开的按键)
2024-09-23 07:27:16.357 - 1A 0C 02 08 01 FF 45 01 FF 45 01 FF 00 00 0F (调光器地址-内卫射灯, 内卫射灯微光)
2024-09-23 07:27:19.740 - 1A 0C 02 04 FF FF 00 01 FF 00 01 FF 00 00 0F (主卧调光全关)
2024-09-23 07:27:20.828 - 09 06 00 0F 02 02 38 20 (提示音咚)
2024-09-23 07:27:21.409 - EE 00 00 B1 00 00 02 FF FC FF FF (情景完成返回主页)
2024-09-23 07:27:21.749 - 55 00 53 00 02 22 02 2F AA 55 00 53 00 02 22 02 2F AA (主卧纱帘电机状态返回)
2024-09-23 07:27:55.115 - 19 08 24 03 CC 00 D3 00 01 (调用厨房感应灯开的按键)
2024-09-23 07:27:55.169 - 55 0A 32 00 00 00 01 92 55 0A 32 00 00 00 02 93 (厨房顶灯一开, 厨房顶灯二开)
2024-09-23 07:27:58.087 - 19 08 24 03 CC 01 55 00 01 (调用内卫感应灯关的按键)
2024-09-23 07:27:58.121 - 1A 0C 02 08 01 FF 00 01 FF 00 01 FF 00 00 0F (调光器地址-内卫射灯, 内卫感应灯关)
2024-09-23 07:28:17.693 - 1A BE B0 DC 01 (继电器地址-回水泵点动)
2024-09-23 07:28:17.829 - FE
2024-09-23 07:28:38.219 - 19 08 24 03 CC 00 D4 00 01 (调用厨房感应灯关的按键)
2024-09-23 07:28:38.270 - 55 0A 31 00 00 00 01 91 55 0A 31 00 00 00 02 92 (厨房顶灯一关, 厨房顶灯二关)
2024-09-23 07:28:57.757 - 19 08 24 03 CC 00 D3 00 01 (调用厨房感应灯开的按键)
2024-09-23 07:28:57.810 - 55 0A 32 00 00 00 01 92 55 0A 32 00 00 00 02 93 (厨房顶灯一开, 厨房顶灯二开)
2024-09-23 07:29:04.218 - 19 08 24 03 CC 01 54 00 01 (调用内卫感应灯开的按键)
2024-09-23 07:29:04.250 - 1A 0C 02 08 01 FF 45 01 FF 45 01 FF 00 00 0F (调光器地址-内卫射灯, 内卫射灯微光)
2024-09-23 07:29:09.139 - 19 08 24 03 CC 01 CD 00 01 (调用茶吧感应灯关的按键)
2024-09-23 07:29:09.172 - 1A AA AA AA 88 FF 00 01 FF 00 01 0F (调光器地址-茶吧灯带, 茶吧灯带关闭)
2024-09-23 07:29:24.757 - 19 08 24 03 CC 01 55 00 01 (调用内卫感应灯关的按键)
2024-09-23 07:29:24.791 - 1A 0C 02 08 01 FF 00 01 FF 00 01 FF 00 00 0F (调光器地址-内卫射灯, 内卫感应灯关)
2024-09-23 07:31:17.622 - 1A BE B0 DC 03 FC (继电器地址-西阳天幕)
2024-09-23 07:31:17.757 - FF
2024-09-23 07:31:35.929 - 19 08 24 03 CC 01 CC 00 01 (调用茶吧感应灯开的按键)
2024-09-23 07:31:35.979 - 1A AA AA AA 88 FF B0 01 FF B0 01 0F (调光器地址-茶吧灯带, 茶吧灯带明亮)
2024-09-23 07:31:43.770 - 19 08 24 03 DD 00 00 00 01 (调用情景-离家（末）)
2024-09-23 07:31:44.325 - EE 00 00 B1 00 00 00 FF FC FF FF (情景执行提示)
2024-09-23 07:31:44.920 - 09 06 00 0F 02 02 38 20 (提示音咚)
2024-09-23 07:31:45.462 - 50 F7 01 (全屋影音全关)
2024-09-23 07:31:46.015 - 01 06 07 D0 FF 60 C8 9F (客厅空调关)
2024-09-23 07:31:46.042 - 01 06 07 D0 FF 60 C8 9F (客厅空调关)
2024-09-23 07:31:46.613 - 01 06 07 D0 FF 60 C8 9F (客厅空调关)
2024-09-23 07:31:46.647 - 01 06 07 D0 FF 60 C8 9F (客厅空调关)
2024-09-23 07:31:47.210 - 01 06 07 D3 FF 60 38 9F (餐厅空调关)
2024-09-23 07:31:47.759 - 01 06 07 D3 FF 60 38 9F (餐厅空调关)
2024-09-23 07:31:47.790 - 01 06 07 D3 FF 60 38 9F (餐厅空调关)
2024-09-23 07:31:47.954 - 19 08 24 03 CC 01 CD 00 01 (调用茶吧感应灯关的按键)
2024-09-23 07:31:48.002 - 1A AA AA AA 88 FF 00 01 FF 00 01 0F (调光器地址-茶吧灯带, 茶吧灯带关闭)
2024-09-23 07:31:48.404 - 01 06 07 D6 FF 60 28 9E (主卧空调关)
2024-09-23 07:31:48.436 - 01 06 07 D6 FF 60 28 9E (主卧空调关)
2024-09-23 07:31:49.004 - 01 06 07 D6 FF 60 28 9E (主卧空调关)
2024-09-23 07:31:49.032 - 01 06 07 D6 FF 60 28 9E (主卧空调关)
2024-09-23 07:31:49.603 - 01 06 07 D9 FF 60 18 9D (次卧空调关)
2024-09-23 07:31:49.637 - 01 06 07 D9 FF 60 18 9D (次卧空调关)
2024-09-23 07:31:50.200 - 01 06 07 D9 FF 60 18 9D (次卧空调关)
2024-09-23 07:31:50.234 - 01 06 07 D9 FF 60 18 9D (次卧空调关)
2024-09-23 07:31:50.799 - 01 06 07 DC FF 60 08 9C (书房空调关)
2024-09-23 07:31:50.830 - 01 06 07 DC FF 60 08 9C (书房空调关)
2024-09-23 07:31:51.396 - 01 06 07 DC FF 60 08 9C (书房空调关)
2024-09-23 07:31:51.425 - 01 06 07 DC FF 60 08 9C (书房空调关)
2024-09-23 07:31:51.995 - 09 06 00 0F 02 02 38 20 (提示音咚)
2024-09-23 07:31:52.594 - 1A FF FF FF 56 00 00 00 0F (人体感应地址-内卫, 关闭内卫感应)
2024-09-23 07:31:53.141 - 1A FF FF FF 55 00 00 00 0F (人体感应地址-外卫, 关闭外卫感应)
2024-09-23 07:31:53.199 - BC BC
2024-09-23 07:31:53.739 - 1A FF FF FF 57 00 00 00 0F (人体感应地址-厨房, 关闭厨房感应)
2024-09-23 07:31:54.287 - 1A FF FF FF 58 00 00 00 0F (人体感应地址-茶吧, 关闭茶吧感应)
2024-09-23 07:31:54.335 - BC BC
2024-09-23 07:31:54.886 - 1A 20 07 00 93 00 01 00 0F (自保持开关地址-设备区顶, 设备区顶灯关)
2024-09-23 07:31:55.931 - 1A 20 07 01 40 00 01 00 0F (自保持开关地址-内卫顶灯, 内卫顶灯关)
2024-09-23 07:31:56.979 - 1A 20 07 01 55 00 01 00 0F (自保持开关地址-主卧顶灯, 主卧顶灯只关)
2024-09-23 07:31:58.024 - 1A 20 07 00 42 00 01 00 0F (自保持开关地址-外卫顶灯, 外卫顶灯关)
2024-09-23 07:31:59.069 - 55 0D 31 00 00 00 01 94 (书房顶灯只关)
2024-09-23 07:32:00.116 - 55 0A 31 00 00 00 01 91 (厨房顶灯一关)
2024-09-23 07:32:01.163 - 55 0A 31 00 00 00 02 92 (厨房顶灯二关)
2024-09-23 07:32:02.209 - 55 0B 31 00 00 00 01 92 (厨房风扇只关)
2024-09-23 07:32:03.256 - 55 0C 31 00 00 00 01 93 (餐厅顶灯关)
2024-09-23 07:32:04.303 - 1A 20 07 01 30 00 01 00 0F (自保持开关地址-西阳顶灯, 西阳顶灯关)
2024-09-23 07:32:05.350 - 1A 18 05 21 89 00 01 00 0F (自保持开关地址-客厅顶灯, 客厅顶灯一关)
2024-09-23 07:32:06.395 - 1A 18 05 01 94 00 01 00 0F (自保持开关地址-客厅顶灯, 客厅顶灯二关)
2024-09-23 07:32:07.441 - 1A 20 07 00 70 00 01 00 0F (自保持开关地址-次卧顶灯, 次卧顶灯只关)
2024-09-23 07:32:08.490 - 1A 18 05 10 31 00 01 00 0F (自保持开关地址-门厅顶灯, 门厅顶灯关)
2024-09-23 07:32:09.533 - 1A FF FF FF 04 00 03 02 (继电器地址-东阳衣架, 东阳衣架照明关)
2024-09-23 07:32:10.083 - 09 06 00 0F 02 02 38 20 (提示音咚)
2024-09-23 07:32:10.627 - A5 00 A6 FE 01 AA (餐厅窗帘开)
2024-09-23 07:32:10.681 - 55 00 A6 02 01 66 01 74 AA 55 00 A6 02 01 66 01 74 AA (餐厅窗帘电机状态返回)
2024-09-23 07:32:11.227 - FF FF FF FF 0A 00 01 00 (继电器地址-东阳窗帘, 东阳窗帘开)
2024-09-23 07:32:11.777 - 1A BE B0 DC 04 00 01 00 (继电器地址-西阳窗帘, 西阳窗帘开)
2024-09-23 07:32:12.324 - FF FF FF FF 0E 00 01 00 (继电器地址-西阳小窗帘, 西阳小窗帘开)
2024-09-23 07:32:12.874 - 1A 22 33 62 0F 00 00 01 0F (正反转地址-内卫卷帘, 内卫卷帘升)
2024-09-23 07:32:13.418 - A5 00 52 FE 01 AA (主卧窗帘开)
2024-09-23 07:32:13.965 - A5 00 53 FF 00 AA (主卧纱帘开)
2024-09-23 07:32:14.563 - A5 00 76 FE 01 AA (次卧窗帘开)
2024-09-23 07:32:15.113 - A5 00 21 FE 01 AA (次卧纱帘开)
2024-09-23 07:32:15.663 - A5 00 D2 FE 01 AA 22 0D (书房窗帘开)
2024-09-23 07:32:15.716 - 55 00 D2 02 00 FE 01 0B AA 55 00 D2 02 00 FE 01 0B AA (书房窗帘电机状态返回)
2024-09-23 07:32:16.260 - 1A BE B0 DC 09 00 01 00 (继电器地址-客厅窗帘, 客厅窗帘开)
2024-09-23 07:32:16.808 - 1A BE B0 DC 0A 00 02 00 (继电器地址-客厅纱帘, 客厅纱帘开)
2024-09-23 07:32:17.356 - 09 06 00 0F 02 02 38 20 (提示音咚)
2024-09-23 07:32:18.404 - 1A EC A0 DC 02 00 00 00 0F (自保持开关地址-天花12V供电, 天花12V 供电关)
2024-09-23 07:32:18.951 - 1A EC A0 DC 02 00 00 00 0F (自保持开关地址-天花12V供电, 天花12V 供电关)
2024-09-23 07:32:19.500 - 1A EC A0 DC 01 00 00 00 0F (自保持开关地址-电视、设备12V供电, 12V 电视供电关)
2024-09-23 07:32:19.768 - 55 00 A6 00 00 0E 01 74 AA 55 00 A6 00 00 0E 01 74 AA (餐厅窗帘电机状态返回)
2024-09-23 07:32:20.048 - 1A EC A0 DC 01 00 00 00 0F (自保持开关地址-电视、设备12V供电, 12V 电视供电关)
2024-09-23 07:32:20.596 - 1A EC A0 DC 04 00 01 00 0F (自保持开关地址-次卧西阳内外卫供电, 内卫外卫关)
2024-09-23 07:32:21.144 - 1A EC A0 DC 04 00 01 00 0F (自保持开关地址-次卧西阳内外卫供电, 内卫外卫关)
2024-09-23 07:32:22.686 - 1A BB BB BB 01 02 00 (开水器电源关)
2024-09-23 07:32:24.032 - 55 00 D2 00 00 0D 01 0B AA 55 00 D2 00 00 0D 01 0B AA (书房窗帘电机状态返回)
2024-09-23 07:32:35.806 - 09 06 00 0F 02 02 38 20 (提示音咚)
2024-09-23 07:32:36.356 - 1A 27 89 12 AA 00 00 00 0F (状态寄存器地址, 无人状态)
2024-09-23 07:32:36.905 - 1A 27 89 12 AA 00 00 00 0F (状态寄存器地址, 无人状态)
2024-09-23 07:32:37.448 - A1 11 11 11 4D (天花供电关闭确认)
2024-09-23 07:32:37.674 - 1A EC A0 DC 02 86 86 86 0F (查询天花供电状态, 自保持开关地址-天花12V供电)
2024-09-23 07:32:38.107 - 1A EC A0 DC 02 00 01 0F (自保持开关地址-天花12V供电)
2024-09-23 07:32:40.487 - A1 11 11 11 4E (卫生供电关闭确认)
2024-09-23 07:32:40.712 - 1A EC A0 DC 04 86 86 86 0F (查询卫生间供电状态, 自保持开关地址-次卧西阳内外卫供电)
2024-09-23 07:32:41.144 - 1A EC A0 DC 04 01 00 0F (自保持开关地址-次卧西阳内外卫供电)
2024-09-23 07:32:43.526 - A1 11 11 11 4F (电视供电关闭确认)
2024-09-23 07:32:43.750 - 1A EC A0 DC 01 86 86 86 0F (查询电视供电状态, 自保持开关地址-电视、设备12V供电)
2024-09-23 07:32:44.183 - 1A EC A0 DC 01 00 01 0F (自保持开关地址-电视、设备12V供电)
2024-09-23 07:32:46.570 - 09 06 00 0F 02 02 38 20 (提示音咚)
2024-09-23 07:32:47.118 - 09 06 00 0F 02 02 38 20 (提示音咚)
2024-09-23 07:32:47.718 - EE 00 00 B1 00 00 02 FF FC FF FF (情景完成返回主页)
2024-09-23 07:32:48.810 - BA BA EE EE BA BA (离家设置信科变量)
2024-09-23 07:32:49.855 - A1 11 11 11 46 (天热离家遮阳)
2024-09-23 07:32:50.077 - 1A 27 89 12 AA 86 86 86 0F (查询寄存器状态, 状态寄存器地址)
2024-09-23 07:32:50.461 - 1A 27 89 12 AA 00 00 00 00 00 00 00 00 00 00 00 00 00 00 00 00 0F (状态寄存器地址)
2024-09-23 07:33:34.657 - 1A BE B0 DC 09 FF (继电器地址-客厅窗帘)
2024-09-23 07:33:34.792 - FF
2024-09-23 07:39:33.997 - 1A BE B0 DC 0A FC (继电器地址-客厅纱帘)
2024-09-23 08:19:03.025 - FF FF FF FF 0A (继电器地址-东阳窗帘)
2024-09-23 08:19:03.160 - FF
2024-09-23 10:15:27.243 - 1A BE B0 DC 04 (继电器地址-西阳窗帘)
2024-09-23 10:15:27.377 - FF
2024-09-23 10:18:41.553 - FF FF FF FF 0E (继电器地址-西阳小窗帘)
2024-09-23 10:18:41.689 - FE
2024-09-23 10:34:04.132 - 1A FF FF FF 04 (继电器地址-东阳衣架)
2024-09-23 10:34:04.269 - FF
2024-09-23 10:38:01.012 - 1A BE B0 DC 02 (正反转地址-外卫卷帘)
2024-09-23 10:38:01.147 - FF
2024-09-23 10:49:16.150 - 1A BE B0 DC 01 FC (继电器地址-回水泵点动)
2024-09-23 10:49:16.284 - FF
2024-09-23 10:52:24.448 - 1A BE B0 DC 03 FE (继电器地址-西阳天幕)
2024-09-23 10:54:31.779 - 1A BE B0 DC 09 (继电器地址-客厅窗帘)
2024-09-23 10:54:31.916 - FF
2024-09-23 11:00:09.691 - 1A BE B0 DC 0A (继电器地址-客厅纱帘)
2024-09-23 11:00:09.826 - FF
2024-09-23 11:46:58.075 - FF FF FF FF 0A (继电器地址-东阳窗帘)
2024-09-23 11:46:58.210 - FE
2024-09-23 13:35:09.480 - 1A BE B0 DC 04 (继电器地址-西阳窗帘)
2024-09-23 13:35:09.615 - FF
2024-09-23 13:38:40.976 - FF FF FF FF 0E (继电器地址-西阳小窗帘)
2024-09-23 13:38:41.111 - FF
2024-09-23 13:54:59.346 - 1A FF FF FF 04 (继电器地址-东阳衣架)
2024-09-23 13:54:59.481 - FE
2024-09-23 13:58:28.155 - 1A BE B0 DC 02 FC (正反转地址-外卫卷帘)
2024-09-23 14:10:00.345 - 1A BE B0 DC 01 FC (继电器地址-回水泵点动)
2024-09-23 14:13:17.507 - 1A BE B0 DC 03 FC (继电器地址-西阳天幕)
2024-09-23 14:13:17.643 - FF
2024-09-23 14:14:49.720 - 1A BE B0 DC 09 (继电器地址-客厅窗帘)
2024-09-23 14:14:49.856 - FF
2024-09-23 14:20:44.821 - 1A BE B0 DC 0A (继电器地址-客厅纱帘)
2024-09-23 14:20:44.956 - FF
2024-09-23 15:08:50.439 - FF FF FF FF 0A FC (继电器地址-东阳窗帘)
2024-09-23 16:54:50.562 - 1A BE B0 DC 04 (继电器地址-西阳窗帘)
2024-09-23 16:54:50.698 - FE
2024-09-23 16:58:40.067 - FF FF FF FF 0E (继电器地址-西阳小窗帘)
2024-09-23 16:58:40.203 - FF
2024-09-23 17:15:23.702 - FF
2024-09-23 17:15:53.994 - 1A FF FF FF 04 FD (继电器地址-东阳衣架)
2024-09-23 17:15:54.129 - FF
2024-09-23 17:18:54.495 - 1A BE B0 DC 02 FC (正反转地址-外卫卷帘)
2024-09-23 17:30:44.846 - 1A BE B0 DC 01 (继电器地址-回水泵点动)
2024-09-23 17:30:44.981 - FE
2024-09-23 17:34:09.937 - 1A BE B0 DC 03 (继电器地址-西阳天幕)
2024-09-23 17:34:10.072 - FF
2024-09-23 17:35:07.376 - 1A BE B0 DC 09 (继电器地址-客厅窗帘)
2024-09-23 17:35:07.512 - FF
2024-09-23 17:41:19.967 - 1A BE B0 DC 0A FE (继电器地址-客厅纱帘)
2024-09-23 17:41:20.100 - FE
2024-09-23 18:31:20.217 - FF FF FF FF 0A FE (继电器地址-东阳窗帘)
2024-09-23 18:33:17.416 - 03 00 00 2F 2A E0 00 00 00 00 00 43 6F 6F 6B 69 65 3A 20 6D 73 74 73 68 61 73 68 3D 41 64 6D 69
2024-09-23 18:33:17.448 - 6E 69 73 74 72 0D 0A 01 00 08 00 03 00 00 00 03 00 00 2F 2A E0 00 00 00 00 00 43 6F FF
2024-09-23 18:52:21.994 - 03 00 00 2F 2A E0 00 00 00 00 00 43 6F 6F 6B 69 65 3A 20 6D 73 74 73 68 61 73 68 3D 41 64 6D 69
2024-09-23 18:52:22.011 - 6E 69 73 74 72 0D 0A 01 00 08 00 03 00 00 00
2024-09-23 19:47:04.729 - 1B 03 00 00 00 02 C6 31 (查询室外光线)
2024-09-23 19:47:04.748 - 1B 03 04 00 00 00 00 41 F2 (室外光线返回)
2024-09-23 19:47:05.527 - 1A EC A0 DC 02 00 00 01 0F (自保持开关地址-天花12V供电, 天花12V 供电开)
2024-09-23 19:47:06.105 - 1A AA AA AA 88 (调光器地址-茶吧灯带)
2024-09-23 19:47:06.231 - 1B FF 01 FF FF FF 60 01 FF 60 01 FF 00 00 0F
2024-09-23 19:47:07.222 - 19 08 24 03 DD 00 0D 00 01 (调用情景-信科调用进门暗)
2024-09-23 19:47:09.261 - 1A FF 01 FF FF FF 60 01 FF 60 01 FF 00 00 0F (调光器地址-公共区域统配地址)
2024-09-23 19:47:11.348 - 1A EC A0 DC 01 00 00 01 0F (自保持开关地址-电视、设备12V供电, 12V 电视供电开)
2024-09-23 19:47:11.896 - 1A EC A0 DC 01 00 00 01 0F (自保持开关地址-电视、设备12V供电, 12V 电视供电开)
2024-09-23 19:47:12.444 - 1A EC A0 DC 04 00 01 01 0F (自保持开关地址-次卧西阳内外卫供电, 内卫外卫开)
2024-09-23 19:47:12.993 - 1A EC A0 DC 04 00 01 01 0F (自保持开关地址-次卧西阳内外卫供电, 内卫外卫开)
2024-09-23 19:47:13.539 - 1A BB BB BB 01 01 00 (开水器电源开)
2024-09-23 19:47:15.135 - 1A 27 89 12 AA 00 00 01 0F (状态寄存器地址, 有人状态)
2024-09-23 19:47:15.711 - 1A 27 89 12 AA 00 00 01 0F (状态寄存器地址, 有人状态)
2024-09-23 19:47:16.279 - 1A BE B0 DC 01 00 01 00 (继电器地址-回水泵点动, 回水泵点动)
2024-09-23 19:47:16.830 - 1A FF FF FF 56 00 00 01 0F (人体感应地址-内卫, 打开内卫感应)
2024-09-23 19:47:17.377 - 1A FF FF FF 55 00 00 01 0F (人体感应地址-外卫, 打开外卫感应)
2024-09-23 19:47:17.435 - BC BC
2024-09-23 19:47:17.975 - 1A FF FF FF 57 00 00 01 0F (人体感应地址-厨房, 打开厨房感应)
2024-09-23 19:47:18.382 - 19 08 24 03 CC 00 D4 00 01 (调用厨房感应灯关的按键)
2024-09-23 19:47:18.435 - 55 0A 31 00 00 00 01 91 55 0A 31 00 00 00 02 92 (厨房顶灯一关, 厨房顶灯二关)
2024-09-23 19:47:18.836 - 1A FF FF FF 58 00 00 01 0F (人体感应地址-茶吧, 打开茶吧感应)
2024-09-23 19:47:18.884 - BC BC
2024-09-23 19:47:19.468 - 1A BE B0 DC 01 00 01 00 (继电器地址-回水泵点动, 回水泵点动)
2024-09-23 19:47:20.018 - A5 00 B7 FF 00 AA 22 0D (书房纱帘关)
2024-09-23 19:47:20.563 - A5 00 A2 FF 00 AA (餐厅纱帘关)
2024-09-23 19:47:21.114 - 09 06 00 0F 02 01 78 21 (提示音叮)
2024-09-23 19:47:21.663 - 09 06 00 0F 02 01 78 21 (提示音叮)
2024-09-23 19:47:22.214 - EE 00 00 B1 00 00 02 FF FC FF FF (情景完成返回主页)
2024-09-23 19:47:22.659 - EE 00 6E B1 01 00 03 FF FC FF FF
2024-09-23 19:47:22.806 - A1 11 11 11 50 (天花供电打开确认)
2024-09-23 19:47:23.034 - 1A EC A0 DC 02 86 86 86 0F (查询天花供电状态, 自保持开关地址-天花12V供电)
2024-09-23 19:47:23.223 - EE 00 6E B1 01 00 08 FF FC FF FF
2024-09-23 19:47:23.466 - 1A EC A0 DC 02 01 01 0F (自保持开关地址-天花12V供电)
2024-09-23 19:47:24.143 - 1A BE B0 DC 0A 00 01 00 (继电器地址-客厅纱帘, 客厅纱帘关)
2024-09-23 19:47:25.346 - A1 11 11 11 51 (卫生供电打开确认)
2024-09-23 19:47:25.571 - 1A EC A0 DC 04 86 86 86 0F (查询卫生间供电状态, 自保持开关地址-次卧西阳内外卫供电)
2024-09-23 19:47:26.002 - 1A EC A0 DC 04 01 01 0F (自保持开关地址-次卧西阳内外卫供电)
2024-09-23 19:47:27.887 - A1 11 11 11 52 (电视供电打开确认)
2024-09-23 19:47:28.117 - 1A EC A0 DC 01 86 86 86 0F (查询电视供电状态, 自保持开关地址-电视、设备12V供电)
2024-09-23 19:47:28.549 - 1A EC A0 DC 01 01 01 0F (自保持开关地址-电视、设备12V供电)
2024-09-23 19:47:32.921 - A1 11 11 11 47 (天热回家开帘)
2024-09-23 19:47:33.142 - 1A 27 89 12 AA 86 86 86 0F (查询寄存器状态, 状态寄存器地址)
2024-09-23 19:47:33.525 - 1A 27 89 12 AA 01 00 00 00 00 00 00 00 00 00 00 00 00 00 00 00 0F (状态寄存器地址)
2024-09-23 19:48:27.089 - 19 08 24 03 CC 01 54 00 01 (调用内卫感应灯开的按键)
2024-09-23 19:48:27.141 - 1A 0C 02 08 01 FF 45 01 FF 45 01 FF 00 00 0F (调光器地址-内卫射灯, 内卫射灯微光)
2024-09-23 19:48:45.564 - 19 08 24 03 CC 01 CC 00 01 (调用茶吧感应灯开的按键)
2024-09-23 19:48:45.594 - 1A AA AA AA 88 FF B0 01 FF B0 01 0F (调光器地址-茶吧灯带, 茶吧灯带明亮)
2024-09-23 19:48:50.636 - 19 08 24 03 CC 01 55 00 01 (调用内卫感应灯关的按键)
2024-09-23 19:48:50.668 - 1A 0C 02 08 01 FF 00 01 FF 00 01 FF 00 00 0F (调光器地址-内卫射灯, 内卫感应灯关)
2024-09-23 19:49:29.151 - 19 08 24 03 CC 01 CD 00 01 (调用茶吧感应灯关的按键)
2024-09-23 19:49:29.182 - 1A AA AA AA 88 FF 00 01 FF 00 01 0F (调光器地址-茶吧灯带, 茶吧灯带关闭)
2024-09-23 19:49:29.711 - 19 08 24 03 CC 01 54 00 01 (调用内卫感应灯开的按键)
2024-09-23 19:49:29.748 - 1A 0C 02 08 01 FF 45 01 FF 45 01 FF 00 00 0F (调光器地址-内卫射灯, 内卫射灯微光)
2024-09-23 19:58:33.286 - 19 08 24 03 CC 01 52 00 01 (调用外卫感应灯开的按键)
2024-09-23 19:58:33.320 - 1A 0D 01 07 01 FF 45 01 FF 45 01 FF 00 00 0F (调光器地址-外卫射灯, 外卫感应灯开)
2024-09-23 19:58:47.810 - 19 08 24 03 CC 01 55 00 01 (调用内卫感应灯关的按键)
2024-09-23 19:58:47.844 - 1A 0C 02 08 01 FF 00 01 FF 00 01 FF 00 00 0F (调光器地址-内卫射灯, 内卫感应灯关)
2024-09-23 20:00:26.180 - 19 08 24 03 DD 00 3B 00 01 (调用情景-书房照明关帘)
2024-09-23 20:00:26.713 - EE 00 00 B1 00 00 00 FF FC FF FF (情景执行提示)
2024-09-23 20:00:27.308 - 09 06 00 0F 02 01 78 21 (提示音叮)
2024-09-23 20:00:27.863 - 1A 0A 04 06 01 FF F0 01 FF F0 01 FF 00 00 0F (调光器地址-书房射灯, 书房射灯明亮)
2024-09-23 20:00:30.534 - 19 08 24 03 CC 01 53 00 01 (调用外卫感应灯关的按键)
2024-09-23 20:00:30.566 - 1A 0D 01 07 01 FF 00 01 FF 00 01 FF 00 00 0F (调光器地址-外卫射灯, 外卫感应灯关)
2024-09-23 20:00:31.515 - 19 08 24 03 CC 01 54 00 01 (调用内卫感应灯开的按键)
2024-09-23 20:00:31.549 - 1A 0C 02 08 01 FF 45 01 FF 45 01 FF 00 00 0F (调光器地址-内卫射灯, 内卫射灯微光)
2024-09-23 20:00:31.949 - A5 00 B7 FF 00 AA 22 0D (书房纱帘关)
2024-09-23 20:00:33.039 - A5 00 D2 FF 00 AA 22 0C (书房窗帘关)
2024-09-23 20:00:33.087 - 55 00 D2 01 00 0D 01 0B AA 55 00 D2 01 00 0D 01 0B AA (书房窗帘电机状态返回)
2024-09-23 20:00:34.165 - 09 06 00 0F 02 02 38 20 (提示音咚)
2024-09-23 20:00:34.737 - EE 00 00 B1 00 00 02 FF FC FF FF (情景完成返回主页)
2024-09-23 20:00:42.797 - 55 00 D2 00 00 FE 01 0B AA 55 00 D2 00 00 FE 01 0B AA (书房窗帘电机状态返回)
2024-09-23 20:00:51.556 - 19 08 24 03 CC 01 55 00 01 (调用内卫感应灯关的按键)
2024-09-23 20:00:51.609 - 1A 0C 02 08 01 FF 00 01 FF 00 01 FF 00 00 0F (调光器地址-内卫射灯, 内卫感应灯关)
2024-09-23 20:14:55.230 - 1A BE B0 DC 04 (继电器地址-西阳窗帘)
2024-09-23 20:18:39.355 - FF FF FF FF 0E FC (继电器地址-西阳小窗帘)
2024-09-23 20:36:47.177 - 1A FF FF FF 04 (继电器地址-东阳衣架)
2024-09-23 20:36:47.315 - FF
2024-09-23 20:37:50.391 - 19 08 24 03 CC 01 CC 00 01 (调用茶吧感应灯开的按键)
2024-09-23 20:37:50.439 - 1A AA AA AA 88 FF B0 01 FF B0 01 0F (调光器地址-茶吧灯带, 茶吧灯带明亮)
2024-09-23 20:38:07.924 - 19 08 24 03 CC 01 CD 00 01 (调用茶吧感应灯关的按键)
2024-09-23 20:38:07.974 - 1A AA AA AA 88 FF 00 01 FF 00 01 0F (调光器地址-茶吧灯带, 茶吧灯带关闭)
2024-09-23 20:39:20.339 - 1A BE B0 DC 02 FE (正反转地址-外卫卷帘)
2024-09-23 20:51:29.420 - 1A BE B0 DC 01 (继电器地址-回水泵点动)
2024-09-23 20:53:01.083 - FF
2024-09-23 20:55:02.932 - 1A BE B0 DC 03 FC (继电器地址-西阳天幕)
2024-09-23 20:56:52.325 - 1A BE B0 DC 09 (继电器地址-客厅窗帘)
2024-09-23 20:56:52.461 - FE
2024-09-23 21:01:55.423 - 1A BE B0 DC 0A (继电器地址-客厅纱帘)
2024-09-23 21:12:07.778 - FF
2024-09-23 21:34:57.664 - 19 08 24 03 CC 01 CC 00 01 (调用茶吧感应灯开的按键)
2024-09-23 21:34:57.714 - 1A AA AA AA 88 FF B0 01 FF B0 01 0F (调光器地址-茶吧灯带, 茶吧灯带明亮)
2024-09-23 21:35:10.768 - 19 08 24 03 DD 00 3A 00 01 (调用情景-离开书房)
2024-09-23 21:35:11.289 - EE 00 00 B1 00 00 00 FF FC FF FF (情景执行提示)
2024-09-23 21:35:11.885 - 09 06 00 0F 02 01 78 21 (提示音叮)
2024-09-23 21:35:12.433 - 01 06 07 DC FF 60 08 9C (书房空调关)
2024-09-23 21:35:12.462 - 01 06 07 DC FF 60 08 9C (书房空调关)
2024-09-23 21:35:13.025 - 50 F5 07 (关书房影视)
2024-09-23 21:35:13.579 - A5 00 D2 FE 01 AA 22 0D (书房窗帘开)
2024-09-23 21:35:13.634 - 55 00 D2 02 00 FE 01 0B AA 55 00 D2 02 00 FE FD (书房窗帘电机状态返回)
2024-09-23 21:35:14.674 - A5 00 B7 FF 00 AA 22 0D (书房纱帘关)
2024-09-23 21:35:15.721 - 55 0D 31 00 00 00 01 94 (书房顶灯只关)
2024-09-23 21:35:16.775 - 1A 0A 04 06 01 FF 00 01 FF 00 01 FF 00 00 0F (调光器地址-书房射灯, 书房射灯关闭)
2024-09-23 21:35:19.706 - 19 08 24 03 CC 01 CD 00 01 (调用茶吧感应灯关的按键)
2024-09-23 21:35:19.755 - 1A AA AA AA 88 FF 00 01 FF 00 01 0F (调光器地址-茶吧灯带, 茶吧灯带关闭)
2024-09-23 21:35:20.854 - 09 06 00 0F 02 02 38 20 (提示音咚)
2024-09-23 21:35:20.971 - 55
2024-09-23 21:35:20.988 - D2 00 00 0D 01 0B AA 55 00 D2 00 00 0D 01 0B AA (书房窗帘电机状态返回)
2024-09-23 21:35:21.405 - EE 00 00 B1 00 00 02 FF FC FF FF (情景完成返回主页)
2024-09-23 21:35:40.247 - 19 08 24 03 CC 01 CC 00 01 (调用茶吧感应灯开的按键)
2024-09-23 21:35:40.296 - 1A AA AA AA 88 FF B0 01 FF B0 01 0F (调光器地址-茶吧灯带, 茶吧灯带明亮)
2024-09-23 21:36:14.316 - 19 08 24 03 CC 01 CD 00 01 (调用茶吧感应灯关的按键)
2024-09-23 21:36:14.347 - 1A AA AA AA 88 FF 00 01 FF 00 01 0F (调光器地址-茶吧灯带, 茶吧灯带关闭)
2024-09-23 21:37:48.000 - 19 08 24 03 CC 01 CC 00 01 (调用茶吧感应灯开的按键)
2024-09-23 21:37:48.031 - 1A AA AA AA 88 FF B0 01 FF B0 01 0F (调光器地址-茶吧灯带, 茶吧灯带明亮)
2024-09-23 21:37:52.131 - 19 08 24 03 CC 00 D3 00 01 (调用厨房感应灯开的按键)
2024-09-23 21:37:52.165 - 55 0A 32 00 00 00 01 92 55 0A 32 00 00 00 02 93 (厨房顶灯一开, 厨房顶灯二开)
2024-09-23 21:38:33.590 - 19 08 24 03 CC 01 CD 00 01 (调用茶吧感应灯关的按键)
2024-09-23 21:38:33.621 - 1A AA AA AA 88 FF 00 01 FF 00 01 0F (调光器地址-茶吧灯带, 茶吧灯带关闭)
2024-09-23 21:38:34.214 - 19 08 24 03 CC 00 D4 00 01 (调用厨房感应灯关的按键)
2024-09-23 21:38:34.250 - 55 0A 31 00 00 00 01 91 55 0A 31 00 00 00 02 92 (厨房顶灯一关, 厨房顶灯二关)
2024-09-23 21:38:47.117 - 19 08 24 03 CC 01 CC 00 01 (调用茶吧感应灯开的按键)
2024-09-23 21:38:47.148 - 1A AA AA AA 88 FF B0 01 FF B0 01 0F (调光器地址-茶吧灯带, 茶吧灯带明亮)
2024-09-23 21:38:50.245 - 19 08 24 03 CC 00 D3 00 01 (调用厨房感应灯开的按键)
2024-09-23 21:38:50.280 - 55 0A 32 00 00 00 01 92 55 0A 32 00 00 00 02 93 (厨房顶灯一开, 厨房顶灯二开)
2024-09-23 21:39:12.668 - 19 08 24 03 CC 01 CD 00 01 (调用茶吧感应灯关的按键)
2024-09-23 21:39:12.699 - 1A AA AA AA 88 FF 00 01 FF 00 01 0F (调光器地址-茶吧灯带, 茶吧灯带关闭)
2024-09-23 21:39:18.575 - 19 08 24 03 DD 00 42 00 01 (调用情景-主卧电视空调)
2024-09-23 21:39:19.095 - EE 00 00 B1 00 00 00 FF FC FF FF (情景执行提示)
2024-09-23 21:39:19.689 - 09 06 00 0F 02 01 78 21 (提示音叮)
2024-09-23 21:39:20.232 - 50 F0 05 (开主卧影视)
2024-09-23 21:39:21.278 - 50 F0 04 (开内卫影视)
2024-09-23 21:39:21.833 - 1A FF FF FF 56 00 00 00 0F (人体感应地址-内卫, 关闭内卫感应)
2024-09-23 21:39:22.381 - 1A 22 33 62 0F 00 02 01 0F (正反转地址-内卫卷帘, 内卫卷帘降)
2024-09-23 21:39:22.926 - A5 00 53 FE 01 AA (主卧纱帘关)
2024-09-23 21:39:22.981 - 55 00 53 02 02 22 02 2F AA 55 00 53 02 02 22 02 2F AA (主卧纱帘电机状态返回)
2024-09-23 21:39:24.023 - A5 00 52 FF 00 AA (主卧窗帘关)
2024-09-23 21:39:25.077 - 1A 0C 02 04 FF FF 45 01 FF 45 01 FF 00 00 0F (主卧调光微光)
2024-09-23 21:39:29.164 - 1A 0C 02 08 01 FF 45 01 FF 45 01 FF 00 00 0F (调光器地址-内卫射灯, 内卫射灯微光)
2024-09-23 21:39:29.749 - 50 F1 25 (主卧—有线2)
2024-09-23 21:39:30.350 - A1 11 11 11 42 (主卧空调自动开)
2024-09-23 21:39:30.571 - 19 08 24 03 F0 BB 78 02 02 00
2024-09-23 21:39:30.624 - 23 AA 56 02 15 28 04 18 09 17 01 73 65 6F 6B 65 6E 64
2024-09-23 21:39:30.897 - 50 F1 24 (内卫—有线2)
2024-09-23 21:39:31.581 - 01 10 07 D6 00 03 06 70 61 00 02 00 F0 0F 3E (主卧空调冷24度)
2024-09-23 21:39:31.619 - 01 10 07 D6 00 03 06 70 61 00 02 00 F0 0F 3E (主卧空调冷24度)
2024-09-23 21:39:32.971 - AF BF CF DF C2 21 (有线2/快捷-凤凰卫视)
2024-09-23 21:39:33.995 - 55 00 53 00 00 0C 02 2F AA 55 00 53 00 00 0C 02 2F AA (主卧纱帘电机状态返回)
2024-09-23 21:39:34.833 - 19 08 24 03 CC 00 D4 00 01 (调用厨房感应灯关的按键)
2024-09-23 21:39:34.886 - 55 0A 31 00 00 00 01 91 55 0A 31 00 00 00 02 92 (厨房顶灯一关, 厨房顶灯二关)
2024-09-23 21:39:35.288 - 1A FF FF FF 60 0B 01 01 0F (红外总线地址-主卧发射设备, 主卧电视电源)
2024-09-23 21:39:35.804 - F0 0B 01 08
2024-09-23 21:39:36.141 - 55 20 20 00 02 09 02 16 AA 55 20 20 00 02 09 02 16 AA (主卧窗帘电机状态返回)
2024-09-23 21:39:43.449 - 09 06 00 0F 02 02 38 20 (提示音咚)
2024-09-23 21:39:44.013 - EE 00 00 B1 00 00 02 FF FC FF FF (情景完成返回主页)
2024-09-23 21:47:32.657 - 19 08 24 03 DD 00 1B 00 01 (调用情景-外卫使用)
2024-09-23 21:47:33.204 - EE 00 00 B1 00 00 00 FF FC FF FF (情景执行提示)
2024-09-23 21:47:33.799 - 09 06 00 0F 02 01 78 21 (提示音叮)
2024-09-23 21:47:34.348 - 1A BE B0 DC 02 00 01 00 (正反转地址-外卫卷帘, 外卫卷帘降)
2024-09-23 21:47:34.891 - 50 F0 03 (开外卫影视)
2024-09-23 21:47:35.445 - 1A FF FF FF 55 00 00 00 0F (人体感应地址-外卫, 关闭外卫感应)
2024-09-23 21:47:36.050 - 1A 0D 01 07 01 FF 45 01 FF 45 01 FF 00 00 0F (调光器地址-外卫射灯, 外卫感应灯开)
2024-09-23 21:47:38.135 - 1A BE B0 DC 01 00 01 00 (继电器地址-回水泵点动, 回水泵点动)
2024-09-23 21:47:39.181 - 1A BE B0 DC 01 00 01 00 (继电器地址-回水泵点动, 回水泵点动)
2024-09-23 21:47:40.229 - 1A BE B0 DC 01 00 01 00 (继电器地址-回水泵点动, 回水泵点动)
2024-09-23 21:47:41.270 - 50 F1 43 (外卫—CH4)
2024-09-23 21:47:58.265 - A1 11 11 11 11 05 (外卫使用浴霸判断)
2024-09-23 21:47:58.488 - 13 03 00 00 00 02 C7 79 (查询外卫温湿度)
2024-09-23 21:47:58.511 - 13 03 04 02 5A 01 10 E9 C5 (外卫温湿度返回)
2024-09-23 21:48:00.311 - 09 06 00 0F 02 02 38 20 (提示音咚)
2024-09-23 21:48:02.407 - EE 00 00 B1 00 00 02 FF FC FF FF (情景完成返回主页)
2024-09-23 21:54:54.695 - FF FF FF FF 0A (继电器地址-东阳窗帘)
2024-09-23 21:54:54.830 - FF
2024-09-23 22:00:28.147 - 19 08 24 03 DD 00 1C 00 01 (调用情景-外卫使用完毕)
2024-09-23 22:00:28.716 - EE 00 00 B1 00 00 00 FF FC FF FF (情景执行提示)
2024-09-23 22:00:29.310 - 09 06 00 0F 02 01 78 21 (提示音叮)
2024-09-23 22:00:29.865 - 1A 0D 01 07 01 FF 00 01 FF 00 01 FF 00 00 0F (调光器地址-外卫射灯, 外卫感应灯关)
2024-09-23 22:00:30.451 - 50 F5 03 (关外卫影视)
2024-09-23 22:00:31.005 - 1A 20 07 00 42 00 01 00 0F (自保持开关地址-外卫顶灯, 外卫顶灯关)
2024-09-23 22:00:31.554 - 1A FF FF FF 55 00 00 01 0F (人体感应地址-外卫, 打开外卫感应)
2024-09-23 22:00:31.651 - BC BC
2024-09-23 22:00:31.958 - 19 08 24 03 CC 01 52 00 01 (调用外卫感应灯开的按键)
2024-09-23 22:00:32.010 - 1A 0D 01 07 01 FF 45 01 FF 45 01 FF 00 00 0F (调光器地址-外卫射灯, 外卫感应灯开)
2024-09-23 22:00:34.397 - 09 06 00 0F 02 02 38 20 (提示音咚)
2024-09-23 22:00:34.948 - EE 00 00 B1 00 00 02 FF FC FF FF (情景完成返回主页)
2024-09-23 22:00:45.183 - 19 08 24 03 CC 01 53 00 01 (调用外卫感应灯关的按键)
2024-09-23 22:00:45.217 - 1A 0D 01 07 01 FF 00 01 FF 00 01 FF 00 00 0F (调光器地址-外卫射灯, 外卫感应灯关)
2024-09-23 22:32:04.509 - FF
2024-09-23 22:39:40.849 - 19 08 24 03 CC 01 CC 00 01 (调用茶吧感应灯开的按键)
2024-09-23 22:39:40.897 - 1A AA AA AA 88 FF B0 01 FF B0 01 0F (调光器地址-茶吧灯带, 茶吧灯带明亮)
2024-09-23 22:40:17.500 - 19 08 24 03 CC 00 D3 00 01 (调用厨房感应灯开的按键)
2024-09-23 22:40:17.555 - 55 0A 32 00 00 00 01 92 55 0A 32 00 00 00 02 93 (厨房顶灯一开, 厨房顶灯二开)
2024-09-23 22:40:41.414 - 19 08 24 03 CC 01 52 00 01 (调用外卫感应灯开的按键)
2024-09-23 22:40:41.447 - 1A 0D 01 07 01 FF 45 01 FF 45 01 FF 00 00 0F (调光器地址-外卫射灯, 外卫感应灯开)
2024-09-23 22:40:46.981 - 19 08 24 03 CC 01 CD 00 01 (调用茶吧感应灯关的按键)
2024-09-23 22:40:47.011 - 1A AA AA AA 88 FF 00 01 FF 00 01 0F (调光器地址-茶吧灯带, 茶吧灯带关闭)
2024-09-23 22:41:13.610 - 19 08 24 03 CC 00 D4 00 01 (调用厨房感应灯关的按键)
2024-09-23 22:41:13.647 - 55 0A 31 00 00 00 01 91 55 0A 31 00 00 00 02 92 (厨房顶灯一关, 厨房顶灯二关)
2024-09-23 22:41:43.091 - 19 08 24 03 CC 01 CC 00 01 (调用茶吧感应灯开的按键)
2024-09-23 22:41:43.121 - 1A AA AA AA 88 FF B0 01 FF B0 01 0F (调光器地址-茶吧灯带, 茶吧灯带明亮)
2024-09-23 22:41:49.047 - 19 08 24 03 CC 01 53 00 01 (调用外卫感应灯关的按键)
2024-09-23 22:41:49.081 - 1A 0D 01 07 01 FF 00 01 FF 00 01 FF 00 00 0F (调光器地址-外卫射灯, 外卫感应灯关)
2024-09-23 22:42:42.786 - 19 08 24 03 CC 00 D3 00 01 (调用厨房感应灯开的按键)
2024-09-23 22:42:42.822 - 55 0A 32 00 00 00 01 92 55 0A 32 00 00 00 02 93 (厨房顶灯一开, 厨房顶灯二开)
2024-09-23 22:42:55.235 - 19 08 24 03 CC 01 CD 00 01 (调用茶吧感应灯关的按键)
2024-09-23 22:42:55.265 - 1A AA AA AA 88 FF 00 01 FF 00 01 0F (调光器地址-茶吧灯带, 茶吧灯带关闭)
2024-09-23 22:44:48.958 - 19 08 24 03 CC 01 CC 00 01 (调用茶吧感应灯开的按键)
2024-09-23 22:44:48.989 - 1A AA AA AA 88 FF B0 01 FF B0 01 0F (调光器地址-茶吧灯带, 茶吧灯带明亮)
2024-09-23 22:45:12.004 - 19 08 24 03 CC 01 CD 00 01 (调用茶吧感应灯关的按键)
2024-09-23 22:45:12.034 - 1A AA AA AA 88 FF 00 01 FF 00 01 0F (调光器地址-茶吧灯带, 茶吧灯带关闭)
2024-09-23 22:45:44.069 - 19 08 24 03 CC 01 CC 00 01 (调用茶吧感应灯开的按键)
2024-09-23 22:45:44.098 - 1A AA AA AA 88 FF B0 01 FF B0 01 0F (调光器地址-茶吧灯带, 茶吧灯带明亮)
2024-09-23 22:46:37.249 - 19 08 24 03 CC 00 D4 00 01 (调用厨房感应灯关的按键)
2024-09-23 22:46:37.282 - 55 0A 31 00 00 00 01 91 55 0A 31 00 00 00 02 92 (厨房顶灯一关, 厨房顶灯二关)
2024-09-23 22:47:15.248 - 19 08 24 03 CC 01 CD 00 01 (调用茶吧感应灯关的按键)
2024-09-23 22:47:15.279 - 1A AA AA AA 88 FF 00 01 FF 00 01 0F (调光器地址-茶吧灯带, 茶吧灯带关闭)
2024-09-23 23:35:55.108 - 1A BE B0 DC 04 (继电器地址-西阳窗帘)
2024-09-23 23:35:55.243 - FF
2024-09-23 23:40:02.648 - FF FF FF FF 0E (继电器地址-西阳小窗帘)
2024-09-23 23:57:39.373 - 1A FF FF FF 04 FC (继电器地址-东阳衣架)
2024-09-24 00:01:13.058 - 1A BE B0 DC 02 FC (正反转地址-外卫卷帘)
2024-09-24 00:01:13.194 - FF
2024-09-24 00:10:29.429 - 19 08 24 03 DD 00 13 00 01 (调用情景-公共区域关)
2024-09-24 00:10:29.618 - 19 08 24 03 CC 01 CC 00 01 (调用茶吧感应灯开的按键)
2024-09-24 00:10:29.667 - 1A AA AA AA 88 FF B0 01 FF B0 01 0F (调光器地址-茶吧灯带, 茶吧灯带明亮)
2024-09-24 00:10:30.071 - EE 00 00 B1 00 00 00 FF FC FF FF (情景执行提示)
2024-09-24 00:10:30.647 - 09 06 00 0F 02 01 78 21 (提示音叮)
2024-09-24 00:10:31.196 - 55 0B 31 00 00 00 01 92 (厨房风扇只关)
2024-09-24 00:10:32.243 - 01 06 07 D3 FF 60 38 9F (餐厅空调关)
2024-09-24 00:10:32.275 - 01 06 07 D3 FF 60 38 9F (餐厅空调关)
2024-09-24 00:10:33.338 - 01 06 07 D0 FF 60 C8 9F (客厅空调关)
2024-09-24 00:10:33.376 - 01 06 07 D0 FF 60 C8 9F (客厅空调关)
2024-09-24 00:10:37.423 - 50 F5 02 (关厨房影视)
2024-09-24 00:10:38.164 - 19 08 24 03 CC 00 D3 00 01 (调用厨房感应灯开的按键)
2024-09-24 00:10:38.217 - 55 0A 32 00 00 00 01 92 55 0A 32 00 00 00 02 93 (厨房顶灯一开, 厨房顶灯二开)
2024-09-24 00:10:38.612 - 50 F5 01 (关餐厅影视)
2024-09-24 00:10:39.715 - 50 F5 08 (关客厅影视)
2024-09-24 00:10:40.812 - 50 F5 03 (关外卫影视)
2024-09-24 00:10:41.942 - 55 0A 31 00 00 00 01 91 (厨房顶灯一关)
2024-09-24 00:10:43.010 - 55 0A 31 00 00 00 02 92 (厨房顶灯二关)
2024-09-24 00:10:44.056 - 55 0C 31 00 00 00 01 93 (餐厅顶灯关)
2024-09-24 00:10:45.104 - 1A 18 05 10 31 00 01 00 0F (自保持开关地址-门厅顶灯, 门厅顶灯关)
2024-09-24 00:10:46.149 - 1A 20 07 00 42 00 01 00 0F (自保持开关地址-外卫顶灯, 外卫顶灯关)
2024-09-24 00:10:47.197 - 1A 18 05 21 89 00 01 00 0F (自保持开关地址-客厅顶灯, 客厅顶灯一关)
2024-09-24 00:10:48.292 - 1A 18 05 01 94 00 01 00 0F (自保持开关地址-客厅顶灯, 客厅顶灯二关)
2024-09-24 00:10:49.339 - 1A 20 07 01 30 00 01 00 0F (自保持开关地址-西阳顶灯, 西阳顶灯关)
2024-09-24 00:10:50.393 - 1A FF 01 FF FF FF 00 01 FF 00 01 FF 00 00 0F (调光器地址-公共区域统配地址, 公共区域灯光全关)
2024-09-24 00:10:51.480 - 09 06 00 0F 02 02 38 20 (提示音咚)
2024-09-24 00:10:53.527 - EE 00 00 B1 00 00 02 FF FC FF FF (情景完成返回主页)
2024-09-24 00:11:11.701 - 19 08 24 03 CC 01 CD 00 01 (调用茶吧感应灯关的按键)
2024-09-24 00:11:11.732 - 1A AA AA AA 88 FF 00 01 FF 00 01 0F (调光器地址-茶吧灯带, 茶吧灯带关闭)
2024-09-24 00:11:23.774 - 19 08 24 03 CC 00 D4 00 01 (调用厨房感应灯关的按键)
2024-09-24 00:11:23.831 - 55 0A 31 00 00 00 01 91 55 0A 31 00 00 00 02 92 (厨房顶灯一关, 厨房顶灯二关)
2024-09-24 00:12:46.386 - 19 08 24 03 DD 00 4F 00 01 (调用情景-内卫使用完毕)
2024-09-24 00:12:46.890 - EE 00 00 B1 00 00 00 FF FC FF FF (情景执行提示)
2024-09-24 00:12:47.514 - 09 06 00 0F 02 01 78 21 (提示音叮)
2024-09-24 00:12:48.091 - 1A 0C 02 08 01 FF 00 01 FF 00 01 FF 00 00 0F (调光器地址-内卫射灯, 内卫感应灯关)
2024-09-24 00:12:52.164 - 50 F5 04 (关内卫影视)
2024-09-24 00:12:52.718 - 1A 20 07 01 40 00 01 00 0F (自保持开关地址-内卫顶灯, 内卫顶灯关)
2024-09-24 00:12:53.316 - 1A FF FF FF 56 00 00 01 0F (人体感应地址-内卫, 打开内卫感应)
2024-09-24 00:12:53.419 - BC BC
2024-09-24 00:12:53.725 - 19 08 24 03 CC 01 54 00 01 (调用内卫感应灯开的按键)
2024-09-24 00:12:53.779 - 1A 0C 02 08 01 FF 45 01 FF 45 01 FF 00 00 0F (调光器地址-内卫射灯, 内卫射灯微光)
2024-09-24 00:12:56.158 - 09 06 00 0F 02 02 38 20 (提示音咚)
2024-09-24 00:12:56.760 - EE 00 00 B1 00 00 02 FF FC FF FF (情景完成返回主页)
2024-09-24 00:13:08.458 - 19 08 24 03 CC 01 55 00 01 (调用内卫感应灯关的按键)
2024-09-24 00:13:08.491 - 1A 0C 02 08 01 FF 00 01 FF 00 01 FF 00 00 0F (调光器地址-内卫射灯, 内卫感应灯关)
2024-09-24 00:13:55.111 - 1A BE B0 DC 01 FC (继电器地址-回水泵点动)
2024-09-24 00:13:55.245 - FF
2024-09-24 00:17:54.969 - 1A BE B0 DC 03 FE (继电器地址-西阳天幕)
2024-09-24 00:19:53.743 - 1A BE B0 DC 09 (继电器地址-客厅窗帘)
2024-09-24 00:19:53.878 - FF
2024-09-24 00:24:53.743 - 1A BE B0 DC 0A (继电器地址-客厅纱帘)
2024-09-24 00:24:53.879 - FF
2024-09-24 00:55:32.468 - 19 08 24 03 CC 01 54 00 01 (调用内卫感应灯开的按键)
2024-09-24 00:55:32.519 - 1A 0C 02 08 01 FF 45 01 FF 45 01 FF 00 00 0F (调光器地址-内卫射灯, 内卫射灯微光)
2024-09-24 00:56:17.403 - 19 08 24 03 DD 00 4B 00 01 (调用情景-主卧睡觉)
2024-09-24 00:56:17.924 - EE 00 00 B1 00 00 00 FF FC FF FF (情景执行提示)
2024-09-24 00:56:18.519 - 09 06 00 0F 02 01 78 21 (提示音叮)
2024-09-24 00:56:19.112 - 50 F5 04 (关内卫影视)
2024-09-24 00:56:19.663 - A5 00 53 FE 01 AA (主卧纱帘关)
2024-09-24 00:56:20.709 - A5 00 52 FF 00 AA (主卧窗帘关)
2024-09-24 00:56:21.760 - 1A 22 33 62 0F 00 02 01 0F (正反转地址-内卫卷帘, 内卫卷帘降)
2024-09-24 00:56:22.806 - 1A 20 07 01 40 00 01 00 0F (自保持开关地址-内卫顶灯, 内卫顶灯关)
2024-09-24 00:56:23.853 - 1A 20 07 01 55 00 01 00 0F (自保持开关地址-主卧顶灯, 主卧顶灯只关)
2024-09-24 00:56:24.400 - 1A FF FF FF 56 00 00 01 0F (人体感应地址-内卫, 打开内卫感应)
2024-09-24 00:56:24.414 - BC BC
2024-09-24 00:56:27.997 - 1A 0C 02 08 01 FF 00 01 FF 00 01 FF 00 00 0F (调光器地址-内卫射灯, 内卫感应灯关)
2024-09-24 00:56:28.595 - 1A 0C 02 04 01 FF 00 01 FF 00 01 FF 00 00 0F (调光器地址-主卧筒灯, 主卧筒灯关闭)
2024-09-24 00:56:29.194 - 1A 0C 02 04 03 FF 00 01 FF 00 01 FF 00 00 0F (调光器地址-主卧灯带, 主卧灯带关闭)
2024-09-24 00:56:29.792 - 1A 0C 02 04 04 FF 00 01 FF 00 01 FF 00 00 0F (调光器地址-主卧南阅, 主卧南阅关闭)
2024-09-24 00:56:30.389 - 1A 0C 02 04 05 FF 00 01 FF 00 01 FF 00 00 0F (调光器地址-主卧北阅, 主卧北阅关闭)
2024-09-24 00:56:30.987 - 1A 0C 02 04 02 FF 00 01 FF 00 01 FF 00 00 0F (调光器地址-主卧过道, 主卧过道关闭)
2024-09-24 00:56:31.577 - 09 06 00 0F 02 02 38 20 (提示音咚)
2024-09-24 00:56:32.129 - EE 00 00 B1 00 00 02 FF FC FF FF (情景完成返回主页)
2024-09-24 00:56:36.607 - 19 08 24 03 CC 01 55 00 01 (调用内卫感应灯关的按键)
2024-09-24 00:56:36.682 - 1A 0C 02 08 01 FF 00 01 FF 00 01 FF 00 00 0F (调光器地址-内卫射灯, 内卫感应灯关)
2024-09-24 00:58:18.809 - 19 08 24 03 CC 01 54 00 01 (调用内卫感应灯开的按键)
2024-09-24 00:58:18.842 - 1A 0C 02 08 01 FF 45 01 FF 45 01 FF 00 00 0F (调光器地址-内卫射灯, 内卫射灯微光)
2024-09-24 00:58:40.350 - 19 08 24 03 CC 01 55 00 01 (调用内卫感应灯关的按键)
2024-09-24 00:58:40.385 - 1A 0C 02 08 01 FF 00 01 FF 00 01 FF 00 00 0F (调光器地址-内卫射灯, 内卫感应灯关)
2024-09-24 01:17:20.221 - FF FF FF FF 0A FE (继电器地址-东阳窗帘)
2024-09-24 01:17:20.355 - FF
2024-09-24 01:54:32.878 - 03 00 00 2F 2A E0 00 00 00 00 00 43 6F 6F 6B 69 65 3A 20 6D 73 74 73 68 61 73 68 3D 41 64 6D 69
2024-09-24 01:54:32.895 - 6E 69 73 74 72 0D 0A 01 00 08 00 03 00 00 00
2024-09-24 02:25:01.056 - 19 08 24 03 CC 01 54 00 01 (调用内卫感应灯开的按键)
2024-09-24 02:25:01.109 - 1A 0C 02 08 01 FF 45 01 FF 45 01 FF 00 00 0F (调光器地址-内卫射灯, 内卫射灯微光)
2024-09-24 02:27:34.860 - 19 08 24 03 CC 01 55 00 01 (调用内卫感应灯关的按键)
2024-09-24 02:27:34.893 - 1A 0C 02 08 01 FF 00 01 FF 00 01 FF 00 00 0F (调光器地址-内卫射灯, 内卫感应灯关)
2024-09-24 02:29:16.560 - 19 08 24 03 CC 01 54 00 01 (调用内卫感应灯开的按键)
2024-09-24 02:29:16.595 - 1A 0C 02 08 01 FF 45 01 FF 45 01 FF 00 00 0F (调光器地址-内卫射灯, 内卫射灯微光)
2024-09-24 02:29:37.603 - 19 08 24 03 CC 01 55 00 01 (调用内卫感应灯关的按键)
2024-09-24 02:29:37.636 - 1A 0C 02 08 01 FF 00 01 FF 00 01 FF 00 00 0F (调光器地址-内卫射灯, 内卫感应灯关)
2024-09-24 02:57:36.825 - 1A BE B0 DC 04 (继电器地址-西阳窗帘)
2024-09-24 02:57:36.960 - FF
2024-09-24 02:59:27.469 - 50 F7 01 (全屋影音全关)
2024-09-24 03:01:47.687 - FF FF FF FF 0E (继电器地址-西阳小窗帘)
2024-09-24 03:01:47.822 - FF
2024-09-24 03:18:30.430 - 1A FF FF FF 04 (继电器地址-东阳衣架)
2024-09-24 03:18:30.564 - FF
2024-09-24 03:23:00.765 - 1A BE B0 DC 02 (正反转地址-外卫卷帘)
2024-09-24 03:23:00.901 - FF
2024-09-24 03:35:13.328 - 1A BE B0 DC 01 FC (继电器地址-回水泵点动)
2024-09-24 03:35:13.463 - FE
2024-09-24 03:39:19.832 - 1A BE B0 DC 03 (继电器地址-西阳天幕)
2024-09-24 03:39:19.967 - FF
2024-09-24 03:40:50.954 - 1A BE B0 DC 09 (继电器地址-客厅窗帘)
2024-09-24 03:40:51.090 - FF
2024-09-24 03:46:05.495 - 1A BE B0 DC 0A (继电器地址-客厅纱帘)
2024-09-24 03:46:05.630 - FF
2024-09-24 04:37:24.561 - FF FF FF FF 0A (继电器地址-东阳窗帘)
2024-09-24 04:37:24.695 - FC
2024-09-24 04:49:28.167 - EE 00 00 B1 00 00 00 FF FC FF FF (情景执行提示)
2024-09-24 04:49:28.789 - A5 00 A2 FF 00 AA (餐厅纱帘关)
2024-09-24 04:49:29.856 - A5 00 A6 FF 00 AA (餐厅窗帘关)
2024-09-24 04:49:29.907 - 55 00 A6 01 00 0E 01 74 AA 55 00 A6 01 00 0E 01 74 AA (餐厅窗帘电机状态返回)
2024-09-24 04:49:30.953 - A5 00 B7 FF 00 AA 22 0D (书房纱帘关)
2024-09-24 04:49:32.001 - A5 00 D2 FF 00 AA 22 0C (书房窗帘关)
2024-09-24 04:49:32.050 - 55 00 D2 01 00 0D 01 0B AA 55 00 D2 01 00 0D 01 0B AA (书房窗帘电机状态返回)
2024-09-24 04:49:33.100 - EE 00 00 B1 00 00 02 FF FC FF FF (情景完成返回主页)
2024-09-24 04:49:38.641 - 55 00 A6 00 01 66 01 74 AA 55 00 A6 00 01 66 01 74 AA (餐厅窗帘电机状态返回)
2024-09-24 04:49:41.819 - 55 00 D2 00 00 FE 01 0B AA 55 00 D2 00 00 FE 01 0B AA (书房窗帘电机状态返回)
2024-09-24 04:55:10.911 - 03 00 00 2F 2A E0 00 00 00 00 00 43 6F 6F 6B 69 65 3A 20 6D 73 74 73 68 61 73 68 3D 41 64 6D 69
2024-09-24 04:55:10.929 - 6E 69 73 74 72 0D 0A 01 00 08 00 03 00 00 00
2024-09-24 05:02:28.647 - 19 08 24 03 CC 00 D3 00 01 (调用厨房感应灯开的按键)
2024-09-24 05:02:28.702 - 55 0A 32 00 00 00 01 92 55 0A 32 00 00 00 02 93 (厨房顶灯一开, 厨房顶灯二开)
2024-09-24 05:03:03.717 - 19 08 24 03 CC 00 D4 00 01 (调用厨房感应灯关的按键)
2024-09-24 05:03:03.751 - 55 0A 31 00 00 00 01 91 55 0A 31 00 00 00 02 92 (厨房顶灯一关, 厨房顶灯二关)
2024-09-24 06:17:15.112 - 1A BE B0 DC 04 FC (继电器地址-西阳窗帘)
2024-09-24 06:17:42.625 - FF
2024-09-24 06:20:00.825 - FF
2024-09-24 06:21:46.496 - FF FF FF FF 0E FC (继电器地址-西阳小窗帘)
2024-09-24 06:21:46.629 - FF
2024-09-24 06:29:27.468 - EE 00 00 B1 00 00 00 FF FC FF FF (情景执行提示)
2024-09-24 06:29:28.165 - 09 06 00 0F 02 01 78 21 (提示音叮)
2024-09-24 06:29:28.861 - 50 F0 04 (开内卫影视)
2024-09-24 06:29:29.612 - 50 F0 04 (开内卫影视)
2024-09-24 06:29:30.313 - 50 F0 05 (开主卧影视)
2024-09-24 06:29:31.014 - 50 F0 05 (开主卧影视)
2024-09-24 06:29:31.771 - FF FF FF FF 09 00 01 00
2024-09-24 06:29:32.473 - FF FF FF FF 08 00 01 00
2024-09-24 06:29:33.175 - FF FF FF FF 08 00 01 00
2024-09-24 06:29:33.925 - 1A 22 33 62 0F 00 02 01 0F (正反转地址-内卫卷帘, 内卫卷帘降)
2024-09-24 06:29:34.626 - 1A FF FF FF 56 0C 00 01 (人体感应地址-内卫)
2024-09-24 06:29:34.854 - 1A FF FF FF 56 00 00 00 0F (人体感应地址-内卫, 关闭内卫感应)
2024-09-24 06:29:35.327 - 1A FF FF FF A5 00 01 02
2024-09-24 06:29:36.081 - 1A AA AA AA 84 FF B0 01 FF 00 00 0F
2024-09-24 06:29:37.785 - 1A AA AA AA 27 FF 00 01 FF 00 00 0F
2024-09-24 06:29:39.489 - 1A AA AA AA 6F FF 27 01 FF 00 00 0F
2024-09-24 06:29:41.192 - 1A AA AA AA 55 FF 45 01 FF 00 00 0F
2024-09-24 06:29:42.921 - 1A AA AA AA 2C FF 00 00 FF 00 01 0F
2024-09-24 06:29:44.646 - 1A AA AA AA 84 FF 00 00 FF B0 01 0F
2024-09-24 06:29:46.347 - 1A AA AA AA 5B FF 00 01 FF 00 00 0F
2024-09-24 06:29:48.051 - 1A AA AA AA 27 FF 00 00 FF 00 01 0F
2024-09-24 06:29:49.804 - 1A AA AA AA 6F FF 00 00 FF 27 01 0F
2024-09-24 06:29:51.505 - 1A AA AA AA 55 FF 00 00 FF 45 01 0F
2024-09-24 06:29:53.209 - 1A AA AA AA 2C FF 00 01 FF 00 00 0F
2024-09-24 06:29:54.912 - 1A AA AA AA 5B FF 00 00 FF 00 01 0F
2024-09-24 06:29:56.603 - 50 F1 25 (主卧—有线2)
2024-09-24 06:29:58.358 - 50 F1 25 (主卧—有线2)
2024-09-24 06:30:00.062 - A1 11 11 11 11 01 (内卫浴霸取暖判断)
2024-09-24 06:30:00.288 - 14 03 00 00 00 02 C6 CE (查询内卫温湿度)
2024-09-24 06:30:00.310 - 14 03 04 02 80 01 0A 3F 35 (内卫温湿度返回)
2024-09-24 06:30:01.266 - 1A BE B0 DC 01 00 01 00 (继电器地址-回水泵点动, 回水泵点动)
2024-09-24 06:30:02.468 - 1A BE B0 DC 01 00 01 00 (继电器地址-回水泵点动, 回水泵点动)
2024-09-24 06:30:04.670 - 1A BE B0 DC 01 00 01 00 (继电器地址-回水泵点动, 回水泵点动)
2024-09-24 06:30:06.376 - 1A FF FF FF 60 0B 01 01 0F (红外总线地址-主卧发射设备, 主卧电视电源)
2024-09-24 06:30:06.893 - F0 0B 01 08
2024-09-24 06:30:09.474 - EE 00 00 B1 00 00 02 FF FC FF FF (情景完成返回主页)
2024-09-24 06:32:37.291 - 19 08 24 03 CC 00 D3 00 01 (调用厨房感应灯开的按键)
2024-09-24 06:32:37.345 - 55 0A 32 00 00 00 01 92 55 0A 32 00 00 00 02 93 (厨房顶灯一开, 厨房顶灯二开)
2024-09-24 06:33:12.360 - 19 08 24 03 CC 00 D4 00 01 (调用厨房感应灯关的按键)
2024-09-24 06:33:12.396 - 55 0A 31 00 00 00 01 91 55 0A 31 00 00 00 02 92 (厨房顶灯一关, 厨房顶灯二关)
2024-09-24 06:40:08.359 - 1A FF FF FF 04 (继电器地址-东阳衣架)
2024-09-24 06:40:08.496 - FF
2024-09-24 06:44:06.404 - 1A BE B0 DC 02 FE (正反转地址-外卫卷帘)
2024-09-24 06:44:06.538 - FF
2024-09-24 06:44:27.660 - EE 00 00 B1 00 00 00 FF FC FF FF (情景执行提示)
2024-09-24 06:44:28.282 - 09 06 00 0F 02 01 78 21 (提示音叮)
2024-09-24 06:44:28.847 - 50 F0 04 (开内卫影视)
2024-09-24 06:44:29.395 - 50 F0 05 (开主卧影视)
2024-09-24 06:44:29.947 - A5 00 53 FE 01 AA (主卧纱帘关)
2024-09-24 06:44:30.494 - A5 00 53 FE 01 AA (主卧纱帘关)
2024-09-24 06:44:31.042 - A5 00 52 FE 01 AA (主卧窗帘开)
2024-09-24 06:44:32.088 - A5 00 52 FE 01 AA (主卧窗帘开)
2024-09-24 06:44:33.139 - 1A 22 33 62 0F 00 02 01 0F (正反转地址-内卫卷帘, 内卫卷帘降)
2024-09-24 06:44:33.686 - 1A FF FF FF 56 00 00 00 0F (人体感应地址-内卫, 关闭内卫感应)
2024-09-24 06:44:33.700 - BC BC
2024-09-24 06:44:34.284 - 1A 20 07 01 55 00 01 00 0F (自保持开关地址-主卧顶灯, 主卧顶灯只关)
2024-09-24 06:44:35.337 - 1A 0C 02 08 01 FF F0 01 FF F0 01 FF 00 00 0F (调光器地址-内卫射灯, 内卫射灯明亮)
2024-09-24 06:44:35.935 - 1A 0C 02 04 01 FF 00 01 FF 00 01 FF 00 00 0F (调光器地址-主卧筒灯, 主卧筒灯关闭)
2024-09-24 06:44:36.533 - 1A 0C 02 04 03 FF 45 01 FF 45 01 FF 00 00 0F (调光器地址-主卧灯带, 主卧灯带微光)
2024-09-24 06:44:37.130 - 1A 0C 02 04 02 FF F0 01 FF 00 01 FF 00 00 0F (调光器地址-主卧过道, 主卧过道暖光)
2024-09-24 06:44:37.728 - 1A 0C 02 04 05 FF 00 01 FF 00 01 FF 00 00 0F (调光器地址-主卧北阅, 主卧北阅关闭)
2024-09-24 06:44:38.327 - 1A 0C 02 04 04 FF 00 01 FF 00 01 FF 00 00 0F (调光器地址-主卧南阅, 主卧南阅关闭)
2024-09-24 06:44:39.410 - 50 F1 24 (内卫—有线2)
2024-09-24 06:44:40.458 - 50 F1 25 (主卧—有线2)
2024-09-24 06:44:41.508 - AF BF CF DF C2 21 (有线2/快捷-凤凰卫视)
2024-09-24 06:44:42.059 - 1A FF FF FF 60 0B 01 01 0F (红外总线地址-主卧发射设备, 主卧电视电源)
2024-09-24 06:44:42.583 - F0 0B 01 08
2024-09-24 06:44:43.104 - 1A BE B0 DC 01 00 01 00 (继电器地址-回水泵点动, 回水泵点动)
2024-09-24 06:44:44.424 - 55 20 20 00 00 0F 02 16 AA 55 20 20 00 00 0F 02 16 AA (主卧窗帘电机状态返回)
2024-09-24 06:44:47.143 - 09 06 00 0F 02 02 38 20 (提示音咚)
2024-09-24 06:44:47.694 - EE 00 00 B1 00 00 02 FF FC FF FF (情景完成返回主页)
2024-09-24 06:44:48.785 - A1 11 11 11 11 01 (内卫浴霸取暖判断)
2024-09-24 06:44:49.014 - 14 03 00 00 00 02 C6 CE (查询内卫温湿度)
2024-09-24 06:44:49.035 - 14 03 04 02 69 01 0A EE C1 (内卫温湿度返回)
2024-09-24 06:56:45.252 - 1A BE B0 DC 01 FC (继电器地址-回水泵点动)
2024-09-24 06:56:45.386 - FE
2024-09-24 07:01:45.529 - 1A BE B0 DC 03 FE (继电器地址-西阳天幕)
2024-09-24 07:01:45.663 - FF
2024-09-24 07:02:42.359 - 1A BE B0 DC 09 (继电器地址-客厅窗帘)
2024-09-24 07:02:42.495 - FF
2024-09-24 07:07:43.423 - 1A BE B0 DC 0A FE (继电器地址-客厅纱帘)
2024-09-24 07:07:43.556 - FC
