2024-08-18 20:26:24.639 - 1B 03 00 00 00 02 C6 31 (查询室外光线)
2024-08-18 20:26:24.665 - 1B 03 04 00 00 00 00 41 F2 (室外光线返回)
2024-08-18 20:26:28.960 - 19 08 24 03 CC 01 55 00 01 (调用外卫感应灯关的按键)
2024-08-18 20:26:29.011 - 1A 0C 02 08 01 FF 00 01 FF 00 01 FF 00 00 0F (调光器地址-内卫射灯, 内卫感应灯关)
2024-08-18 20:58:41.447 - FF
2024-08-18 21:05:41.856 - 1A BE B0 DC 04 (继电器地址-西阳窗帘)
2024-08-18 21:08:07.592 - 1A BE B0 DC 02 (正反转地址-外卫卷帘)
2024-08-18 21:08:09.174 - 1A BE B0 DC 0A FC (继电器地址-客厅纱帘)
2024-08-18 21:08:09.310 - FF
2024-08-18 21:17:48.724 - 1A 10 00 00 00 86 86 86 0F (调用查询模块-主卧测温转换, 主卧温湿度虚拟地址)
2024-08-18 21:17:48.945 - 1D 03 00 00 00 02 C6 57 (查询主卧温湿度)
2024-08-18 21:17:48.979 - 1D 03 04 02 03 01 01 16 1A (主卧温湿度返回)
2024-08-18 21:17:49.979 - 1A 10 00 00 00 00 00 01 00 00 01 00 00 01 01 01 01 02 03 01 00 00 01 00 00 01 0F (主卧温湿度虚拟地址)
2024-08-18 21:17:50.122 - 1A FF 04 00 00 86 86 86 0F (调用查询模块-次卧空调开关查询, 次卧空调虚拟地址)
2024-08-18 21:17:50.345 - 01 04 07 E2 00 01 90 88 (查询次卧空调开关状态)
2024-08-18 21:17:50.361 - 01 04 02 70 00 9C F0
2024-08-18 21:17:51.350 - 1A FF 04 00 00 00 00 0F (次卧空调虚拟地址)
2024-08-18 21:17:51.548 - 1A FF 05 00 00 86 86 86 0F (调用查询模块-书房空调开关查询, 书房空调虚拟地址)
2024-08-18 21:17:51.769 - 01 04 07 E8 00 01 B0 8A (查询书房空调开关状态)
2024-08-18 21:17:51.786 - 01 04 02 70 00 9C F0
2024-08-18 21:17:52.772 - 1A FF 05 00 00 00 00 0F (书房空调虚拟地址)
2024-08-18 21:17:52.881 - 1A FF 02 00 00 86 86 86 0F (调用查询模块-餐厅空调开关查询, 餐厅空调虚拟地址)
2024-08-18 21:17:53.104 - 01 04 07 D6 00 01 D1 46 (查询餐厅空调开关状态)
2024-08-18 21:17:53.120 - 01 04 02 70 01 5D 30
2024-08-18 21:17:54.100 - 1A FF 02 00 00 01 00 0F (餐厅空调虚拟地址)
2024-08-18 21:17:54.268 - 1A FF 01 00 00 86 86 86 0F (调用查询模块-客厅空调开关查询, 客厅空调虚拟地址)
2024-08-18 21:17:54.476 - 01 04 07 D0 00 01 31 47 (查询客厅空调开关状态)
2024-08-18 21:17:54.508 - 01 04 02 70 01 5D 30
2024-08-18 21:17:55.494 - 1A FF 01 00 00 01 00 0F (客厅空调虚拟地址)
2024-08-18 21:17:55.647 - 1A 10 00 00 00 86 86 86 0F (调用查询模块-主卧测温转换, 主卧温湿度虚拟地址)
2024-08-18 21:17:55.868 - 1D 03 00 00 00 02 C6 57 (查询主卧温湿度)
2024-08-18 21:17:55.885 - 1D 03 04 02 03 01 01 16 1A (主卧温湿度返回)
2024-08-18 21:17:56.890 - 1A 10 00 00 00 00 00 01 00 00 01 00 00 01 01 01 01 02 03 01 00 00 01 00 00 01 0F (主卧温湿度虚拟地址)
2024-08-18 21:17:57.078 - 1A 11 00 00 00 86 86 86 0F (调用查询模块-次卧测温转换, 次卧温湿度虚拟地址)
2024-08-18 21:17:57.302 - 11 03 00 00 00 02 C6 9B (查询次卧温湿度)
2024-08-18 21:17:57.317 - 11 03 04 02 03 01 10 1A 16 (次卧温湿度返回)
2024-08-18 21:17:58.322 - 1A 11 00 00 00 00 00 01 00 00 01 00 00 01 01 10 01 02 03 01 00 00 01 00 00 01 0F (次卧温湿度虚拟地址)
2024-08-18 21:17:58.513 - 1A 12 00 00 00 86 86 86 0F (调用查询模块-书房测温转换, 书房温湿度虚拟地址)
2024-08-18 21:17:58.736 - 12 03 00 00 00 02 C6 A8 (查询书房温湿度)
2024-08-18 21:17:58.752 - 12 03 04 01 9A 01 20 F9 69 (书房温湿度返回)
2024-08-18 21:17:59.757 - 1A 12 00 00 00 00 00 01 00 00 01 00 00 01 01 20 01 01 9A 01 00 00 01 00 00 01 0F (书房温湿度虚拟地址)
2024-08-18 21:17:59.948 - 1A 13 00 00 00 86 86 86 0F (调用查询模块-外卫测温转换, 外卫温湿度虚拟地址)
2024-08-18 21:18:00.156 - 13 03 00 00 00 02 C7 79 (查询外卫温湿度)
2024-08-18 21:18:00.190 - 13 03 04 01 A7 01 0E F8 79 (外卫温湿度返回)
2024-08-18 21:18:01.194 - 1A 13 00 00 00 00 00 01 00 00 01 00 00 01 01 0E 01 01 A7 01 00 00 01 00 00 01 0F (外卫温湿度虚拟地址)
2024-08-18 21:18:01.368 - 1A 14 00 00 00 86 86 86 0F (调用查询模块-内卫测温转换, 内卫温湿度虚拟地址)
2024-08-18 21:18:01.591 - 14 03 00 00 00 02 C6 CE (查询内卫温湿度)
2024-08-18 21:18:01.607 - 14 03 04 01 B1 01 03 AE B8 (内卫温湿度返回)
2024-08-18 21:18:02.612 - 1A 14 00 00 00 00 00 01 00 00 01 00 00 01 01 03 01 01 B1 01 00 00 01 00 00 01 0F (内卫温湿度虚拟地址)
2024-08-18 21:18:02.851 - 1A 15 00 00 00 86 86 86 0F (调用查询模块-客厅测温转换, 客厅温湿度虚拟地址)
2024-08-18 21:18:03.074 - 15 03 00 00 00 02 C7 1F (查询客厅温湿度)
2024-08-18 21:18:03.090 - 15 03 04 01 D4 00 EF AE 7A (客厅温湿度返回)
2024-08-18 21:18:04.095 - 1A 15 00 00 00 00 00 01 00 00 01 00 00 01 00 EF 01 01 D4 01 00 00 01 00 00 01 0F (客厅温湿度虚拟地址)
2024-08-18 21:18:04.239 - 1A 16 00 00 00 86 86 86 0F (调用查询模块-机柜测温转换, 机柜温湿度虚拟地址)
2024-08-18 21:18:04.459 - 16 03 00 00 00 02 C7 2C (查询机柜温湿度)
2024-08-18 21:18:04.478 - 16 03 04 01 9A 01 10 BC BD (机柜温湿度返回)
2024-08-18 21:18:05.483 - 1A 16 00 00 00 00 00 01 00 00 01 00 00 01 01 10 01 01 9A 01 00 00 01 00 00 01 0F (机柜温湿度虚拟地址)
2024-08-18 21:18:05.666 - 1A 0E 00 00 00 86 86 86 0F (调用查询模块-厨房测温转换, 厨房温湿度虚拟地址)
2024-08-18 21:18:05.887 - 0E 03 00 00 00 02 C4 F4 (查询厨房温湿度)
2024-08-18 21:18:05.913 - 0E 03 04 01 6F 01 2A B4 9D (厨房温湿度返回)
2024-08-18 21:18:06.908 - 1A 0E 00 00 00 00 00 01 00 00 01 00 00 01 01 2A 01 01 6F 01 00 00 01 00 00 01 0F (厨房温湿度虚拟地址)
2024-08-18 21:18:07.112 - 1A 0F 00 00 00 86 86 86 0F (调用查询模块-餐厅测温转换, 餐厅温湿度虚拟地址)
2024-08-18 21:18:07.333 - 1C 03 00 00 00 02 C7 86 (查询餐厅温湿度)
2024-08-18 21:18:07.350 - 1C 03 04 01 97 01 13 C7 7F (餐厅温湿度返回)
2024-08-18 21:18:08.354 - 1A 0F 00 00 00 00 00 01 00 00 01 00 00 01 01 13 01 01 97 01 00 00 01 00 00 01 0F (餐厅温湿度虚拟地址)
2024-08-18 21:28:43.492 - 1A BE B0 DC 09 (继电器地址-客厅窗帘)
2024-08-18 21:28:43.620 - FF
2024-08-18 21:33:34.158 - FF FF FF FF 0A (继电器地址-东阳窗帘)
2024-08-18 21:33:34.301 - FF
2024-08-18 22:02:17.123 - FF FF FF FF 0E FC (继电器地址-西阳小窗帘)
2024-08-18 22:02:17.250 - FF
2024-08-18 22:03:07.355 - 19 08 24 03 CC 00 D3 00 01 (调用厨房感应灯开的按键)
2024-08-18 22:03:07.403 - 55 0A 32 00 00 00 01 92 55 0A 32 00 00 00 02 93 (厨房顶灯一开, 厨房顶灯二开)
2024-08-18 22:03:42.930 - 19 08 24 03 CC 00 D4 00 01 (调用厨房感应灯关的按键)
2024-08-18 22:03:42.978 - 55 0A 31 00 00 00 01 91 55 0A 31 00 00 00 02 92 (厨房顶灯一关, 厨房顶灯二关)
2024-08-18 22:04:20.408 - 1A BE B0 DC 03 (继电器地址-西阳天幕)
2024-08-18 22:04:20.546 - FF
2024-08-18 22:09:53.655 - 19 08 24 03 CC 00 D3 00 01 (调用厨房感应灯开的按键)
2024-08-18 22:09:53.706 - 55 0A 32 00 00 00 01 92 55 0A 32 00 00 00 02 93 (厨房顶灯一开, 厨房顶灯二开)
2024-08-18 22:12:43.502 - 19 08 24 03 CC 01 54 00 01 (调用内卫感应灯开的按键)
2024-08-18 22:12:43.563 - 1A 0C 02 08 01 FF 45 01 FF 45 01 FF 00 00 0F (调光器地址-内卫射灯, 内卫射灯微光)
2024-08-18 22:13:13.572 - 19 08 24 03 CC 01 55 00 01 (调用外卫感应灯关的按键)
2024-08-18 22:13:13.606 - 1A 0C 02 08 01 FF 00 01 FF 00 01 FF 00 00 0F (调光器地址-内卫射灯, 内卫感应灯关)
2024-08-18 22:13:22.061 - 19 08 24 03 CC 00 D4 00 01 (调用厨房感应灯关的按键)
2024-08-18 22:13:22.101 - 55 0A 31 00 00 00 01 91 55 0A 31 00 00 00 02 92 (厨房顶灯一关, 厨房顶灯二关)
2024-08-18 22:13:28.252 - 19 08 24 03 DD 00 42 00 01 (调用情景-主卧电视空调)
2024-08-18 22:13:28.801 - EE 00 00 B1 00 00 00 FF FC FF FF (情景执行提示)
2024-08-18 22:13:29.105 - 19 08 24 03 CC 01 54 00 01 (调用内卫感应灯开的按键)
2024-08-18 22:13:29.136 - 1A 0C 02 08 01 FF 45 01 FF 45 01 FF 00 00 0F (调光器地址-内卫射灯, 内卫射灯微光)
2024-08-18 22:13:29.535 - 09 06 00 0F 02 01 78 21 (提示音叮)
2024-08-18 22:13:30.089 - 50 F0 05 (开主卧影视)
2024-08-18 22:13:30.637 - 50 F0 04 (开内卫影视)
2024-08-18 22:13:31.195 - 1A FF FF FF 56 00 00 00 0F (人体红外感应地址-内卫, 关闭内卫感应)
2024-08-18 22:13:31.739 - 1A 22 33 62 0F 00 02 01 0F (正反转地址-内卫卷帘, 内卫卷帘降)
2024-08-18 22:13:32.283 - A5 00 53 FE 01 AA (主卧纱帘关)
2024-08-18 22:13:32.334 - 55 00 53 02 02 22 02 30 AA 55 00 53 02 02 22 02 30 AA (主卧纱帘电机状态返回)
2024-08-18 22:13:33.379 - A5 00 52 FF 00 AA (主卧窗帘关)
2024-08-18 22:13:34.432 - 1A 0C 02 04 FF FF 45 01 FF 45 01 FF 00 00 0F (主卧调光微光)
2024-08-18 22:13:38.524 - 1A 0C 02 08 01 FF 45 01 FF 45 01 FF 00 00 0F (调光器地址-内卫射灯, 内卫射灯微光)
2024-08-18 22:13:39.106 - 50 F1 25 (主卧—有线2)
2024-08-18 22:13:39.664 - A1 11 11 11 42 (主卧空调自动开)
2024-08-18 22:13:39.887 - 19 08 24 03 F0 BB 78 02 02 00
2024-08-18 22:13:39.936 - 23 AA 56 02 16 0D 27 18 08 12 07 73 65 6F 6B 65 6E 64
2024-08-18 22:13:40.208 - 50 F1 24 (内卫—有线2)
2024-08-18 22:13:40.893 - 01 10 07 D6 00 03 06 70 61 00 02 00 F0 0F 3E (主卧空调冷24度)
2024-08-18 22:13:40.925 - 01 10 07 D6 00 03 06 70 61 00 02 00 F0 0F 3E (主卧空调冷24度)
2024-08-18 22:13:42.249 - AF BF CF DF C2 21 (有线2/快捷-凤凰卫视)
2024-08-18 22:13:43.110 - 55 00 53 00 00 0C 02 30 AA 55 00 53 00 00 0C 02 30 AA (主卧纱帘电机状态返回)
2024-08-18 22:13:44.291 - 1A FF FF FF 60 0B 01 01 0F (红外总线地址-主卧发射设备, 主卧电视电源)
2024-08-18 22:13:44.818 - F0 0B 01 08
2024-08-18 22:13:44.954 - C8 A4 AB 81 20 00 02 09 02 16 AA
2024-08-18 22:13:52.329 - 09 06 00 0F 02 02 38 20 (提示音咚)
2024-08-18 22:13:52.880 - EE 00 00 B1 00 00 02 FF FC FF FF (情景完成返回主页)
2024-08-18 22:13:57.625 - 19 08 24 03 CC 00 D3 00 01 (调用厨房感应灯开的按键)
2024-08-18 22:13:57.689 - 55 0A 32 00 00 00 01 92 55 0A 32 00 00 00 02 93 (厨房顶灯一开, 厨房顶灯二开)
2024-08-18 22:14:37.121 - 19 08 24 03 DD 00 13 00 01 (调用情景-公共区域关)
2024-08-18 22:14:37.632 - EE 00 00 B1 00 00 00 FF FC FF FF (情景执行提示)
2024-08-18 22:14:38.224 - 09 06 00 0F 02 01 78 21 (提示音叮)
2024-08-18 22:14:38.781 - 55 0B 31 00 00 00 01 92 (厨房风扇只关)
2024-08-18 22:14:39.823 - 01 06 07 D3 FF 60 38 9F (餐厅空调关)
2024-08-18 22:14:39.857 - 01 06 07 D3 FF 60 38 9F (餐厅空调关)
2024-08-18 22:14:40.918 - 01 06 07 D0 FF 60 C8 9F (客厅空调关)
2024-08-18 22:14:40.950 - 01 06 07 D0 FF 60 C8 9F (客厅空调关)
2024-08-18 22:14:45.011 - 50 F5 02 (关厨房影视)
2024-08-18 22:14:46.054 - 50 F5 01 (关餐厅影视)
2024-08-18 22:14:47.103 - 50 F5 08 (关客厅影视)
2024-08-18 22:14:48.143 - 50 F5 03 (关外卫影视)
2024-08-18 22:14:49.195 - 55 0A 31 00 00 00 01 91 (厨房顶灯一关)
2024-08-18 22:14:50.250 - 55 0A 31 00 00 00 02 92 (厨房顶灯二关)
2024-08-18 22:14:51.288 - 55 0C 31 00 00 00 01 93 (餐厅顶灯关)
2024-08-18 22:14:52.343 - 1A 18 05 10 31 00 01 00 0F (自保持开关地址-门厅顶灯, 门厅顶灯关)
2024-08-18 22:14:53.391 - 1A 20 07 00 42 00 01 00 0F (自保持开关地址-外卫顶灯, 外卫顶灯关)
2024-08-18 22:14:54.435 - 1A 18 05 21 89 00 01 00 0F (自保持开关地址-客厅顶灯, 客厅顶灯一关)
2024-08-18 22:14:55.480 - 1A 18 05 01 94 00 01 00 0F (自保持开关地址-客厅顶灯, 客厅顶灯二关)
2024-08-18 22:14:56.526 - 1A 20 07 01 30 00 01 00 0F (自保持开关地址-西阳顶灯, 西阳顶灯关)
2024-08-18 22:14:57.581 - 1A FF 01 FF FF FF 00 01 FF 00 01 FF 00 00 0F (调光器地址-公共区域统配地址, 公共区域灯光全关)
2024-08-18 22:14:58.670 - 09 06 00 0F 02 02 38 20 (提示音咚)
2024-08-18 22:15:00.761 - EE 00 00 B1 00 00 02 FF FC FF FF (情景完成返回主页)
2024-08-18 22:15:15.290 - 19 08 24 03 CC 00 D4 00 01 (调用厨房感应灯关的按键)
2024-08-18 22:15:15.340 - 55 0A 31 00 00 00 01 91 55 0A 31 00 00 00 02 92 (厨房顶灯一关, 厨房顶灯二关)
2024-08-18 22:25:40.431 - 19 08 24 03 CC 01 52 00 01 (调用外卫感应灯开的按键)
2024-08-18 22:25:40.463 - 1A 0D 01 07 01 FF 45 01 FF 45 01 FF 00 00 0F (调光器地址-外卫射灯, 外卫感应灯开)
2024-08-18 22:26:16.493 - 19 08 24 03 CC 01 53 00 01 (调用外卫感应灯关的按键)
2024-08-18 22:26:16.540 - 1A 0D 01 07 01 FF 00 01 FF 00 01 FF 00 00 0F (调光器地址-外卫射灯, 外卫感应灯关)
2024-08-18 22:31:20.414 - 19 08 24 03 DD 00 4F 00 01 (调用情景-内卫使用完毕)
2024-08-18 22:31:20.925 - EE 00 00 B1 00 00 00 FF FC FF FF (情景执行提示)
2024-08-18 22:31:21.532 - 09 06 00 0F 02 01 78 21 (提示音叮)
2024-08-18 22:31:22.138 - 1A 0C 02 08 01 FF 00 01 FF 00 01 FF 00 00 0F (调光器地址-内卫射灯, 内卫感应灯关)
2024-08-18 22:31:26.213 - 50 F5 04 (关内卫影视)
2024-08-18 22:31:26.763 - 1A 20 07 01 40 00 01 00 0F (自保持开关地址-内卫顶灯, 内卫顶灯关)
2024-08-18 22:31:27.353 - 1A FF FF FF 56 00 00 01 0F (人体红外感应地址-内卫, 打开内卫感应)
2024-08-18 22:31:27.466 - BC BC
2024-08-18 22:31:29.907 - 09 06 00 0F 02 02 38 20 (提示音咚)
2024-08-18 22:31:30.450 - EE 00 00 B1 00 00 02 FF FC FF FF (情景完成返回主页)
2024-08-18 22:31:45.517 - 19 08 24 03 CC 01 55 00 01 (调用外卫感应灯关的按键)
2024-08-18 22:31:45.570 - 1A 0C 02 08 01 FF 00 01 FF 00 01 FF 00 00 0F (调光器地址-内卫射灯, 内卫感应灯关)
2024-08-18 22:33:23.704 - 19 08 24 03 CC 01 54 00 01 (调用内卫感应灯开的按键)
2024-08-18 22:33:23.736 - 1A 0C 02 08 01 FF 45 01 FF 45 01 FF 00 00 0F (调光器地址-内卫射灯, 内卫射灯微光)
2024-08-18 22:33:50.262 - 19 08 24 03 CC 01 55 00 01 (调用外卫感应灯关的按键)
2024-08-18 22:33:50.294 - 1A 0C 02 08 01 FF 00 01 FF 00 01 FF 00 00 0F (调光器地址-内卫射灯, 内卫感应灯关)
2024-08-18 22:43:17.197 - FF
2024-08-18 23:07:30.006 - 1A FF FF FF 04 (继电器地址-东阳衣架)
2024-08-18 23:15:50.305 - FF
2024-08-18 23:31:27.969 - 1A BE B0 DC 01 FE (继电器地址-回水泵点动)
2024-08-18 23:31:28.108 - FE
2024-08-18 23:38:59.463 - 19 08 24 03 CC 01 54 00 01 (调用内卫感应灯开的按键)
2024-08-18 23:38:59.511 - 1A 0C 02 08 01 FF 45 01 FF 45 01 FF 00 00 0F (调光器地址-内卫射灯, 内卫射灯微光)
2024-08-18 23:40:24.022 - 19 08 24 03 DD 00 4B 00 01 (调用情景-主卧睡觉)
2024-08-18 23:40:24.567 - EE 00 00 B1 00 00 00 FF FC FF FF (情景执行提示)
2024-08-18 23:40:25.151 - 09 06 00 0F 02 01 78 21 (提示音叮)
2024-08-18 23:40:25.693 - 50 F5 04 (关内卫影视)
2024-08-18 23:40:26.251 - A5 00 53 FE 01 AA (主卧纱帘关)
2024-08-18 23:40:27.289 - A5 00 52 FF 00 AA (主卧窗帘关)
2024-08-18 23:40:28.344 - 1A 22 33 62 0F 00 02 01 0F (正反转地址-内卫卷帘, 内卫卷帘降)
2024-08-18 23:40:29.393 - 1A 20 07 01 40 00 01 00 0F (自保持开关地址-内卫顶灯, 内卫顶灯关)
2024-08-18 23:40:30.437 - 1A 20 07 01 55 00 01 00 0F (自保持开关地址-主卧顶灯, 主卧顶灯只关)
2024-08-18 23:40:30.988 - 1A FF FF FF 56 00 00 01 0F (人体红外感应地址-内卫, 打开内卫感应)
2024-08-18 23:40:31.004 - BC BC
2024-08-18 23:40:34.587 - 1A 0C 02 08 01 FF 00 01 FF 00 01 FF 00 00 0F (调光器地址-内卫射灯, 内卫感应灯关)
2024-08-18 23:40:35.185 - 1A 0C 02 04 01 FF 00 01 FF 00 01 FF 00 00 0F (调光器地址-主卧筒灯, 主卧筒灯关闭)
2024-08-18 23:40:35.777 - 1A 0C 02 04 03 FF 00 01 FF 00 01 FF 00 00 0F (调光器地址-主卧灯带, 主卧灯带关闭)
2024-08-18 23:40:36.381 - 1A 0C 02 04 04 FF 00 01 FF 00 01 FF 00 00 0F (调光器地址-主卧南阅, 主卧南阅关闭)
2024-08-18 23:40:36.972 - 1A 0C 02 04 05 FF 00 01 FF 00 01 FF 00 00 0F (调光器地址-主卧北阅, 主卧北阅关闭)
2024-08-18 23:40:37.580 - 1A 0C 02 04 02 FF 00 01 FF 00 01 FF 00 00 0F (调光器地址-主卧过道, 主卧过道关闭)
2024-08-18 23:40:38.167 - 09 06 00 0F 02 02 38 20 (提示音咚)
2024-08-18 23:40:38.771 - EE 00 00 B1 00 00 02 FF FC FF FF (情景完成返回主页)
2024-08-18 23:41:02.702 - 19 08 24 03 CC 01 55 00 01 (调用外卫感应灯关的按键)
2024-08-18 23:41:02.753 - 1A 0C 02 08 01 FF 00 01 FF 00 01 FF 00 00 0F (调光器地址-内卫射灯, 内卫感应灯关)
2024-08-18 23:42:10.839 - 19 08 24 03 CC 01 54 00 01 (调用内卫感应灯开的按键)
2024-08-18 23:42:10.873 - 1A 0C 02 08 01 FF 45 01 FF 45 01 FF 00 00 0F (调光器地址-内卫射灯, 内卫射灯微光)
2024-08-18 23:42:36.886 - 19 08 24 03 CC 01 55 00 01 (调用外卫感应灯关的按键)
2024-08-18 23:42:36.918 - 1A 0C 02 08 01 FF 00 01 FF 00 01 FF 00 00 0F (调光器地址-内卫射灯, 内卫感应灯关)
2024-08-19 00:29:39.381 - 1A BE B0 DC 04 FE (继电器地址-西阳窗帘)
2024-08-19 00:29:39.517 - FE
2024-08-19 00:31:25.680 - 1A BE B0 DC 02 FF (正反转地址-外卫卷帘)
2024-08-19 00:31:25.822 - FE
2024-08-19 00:31:26.190 - 1A BE B0 DC 0A (继电器地址-客厅纱帘)
2024-08-19 00:31:26.325 - FF
2024-08-19 00:34:11.990 - 19 08 24 03 CC 01 54 00 01 (调用内卫感应灯开的按键)
2024-08-19 00:34:12.038 - 1A 0C 02 08 01 FF 45 01 FF 45 01 FF 00 00 0F (调光器地址-内卫射灯, 内卫射灯微光)
2024-08-19 00:36:21.240 - 19 08 24 03 CC 01 55 00 01 (调用外卫感应灯关的按键)
2024-08-19 00:36:21.288 - 1A 0C 02 08 01 FF 00 01 FF 00 01 FF 00 00 0F (调光器地址-内卫射灯, 内卫感应灯关)
2024-08-19 00:37:27.874 - 19 08 24 03 CC 01 54 00 01 (调用内卫感应灯开的按键)
2024-08-19 00:37:27.908 - 1A 0C 02 08 01 FF 45 01 FF 45 01 FF 00 00 0F (调光器地址-内卫射灯, 内卫射灯微光)
2024-08-19 00:37:53.421 - 19 08 24 03 CC 01 55 00 01 (调用外卫感应灯关的按键)
2024-08-19 00:37:53.455 - 1A 0C 02 08 01 FF 00 01 FF 00 01 FF 00 00 0F (调光器地址-内卫射灯, 内卫感应灯关)
2024-08-19 00:48:24.165 - 19 08 24 03 CC 01 54 00 01 (调用内卫感应灯开的按键)
2024-08-19 00:48:24.197 - 1A 0C 02 08 01 FF 45 01 FF 45 01 FF 00 00 0F (调光器地址-内卫射灯, 内卫射灯微光)
2024-08-19 00:49:21.782 - 19 08 24 03 CC 01 55 00 01 (调用外卫感应灯关的按键)
2024-08-19 00:49:21.815 - 1A 0C 02 08 01 FF 00 01 FF 00 01 FF 00 00 0F (调光器地址-内卫射灯, 内卫感应灯关)
2024-08-19 00:50:57.974 - 19 08 24 03 CC 01 54 00 01 (调用内卫感应灯开的按键)
2024-08-19 00:50:58.008 - 1A 0C 02 08 01 FF 45 01 FF 45 01 FF 00 00 0F (调光器地址-内卫射灯, 内卫射灯微光)
2024-08-19 00:51:24.014 - 19 08 24 03 CC 01 55 00 01 (调用外卫感应灯关的按键)
2024-08-19 00:51:24.046 - 1A 0C 02 08 01 FF 00 01 FF 00 01 FF 00 00 0F (调光器地址-内卫射灯, 内卫感应灯关)
2024-08-19 00:55:19.073 - 1A BE B0 DC 09 (继电器地址-客厅窗帘)
2024-08-19 00:55:19.201 - FF
2024-08-19 01:00:15.070 - FF FF FF FF 0A FC (继电器地址-东阳窗帘)
2024-08-19 01:00:15.214 - FF
2024-08-19 01:01:26.028 - FF
2024-08-19 01:03:17.425 - 19 08 24 03 CC 01 54 00 01 (调用内卫感应灯开的按键)
2024-08-19 01:03:17.476 - 1A 0C 02 08 01 FF 45 01 FF 45 01 FF 00 00 0F (调光器地址-内卫射灯, 内卫射灯微光)
2024-08-19 01:04:49.110 - 19 08 24 03 CC 01 55 00 01 (调用外卫感应灯关的按键)
2024-08-19 01:04:49.135 - 1A 0C 02 08 01 FF 00 01 FF 00 01 FF 00 00 0F (调光器地址-内卫射灯, 内卫感应灯关)
2024-08-19 01:06:09.765 - 19 08 24 03 CC 01 54 00 01 (调用内卫感应灯开的按键)
2024-08-19 01:06:09.797 - 1A 0C 02 08 01 FF 45 01 FF 45 01 FF 00 00 0F (调光器地址-内卫射灯, 内卫射灯微光)
2024-08-19 01:06:35.316 - 19 08 24 03 CC 01 55 00 01 (调用外卫感应灯关的按键)
2024-08-19 01:06:35.348 - 1A 0C 02 08 01 FF 00 01 FF 00 01 FF 00 00 0F (调光器地址-内卫射灯, 内卫感应灯关)
2024-08-19 01:26:01.924 - FF FF FF FF 0E FF (继电器地址-西阳小窗帘)
2024-08-19 01:26:02.058 - FF
2024-08-19 01:27:30.848 - 1A BE B0 DC 03 (继电器地址-西阳天幕)
2024-08-19 01:27:30.991 - FE
2024-08-19 01:31:34.089 - 1A FF FF FF 60 (红外总线地址-主卧发射设备)
2024-08-19 01:37:15.120 - 19 08 24 03 CC 00 D3 00 01 (调用厨房感应灯开的按键)
2024-08-19 01:37:15.168 - 55 0A 32 00 00 00 01 92 55 0A 32 00 00 00 02 93 (厨房顶灯一开, 厨房顶灯二开)
2024-08-19 01:37:50.187 - 19 08 24 03 CC 00 D4 00 01 (调用厨房感应灯关的按键)
2024-08-19 01:37:50.221 - 55 0A 31 00 00 00 01 91 55 0A 31 00 00 00 02 92 (厨房顶灯一关, 厨房顶灯二关)
2024-08-19 02:00:45.150 - FF
2024-08-19 02:07:57.492 - FF
2024-08-19 02:22:12.492 - FF
2024-08-19 02:22:55.635 - FF
2024-08-19 02:28:37.012 - 1A FF FF FF 04 FC (继电器地址-东阳衣架)
2024-08-19 02:28:37.150 - 03
2024-08-19 02:43:07.477 - FF
2024-08-19 02:43:17.403 - FF
2024-08-19 02:52:29.109 - 1A BE B0 DC 01 FC (继电器地址-回水泵点动)
2024-08-19 02:52:29.236 - FE
2024-08-19 02:54:17.699 - 19 08 24 03 CC 00 D3 00 01 (调用厨房感应灯开的按键)
2024-08-19 02:54:17.759 - 55 0A 32 00 00 00 01 92 55 0A 32 00 00 00 02 93 (厨房顶灯一开, 厨房顶灯二开)
2024-08-19 02:54:31.571 - 19 08 24 03 CC 01 54 00 01 (调用内卫感应灯开的按键)
2024-08-19 02:54:31.619 - 1A 0C 02 08 01 FF 45 01 FF 45 01 FF 00 00 0F (调光器地址-内卫射灯, 内卫射灯微光)
2024-08-19 02:54:53.268 - 19 08 24 03 CC 00 D4 00 01 (调用厨房感应灯关的按键)
2024-08-19 02:54:53.302 - 55 0A 31 00 00 00 01 91 55 0A 31 00 00 00 02 92 (厨房顶灯一关, 厨房顶灯二关)
2024-08-19 02:57:17.390 - 19 08 24 03 CC 01 55 00 01 (调用外卫感应灯关的按键)
2024-08-19 02:57:17.422 - 1A 0C 02 08 01 FF 00 01 FF 00 01 FF 00 00 0F (调光器地址-内卫射灯, 内卫感应灯关)
2024-08-19 02:58:26.528 - 19 08 24 03 CC 01 54 00 01 (调用内卫感应灯开的按键)
2024-08-19 02:58:26.560 - 1A 0C 02 08 01 FF 45 01 FF 45 01 FF 00 00 0F (调光器地址-内卫射灯, 内卫射灯微光)
2024-08-19 02:58:52.582 - 19 08 24 03 CC 01 55 00 01 (调用外卫感应灯关的按键)
2024-08-19 02:58:52.625 - 1A 0C 02 08 01 FF 00 01 FF 00 01 FF 00 00 0F (调光器地址-内卫射灯, 内卫感应灯关)
2024-08-19 03:00:01.566 - 50 F7 01 (全屋影音全关)
2024-08-19 03:13:23.817 - FF
2024-08-19 03:14:39.611 - 19 08 24 03 CC 00 D3 00 01 (调用厨房感应灯开的按键)
2024-08-19 03:14:39.659 - 55 0A 32 00 00 00 01 92 55 0A 32 00 00 00 02 93 (厨房顶灯一开, 厨房顶灯二开)
2024-08-19 03:15:15.183 - 19 08 24 03 CC 00 D4 00 01 (调用厨房感应灯关的按键)
2024-08-19 03:15:15.231 - 55 0A 31 00 00 00 01 91 55 0A 31 00 00 00 02 92 (厨房顶灯一关, 厨房顶灯二关)
2024-08-19 03:37:55.843 - FF
2024-08-19 03:49:33.617 - 1A BE B0 DC 04 (继电器地址-西阳窗帘)
2024-08-19 03:49:33.753 - FF
2024-08-19 03:51:58.795 - 1A BE B0 DC 02 (正反转地址-外卫卷帘)
2024-08-19 03:51:58.923 - FF
2024-08-19 03:52:00.438 - 1A BE B0 DC 0A FC (继电器地址-客厅纱帘)
2024-08-19 03:52:00.571 - FE
2024-08-19 04:15:43.114 - 1A BE B0 DC 09 (继电器地址-客厅窗帘)
2024-08-19 04:20:01.090 - 1A EC A0 DC 01 00 01 00 0F (自保持开关地址-电视、设备12V供电, 12V 设备供电关)
2024-08-19 04:20:01.617 - FE
2024-08-19 04:20:01.632 - 1A EC A0 DC 01 00 01 00 0F (自保持开关地址-电视、设备12V供电, 12V 设备供电关)
2024-08-19 04:20:01.649 - 80
2024-08-19 04:20:01.649 - F6
2024-08-19 04:20:01.649 - FF
2024-08-19 04:20:11.706 - 1A EC A0 DC 01 00 01 01 0F (自保持开关地址-电视、设备12V供电, 12V 设备供电开)
2024-08-19 04:20:11.944 - 0A
2024-08-19 04:20:11.944 - 00 00 00
2024-08-19 04:20:12.081 - FF
2024-08-19 04:20:12.097 - 1A 27 89 12
2024-08-19 04:20:12.097 - FF
2024-08-19 04:20:12.114 - FF
2024-08-19 04:20:12.128 - FF
2024-08-19 04:20:12.131 - EE 00 7E 07 FF FC
2024-08-19 04:20:12.301 - EF
2024-08-19 04:20:12.304 - EB FB 0A BE B0 DC 02 FF
2024-08-19 04:20:12.336 - EE 00 71 B1 01 00 02 FF FC FF FF
2024-08-19 04:20:12.352 - FC
2024-08-19 04:20:12.760 - 1A EC A0 DC 01 00 01 01 0F (自保持开关地址-电视、设备12V供电, 12V 设备供电开)
2024-08-19 04:20:13.270 - FF
2024-08-19 04:20:13.357 - FF
2024-08-19 04:20:13.542 - 68 86 FF
2024-08-19 04:20:13.596 - 68 86 FF
2024-08-19 04:20:13.661 - E9
2024-08-19 04:20:13.661 - FF
2024-08-19 04:20:13.661 - 19
2024-08-19 04:20:13.675 - FE
2024-08-19 04:20:13.678 - 68 86
2024-08-19 04:20:13.803 - 1A BE B0 DC 03 (继电器地址-西阳天幕)
2024-08-19 04:20:13.933 - F7
2024-08-19 04:20:14.239 - FE
2024-08-19 04:20:14.562 - FF
2024-08-19 04:20:14.856 - FF
2024-08-19 04:20:15.175 - 68 86 FE
2024-08-19 04:20:21.094 - 19 08 24 03 CC 00 D3 00 01 (调用厨房感应灯开的按键)
2024-08-19 04:20:21.156 - 55 0A 32 00 00 00 01 92 55 0A 32 00 00 00 02 93 (厨房顶灯一开, 厨房顶灯二开)
2024-08-19 04:20:57.163 - 19 08 24 03 CC 00 D4 00 01 (调用厨房感应灯关的按键)
2024-08-19 04:20:57.195 - 55 0A 31 00 00 00 01 91 55 0A 31 00 00 00 02 92 (厨房顶灯一关, 厨房顶灯二关)
2024-08-19 04:50:01.661 - EE 00 00 B1 00 00 00 FF FC FF FF (情景执行提示)
2024-08-19 04:50:02.256 - A5 00 A2 FF 00 AA (餐厅纱帘关)
2024-08-19 04:50:03.345 - A5 00 A6 FF 00 AA (餐厅窗帘关)
2024-08-19 04:50:03.403 - 55 00 A6 01 00 0E 01 75 AA 55 00 A6 01 00 0E 01 75 AA (餐厅窗帘电机状态返回)
2024-08-19 04:50:04.472 - A5 00 B7 FF 00 AA 22 0D (书房纱帘关)
2024-08-19 04:50:05.541 - A5 00 D2 FF 00 AA 22 0C (书房窗帘关)
2024-08-19 04:50:05.590 - 55 00 D2 01 00 0D 00 F2 AA 55 00 D2 01 00 0D 00 F2 AA (书房窗帘电机状态返回)
2024-08-19 04:50:06.645 - EE 00 00 B1 00 00 02 FF FC FF FF (情景完成返回主页)
2024-08-19 04:50:11.889 - 55 00 A6 00 01 67 01 75 AA 55 00 A6 00 01 67 01 75 AA (餐厅窗帘电机状态返回)
2024-08-19 04:50:13.568 - 55 00 D2 00 00 E5 00 F2 AA 55 00 D2 00 00 E5 00 F2 AA (书房窗帘电机状态返回)
2024-08-19 05:49:00.551 - 19 08 24 03 CC 00 D3 00 01 (调用厨房感应灯开的按键)
2024-08-19 05:49:00.609 - 55 0A 32 00 00 00 01 92 55 0A 32 00 00 00 02 93 (厨房顶灯一开, 厨房顶灯二开)
2024-08-19 05:49:35.621 - 19 08 24 03 CC 00 D4 00 01 (调用厨房感应灯关的按键)
2024-08-19 05:49:35.653 - 55 0A 31 00 00 00 01 91 55 0A 31 00 00 00 02 92 (厨房顶灯一关, 厨房顶灯二关)
2024-08-19 05:49:42.383 - 1A FF FF FF 04 (继电器地址-东阳衣架)
2024-08-19 05:54:28.257 - FF
2024-08-19 06:19:42.954 - FF
2024-08-19 06:29:40.860 - FF
2024-08-19 06:37:36.784 - 19 08 24 03 CC 00 D3 00 01 (调用厨房感应灯开的按键)
2024-08-19 06:37:36.833 - 55 0A 32 00 00 00 01 92 55 0A 32 00 00 00 02 93 (厨房顶灯一开, 厨房顶灯二开)
2024-08-19 06:38:18.367 - 19 08 24 03 CC 00 D4 00 01 (调用厨房感应灯关的按键)
2024-08-19 06:38:18.399 - 55 0A 31 00 00 00 01 91 55 0A 31 00 00 00 02 92 (厨房顶灯一关, 厨房顶灯二关)
2024-08-19 06:45:01.133 - EE 00 00 B1 00 00 00 FF FC FF FF (情景执行提示)
2024-08-19 06:45:01.755 - 09 06 00 0F 02 01 78 21 (提示音叮)
2024-08-19 06:45:02.316 - 50 F0 04 (开内卫影视)
2024-08-19 06:45:02.868 - 50 F0 05 (开主卧影视)
2024-08-19 06:45:03.421 - A5 00 53 FE 01 AA (主卧纱帘关)
2024-08-19 06:45:03.969 - A5 00 53 FE 01 AA (主卧纱帘关)
2024-08-19 06:45:04.512 - A5 00 52 FE 01 AA (主卧窗帘开)
2024-08-19 06:45:05.563 - A5 00 52 FE 01 AA (主卧窗帘开)
2024-08-19 06:45:06.618 - 1A 22 33 62 0F 00 02 01 0F (正反转地址-内卫卷帘, 内卫卷帘降)
2024-08-19 06:45:07.161 - 1A FF FF FF 56 00 00 00 0F (人体红外感应地址-内卫, 关闭内卫感应)
2024-08-19 06:45:07.268 - BC BC
2024-08-19 06:45:07.704 - 1A 20 07 01 55 00 01 00 0F (自保持开关地址-主卧顶灯, 主卧顶灯只关)
2024-08-19 06:45:08.759 - 1A 0C 02 08 01 FF F0 01 FF F0 01 FF 00 00 0F (调光器地址-内卫射灯, 内卫射灯明亮)
2024-08-19 06:45:09.356 - 1A 0C 02 04 01 FF 00 01 FF 00 01 FF 00 00 0F (调光器地址-主卧筒灯, 主卧筒灯关闭)
2024-08-19 06:45:09.962 - 1A 0C 02 04 03 FF 45 01 FF 45 01 FF 00 00 0F (调光器地址-主卧灯带, 主卧灯带微光)
2024-08-19 06:45:10.551 - 1A 0C 02 04 02 FF F0 01 FF 00 01 FF 00 00 0F (调光器地址-主卧过道, 主卧过道暖光)
2024-08-19 06:45:11.173 - 1A 0C 02 04 05 FF 00 01 FF 00 01 FF 00 00 0F (调光器地址-主卧北阅, 主卧北阅关闭)
2024-08-19 06:45:11.752 - 1A 0C 02 04 04 FF 00 01 FF 00 01 FF 00 00 0F (调光器地址-主卧南阅, 主卧南阅关闭)
2024-08-19 06:45:12.840 - 50 F1 24 (内卫—有线2)
2024-08-19 06:45:13.886 - 50 F1 25 (主卧—有线2)
2024-08-19 06:45:14.932 - AF BF CF DF C2 21 (有线2/快捷-凤凰卫视)
2024-08-19 06:45:15.480 - 1A FF FF FF 60 0B 01 01 0F (红外总线地址-主卧发射设备, 主卧电视电源)
2024-08-19 06:45:16.007 - F0 0B 01 08
2024-08-19 06:45:16.532 - 1A BE B0 DC 01 00 01 00 (继电器地址-回水泵点动, 回水泵点动)
2024-08-19 06:45:17.974 - 55 20 20 00 00 0F 02 16 AA 55 20 20 00 00 0F 02 16 AA (主卧窗帘电机状态返回)
2024-08-19 06:45:20.573 - 09 06 00 0F 02 02 38 20 (提示音咚)
2024-08-19 06:45:21.126 - EE 00 00 B1 00 00 02 FF FC FF FF (情景完成返回主页)
2024-08-19 06:45:22.211 - A1 11 11 11 11 01 (内卫浴霸取暖判断)
2024-08-19 06:45:22.435 - 14 03 00 00 00 02 C6 CE (查询内卫温湿度)
2024-08-19 06:45:22.451 - 14 03 04 01 DD 00 FA AF 77 (内卫温湿度返回)
2024-08-19 06:48:35.107 - 19 08 24 03 CC 00 D3 00 01 (调用厨房感应灯开的按键)
2024-08-19 06:48:35.167 - 55 0A 32 00 00 00 01 92 55 0A 32 00 00 00 02 93 (厨房顶灯一开, 厨房顶灯二开)
2024-08-19 06:49:10.178 - 19 08 24 03 CC 00 D4 00 01 (调用厨房感应灯关的按键)
2024-08-19 06:49:10.210 - 55 0A 31 00 00 00 01 91 55 0A 31 00 00 00 02 92 (厨房顶灯一关, 厨房顶灯二关)
2024-08-19 06:59:30.142 - 19 08 24 03 DD 00 40 00 01 (调用情景-离开主卧)
2024-08-19 06:59:30.686 - EE 00 00 B1 00 00 00 FF FC FF FF (情景执行提示)
2024-08-19 06:59:31.281 - 09 06 00 0F 02 01 78 21 (提示音叮)
2024-08-19 06:59:31.826 - 50 F5 05 (关主卧影视)
2024-08-19 06:59:32.372 - 50 F5 04 (关内卫影视)
2024-08-19 06:59:32.930 - 01 06 07 D6 FF 60 28 9E (主卧空调关)
2024-08-19 06:59:32.954 - 01 06 07 D6 FF 60 28 9E (主卧空调关)
2024-08-19 06:59:33.526 - A5 00 52 FE 01 AA (主卧窗帘开)
2024-08-19 06:59:34.564 - A5 00 52 FE 01 AA (主卧窗帘开)
2024-08-19 06:59:35.618 - A5 00 53 FF 00 AA (主卧纱帘开)
2024-08-19 06:59:35.674 - 55 00 53 01 00 0C 02 30 AA 55 00 53 01 00 0C 02 30 AA (主卧纱帘电机状态返回)
2024-08-19 06:59:36.216 - A5 00 53 FF 00 AA (主卧纱帘开)
2024-08-19 06:59:36.759 - 1A 22 33 62 0F 00 00 01 0F (正反转地址-内卫卷帘, 内卫卷帘升)
2024-08-19 06:59:37.476 - 55 20 20 00 00 0F 02 16 AA 55 20 20 00 00 0F 02 16 AA (主卧窗帘电机状态返回)
2024-08-19 06:59:37.811 - 1A 20 07 01 40 00 01 00 0F (自保持开关地址-内卫顶灯, 内卫顶灯关)
2024-08-19 06:59:38.848 - 1A 20 07 01 55 00 01 00 0F (自保持开关地址-主卧顶灯, 主卧顶灯只关)
2024-08-19 06:59:39.409 - 1A 0C 02 08 01 FF 00 01 FF 00 01 FF 00 00 0F (调光器地址-内卫射灯, 内卫感应灯关)
2024-08-19 06:59:40.005 - 1A FF FF FF 56 00 00 01 0F (人体红外感应地址-内卫, 打开内卫感应)
2024-08-19 06:59:40.413 - 19 08 24 03 CC 01 54 00 01 (调用内卫感应灯开的按键)
2024-08-19 06:59:40.464 - 1A 0C 02 08 01 FF 45 01 FF 45 01 FF 00 00 0F (调光器地址-内卫射灯, 内卫射灯微光)
2024-08-19 06:59:43.903 - 1A 0C 02 04 FF FF 00 01 FF 00 01 FF 00 00 0F (主卧调光全关)
2024-08-19 06:59:44.987 - 09 06 00 0F 02 02 38 20 (提示音咚)
2024-08-19 06:59:45.593 - EE 00 00 B1 00 00 02 FF FC FF FF (情景完成返回主页)
2024-08-19 06:59:46.231 - 55 00 53 00 02 22 02 30 AA 55 00 53 00 02 22 02 30 AA (主卧纱帘电机状态返回)
2024-08-19 07:00:27.210 - 19 08 24 03 CC 01 55 00 01 (调用外卫感应灯关的按键)
2024-08-19 07:00:27.266 - 1A 0C 02 08 01 FF 00 01 FF 00 01 FF 00 00 0F (调光器地址-内卫射灯, 内卫感应灯关)
2024-08-19 07:01:21.822 - 19 08 24 03 CC 01 54 00 01 (调用内卫感应灯开的按键)
2024-08-19 07:01:21.855 - 1A 0C 02 08 01 FF 45 01 FF 45 01 FF 00 00 0F (调光器地址-内卫射灯, 内卫射灯微光)
2024-08-19 07:01:40.668 - 19 08 24 03 CC 00 D4 00 01 (调用厨房感应灯关的按键)
2024-08-19 07:01:40.707 - 55 0A 31 00 00 00 01 91 55 0A 31 00 00 00 02 92 (厨房顶灯一关, 厨房顶灯二关)
2024-08-19 07:02:23.167 - 19 08 24 03 DD 00 00 00 01 (调用情景-离家（末）)
2024-08-19 07:02:23.712 - EE 00 00 B1 00 00 00 FF FC FF FF (情景执行提示)
2024-08-19 07:02:24.313 - 09 06 00 0F 02 02 38 20 (提示音咚)
2024-08-19 07:02:24.855 - 50 F7 01 (全屋影音全关)
2024-08-19 07:02:25.413 - 01 06 07 D0 FF 60 C8 9F (客厅空调关)
2024-08-19 07:02:25.445 - 01 06 07 D0 FF 60 C8 9F (客厅空调关)
2024-08-19 07:02:26.007 - 01 06 07 D0 FF 60 C8 9F (客厅空调关)
2024-08-19 07:02:26.041 - 01 06 07 D0 FF 60 C8 9F (客厅空调关)
2024-08-19 07:02:26.609 - 01 06 07 D3 FF 60 38 9F (餐厅空调关)
2024-08-19 07:02:26.641 - 01 06 07 D3 FF 60 38 9F (餐厅空调关)
2024-08-19 07:02:27.199 - 01 06 07 D3 FF 60 38 9F (餐厅空调关)
2024-08-19 07:02:27.230 - 01 06 07 D3 FF 60 38 9F (餐厅空调关)
2024-08-19 07:02:27.450 - 19 08 24 03 CC 01 55 00 01 (调用外卫感应灯关的按键)
2024-08-19 07:02:27.501 - 1A 0C 02 08 01 FF 00 01 FF 00 01 FF 00 00 0F (调光器地址-内卫射灯, 内卫感应灯关)
2024-08-19 07:02:27.900 - 01 06 07 D6 FF 60 28 9E (主卧空调关)
2024-08-19 07:02:27.932 - 01 06 07 D6 FF 60 28 9E (主卧空调关)
2024-08-19 07:02:28.505 - 01 06 07 D6 FF 60 28 9E (主卧空调关)
2024-08-19 07:02:28.522 - 01 06 07 D6 FF 60 28 9E (主卧空调关)
2024-08-19 07:02:29.100 - 01 06 07 D9 FF 60 18 9D (次卧空调关)
2024-08-19 07:02:29.134 - 01 06 07 D9 FF 60 18 9D (次卧空调关)
2024-08-19 07:02:29.696 - 01 06 07 D9 FF 60 18 9D (次卧空调关)
2024-08-19 07:02:29.730 - 01 06 07 D9 FF 60 18 9D (次卧空调关)
2024-08-19 07:02:30.293 - 01 06 07 DC FF 60 08 9C (书房空调关)
2024-08-19 07:02:30.325 - 01 06 07 DC FF 60 08 9C (书房空调关)
2024-08-19 07:02:30.886 - 01 06 07 DC FF 60 08 9C (书房空调关)
2024-08-19 07:02:30.920 - 01 06 07 DC FF 60 08 9C (书房空调关)
2024-08-19 07:02:31.489 - 09 06 00 0F 02 02 38 20 (提示音咚)
2024-08-19 07:02:32.042 - 1A FF FF FF 56 00 00 00 0F (人体红外感应地址-内卫, 关闭内卫感应)
2024-08-19 07:02:32.589 - 1A FF FF FF 55 00 00 00 0F (人体红外感应地址-外卫, 关闭外卫感应)
2024-08-19 07:02:32.684 - BC BC
2024-08-19 07:02:33.131 - 1A FF FF FF 57 00 00 00 0F (关闭厨房感应)
2024-08-19 07:02:33.675 - 1A 20 07 00 93 00 01 00 0F (自保持开关地址-设备区顶, 设备区顶灯关)
2024-08-19 07:02:34.730 - 1A 20 07 01 40 00 01 00 0F (自保持开关地址-内卫顶灯, 内卫顶灯关)
2024-08-19 07:02:35.778 - 1A 20 07 01 55 00 01 00 0F (自保持开关地址-主卧顶灯, 主卧顶灯只关)
2024-08-19 07:02:36.822 - 1A 20 07 00 42 00 01 00 0F (自保持开关地址-外卫顶灯, 外卫顶灯关)
2024-08-19 07:02:37.868 - 55 0D 31 00 00 00 01 94 (书房顶灯只关)
2024-08-19 07:02:38.915 - 55 0A 31 00 00 00 01 91 (厨房顶灯一关)
2024-08-19 07:02:39.959 - 55 0A 31 00 00 00 02 92 (厨房顶灯二关)
2024-08-19 07:02:41.012 - 55 0B 31 00 00 00 01 92 (厨房风扇只关)
2024-08-19 07:02:42.048 - 55 0C 31 00 00 00 01 93 (餐厅顶灯关)
2024-08-19 07:02:43.101 - 1A 20 07 01 30 00 01 00 0F (自保持开关地址-西阳顶灯, 西阳顶灯关)
2024-08-19 07:02:44.153 - 1A 18 05 21 89 00 01 00 0F (自保持开关地址-客厅顶灯, 客厅顶灯一关)
2024-08-19 07:02:45.190 - 1A 18 05 01 94 00 01 00 0F (自保持开关地址-客厅顶灯, 客厅顶灯二关)
2024-08-19 07:02:46.245 - 1A 20 07 00 70 00 01 00 0F (自保持开关地址-次卧顶灯, 次卧顶灯只关)
2024-08-19 07:02:47.282 - 1A 18 05 10 31 00 01 00 0F (自保持开关地址-门厅顶灯, 门厅顶灯关)
2024-08-19 07:02:48.337 - 1A FF FF FF 04 00 03 02 (继电器地址-东阳衣架, 东阳衣架照明关)
2024-08-19 07:02:48.881 - 09 06 00 0F 02 02 38 20 (提示音咚)
2024-08-19 07:02:49.425 - A5 00 A6 FE 01 AA (餐厅窗帘开)
2024-08-19 07:02:49.483 - 55 00 A6 02 01 67 01 75 AA 55 00 A6 02 01 67 01 F5 (餐厅窗帘电机状态返回)
2024-08-19 07:02:50.025 - FF FF FF FF 0A 00 01 00 (继电器地址-东阳窗帘, 东阳窗帘开)
2024-08-19 07:02:50.569 - 1A BE B0 DC 04 00 01 00 (继电器地址-西阳窗帘, 西阳窗帘开)
2024-08-19 07:02:51.127 - FF FF FF FF 0E 00 01 00 (继电器地址-西阳小窗帘, 西阳小窗帘开)
2024-08-19 07:02:51.671 - 1A 22 33 62 0F 00 00 01 0F (正反转地址-内卫卷帘, 内卫卷帘升)
2024-08-19 07:02:52.215 - A5 00 52 FE 01 AA (主卧窗帘开)
2024-08-19 07:02:52.769 - A5 00 53 FF 00 AA (主卧纱帘开)
2024-08-19 07:02:53.320 - A5 00 76 FE 01 AA (次卧窗帘开)
2024-08-19 07:02:53.865 - A5 00 21 FE 01 AA (次卧纱帘开)
2024-08-19 07:02:54.413 - A5 00 D2 FE 01 AA 22 0D (书房窗帘开)
2024-08-19 07:02:54.460 - 55 00 D2 02 00 E5 00 F2 AA 55 00 D2 02 00 E5 00 F2 AA (书房窗帘电机状态返回)
2024-08-19 07:02:55.004 - 1A BE B0 DC 09 00 01 00 (继电器地址-客厅窗帘, 客厅窗帘开)
2024-08-19 07:02:55.565 - 1A BE B0 DC 0A 00 02 00 (继电器地址-客厅纱帘, 客厅纱帘开)
2024-08-19 07:02:56.109 - 09 06 00 0F 02 02 38 20 (提示音咚)
2024-08-19 07:02:57.155 - 1A EC A0 DC 02 00 00 00 0F (自保持开关地址-天花12V供电, 天花12V 供电关)
2024-08-19 07:02:57.708 - 1A EC A0 DC 02 00 00 00 0F (自保持开关地址-天花12V供电, 天花12V 供电关)
2024-08-19 07:02:58.256 - 1A EC A0 DC 01 00 00 00 0F (自保持开关地址-电视、设备12V供电, 12V 电视供电关)
2024-08-19 07:02:58.371 - 55 00 A6 00 00 0E 01 75 AA 55 00 A6 00 00 0E 01 75 AA (餐厅窗帘电机状态返回)
2024-08-19 07:02:58.799 - 1A EC A0 DC 01 00 00 00 0F (自保持开关地址-电视、设备12V供电, 12V 电视供电关)
2024-08-19 07:02:59.341 - 1A EC A0 DC 04 00 01 00 0F (自保持开关地址-次卧西阳内外卫供电, 内卫外卫关)
2024-08-19 07:02:59.903 - 1A EC A0 DC 04 00 01 00 0F (自保持开关地址-次卧西阳内外卫供电, 内卫外卫关)
2024-08-19 07:03:02.021 - 55 00 D2 00 00 0E 00 F2 AA 55 00 D2 00 00 0E 00 F2 AA (书房窗帘电机状态返回)
2024-08-19 07:03:17.985 - 09 06 00 0F 02 02 38 20 (提示音咚)
2024-08-19 07:03:18.542 - 1A 27 89 12 AA 00 00 00 0F (状态寄存器地址, 无人状态)
2024-08-19 07:03:19.086 - 1A 27 89 12 AA 00 00 00 0F (状态寄存器地址, 无人状态)
2024-08-19 07:03:19.630 - A1 11 11 11 4D (天花供电关闭确认)
2024-08-19 07:03:19.851 - 1A EC A0 DC 02 86 86 86 0F (查询天花供电状态, 自保持开关地址-天花12V供电)
2024-08-19 07:03:20.294 - 1A EC A0 DC 02 00 01 0F (自保持开关地址-天花12V供电)
2024-08-19 07:03:22.674 - A1 11 11 11 4E (卫生供电关闭确认)
2024-08-19 07:03:22.895 - 1A EC A0 DC 04 86 86 86 0F (查询卫生间供电状态, 自保持开关地址-次卧西阳内外卫供电)
2024-08-19 07:03:23.325 - 1A EC A0 DC 04 01 00 0F (自保持开关地址-次卧西阳内外卫供电)
2024-08-19 07:03:25.702 - A1 11 11 11 4F (电视供电关闭确认)
2024-08-19 07:03:25.924 - 1A EC A0 DC 01 86 86 86 0F (查询电视供电状态, 自保持开关地址-电视、设备12V供电)
2024-08-19 07:03:26.371 - 1A EC A0 DC 01 00 01 0F (自保持开关地址-电视、设备12V供电)
2024-08-19 07:03:28.746 - 09 06 00 0F 02 02 38 20 (提示音咚)
2024-08-19 07:03:29.306 - 09 06 00 0F 02 02 38 20 (提示音咚)
2024-08-19 07:03:29.851 - EE 00 00 B1 00 00 02 FF FC FF FF (情景完成返回主页)
2024-08-19 07:03:30.948 - BA BA EE EE BA BA (离家设置信科变量)
2024-08-19 07:03:31.994 - A1 11 11 11 46 (天热离家遮阳)
2024-08-19 07:03:32.215 - 1A 27 89 12 AA 86 86 86 0F (查询寄存器状态, 状态寄存器地址)
2024-08-19 07:03:32.591 - 1A 27 89 12 AA 00 00 00 00 00 00 00 00 00 00 00 01 00 00 00 00 0F (状态寄存器地址)
2024-08-19 07:03:33.218 - 19 08 24 03 DD 00 05 00 01 (调用情景-天热遮阳关帘)
2024-08-19 07:03:33.745 - EE 00 00 B1 00 00 00 FF FC FF FF (情景执行提示)
2024-08-19 07:03:34.340 - 09 06 00 0F 02 01 78 21 (提示音叮)
2024-08-19 07:03:34.886 - A5 00 A2 FF 00 AA (餐厅纱帘关)
2024-08-19 07:03:35.922 - A5 00 A6 FF 00 AA (餐厅窗帘关)
2024-08-19 07:03:35.985 - 55 00 A6 01 00 0E 01 75 AA 55 00 A6 01 00 0E 01 75 AA (餐厅窗帘电机状态返回)
2024-08-19 07:03:37.026 - A5 00 53 FE 01 AA (主卧纱帘关)
2024-08-19 07:03:37.077 - 55 00 53 02 02 22 02 30 AA 55 00 53 02 02 22 02 30 AA (主卧纱帘电机状态返回)
2024-08-19 07:03:38.123 - A5 00 52 FF 00 AA (主卧窗帘关)
2024-08-19 07:03:39.168 - A5 00 21 FF 00 AA (次卧纱帘关)
2024-08-19 07:03:39.219 - 55 00 21 01 00 0D 01 34 AA 55 00 21 01 00 0D 01 34 AA (次卧纱帘电机状态返回)
2024-08-19 07:03:40.260 - A5 00 76 FF 00 AA (次卧窗帘关)
2024-08-19 07:03:40.323 - 55 00 76 01 00 0E 01 1B AA 55 00 76 01 00 0E 01 1B AA (次卧窗帘电机状态返回)
2024-08-19 07:03:41.362 - A5 00 B7 FF 00 AA 22 0D (书房纱帘关)
2024-08-19 07:03:42.413 - A5 00 D2 FF 00 AA 22 0C (书房窗帘关)
2024-08-19 07:03:42.444 - 55 00 A2 00 01 64 01 73 AA 55 00 A2 (餐厅纱帘电机状态返回)
2024-08-19 07:03:42.450 - 20
2024-08-19 07:03:42.460 - 02 00 F2 AA 55 00 D2 01 00 0E 00 F2 AA (书房窗帘电机状态返回)
2024-08-19 07:03:44.007 - 1A 22 33 62 5E 00 02 01 0F (正反转地址-厨房卷帘三, 厨房卷帘一降)
2024-08-19 07:03:44.358 - 55 00 A6 00 01 67 01 75 AA 55 00 A6 00 01 67 01 75 AA (餐厅窗帘电机状态返回)
2024-08-19 07:03:45.052 - 1A 22 33 62 56 00 02 01 0F (正反转地址-厨房卷帘二, 厨房卷帘二降)
2024-08-19 07:03:46.096 - 1A 22 33 62 4F 00 00 01 0F (正反转地址-厨房卷帘一, 厨房卷帘三降)
2024-08-19 07:03:46.481 - 55 00 21 00 01 27 01 34 AA 55 00 21 00 01 27 01 34 AA (次卧纱帘电机状态返回)
2024-08-19 07:03:47.144 - 1A BE B0 DC 04 00 02 00 (继电器地址-西阳窗帘, 西阳窗帘关)
2024-08-19 07:03:47.197 - D5
2024-08-19 07:03:47.944 - 55 00 53 00 00 0C 02 30 AA 55 00 53 00 00 0C 02 30 AA (主卧纱帘电机状态返回)
2024-08-19 07:03:48.187 - FF FF FF FF 0E 00 02 00 (继电器地址-西阳小窗帘, 西阳小窗帘关)
2024-08-19 07:03:49.240 - 1A BE B0 DC 03 00 03 00 (继电器地址-西阳天幕, 西阳天幕关)
2024-08-19 07:03:49.815 - 55 20 20 00 02 09 02 16 AA 55 20 20 00 02 09 02 16 AA (主卧窗帘电机状态返回)
2024-08-19 07:03:50.276 - 1A BE B0 DC 03 00 03 00 (继电器地址-西阳天幕, 西阳天幕关)
2024-08-19 07:03:50.405 - 54 00 F2 AA
2024-08-19 07:03:51.329 - 09 06 00 0F 02 02 38 20 (提示音咚)
2024-08-19 07:03:51.886 - EE 00 00 B1 00 00 02 FF FC FF FF (情景完成返回主页)
2024-08-19 07:26:47.893 - 31 31 35 2E 32 33 39 2E 32 33 33 2E 31 34 32
2024-08-19 07:42:00.732 - 1A BE B0 DC 04 (继电器地址-西阳窗帘)
2024-08-19 07:42:00.868 - FF
2024-08-19 07:42:02.475 - FF FF FF FF 0E FC (继电器地址-西阳小窗帘)
2024-08-19 07:42:02.603 - FC
2024-08-19 07:42:08.217 - 1A BE B0 DC 02 FC (正反转地址-外卫卷帘)
2024-08-19 07:42:08.360 - FF
2024-08-19 07:42:11.838 - 1A BE B0 DC 0A FF (继电器地址-客厅纱帘)
2024-08-19 07:42:11.980 - FE
2024-08-19 07:42:12.810 - 1A BE B0 DC 03 (继电器地址-西阳天幕)
2024-08-19 07:42:13.181 - FF
2024-08-19 07:43:08.154 - FF FF FF FF 0A (继电器地址-东阳窗帘)
2024-08-19 07:45:09.476 - 1A BE B0 DC 09 FC (继电器地址-客厅窗帘)
2024-08-19 07:45:09.612 - FF
2024-08-19 08:14:09.844 - FE
2024-08-19 09:12:20.208 - 1A FF FF FF 04 FC (继电器地址-东阳衣架)
2024-08-19 09:12:20.344 - C0
2024-08-19 10:47:14.818 - 1A FF FF FF 60 (红外总线地址-主卧发射设备)
2024-08-19 10:54:05.766 - 16 03 01 00 EE 01 00 00 EA 03 03 78 50 B0 EC FF B4 B4 4A CE D3 BD EE B2 7A B3 ED A6 2B 17 38 22
2024-08-19 10:54:05.800 - 8E FB 01 05 5A 25 D3 F9 04 C0 5D 20 33 AF C3 BE 0B 17 92 02 9C 28 8F A0 B9 DB D4 2C 4B A7 CA 78
2024-08-19 10:54:05.834 - 92 FC 3D D9 EB FB 4D BD 00 AD 4D F3 00 26 CC A8 CC A9 C0 2F C0 30 C0 2B C0 2C C0 13 C0 09 C0 14 (区域高光指令（AD+区域+暖光+冷光+AE）)
2024-08-19 10:54:05.868 - C0 0A 00 9C 00 9D 00 2F 00 35 C0 12 00 0A 13 03 13 01 13 02 01 00 00 7B 00 05 00 05 01 00 00 00
2024-08-19 10:54:05.907 - 00 00 0A 00 0A 00 08 00 1D 00 17 00 18 00 19 00 0B 00 02 01 00 00 0D 00 1A 00 18 08 04 04 03 08
2024-08-19 10:54:05.939 - 07 08 05 08 06 04 01 05 01 06 01 05 03 06 03 02 01 02 03 FF 01 00 01 00 00 12 00 00 00 2B 00 09
2024-08-19 10:54:05.971 - 08 03 04 03 03 03 02 03 01 00 33 00 26 00 24 00 1D 00 20 CF 3A 1E 72 F8 BE C2 74 C1 A0 DA 56 1A
2024-08-19 10:54:05.987 - 4A 16 38 6A 5D 96 CD D4 11 7D DE 70 1C 58 2E D5 60 F5 60
2024-08-19 10:54:15.018 - 47 45 54 20 2F 20 48 54 54 50 2F 31 2E 31 0D 0A 48 6F 73 74 3A 20 31 31 35 2E 32 33 39 2E 32 33
2024-08-19 10:54:15.035 - 33 2E 31 34 32 3A 34 32 32 31 0D 0A 0D 0A
2024-08-19 11:02:04.454 - FF FF FF FF 0E (继电器地址-西阳小窗帘)
2024-08-19 11:02:40.742 - 1A BE B0 DC 02 (正反转地址-外卫卷帘)
2024-08-19 11:02:40.874 - FE
2024-08-19 11:02:42.115 - 1A BE B0 DC 04 FD (继电器地址-西阳窗帘)
2024-08-19 11:02:42.257 - FF
2024-08-19 11:02:45.483 - 1A BE B0 DC 0A FF (继电器地址-客厅纱帘)
2024-08-19 11:03:09.485 - 1A BE B0 DC 03 (继电器地址-西阳天幕)
2024-08-19 11:03:09.621 - FF
2024-08-19 11:03:09.621 - 1A BE B0 DC 01 (继电器地址-回水泵点动)
2024-08-19 11:04:41.849 - FF FF FF FF 0A (继电器地址-东阳窗帘)
2024-08-19 11:05:33.625 - 1A BE B0 DC 09 FC (继电器地址-客厅窗帘)
2024-08-19 11:30:35.195 - FF
2024-08-19 12:33:28.390 - 1A FF FF FF 04 FE (继电器地址-东阳衣架)
2024-08-19 12:33:28.526 - 00
2024-08-19 14:22:07.004 - FF FF FF FF 0E (继电器地址-西阳小窗帘)
2024-08-19 14:22:40.666 - 1A BE B0 DC 04 FE (继电器地址-西阳窗帘)
2024-08-19 14:22:40.799 - FF
2024-08-19 14:23:13.474 - 1A BE B0 DC 02 (正反转地址-外卫卷帘)
2024-08-19 14:23:13.601 - FF
2024-08-19 14:23:19.062 - 1A BE B0 DC 0A (继电器地址-客厅纱帘)
2024-08-19 14:24:06.341 - 1A BE B0 DC 03 (继电器地址-西阳天幕)
2024-08-19 14:24:06.484 - FF
2024-08-19 14:24:06.676 - 1A BE B0 DC 01 FC (继电器地址-回水泵点动)
2024-08-19 14:24:06.819 - FE
2024-08-19 14:25:19.020 - FF FF FF FF 0A (继电器地址-东阳窗帘)
2024-08-19 14:25:19.163 - FF
2024-08-19 14:25:57.617 - 1A BE B0 DC 09 (继电器地址-客厅窗帘)
2024-08-19 14:25:57.760 - FE
2024-08-19 15:54:41.733 - 1A FF FF FF 04 FC (继电器地址-东阳衣架)
2024-08-19 15:54:41.869 - 03
2024-08-19 17:42:09.918 - FF FF FF FF 0E FC (继电器地址-西阳小窗帘)
2024-08-19 17:42:10.054 - FF
2024-08-19 17:42:39.630 - 1A BE B0 DC 04 FC (继电器地址-西阳窗帘)
2024-08-19 17:43:46.495 - 1A BE B0 DC 02 FC (正反转地址-外卫卷帘)
2024-08-19 17:43:46.623 - FF
2024-08-19 17:43:52.398 - 1A BE B0 DC 0A FE (继电器地址-客厅纱帘)
2024-08-19 17:43:52.525 - FE
2024-08-19 17:45:03.193 - 1A BE B0 DC 01 FC (继电器地址-回水泵点动)
2024-08-19 17:45:04.007 - 1A BE B0 DC 03 (继电器地址-西阳天幕)
2024-08-19 17:45:04.150 - FF
2024-08-19 17:46:22.264 - 1A BE B0 DC 09 FC (继电器地址-客厅窗帘)
2024-08-19 17:51:29.735 - FF FF FF FF 0A (继电器地址-东阳窗帘)
2024-08-19 17:51:29.873 - FE
2024-08-19 18:46:15.916 - EE 00 00 B1 00 00 00 FF FC FF FF (情景执行提示)
2024-08-19 18:46:16.509 - 09 06 00 0F 02 01 78 21 (提示音叮)
2024-08-19 18:46:17.053 - A1 11 11 11 40 (客厅空调自动开)
2024-08-19 18:46:17.275 - 19 08 24 03 F0 BB 78 02 02 00
2024-08-19 18:46:17.325 - 23 AA 56 02 12 2E 13 18 08 13 01 73 65 6F 6B 65 6E 64
2024-08-19 18:46:18.292 - 01 10 07 D0 00 03 06 70 61 00 02 00 FA 6F 26 (客厅空调冷25度)
2024-08-19 18:46:18.329 - 01 10 07 D0 00 03 06 70 61 00 02 00 FA 6F 26 (客厅空调冷25度)
2024-08-19 18:46:21.085 - A1 11 11 11 41 (餐厅空调自动开)
2024-08-19 18:46:21.323 - 19 08 24 03 F0 BB 78 02 02 00
2024-08-19 18:46:21.374 - 23 AA 56 02 12 2E 17 18 08 13 01 73 65 6F 6B 65 6E 64
2024-08-19 18:46:22.326 - 01 10 07 D3 00 03 06 70 61 00 02 00 FA 9F 29 (餐厅空调冷25度)
2024-08-19 18:46:25.133 - A1 11 11 11 42 (主卧空调自动开)
2024-08-19 18:46:25.354 - 19 08 24 03 F0 BB 78 02 02 00
2024-08-19 18:46:25.407 - 23 AA 56 02 12 2E 1B 18 08 13 01 73 65 6F 6B 65 6E 64
2024-08-19 18:46:25.729 - 09 06 00 0F 02 02 38 20 (提示音咚)
2024-08-19 18:46:26.364 - 01 10 07 D6 00 03 06 70 61 00 02 00 F0 0F 3E (主卧空调冷24度)
2024-08-19 18:46:26.396 - 01 10 07 D6 00 03 06 70 61 00 02 00 F0 0F 3E (主卧空调冷24度)
2024-08-19 18:46:26.783 - EE 00 00 B1 00 00 02 FF FC FF FF (情景完成返回主页)
2024-08-19 19:04:56.866 - 1B 03 00 00 00 02 C6 31 (查询室外光线)
2024-08-19 19:04:56.883 - 1B 03 04 00 00 00 00 41 F2 (室外光线返回)
2024-08-19 19:04:57.206 - 1A EC A0 DC 02 00 00 01 0F (自保持开关地址-天花12V供电, 天花12V 供电开)
2024-08-19 19:04:57.904 - 1A FF 01 FF FF FF 60 01 FF 60 01 FF 00 00 0F (调光器地址-公共区域统配地址)
2024-08-19 19:04:58.907 - 19 08 24 03 DD 00 0D 00 01 (调用情景-信科调用进门暗)
2024-08-19 19:04:59.978 - 1A EC A0 DC 01 00 00 01 0F (自保持开关地址-电视、设备12V供电, 12V 电视供电开)
2024-08-19 19:05:00.534 - 1A EC A0 DC 01 00 00 01 0F (自保持开关地址-电视、设备12V供电, 12V 电视供电开)
2024-08-19 19:05:01.084 - 1A EC A0 DC 04 00 01 01 0F (自保持开关地址-次卧西阳内外卫供电, 内卫外卫开)
2024-08-19 19:05:01.628 - 1A EC A0 DC 04 00 01 01 0F (自保持开关地址-次卧西阳内外卫供电, 内卫外卫开)
2024-08-19 19:05:06.665 - 1A 27 89 12 AA 00 00 01 0F (状态寄存器地址, 有人状态)
2024-08-19 19:05:07.220 - 1A 27 89 12 AA 00 00 01 0F (状态寄存器地址, 有人状态)
2024-08-19 19:05:07.763 - 1A BE B0 DC 01 00 01 00 (继电器地址-回水泵点动, 回水泵点动)
2024-08-19 19:05:08.368 - 1A FF FF FF 56 00 00 01 0F (人体红外感应地址-内卫, 打开内卫感应)
2024-08-19 19:05:08.909 - 1A FF FF FF 55 00 00 01 0F (人体红外感应地址-外卫, 打开外卫感应)
2024-08-19 19:05:09.011 - BC BC
2024-08-19 19:05:09.453 - 1A FF FF FF 57 00 00 01 0F (打开厨房感应)
2024-08-19 19:05:10.009 - 1A BE B0 DC 01 00 01 00 (继电器地址-回水泵点动, 回水泵点动)
2024-08-19 19:05:10.559 - A5 00 B7 FF 00 AA 22 0D (书房纱帘关)
2024-08-19 19:05:11.103 - A5 00 A2 FF 00 AA (餐厅纱帘关)
2024-08-19 19:05:11.158 - 55 00 A2 01 01 64 01 73 AA 55 00 A2 01 01 64 01 73 AA (餐厅纱帘电机状态返回)
2024-08-19 19:05:11.701 - 09 06 00 0F 02 01 78 21 (提示音叮)
2024-08-19 19:05:12.243 - 09 06 00 0F 02 01 78 21 (提示音叮)
2024-08-19 19:05:12.804 - EE 00 00 B1 00 00 02 FF FC FF FF (情景完成返回主页)
2024-08-19 19:05:13.215 - EE 00 6E B1 01 00 03 FF FC FF FF
2024-08-19 19:05:13.349 - 55 00 A2 00 01 66 01 73 AA 55 00 A2 00 01 66 01 73 AA (餐厅纱帘电机状态返回)
2024-08-19 19:05:13.400 - A1 11 11 11 50 (天花供电打开确认)
2024-08-19 19:05:13.621 - 1A EC A0 DC 02 86 86 86 0F (查询天花供电状态, 自保持开关地址-天花12V供电)
2024-08-19 19:05:13.842 - EE 00 6E B1 01 00 08 FF FC FF FF
2024-08-19 19:05:14.060 - 1A EC A0 DC 02 01 01 0F (自保持开关地址-天花12V供电)
2024-08-19 19:05:14.412 - 1A BE B0 DC 0A 00 01 00 (继电器地址-客厅纱帘, 客厅纱帘关)
2024-08-19 19:05:14.624 - 1A EC A0 DC 02 00 00 01 0F (自保持开关地址-天花12V供电, 天花12V 供电开)
2024-08-19 19:05:15.933 - A1 11 11 11 51 (卫生供电打开确认)
2024-08-19 19:05:16.154 - 1A EC A0 DC 04 86 86 86 0F (查询卫生间供电状态, 自保持开关地址-次卧西阳内外卫供电)
2024-08-19 19:05:16.494 - 19 08 24 03 CC 01 54 00 01 (调用内卫感应灯开的按键)
2024-08-19 19:05:16.533 - 1A 0C 02 08 01 FF 45 01 FF 45 01 FF 00 00 0F (调光器地址-内卫射灯, 内卫射灯微光)
2024-08-19 19:05:18.480 - A1 11 11 11 52 (电视供电打开确认)
2024-08-19 19:05:18.705 - 1A EC A0 DC 01 86 86 86 0F (查询电视供电状态, 自保持开关地址-电视、设备12V供电)
2024-08-19 19:05:19.148 - 1A EC A0 DC 01 01 01 0F (自保持开关地址-电视、设备12V供电)
2024-08-19 19:05:23.537 - A1 11 11 11 47 (天热回家开帘)
2024-08-19 19:05:23.774 - 1A 27 89 12 AA 86 86 86 0F (查询寄存器状态, 状态寄存器地址)
2024-08-19 19:05:24.148 - 1A 27 89 12 AA 01 00 00 00 00 00 00 00 00 00 00 01 00 00 00 00 0F (状态寄存器地址)
2024-08-19 19:05:24.777 - 19 08 24 03 DD 00 06 00 01 (调用情景-天热遮阳开帘)
2024-08-19 19:05:25.308 - EE 00 00 B1 00 00 00 FF FC FF FF (情景执行提示)
2024-08-19 19:05:25.900 - 09 06 00 0F 02 01 78 21 (提示音叮)
2024-08-19 19:05:26.459 - A5 00 A6 FE 01 AA (餐厅窗帘开)
2024-08-19 19:05:26.513 - 55 00 A6 02 01 67 01 75 AA 55 00 A6 02 01 67 01 FD (餐厅窗帘电机状态返回)
2024-08-19 19:05:27.550 - A5 00 52 FE 01 AA (主卧窗帘开)
2024-08-19 19:05:28.596 - A5 00 53 FF 00 AA (主卧纱帘开)
2024-08-19 19:05:28.655 - 55 00 53 01 00 0C 02 30 AA 55 00 53 01 00 0C 02 30 AA (主卧纱帘电机状态返回)
2024-08-19 19:05:29.696 - A5 00 76 FE 01 AA (次卧窗帘开)
2024-08-19 19:05:29.744 - 55 00 76 02 01 0E 01 1B AA 55 00 76 02 01 0E 01 1B AA (次卧窗帘电机状态返回)
2024-08-19 19:05:30.781 - A5 00 21 FE 01 AA (次卧纱帘开)
2024-08-19 19:05:30.845 - 55 00 21 02 01 27 01 34 AA 55 00 21 02 01 27 01 34 AA (次卧纱帘电机状态返回)
2024-08-19 19:05:31.885 - 1A BE B0 DC 04 00 01 00 (继电器地址-西阳窗帘, 西阳窗帘开)
2024-08-19 19:05:32.982 - FF FF FF FF 0E 00 01 00 (继电器地址-西阳小窗帘, 西阳小窗帘开)
2024-08-19 19:05:34.083 - A5 00 D2 FE 01 AA 22 0D (书房窗帘开)
2024-08-19 19:05:34.130 - 55 00 D2 02 00 E5 00 F2 AA 55 00 D2 02 00 E5 00 F2 AA (书房窗帘电机状态返回)
2024-08-19 19:05:35.168 - 55 00 A6 00 00 0E 01 75 AA 55 00 A6 00 00 0E 01 75 AA (餐厅窗帘电机状态返回)
2024-08-19 19:05:35.198 - 09 06 00 0F 02 02 38 20 (提示音咚)
2024-08-19 19:05:35.780 - EE 00 00 B1 00 00 02 FF FC FF FF (情景完成返回主页)
2024-08-19 19:05:36.800 - 55 00 76 00 00 0E 01 1B AA 55 00 76 00 00 0E 01 1B AA (次卧窗帘电机状态返回)
2024-08-19 19:05:38.278 - 55 00 21 00 00 0D 01 34 AA 55 00 21 00 00 0D 01 34 AA (次卧纱帘电机状态返回)
2024-08-19 19:05:39.743 - 55 00 53 00 02 22 02 30 AA 55 00 53 00 02 22 02 30 AA (主卧纱帘电机状态返回)
2024-08-19 19:05:40.990 - 55 20 20 00 00 0F 02 16 AA 55 20 20 00 00 0F 02 16 AA (主卧窗帘电机状态返回)
2024-08-19 19:05:41.691 - 55 00 D2 00 00 0E 00 F2 AA 55 00 D2 00 00 0E 00 F2 AA (书房窗帘电机状态返回)
2024-08-19 19:05:51.565 - 19 08 24 03 CC 01 55 00 01 (调用外卫感应灯关的按键)
2024-08-19 19:05:51.616 - 1A 0C 02 08 01 FF 00 01 FF 00 01 FF 00 00 0F (调光器地址-内卫射灯, 内卫感应灯关)
2024-08-19 19:06:31.638 - 19 08 24 03 CC 01 54 00 01 (调用内卫感应灯开的按键)
2024-08-19 19:06:31.672 - 1A 0C 02 08 01 FF 45 01 FF 45 01 FF 00 00 0F (调光器地址-内卫射灯, 内卫射灯微光)
2024-08-19 19:06:48.272 - 19 08 24 03 CC 00 D3 00 01 (调用厨房感应灯开的按键)
2024-08-19 19:06:48.305 - 55 0A 32 00 00 00 01 92 55 0A 32 00 00 00 02 93 (厨房顶灯一开, 厨房顶灯二开)
2024-08-19 19:06:57.189 - 19 08 24 03 CC 01 55 00 01 (调用外卫感应灯关的按键)
2024-08-19 19:06:57.221 - 1A 0C 02 08 01 FF 00 01 FF 00 01 FF 00 00 0F (调光器地址-内卫射灯, 内卫感应灯关)
2024-08-19 19:08:38.388 - 19 08 24 03 CC 01 54 00 01 (调用内卫感应灯开的按键)
2024-08-19 19:08:38.422 - 1A 0C 02 08 01 FF 45 01 FF 45 01 FF 00 00 0F (调光器地址-内卫射灯, 内卫射灯微光)
2024-08-19 19:09:03.934 - 19 08 24 03 CC 01 55 00 01 (调用外卫感应灯关的按键)
2024-08-19 19:09:03.981 - 1A 0C 02 08 01 FF 00 01 FF 00 01 FF 00 00 0F (调光器地址-内卫射灯, 内卫感应灯关)
2024-08-19 19:16:05.643 - 1A FF FF FF 04 (继电器地址-东阳衣架)
2024-08-19 19:16:05.779 - 03
2024-08-19 19:30:26.563 - 19 08 24 03 CC 00 D4 00 01 (调用厨房感应灯关的按键)
2024-08-19 19:30:26.614 - 55 0A 31 00 00 00 01 91 55 0A 31 00 00 00 02 92 (厨房顶灯一关, 厨房顶灯二关)
2024-08-19 19:38:49.052 - 19 08 24 03 CC 00 D3 00 01 (调用厨房感应灯开的按键)
2024-08-19 19:38:49.106 - 55 0A 32 00 00 00 01 92 55 0A 32 00 00 00 02 93 (厨房顶灯一开, 厨房顶灯二开)
2024-08-19 19:42:26.477 - 19 08 24 03 CC 00 D4 00 01 (调用厨房感应灯关的按键)
2024-08-19 19:42:26.508 - 55 0A 31 00 00 00 01 91 55 0A 31 00 00 00 02 92 (厨房顶灯一关, 厨房顶灯二关)
2024-08-19 19:49:14.546 - 1A FF 03 00 00 86 86 86 0F (调用查询模块-主卧空调开关查询, 主卧空调虚拟地址)
2024-08-19 19:49:14.769 - 01 04 07 DC 00 01 F1 44 (查询主卧空调开关状态)
2024-08-19 19:49:14.791 - 01 04 02 70 01 5D 30
2024-08-19 19:49:15.774 - 1A FF 03 00 00 01 00 0F (主卧空调虚拟地址)
2024-08-19 19:49:15.949 - 1A FF 04 00 00 86 86 86 0F (调用查询模块-次卧空调开关查询, 次卧空调虚拟地址)
2024-08-19 19:49:16.172 - 01 04 07 E2 00 01 90 88 (查询次卧空调开关状态)
2024-08-19 19:49:16.188 - 01 04 02 70 00 9C F0
2024-08-19 19:49:17.171 - 1A FF 04 00 00 00 00 0F (次卧空调虚拟地址)
2024-08-19 19:49:28.423 - 1A 18 05 10 31 00 01 01 0F (自保持开关地址-门厅顶灯, 门厅顶灯开)
2024-08-19 19:49:31.995 - 1A 18 05 10 31 00 01 00 0F (自保持开关地址-门厅顶灯, 门厅顶灯关)
2024-08-19 19:49:33.064 - 1A 18 05 21 89 00 01 01 0F (自保持开关地址-客厅顶灯, 客厅顶灯一开)
2024-08-19 19:49:34.641 - 1A 18 05 01 94 00 01 01 0F (自保持开关地址-客厅顶灯, 客厅顶灯二开)
2024-08-19 19:54:34.429 - 1A FF FF FF 60 (红外总线地址-主卧发射设备)
2024-08-19 19:55:40.549 - 19 08 24 03 CC 00 D3 00 01 (调用厨房感应灯开的按键)
2024-08-19 19:55:40.600 - 55 0A 32 00 00 00 01 92 55 0A 32 00 00 00 02 93 (厨房顶灯一开, 厨房顶灯二开)
2024-08-19 19:58:10.842 - 19 08 24 03 CC 00 D4 00 01 (调用厨房感应灯关的按键)
2024-08-19 19:58:10.874 - 55 0A 31 00 00 00 01 91 55 0A 31 00 00 00 02 92 (厨房顶灯一关, 厨房顶灯二关)
2024-08-19 19:58:39.393 - 19 08 24 03 CC 00 D3 00 01 (调用厨房感应灯开的按键)
2024-08-19 19:58:39.425 - 55 0A 32 00 00 00 01 92 55 0A 32 00 00 00 02 93 (厨房顶灯一开, 厨房顶灯二开)
2024-08-19 19:59:46.028 - 19 08 24 03 CC 00 D4 00 01 (调用厨房感应灯关的按键)
2024-08-19 19:59:46.060 - 55 0A 31 00 00 00 01 91 55 0A 31 00 00 00 02 92 (厨房顶灯一关, 厨房顶灯二关)
2024-08-19 20:08:09.081 - EE 00 6E B1 01 00 03 FF FC FF FF
2024-08-19 20:08:09.574 - 1A 18 05 21 89 00 01 02 0F (自保持开关地址-客厅顶灯, 客厅顶灯一开关)
2024-08-19 20:08:10.269 - 1A 18 05 01 94 00 01 02 0F (自保持开关地址-客厅顶灯, 客厅顶灯二开关)
2024-08-19 20:09:10.631 - 19 08 24 03 CC 00 D3 00 01 (调用厨房感应灯开的按键)
2024-08-19 20:09:10.665 - 55 0A 32 00 00 00 01 92 55 0A 32 00 00 00 02 93 (厨房顶灯一开, 厨房顶灯二开)
2024-08-19 20:09:15.545 - 19 08 24 03 CC 01 54 00 01 (调用内卫感应灯开的按键)
2024-08-19 20:09:15.589 - 1A 0C 02 08 01 FF 45 01 FF 45 01 FF 00 00 0F (调光器地址-内卫射灯, 内卫射灯微光)
2024-08-19 20:10:37.740 - 1A 22 33 62 0F 00 02 01 0F (正反转地址-内卫卷帘, 内卫卷帘降)
2024-08-19 20:11:35.322 - 19 08 24 03 CC 01 55 00 01 (调用外卫感应灯关的按键)
2024-08-19 20:11:35.364 - 1A 0C 02 08 01 FF 00 01 FF 00 01 FF 00 00 0F (调光器地址-内卫射灯, 内卫感应灯关)
2024-08-19 20:12:47.419 - EE 00 6E B1 01 00 02 FF FC FF FF
2024-08-19 20:12:48.675 - 19 08 24 03 DD 00 1A 00 01 (调用情景-客厅电视播放)
2024-08-19 20:12:49.238 - EE 00 00 B1 00 00 00 FF FC FF FF (情景执行提示)
2024-08-19 20:12:49.832 - 09 06 00 0F 02 01 78 21 (提示音叮)
2024-08-19 20:12:50.377 - 50 F0 08 (开客厅影视)
2024-08-19 20:12:59.408 - 50 F1 28 (客厅—有线2)
2024-08-19 20:12:59.956 - 09 06 00 0F 02 01 78 21 (提示音叮)
2024-08-19 20:13:00.499 - EE 00 00 B1 00 00 02 FF FC FF FF (情景完成返回主页)
2024-08-19 20:13:12.606 - 19 08 24 03 CC 00 D4 00 01 (调用厨房感应灯关的按键)
2024-08-19 20:13:12.639 - 55 0A 31 00 00 00 01 91 55 0A 31 00 00 00 02 92 (厨房顶灯一关, 厨房顶灯二关)
2024-08-19 20:20:48.917 - 19 08 24 03 CC 01 54 00 01 (调用内卫感应灯开的按键)
2024-08-19 20:20:48.951 - 1A 0C 02 08 01 FF 45 01 FF 45 01 FF 00 00 0F (调光器地址-内卫射灯, 内卫射灯微光)
2024-08-19 20:21:18.476 - 19 08 24 03 CC 01 55 00 01 (调用外卫感应灯关的按键)
2024-08-19 20:21:18.510 - 1A 0C 02 08 01 FF 00 01 FF 00 01 FF 00 00 0F (调光器地址-内卫射灯, 内卫感应灯关)
2024-08-19 20:27:30.711 - 19 08 24 03 CC 01 54 00 01 (调用内卫感应灯开的按键)
2024-08-19 20:27:30.743 - 1A 0C 02 08 01 FF 45 01 FF 45 01 FF 00 00 0F (调光器地址-内卫射灯, 内卫射灯微光)
2024-08-19 20:27:34.831 - 19 08 24 03 CC 01 52 00 01 (调用外卫感应灯开的按键)
2024-08-19 20:27:34.858 - 1A 0D 01 07 01 FF 45 01 FF 45 01 FF 00 00 0F (调光器地址-外卫射灯, 外卫感应灯开)
2024-08-19 20:27:39.968 - 19 08 24 03 DD 00 1B 00 01 (调用情景-外卫使用)
2024-08-19 20:27:40.495 - EE 00 00 B1 00 00 00 FF FC FF FF (情景执行提示)
2024-08-19 20:27:41.094 - 09 06 00 0F 02 01 78 21 (提示音叮)
2024-08-19 20:27:41.637 - 1A BE B0 DC 02 00 01 00 (正反转地址-外卫卷帘, 外卫卷帘降)
2024-08-19 20:27:42.179 - 50 F0 03 (开外卫影视)
2024-08-19 20:27:42.740 - 1A FF FF FF 55 00 00 00 0F (人体红外感应地址-外卫, 关闭外卫感应)
2024-08-19 20:27:43.284 - 1A 0D 01 07 01 FF 45 01 FF 45 01 FF 00 00 0F (调光器地址-外卫射灯, 外卫感应灯开)
2024-08-19 20:27:45.376 - 1A BE B0 DC 01 00 01 00 (继电器地址-回水泵点动, 回水泵点动)
2024-08-19 20:27:46.422 - 1A BE B0 DC 01 00 01 00 (继电器地址-回水泵点动, 回水泵点动)
2024-08-19 20:27:47.474 - 1A BE B0 DC 01 00 01 00 (继电器地址-回水泵点动, 回水泵点动)
2024-08-19 20:27:48.511 - 50 F1 43 (外卫—CH4)
2024-08-19 20:28:05.514 - A1 11 11 11 11 05 (外卫使用浴霸判断)
2024-08-19 20:28:05.737 - 13 03 00 00 00 02 C7 79 (查询外卫温湿度)
2024-08-19 20:28:07.556 - 09 06 00 0F 02 02 38 20 (提示音咚)
2024-08-19 20:28:09.598 - EE 00 00 B1 00 00 02 FF FC FF FF (情景完成返回主页)
2024-08-19 20:30:14.281 - 1A 20 07 01 55 00 01 02 0F (自保持开关地址-主卧顶灯, 主卧顶灯开关)
2024-08-19 20:30:44.584 - 19 08 24 03 CC 01 55 00 01 (调用外卫感应灯关的按键)
2024-08-19 20:30:44.618 - 1A 0C 02 08 01 FF 00 01 FF 00 01 FF 00 00 0F (调光器地址-内卫射灯, 内卫感应灯关)
2024-08-19 20:31:34.188 - 19 08 24 03 CC 01 54 00 01 (调用内卫感应灯开的按键)
2024-08-19 20:31:34.222 - 1A 0C 02 08 01 FF 45 01 FF 45 01 FF 00 00 0F (调光器地址-内卫射灯, 内卫射灯微光)
2024-08-19 20:32:13.846 - 1A 20 07 01 55 00 01 02 0F (自保持开关地址-主卧顶灯, 主卧顶灯开关)
2024-08-19 20:32:39.821 - 19 08 24 03 CC 01 55 00 01 (调用外卫感应灯关的按键)
2024-08-19 20:32:39.854 - 1A 0C 02 08 01 FF 00 01 FF 00 01 FF 00 00 0F (调光器地址-内卫射灯, 内卫感应灯关)
2024-08-19 20:36:44.472 - 19 08 24 03 DD 00 1C 00 01 (调用情景-外卫使用完毕)
2024-08-19 20:36:45.003 - EE 00 00 B1 00 00 00 FF FC FF FF (情景执行提示)
2024-08-19 20:36:45.609 - 09 06 00 0F 02 01 78 21 (提示音叮)
2024-08-19 20:36:46.156 - 1A 0D 01 07 01 FF 00 01 FF 00 01 FF 00 00 0F (调光器地址-外卫射灯, 外卫感应灯关)
2024-08-19 20:36:46.750 - 50 F5 03 (关外卫影视)
2024-08-19 20:36:47.298 - 1A 20 07 00 42 00 01 00 0F (自保持开关地址-外卫顶灯, 外卫顶灯关)
2024-08-19 20:36:47.846 - 1A FF FF FF 55 00 00 01 0F (人体红外感应地址-外卫, 打开外卫感应)
2024-08-19 20:36:47.941 - BC BC
2024-08-19 20:36:50.393 - 09 06 00 0F 02 02 38 20 (提示音咚)
2024-08-19 20:36:50.935 - EE 00 00 B1 00 00 02 FF FC FF FF (情景完成返回主页)
2024-08-19 20:36:57.975 - 19 08 24 03 CC 01 53 00 01 (调用外卫感应灯关的按键)
2024-08-19 20:36:58.032 - 1A 0D 01 07 01 FF 00 01 FF 00 01 FF 00 00 0F (调光器地址-外卫射灯, 外卫感应灯关)
2024-08-19 20:37:12.961 - 19 08 24 03 CC 00 D3 00 01 (调用厨房感应灯开的按键)
2024-08-19 20:37:12.995 - 55 0A 32 00 00 00 01 92 55 0A 32 00 00 00 02 93 (厨房顶灯一开, 厨房顶灯二开)
2024-08-19 20:38:36.620 - 19 08 24 03 CC 00 D4 00 01 (调用厨房感应灯关的按键)
2024-08-19 20:38:36.653 - 55 0A 31 00 00 00 01 91 55 0A 31 00 00 00 02 92 (厨房顶灯一关, 厨房顶灯二关)
2024-08-19 20:39:06.277 - 1A FF 03 00 00 86 86 86 0F (调用查询模块-主卧空调开关查询, 主卧空调虚拟地址)
2024-08-19 20:39:06.493 - 01 04 07 DC 00 01 F1 44 (查询主卧空调开关状态)
2024-08-19 20:39:06.516 - 01 04 02 70 01 5D 30
2024-08-19 20:39:07.497 - 1A FF 03 00 00 01 00 0F (主卧空调虚拟地址)
2024-08-19 20:39:07.684 - 1A FF 04 00 00 86 86 86 0F (调用查询模块-次卧空调开关查询, 次卧空调虚拟地址)
2024-08-19 20:39:07.905 - 01 04 07 E2 00 01 90 88 (查询次卧空调开关状态)
2024-08-19 20:39:07.936 - 01 04 02 70 00 9C F0
2024-08-19 20:39:08.908 - 1A FF 04 00 00 00 00 0F (次卧空调虚拟地址)
2024-08-19 20:39:09.116 - 1A FF 05 00 00 86 86 86 0F (调用查询模块-书房空调开关查询, 书房空调虚拟地址)
2024-08-19 20:39:09.338 - 01 04 07 E8 00 01 B0 8A (查询书房空调开关状态)
2024-08-19 20:39:09.368 - 01 04 02 70 00 9C F0
2024-08-19 20:39:10.342 - 1A FF 05 00 00 00 00 0F (书房空调虚拟地址)
2024-08-19 20:39:10.548 - 1A FF 02 00 00 86 86 86 0F (调用查询模块-餐厅空调开关查询, 餐厅空调虚拟地址)
2024-08-19 20:39:10.772 - 01 04 07 D6 00 01 D1 46 (查询餐厅空调开关状态)
2024-08-19 20:39:10.804 - 01 04 02 70 01 5D 30
2024-08-19 20:39:11.777 - 1A FF 02 00 00 01 00 0F (餐厅空调虚拟地址)
2024-08-19 20:39:11.984 - 1A FF 01 00 00 86 86 86 0F (调用查询模块-客厅空调开关查询, 客厅空调虚拟地址)
2024-08-19 20:39:12.209 - 01 04 07 D0 00 01 31 47 (查询客厅空调开关状态)
2024-08-19 20:39:12.226 - 01 04 02 70 01 5D 30
2024-08-19 20:39:13.214 - 1A FF 01 00 00 01 00 0F (客厅空调虚拟地址)
2024-08-19 20:39:13.421 - 1A 10 00 00 00 86 86 86 0F (调用查询模块-主卧测温转换, 主卧温湿度虚拟地址)
2024-08-19 20:39:13.643 - 1D 03 00 00 00 02 C6 57 (查询主卧温湿度)
2024-08-19 20:39:13.659 - 1D 03 04 02 1B 01 0E D6 19 (主卧温湿度返回)
2024-08-19 20:39:14.664 - 1A 10 00 00 00 00 00 01 00 00 01 00 00 01 01 0E 01 02 1B 01 00 00 01 00 00 01 0F (主卧温湿度虚拟地址)
2024-08-19 20:39:14.845 - 1A 11 00 00 00 86 86 86 0F (调用查询模块-次卧测温转换, 次卧温湿度虚拟地址)
2024-08-19 20:39:15.066 - 11 03 00 00 00 02 C6 9B (查询次卧温湿度)
2024-08-19 20:39:15.100 - 11 03 04 02 28 01 17 2B DC (次卧温湿度返回)
2024-08-19 20:39:16.100 - 1A 11 00 00 00 00 00 01 00 00 01 00 00 01 01 17 01 02 28 01 00 00 01 00 00 01 0F (次卧温湿度虚拟地址)
2024-08-19 20:39:16.276 - 1A 12 00 00 00 86 86 86 0F (调用查询模块-书房测温转换, 书房温湿度虚拟地址)
2024-08-19 20:39:16.500 - 12 03 00 00 00 02 C6 A8 (查询书房温湿度)
2024-08-19 20:39:16.532 - 12 03 04 01 AE 01 25 78 A4 (书房温湿度返回)
2024-08-19 20:39:17.532 - 1A 12 00 00 00 00 00 01 00 00 01 00 00 01 01 25 01 01 AE 01 00 00 01 00 00 01 0F (书房温湿度虚拟地址)
2024-08-19 20:39:17.711 - 1A 13 00 00 00 86 86 86 0F (调用查询模块-外卫测温转换, 外卫温湿度虚拟地址)
2024-08-19 20:39:17.940 - 13 03 00 00 00 02 C7 79 (查询外卫温湿度)
2024-08-19 20:39:17.957 - 13 03 04 01 CF 01 16 79 AF (外卫温湿度返回)
2024-08-19 20:39:18.960 - 1A 13 00 00 00 00 00 01 00 00 01 00 00 01 01 16 01 01 CF 01 00 00 01 00 00 01 0F (外卫温湿度虚拟地址)
2024-08-19 20:39:19.147 - 1A 14 00 00 00 86 86 86 0F (调用查询模块-内卫测温转换, 内卫温湿度虚拟地址)
2024-08-19 20:39:19.374 - 14 03 00 00 00 02 C6 CE (查询内卫温湿度)
2024-08-19 20:39:19.398 - 14 03 04 01 E1 01 09 2E AE (内卫温湿度返回)
2024-08-19 20:39:20.386 - 1A 14 00 00 00 00 00 01 00 00 01 00 00 01 01 09 01 01 E1 01 00 00 01 00 00 01 0F (内卫温湿度虚拟地址)
2024-08-19 20:39:20.590 - 1A 15 00 00 00 86 86 86 0F (调用查询模块-客厅测温转换, 客厅温湿度虚拟地址)
2024-08-19 20:39:20.801 - 15 03 00 00 00 02 C7 1F (查询客厅温湿度)
2024-08-19 20:39:20.829 - 15 03 04 02 0E 00 FC CE 08 (客厅温湿度返回)
2024-08-19 20:39:21.833 - 1A 15 00 00 00 00 00 01 00 00 01 00 00 01 00 FC 01 02 0E 01 00 00 01 00 00 01 0F (客厅温湿度虚拟地址)
2024-08-19 20:39:22.020 - 1A 16 00 00 00 86 86 86 0F (调用查询模块-机柜测温转换, 机柜温湿度虚拟地址)
2024-08-19 20:39:22.241 - 16 03 00 00 00 02 C7 2C (查询机柜温湿度)
2024-08-19 20:39:22.258 - 16 03 04 01 C3 01 1D AD 6B (区域高光指令（AD+区域+暖光+冷光+AE）, 机柜温湿度返回)
2024-08-19 20:39:23.261 - 1A 16 00 00 00 00 00 01 00 00 01 00 00 01 01 1D 01 01 C3 01 00 00 01 00 00 01 0F (机柜温湿度虚拟地址)
2024-08-19 20:39:23.450 - 1A 0E 00 00 00 86 86 86 0F (调用查询模块-厨房测温转换, 厨房温湿度虚拟地址)
2024-08-19 20:39:23.673 - 0E 03 00 00 00 02 C4 F4 (查询厨房温湿度)
2024-08-19 20:39:23.689 - 0E 03 04 01 8B 01 2E F5 69 (厨房温湿度返回)
2024-08-19 20:39:24.694 - 1A 0E 00 00 00 00 00 01 00 00 01 00 00 01 01 2E 01 01 8B 01 00 00 01 00 00 01 0F (厨房温湿度虚拟地址)
2024-08-19 20:39:24.885 - 1A 0F 00 00 00 86 86 86 0F (调用查询模块-餐厅测温转换, 餐厅温湿度虚拟地址)
2024-08-19 20:39:25.109 - 1C 03 00 00 00 02 C7 86 (查询餐厅温湿度)
2024-08-19 20:39:25.125 - 1C 03 04 01 AE 01 1A D7 74 (餐厅温湿度返回)
2024-08-19 20:39:26.130 - 1A 0F 00 00 00 00 00 01 00 00 01 00 00 01 01 1A 01 01 AE 01 00 00 01 00 00 01 0F (餐厅温湿度虚拟地址)
2024-08-19 20:39:26.321 - 1A 20 00 00 00 86 86 86 0F (调用查询模块-阳台测温湿气压转换, 阳台温湿气压虚拟地址)
2024-08-19 20:39:26.529 - 20 03 00 00 00 03 03 7A (查询阳台温湿度气压)
2024-08-19 20:39:26.561 - 20 03 06 01 4A 01 94 26 DB 37 10 (阳台温湿度返回)
2024-08-19 20:39:27.054 - 1A 20 00 00 00 00 00 01 00 00 01 00 00 01 01 4A 01 01 94 01 26 DB 01 00 00 01 0F (阳台温湿气压虚拟地址)
2024-08-19 20:39:27.241 - 1A 21 00 00 00 86 86 86 0F (调用查询模块-储藏室测温湿气压转换, 储藏室温湿气压虚拟地址)
2024-08-19 20:39:27.462 - 21 03 00 00 00 03 02 AB (查询储藏室温湿度气压)
2024-08-19 20:39:27.485 - 21 03 06 01 44 01 E9 26 DB C3 59 (储藏室温湿度返回)
2024-08-19 20:39:27.979 - 1A 21 00 00 00 00 00 01 00 00 01 00 00 01 01 44 01 01 E9 01 26 DB 01 00 00 01 0F (储藏室温湿气压虚拟地址)
2024-08-19 20:39:28.160 - 1A 22 00 00 00 86 86 86 0F (调用查询模块-室外测温湿气压转换, 室外温湿气压虚拟地址)
2024-08-19 20:39:28.381 - 22 03 00 00 00 03 02 98 (查询室外温湿度气压)
2024-08-19 20:39:28.398 - 22 03 06 01 3E 02 8B 26 DC EE 3B (阳台温湿度返回)
2024-08-19 20:39:28.908 - 1A 22 00 00 00 00 00 01 00 00 01 00 00 01 01 3E 01 02 8B 01 26 DC 01 00 00 01 0F (室外温湿气压虚拟地址)
2024-08-19 20:39:29.239 - 1A 20 00 00 00 86 86 86 0F (调用查询模块-阳台测温湿气压转换, 阳台温湿气压虚拟地址)
2024-08-19 20:39:29.469 - 20 03 00 00 00 03 03 7A (查询阳台温湿度气压)
2024-08-19 20:39:29.486 - 20 03 06 01 4A 01 94 26 DA F6 D0 (阳台温湿度返回)
2024-08-19 20:39:29.989 - 1A 20 00 00 00 00 00 01 00 00 01 00 00 01 01 4A 01 01 94 01 26 DA 01 00 00 01 0F (阳台温湿气压虚拟地址)
2024-08-19 20:39:30.693 - 1A 21 00 00 00 86 86 86 0F (调用查询模块-储藏室测温湿气压转换, 储藏室温湿气压虚拟地址)
2024-08-19 20:39:30.914 - 21 03 00 00 00 03 02 AB (查询储藏室温湿度气压)
2024-08-19 20:39:30.945 - 21 03 06 01 44 01 E9 26 DB C3 59 (储藏室温湿度返回)
2024-08-19 20:39:31.441 - 1A 21 00 00 00 00 00 01 00 00 01 00 00 01 01 44 01 01 E9 01 26 DB 01 00 00 01 0F (储藏室温湿气压虚拟地址)
2024-08-19 20:39:32.413 - 1A 22 00 00 00 86 86 86 0F (调用查询模块-室外测温湿气压转换, 室外温湿气压虚拟地址)
2024-08-19 20:39:32.635 - 22 03 00 00 00 03 02 98 (查询室外温湿度气压)
2024-08-19 20:39:32.651 - 22 03 06 01 3E 02 8A 26 DC BF FB (阳台温湿度返回)
2024-08-19 20:39:33.159 - 1A 22 00 00 00 00 00 01 00 00 01 00 00 01 01 3E 01 02 8A 01 26 DC 01 00 00 01 0F (室外温湿气压虚拟地址)
2024-08-19 20:40:05.443 - 1A 22 00 00 00 86 86 86 0F (调用查询模块-室外测温湿气压转换, 室外温湿气压虚拟地址)
2024-08-19 20:40:05.666 - 22 03 00 00 00 03 02 98 (查询室外温湿度气压)
2024-08-19 20:40:05.693 - 22 03 06 01 3E 02 88 26 DC 1E 3B (阳台温湿度返回)
2024-08-19 20:40:06.191 - 1A 22 00 00 00 00 00 01 00 00 01 00 00 01 01 3E 01 02 88 01 26 DC 01 00 00 01 0F (室外温湿气压虚拟地址)
2024-08-19 21:03:41.563 - FF FF FF FF 0E FC (继电器地址-西阳小窗帘)
2024-08-19 21:04:40.307 - 1A BE B0 DC 04 (继电器地址-西阳窗帘)
2024-08-19 21:04:40.448 - FF
2024-08-19 21:05:45.351 - 1A BE B0 DC 02 (正反转地址-外卫卷帘)
2024-08-19 21:05:45.877 - 1A BE B0 DC 0A (继电器地址-客厅纱帘)
2024-08-19 21:05:46.021 - FF
2024-08-19 21:07:48.881 - 1A BE B0 DC 03 FC (继电器地址-西阳天幕)
2024-08-19 21:07:49.017 - FE
2024-08-19 21:15:40.808 - FF FF FF FF 0A (继电器地址-东阳窗帘)
2024-08-19 21:19:30.065 - 1A BE B0 DC 09 (继电器地址-客厅窗帘)
2024-08-19 21:42:16.128 - 19 08 24 03 CC 00 D3 00 01 (调用厨房感应灯开的按键)
2024-08-19 21:42:16.183 - 55 0A 32 00 00 00 01 92 55 0A 32 00 00 00 02 93 (厨房顶灯一开, 厨房顶灯二开)
2024-08-19 21:45:19.788 - 19 08 24 03 DD 00 42 00 01 (调用情景-主卧电视空调)
2024-08-19 21:45:20.316 - EE 00 00 B1 00 00 00 FF FC FF FF (情景执行提示)
2024-08-19 21:45:20.911 - 09 06 00 0F 02 01 78 21 (提示音叮)
2024-08-19 21:45:21.455 - 50 F0 05 (开主卧影视)
2024-08-19 21:45:21.953 - 19 08 24 03 CC 01 54 00 01 (调用内卫感应灯开的按键)
2024-08-19 21:45:21.985 - 1A 0C 02 08 01 FF 45 01 FF 45 01 FF 00 00 0F (调光器地址-内卫射灯, 内卫射灯微光)
2024-08-19 21:45:22.383 - 50 F0 04 (开内卫影视)
2024-08-19 21:45:22.957 - 1A FF FF FF 56 00 00 00 0F (人体红外感应地址-内卫, 关闭内卫感应)
2024-08-19 21:45:23.499 - 1A 22 33 62 0F 00 02 01 0F (正反转地址-内卫卷帘, 内卫卷帘降)
2024-08-19 21:45:24.042 - A5 00 53 FE 01 AA (主卧纱帘关)
2024-08-19 21:45:24.090 - 55 00 53 02 02 22 02 30 AA 55 00 53 02 02 22 02 30 AA (主卧纱帘电机状态返回)
2024-08-19 21:45:25.144 - A5 00 52 FF 00 AA (主卧窗帘关)
2024-08-19 21:45:26.198 - 1A 0C 02 04 FF FF 45 01 FF 45 01 FF 00 00 0F (主卧调光微光)
2024-08-19 21:45:30.280 - 1A 0C 02 08 01 FF 45 01 FF 45 01 FF 00 00 0F (调光器地址-内卫射灯, 内卫射灯微光)
2024-08-19 21:45:30.874 - 50 F1 25 (主卧—有线2)
2024-08-19 21:45:31.425 - A1 11 11 11 42 (主卧空调自动开)
2024-08-19 21:45:31.649 - 19 08 24 03 F0 BB 78 02 02 00
2024-08-19 21:45:31.708 - 23 AA 56 02 15 2D 22 18 08 13 01 73 65 6F 6B 65 6E 64
2024-08-19 21:45:31.968 - 50 F1 24 (内卫—有线2)
2024-08-19 21:45:32.661 - 01 10 07 D6 00 03 06 70 61 00 02 00 F0 0F 3E (主卧空调冷24度)
2024-08-19 21:45:32.701 - 01 10 07 D6 00 03 06 70 61 00 02 00 F0 0F 3E (主卧空调冷24度)
2024-08-19 21:45:34.009 - AF BF CF DF C2 21 (有线2/快捷-凤凰卫视)
2024-08-19 21:45:35.317 - 55 00 53 00 00 0C 02 30 AA 55 00 53 00 00 0C 02 30 AA (主卧纱帘电机状态返回)
2024-08-19 21:45:36.066 - 1A FF FF FF 60 0B 01 01 0F (红外总线地址-主卧发射设备, 主卧电视电源)
2024-08-19 21:45:36.589 - F0 0B 01 08
2024-08-19 21:45:37.327 - 55 20 20 00 02 09 02 16 AA 55 20 20 00 02 09 02 16 AA (主卧窗帘电机状态返回)
2024-08-19 21:45:44.091 - 09 06 00 0F 02 02 38 20 (提示音咚)
2024-08-19 21:45:44.634 - EE 00 00 B1 00 00 02 FF FC FF FF (情景完成返回主页)
2024-08-19 21:45:58.089 - 19 08 24 03 CC 00 D4 00 01 (调用厨房感应灯关的按键)
2024-08-19 21:45:58.144 - 55 0A 31 00 00 00 01 91 55 0A 31 00 00 00 02 92 (厨房顶灯一关, 厨房顶灯二关)
2024-08-19 21:50:55.176 - 19 08 24 03 CC 00 D3 00 01 (调用厨房感应灯开的按键)
2024-08-19 21:50:55.210 - 55 0A 32 00 00 00 01 92 55 0A 32 00 00 00 02 93 (厨房顶灯一开, 厨房顶灯二开)
2024-08-19 21:52:14.824 - 19 08 24 03 CC 00 D4 00 01 (调用厨房感应灯关的按键)
2024-08-19 21:52:14.866 - 55 0A 31 00 00 00 01 91 55 0A 31 00 00 00 02 92 (厨房顶灯一关, 厨房顶灯二关)
2024-08-19 22:11:57.159 - 19 08 24 03 CC 00 D3 00 01 (调用厨房感应灯开的按键)
2024-08-19 22:11:57.191 - 55 0A 32 00 00 00 01 92 55 0A 32 00 00 00 02 93 (厨房顶灯一开, 厨房顶灯二开)
2024-08-19 22:13:05.290 - 19 08 24 03 CC 00 D4 00 01 (调用厨房感应灯关的按键)
2024-08-19 22:13:05.327 - 55 0A 31 00 00 00 01 91 55 0A 31 00 00 00 02 92 (厨房顶灯一关, 厨房顶灯二关)
2024-08-19 22:39:44.302 - 1A FF FF FF 04 FC (继电器地址-东阳衣架)
2024-08-19 22:39:44.438 - FE
2024-08-19 22:39:57.712 - FF
2024-08-19 22:40:20.589 - 19 08 24 03 DD 00 13 00 01 (调用情景-公共区域关)
2024-08-19 22:40:21.152 - EE 00 00 B1 00 00 00 FF FC FF FF (情景执行提示)
2024-08-19 22:40:21.744 - 09 06 00 0F 02 01 78 21 (提示音叮)
2024-08-19 22:40:22.289 - 55 0B 31 00 00 00 01 92 (厨房风扇只关)
2024-08-19 22:40:23.343 - 01 06 07 D3 FF 60 38 9F (餐厅空调关)
2024-08-19 22:40:23.369 - 01 06 07 D3 FF 60 38 9F (餐厅空调关)
2024-08-19 22:40:24.437 - 01 06 07 D0 FF 60 C8 9F (客厅空调关)
2024-08-19 22:40:24.469 - 01 06 07 D0 FF 60 C8 9F (客厅空调关)
2024-08-19 22:40:28.522 - 50 F5 02 (关厨房影视)
2024-08-19 22:40:29.517 - 19 08 24 03 CC 00 D3 00 01 (调用厨房感应灯开的按键)
2024-08-19 22:40:29.575 - 55 0A 32 00 00 00 01 92 55 0A 32 00 00 00 02 93 (厨房顶灯一开, 厨房顶灯二开)
2024-08-19 22:40:29.959 - 50 F5 01 (关餐厅影视)
2024-08-19 22:40:31.013 - 50 F5 08 (关客厅影视)
2024-08-19 22:40:32.063 - 50 F5 03 (关外卫影视)
2024-08-19 22:40:33.115 - 55 0A 31 00 00 00 01 91 (厨房顶灯一关)
2024-08-19 22:40:34.160 - 55 0A 31 00 00 00 02 92 (厨房顶灯二关)
2024-08-19 22:40:35.204 - 55 0C 31 00 00 00 01 93 (餐厅顶灯关)
2024-08-19 22:40:36.257 - 1A 18 05 10 31 00 01 00 0F (自保持开关地址-门厅顶灯, 门厅顶灯关)
2024-08-19 22:40:37.305 - 1A 20 07 00 42 00 01 00 0F (自保持开关地址-外卫顶灯, 外卫顶灯关)
2024-08-19 22:40:38.346 - 1A 18 05 21 89 00 01 00 0F (自保持开关地址-客厅顶灯, 客厅顶灯一关)
2024-08-19 22:40:39.398 - 1A 18 05 01 94 00 01 00 0F (自保持开关地址-客厅顶灯, 客厅顶灯二关)
2024-08-19 22:40:40.434 - 1A 20 07 01 30 00 01 00 0F (自保持开关地址-西阳顶灯, 西阳顶灯关)
2024-08-19 22:40:41.488 - 1A FF 01 FF FF FF 00 01 FF 00 01 FF 00 00 0F (调光器地址-公共区域统配地址, 公共区域灯光全关)
2024-08-19 22:40:42.587 - 09 06 00 0F 02 02 38 20 (提示音咚)
2024-08-19 22:40:44.635 - EE 00 00 B1 00 00 02 FF FC FF FF (情景完成返回主页)
2024-08-19 22:41:01.472 - 19 08 24 03 DD 00 4F 00 01 (调用情景-内卫使用完毕)
2024-08-19 22:41:01.982 - EE 00 00 B1 00 00 00 FF FC FF FF (情景执行提示)
2024-08-19 22:41:02.578 - 09 06 00 0F 02 01 78 21 (提示音叮)
2024-08-19 22:41:03.132 - 1A 0C 02 08 01 FF 00 01 FF 00 01 FF 00 00 0F (调光器地址-内卫射灯, 内卫感应灯关)
2024-08-19 22:41:07.203 - 50 F5 04 (关内卫影视)
2024-08-19 22:41:07.754 - 1A 20 07 01 40 00 01 00 0F (自保持开关地址-内卫顶灯, 内卫顶灯关)
2024-08-19 22:41:08.306 - 1A FF FF FF 56 00 00 01 0F (人体红外感应地址-内卫, 打开内卫感应)
2024-08-19 22:41:08.408 - BC BC
2024-08-19 22:41:10.855 - 09 06 00 0F 02 02 38 20 (提示音咚)
2024-08-19 22:41:11.394 - EE 00 00 B1 00 00 02 FF FC FF FF (情景完成返回主页)
2024-08-19 22:41:13.930 - 19 08 24 03 CC 01 55 00 01 (调用外卫感应灯关的按键)
2024-08-19 22:41:13.985 - 1A 0C 02 08 01 FF 00 01 FF 00 01 FF 00 00 0F (调光器地址-内卫射灯, 内卫感应灯关)
2024-08-19 22:44:30.800 - FF
2024-08-19 23:07:13.500 - 19 08 24 03 CC 01 54 00 01 (调用内卫感应灯开的按键)
2024-08-19 23:07:13.551 - 1A 0C 02 08 01 FF 45 01 FF 45 01 FF 00 00 0F (调光器地址-内卫射灯, 内卫射灯微光)
2024-08-19 23:07:42.062 - 19 08 24 03 CC 01 55 00 01 (调用外卫感应灯关的按键)
2024-08-19 23:07:42.111 - 1A 0C 02 08 01 FF 00 01 FF 00 01 FF 00 00 0F (调光器地址-内卫射灯, 内卫感应灯关)
2024-08-19 23:48:07.339 - 19 08 24 03 CC 01 54 00 01 (调用内卫感应灯开的按键)
2024-08-19 23:48:07.371 - 1A 0C 02 08 01 FF 45 01 FF 45 01 FF 00 00 0F (调光器地址-内卫射灯, 内卫射灯微光)
2024-08-19 23:49:32.024 - 19 08 24 03 DD 00 4B 00 01 (调用情景-主卧睡觉)
2024-08-19 23:49:32.567 - EE 00 00 B1 00 00 00 FF FC FF FF (情景执行提示)
2024-08-19 23:49:33.160 - 09 06 00 0F 02 01 78 21 (提示音叮)
2024-08-19 23:49:33.705 - 50 F5 04 (关内卫影视)
2024-08-19 23:49:34.257 - A5 00 53 FE 01 AA (主卧纱帘关)
2024-08-19 23:49:35.304 - A5 00 52 FF 00 AA (主卧窗帘关)
2024-08-19 23:49:36.347 - 1A 22 33 62 0F 00 02 01 0F (正反转地址-内卫卷帘, 内卫卷帘降)
2024-08-19 23:49:37.399 - 1A 20 07 01 40 00 01 00 0F (自保持开关地址-内卫顶灯, 内卫顶灯关)
2024-08-19 23:49:38.452 - 1A 20 07 01 55 00 01 00 0F (自保持开关地址-主卧顶灯, 主卧顶灯只关)
2024-08-19 23:49:38.996 - 1A FF FF FF 56 00 00 01 0F (人体红外感应地址-内卫, 打开内卫感应)
2024-08-19 23:49:39.010 - BC BC
2024-08-19 23:49:42.585 - 1A 0C 02 08 01 FF 00 01 FF 00 01 FF 00 00 0F (调光器地址-内卫射灯, 内卫感应灯关)
2024-08-19 23:49:43.189 - 1A 0C 02 04 01 FF 00 01 FF 00 01 FF 00 00 0F (调光器地址-主卧筒灯, 主卧筒灯关闭)
2024-08-19 23:49:43.792 - 1A 0C 02 04 03 FF 00 01 FF 00 01 FF 00 00 0F (调光器地址-主卧灯带, 主卧灯带关闭)
2024-08-19 23:49:44.388 - 1A 0C 02 04 04 FF 00 01 FF 00 01 FF 00 00 0F (调光器地址-主卧南阅, 主卧南阅关闭)
2024-08-19 23:49:44.983 - 1A 0C 02 04 05 FF 00 01 FF 00 01 FF 00 00 0F (调光器地址-主卧北阅, 主卧北阅关闭)
2024-08-19 23:49:45.583 - 1A 0C 02 04 02 FF 00 01 FF 00 01 FF 00 00 0F (调光器地址-主卧过道, 主卧过道关闭)
2024-08-19 23:49:46.173 - 09 06 00 0F 02 02 38 20 (提示音咚)
2024-08-19 23:49:46.718 - EE 00 00 B1 00 00 02 FF FC FF FF (情景完成返回主页)
2024-08-19 23:49:49.031 - 19 08 24 03 CC 01 55 00 01 (调用外卫感应灯关的按键)
2024-08-19 23:49:49.092 - 1A 0C 02 08 01 FF 00 01 FF 00 01 FF 00 00 0F (调光器地址-内卫射灯, 内卫感应灯关)
2024-08-19 23:51:14.699 - 19 08 24 03 CC 01 54 00 01 (调用内卫感应灯开的按键)
2024-08-19 23:51:14.743 - 1A 0C 02 08 01 FF 45 01 FF 45 01 FF 00 00 0F (调光器地址-内卫射灯, 内卫射灯微光)
2024-08-19 23:51:40.253 - 19 08 24 03 CC 01 55 00 01 (调用外卫感应灯关的按键)
2024-08-19 23:51:40.284 - 1A 0C 02 08 01 FF 00 01 FF 00 01 FF 00 00 0F (调光器地址-内卫射灯, 内卫感应灯关)
2024-08-19 23:58:44.119 - FF
2024-08-20 00:03:34.620 - FF
2024-08-20 00:26:28.284 - 1A BE B0 DC 04 FD (继电器地址-西阳窗帘)
2024-08-20 00:26:28.420 - FF
2024-08-20 00:26:29.783 - FF FF FF FF 0E FC (继电器地址-西阳小窗帘)
2024-08-20 00:26:29.916 - FE
2024-08-20 00:28:35.185 - 1A BE B0 DC 02 FE (正反转地址-外卫卷帘)
2024-08-20 00:28:35.308 - FF
2024-08-20 00:28:35.797 - 1A BE B0 DC 0A (继电器地址-客厅纱帘)
2024-08-20 00:28:35.933 - FF
2024-08-20 00:31:39.759 - 1A BE B0 DC 03 FE (继电器地址-西阳天幕)
2024-08-20 00:38:29.660 - FF FF FF FF 0A FE (继电器地址-东阳窗帘)
2024-08-20 00:38:29.788 - FF
2024-08-20 00:48:29.633 - 1A BE B0 DC 09 FC (继电器地址-客厅窗帘)
2024-08-20 00:48:29.770 - FF
2024-08-20 01:00:21.134 - FF
2024-08-20 01:19:52.513 - FF
2024-08-20 02:02:42.956 - 1A FF FF FF 04 FC (继电器地址-东阳衣架)
2024-08-20 02:02:43.084 - 00
2024-08-20 02:09:07.003 - 19 08 24 03 CC 01 54 00 01 (调用内卫感应灯开的按键)
2024-08-20 02:09:07.051 - 1A 0C 02 08 01 FF 45 01 FF 45 01 FF 00 00 0F (调光器地址-内卫射灯, 内卫射灯微光)
2024-08-20 02:11:25.269 - 19 08 24 03 CC 01 55 00 01 (调用外卫感应灯关的按键)
2024-08-20 02:11:25.333 - 1A 0C 02 08 01 FF 00 01 FF 00 01 FF 00 00 0F (调光器地址-内卫射灯, 内卫感应灯关)
2024-08-20 02:12:38.420 - 19 08 24 03 CC 01 54 00 01 (调用内卫感应灯开的按键)
2024-08-20 02:12:38.454 - 1A 0C 02 08 01 FF 45 01 FF 45 01 FF 00 00 0F (调光器地址-内卫射灯, 内卫射灯微光)
2024-08-20 02:13:04.475 - 19 08 24 03 CC 01 55 00 01 (调用外卫感应灯关的按键)
2024-08-20 02:13:04.509 - 1A 0C 02 08 01 FF 00 01 FF 00 01 FF 00 00 0F (调光器地址-内卫射灯, 内卫感应灯关)
2024-08-20 02:59:58.449 - 50 F7 01 (全屋影音全关)
2024-08-20 03:45:58.269 - FF
2024-08-20 03:46:21.003 - 1A BE B0 DC 04 FC (继电器地址-西阳窗帘)
2024-08-20 03:46:30.597 - FF FF FF FF 0E FC (继电器地址-西阳小窗帘)
2024-08-20 03:47:28.761 - 19 08 24 03 CC 00 D3 00 01 (调用厨房感应灯开的按键)
2024-08-20 03:47:28.817 - 55 0A 32 00 00 00 01 92 55 0A 32 00 00 00 02 93 (厨房顶灯一开, 厨房顶灯二开)
2024-08-20 03:48:04.325 - 19 08 24 03 CC 00 D4 00 01 (调用厨房感应灯关的按键)
2024-08-20 03:48:04.375 - 55 0A 31 00 00 00 01 91 55 0A 31 00 00 00 02 92 (厨房顶灯一关, 厨房顶灯二关)
2024-08-20 03:49:07.673 - 1A BE B0 DC 02 FC (正反转地址-外卫卷帘)
2024-08-20 03:49:09.816 - 1A BE B0 DC 0A FC (继电器地址-客厅纱帘)
2024-08-20 03:49:09.952 - FF
2024-08-20 03:52:35.412 - 1A BE B0 DC 01 FC (继电器地址-回水泵点动)
2024-08-20 03:52:35.552 - FF
2024-08-20 03:52:35.565 - 1A BE B0 DC 03 (继电器地址-西阳天幕)
2024-08-20 03:52:35.701 - FF
2024-08-20 03:58:38.867 - FF
2024-08-20 03:58:44.682 - FF FF FF FF 0A (继电器地址-东阳窗帘)
2024-08-20 03:58:44.818 - FF
2024-08-20 04:08:53.147 - 1A BE B0 DC 09 (继电器地址-客厅窗帘)
2024-08-20 04:19:58.601 - 1A EC A0 DC 01 00 01 00 0F (自保持开关地址-电视、设备12V供电, 12V 设备供电关)
2024-08-20 04:19:59.132 - FF
2024-08-20 04:19:59.148 - 1A EC A0 DC 01 00 01 00 0F (自保持开关地址-电视、设备12V供电, 12V 设备供电关)
2024-08-20 04:19:59.162 - C1
2024-08-20 04:20:09.212 - 1A EC A0 DC 01 00 01 01 0F (自保持开关地址-电视、设备12V供电, 12V 设备供电开)
2024-08-20 04:20:09.449 - 0A
2024-08-20 04:20:09.452 - 00
2024-08-20 04:20:09.452 - 00 00 00
2024-08-20 04:20:09.585 - FF
2024-08-20 04:20:09.611 - 1A 27 89 12
2024-08-20 04:20:09.611 - FF
2024-08-20 04:20:09.619 - FF
2024-08-20 04:20:09.627 - FF
2024-08-20 04:20:09.643 - EE 00 7E 07 FF FC
2024-08-20 04:20:09.806 - 92
2024-08-20 04:20:09.806 - EB FB 4A
2024-08-20 04:20:09.840 - EE 00 71 B1 01 00 02 FF FC FF FF
2024-08-20 04:20:09.866 - FC
2024-08-20 04:20:10.153 - FF
2024-08-20 04:20:10.266 - 1A EC A0 DC 01 00 01 01 0F (自保持开关地址-电视、设备12V供电, 12V 设备供电开)
2024-08-20 04:20:10.472 - FF
2024-08-20 04:20:10.776 - F7
2024-08-20 04:20:10.854 - FF
2024-08-20 04:20:11.045 - 68 86 FF
2024-08-20 04:20:11.099 - 68 86 FC
2024-08-20 04:20:11.173 - FC
2024-08-20 04:20:11.173 - 69 80 84 FF
2024-08-20 04:20:11.316 - 1A BE B0 DC 03 FC (继电器地址-西阳天幕)
2024-08-20 04:20:11.444 - FC
2024-08-20 04:20:11.745 - FE
2024-08-20 04:20:12.357 - FF
2024-08-20 04:20:12.688 - 68 86
2024-08-20 04:20:18.603 - 19 08 24 03 CC 00 D3 00 01 (调用厨房感应灯开的按键)
2024-08-20 04:20:18.651 - 55 0A 32 00 00 00 01 92 55 0A 32 00 00 00 02 93 (厨房顶灯一开, 厨房顶灯二开)
2024-08-20 04:20:55.170 - 19 08 24 03 CC 00 D4 00 01 (调用厨房感应灯关的按键)
2024-08-20 04:20:55.204 - 55 0A 31 00 00 00 01 91 55 0A 31 00 00 00 02 92 (厨房顶灯一关, 厨房顶灯二关)
2024-08-20 04:26:05.288 - 19 08 24 03 CC 01 54 00 01 (调用内卫感应灯开的按键)
2024-08-20 04:26:05.319 - 1A 0C 02 08 01 FF 45 01 FF 45 01 FF 00 00 0F (调光器地址-内卫射灯, 内卫射灯微光)
2024-08-20 04:28:02.013 - 19 08 24 03 CC 01 55 00 01 (调用外卫感应灯关的按键)
2024-08-20 04:28:02.045 - 1A 0C 02 08 01 FF 00 01 FF 00 01 FF 00 00 0F (调光器地址-内卫射灯, 内卫感应灯关)
2024-08-20 04:29:10.645 - 19 08 24 03 CC 01 54 00 01 (调用内卫感应灯开的按键)
2024-08-20 04:29:10.679 - 1A 0C 02 08 01 FF 45 01 FF 45 01 FF 00 00 0F (调光器地址-内卫射灯, 内卫射灯微光)
2024-08-20 04:29:36.697 - 19 08 24 03 CC 01 55 00 01 (调用外卫感应灯关的按键)
2024-08-20 04:29:36.731 - 1A 0C 02 08 01 FF 00 01 FF 00 01 FF 00 00 0F (调光器地址-内卫射灯, 内卫感应灯关)
2024-08-20 04:36:51.039 - 19 08 24 03 CC 00 D3 00 01 (调用厨房感应灯开的按键)
2024-08-20 04:36:51.087 - 55 0A 32 00 00 00 01 92 55 0A 32 00 00 00 02 93 (厨房顶灯一开, 厨房顶灯二开)
2024-08-20 04:37:26.117 - 19 08 24 03 CC 00 D4 00 01 (调用厨房感应灯关的按键)
2024-08-20 04:37:26.165 - 55 0A 31 00 00 00 01 91 55 0A 31 00 00 00 02 92 (厨房顶灯一关, 厨房顶灯二关)
2024-08-20 04:40:54.027 - 19 08 24 03 CC 00 D3 00 01 (调用厨房感应灯开的按键)
2024-08-20 04:40:54.058 - 55 0A 32 00 00 00 01 92 55 0A 32 00 00 00 02 93 (厨房顶灯一开, 厨房顶灯二开)
2024-08-20 04:41:29.091 - 19 08 24 03 CC 00 D4 00 01 (调用厨房感应灯关的按键)
2024-08-20 04:41:29.133 - 55 0A 31 00 00 00 01 91 55 0A 31 00 00 00 02 92 (厨房顶灯一关, 厨房顶灯二关)
2024-08-20 04:49:59.116 - EE 00 00 B1 00 00 00 FF FC FF FF (情景执行提示)
2024-08-20 04:49:59.694 - A5 00 A2 FF 00 AA (餐厅纱帘关)
2024-08-20 04:50:00.799 - A5 00 A6 FF 00 AA (餐厅窗帘关)
2024-08-20 04:50:00.857 - 55 00 A6 01 00 0E 01 75 AA 55 00 A6 01 00 0E 01 75 FA (餐厅窗帘电机状态返回)
2024-08-20 04:50:01.894 - A5 00 B7 FF 00 AA 22 0D (书房纱帘关)
2024-08-20 04:50:02.995 - A5 00 D2 FF 00 AA 22 0C (书房窗帘关)
2024-08-20 04:50:03.044 - 55 00 D2 01 00 0E 00 F2 AA 55 00 D2 01 00 0E 00 F2 AA (书房窗帘电机状态返回)
2024-08-20 04:50:04.126 - EE 00 00 B1 00 00 02 FF FC FF FF (情景完成返回主页)
2024-08-20 04:50:09.327 - 55 00 A6 00 01 67 01 75 AA 55 00 A6 00 01 67 01 75 AA (餐厅窗帘电机状态返回)
2024-08-20 04:50:11.033 - 55 00 D2 00 00 E5 00 F2 AA 55 00 D2 00 00 E5 00 F2 AA (书房窗帘电机状态返回)
2024-08-20 05:12:33.257 - 19 08 24 03 CC 00 D3 00 01 (调用厨房感应灯开的按键)
2024-08-20 05:12:33.305 - 55 0A 32 00 00 00 01 92 55 0A 32 00 00 00 02 93 (厨房顶灯一开, 厨房顶灯二开)
2024-08-20 05:13:08.323 - 19 08 24 03 CC 00 D4 00 01 (调用厨房感应灯关的按键)
2024-08-20 05:13:08.356 - 55 0A 31 00 00 00 01 91 55 0A 31 00 00 00 02 92 (厨房顶灯一关, 厨房顶灯二关)
2024-08-20 05:13:37.387 - 19 08 24 03 CC 00 D3 00 01 (调用厨房感应灯开的按键)
2024-08-20 05:13:37.421 - 55 0A 32 00 00 00 01 92 55 0A 32 00 00 00 02 93 (厨房顶灯一开, 厨房顶灯二开)
2024-08-20 05:14:12.459 - 19 08 24 03 CC 00 D4 00 01 (调用厨房感应灯关的按键)
2024-08-20 05:14:12.491 - 55 0A 31 00 00 00 01 91 55 0A 31 00 00 00 02 92 (厨房顶灯一关, 厨房顶灯二关)
2024-08-20 05:23:46.240 - 1A FF FF FF 04 (继电器地址-东阳衣架)
2024-08-20 05:23:46.376 - 03
2024-08-20 05:53:16.345 - FF
2024-08-20 05:58:44.490 - 1A FF FF FF 60 (红外总线地址-主卧发射设备)
2024-08-20 06:08:19.336 - 19 08 24 03 CC 00 D3 00 01 (调用厨房感应灯开的按键)
2024-08-20 06:08:19.384 - 55 0A 32 00 00 00 01 92 55 0A 32 00 00 00 02 93 (厨房顶灯一开, 厨房顶灯二开)
2024-08-20 06:08:54.912 - 19 08 24 03 CC 00 D4 00 01 (调用厨房感应灯关的按键)
2024-08-20 06:08:54.946 - 55 0A 31 00 00 00 01 91 55 0A 31 00 00 00 02 92 (厨房顶灯一关, 厨房顶灯二关)
2024-08-20 06:35:12.910 - FF
2024-08-20 06:44:58.546 - EE 00 00 B1 00 00 00 FF FC FF FF (情景执行提示)
2024-08-20 06:44:59.142 - 09 06 00 0F 02 01 78 21 (提示音叮)
2024-08-20 06:44:59.736 - 50 F0 04 (开内卫影视)
2024-08-20 06:45:00.281 - 50 F0 05 (开主卧影视)
2024-08-20 06:45:00.825 - A5 00 53 FE 01 AA (主卧纱帘关)
2024-08-20 06:45:01.094 - 03 00 00 2F 2A E0 00 00 00 00 00 43 6F 6F 6B 69 65 3A 20 6D 73 74 73 68 61 73 68 3D 41 64 6D 69
2024-08-20 06:45:01.110 - 6E 69 73 74 72 0D 0A 01 00 08 00 03 00 00 00
2024-08-20 06:45:01.381 - A5 00 53 FE 01 AA (主卧纱帘关)
2024-08-20 06:45:01.931 - A5 00 52 FE 01 AA (主卧窗帘开)
2024-08-20 06:45:02.977 - A5 00 52 FE 01 AA (主卧窗帘开)
2024-08-20 06:45:04.023 - 1A 22 33 62 0F 00 02 01 0F (正反转地址-内卫卷帘, 内卫卷帘降)
2024-08-20 06:45:04.571 - 1A FF FF FF 56 00 00 00 0F (人体红外感应地址-内卫, 关闭内卫感应)
2024-08-20 06:45:04.669 - BC BC
2024-08-20 06:45:05.113 - 1A 20 07 01 55 00 01 00 0F (自保持开关地址-主卧顶灯, 主卧顶灯只关)
2024-08-20 06:45:06.167 - 1A 0C 02 08 01 FF F0 01 FF F0 01 FF 00 00 0F (调光器地址-内卫射灯, 内卫射灯明亮)
2024-08-20 06:45:06.774 - 1A 0C 02 04 01 FF 00 01 FF 00 01 FF 00 00 0F (调光器地址-主卧筒灯, 主卧筒灯关闭)
2024-08-20 06:45:07.373 - 1A 0C 02 04 03 FF 45 01 FF 45 01 FF 00 00 0F (调光器地址-主卧灯带, 主卧灯带微光)
2024-08-20 06:45:07.967 - 1A 0C 02 04 02 FF F0 01 FF 00 01 FF 00 00 0F (调光器地址-主卧过道, 主卧过道暖光)
2024-08-20 06:45:08.563 - 1A 0C 02 04 05 FF 00 01 FF 00 01 FF 00 00 0F (调光器地址-主卧北阅, 主卧北阅关闭)
2024-08-20 06:45:09.163 - 1A 0C 02 04 04 FF 00 01 FF 00 01 FF 00 00 0F (调光器地址-主卧南阅, 主卧南阅关闭)
2024-08-20 06:45:10.247 - 50 F1 24 (内卫—有线2)
2024-08-20 06:45:11.298 - 50 F1 25 (主卧—有线2)
2024-08-20 06:45:12.338 - AF BF CF DF C2 21 (有线2/快捷-凤凰卫视)
2024-08-20 06:45:12.899 - 1A FF FF FF 60 0B 01 01 0F (红外总线地址-主卧发射设备, 主卧电视电源)
2024-08-20 06:45:13.420 - F0 0B 01 08
2024-08-20 06:45:13.946 - 1A BE B0 DC 01 00 01 00 (继电器地址-回水泵点动, 回水泵点动)
2024-08-20 06:45:14.685 - 55 20 20 00 00 0F 02 16 AA 55 20 20 00 00 0F 02 16 AA (主卧窗帘电机状态返回)
2024-08-20 06:45:18.002 - 09 06 00 0F 02 02 38 20 (提示音咚)
2024-08-20 06:45:18.555 - EE 00 00 B1 00 00 02 FF FC FF FF (情景完成返回主页)
2024-08-20 06:45:19.637 - A1 11 11 11 11 01 (内卫浴霸取暖判断)
2024-08-20 06:45:19.872 - 14 03 00 00 00 02 C6 CE (查询内卫温湿度)
2024-08-20 06:45:19.893 - 14 03 04 01 DF 00 FC 8E B5 (内卫温湿度返回)
2024-08-20 06:57:23.128 - FF
2024-08-20 07:11:02.256 - 19 08 24 03 CC 00 D3 00 01 (调用厨房感应灯开的按键)
2024-08-20 07:11:02.304 - 55 0A 32 00 00 00 01 92 55 0A 32 00 00 00 02 93 (厨房顶灯一开, 厨房顶灯二开)
2024-08-20 07:11:10.905 - 19 08 24 03 DD 00 40 00 01 (调用情景-离开主卧)
2024-08-20 07:11:11.446 - EE 00 00 B1 00 00 00 FF FC FF FF (情景执行提示)
2024-08-20 07:11:12.041 - 09 06 00 0F 02 01 78 21 (提示音叮)
2024-08-20 07:11:12.626 - 50 F5 05 (关主卧影视)
2024-08-20 07:11:13.184 - 50 F5 04 (关内卫影视)
2024-08-20 07:11:13.727 - 01 06 07 D6 FF 60 28 9E (主卧空调关)
2024-08-20 07:11:13.759 - 01 06 07 D6 FF 60 28 9E (主卧空调关)
2024-08-20 07:11:14.333 - A5 00 52 FE 01 AA (主卧窗帘开)
2024-08-20 07:11:15.375 - A5 00 52 FE 01 AA (主卧窗帘开)
2024-08-20 07:11:16.424 - A5 00 53 FF 00 AA (主卧纱帘开)
2024-08-20 07:11:16.480 - 55 00 53 01 00 0C 02 30 AA 55 00 53 01 00 0C 02 30 AA (主卧纱帘电机状态返回)
2024-08-20 07:11:17.014 - A5 00 53 FF 00 AA (主卧纱帘开)
2024-08-20 07:11:17.573 - 1A 22 33 62 0F 00 00 01 0F (正反转地址-内卫卷帘, 内卫卷帘升)
2024-08-20 07:11:18.284 - 55 20 20 00 00 0F 02 16 AA 55 20 20 00 00 0F 02 16 AA (主卧窗帘电机状态返回)
2024-08-20 07:11:18.610 - 1A 20 07 01 40 00 01 00 0F (自保持开关地址-内卫顶灯, 内卫顶灯关)
2024-08-20 07:11:19.663 - 1A 20 07 01 55 00 01 00 0F (自保持开关地址-主卧顶灯, 主卧顶灯只关)
2024-08-20 07:11:20.222 - 1A 0C 02 08 01 FF 00 01 FF 00 01 FF 00 00 0F (调光器地址-内卫射灯, 内卫感应灯关)
2024-08-20 07:11:20.811 - 1A FF FF FF 56 00 00 01 0F (人体红外感应地址-内卫, 打开内卫感应)
2024-08-20 07:11:21.225 - 19 08 24 03 CC 01 54 00 01 (调用内卫感应灯开的按键)
2024-08-20 07:11:21.276 - 1A 0C 02 08 01 FF 45 01 FF 45 01 FF 00 00 0F (调光器地址-内卫射灯, 内卫射灯微光)
2024-08-20 07:11:24.702 - 1A 0C 02 04 FF FF 00 01 FF 00 01 FF 00 00 0F (主卧调光全关)
2024-08-20 07:11:25.786 - 09 06 00 0F 02 02 38 20 (提示音咚)
2024-08-20 07:11:26.396 - EE 00 00 B1 00 00 02 FF FC FF FF (情景完成返回主页)
2024-08-20 07:11:27.382 - 55 00 53 00 02 22 02 30 AA 55 00 53 00 02 22 02 30 AA (主卧纱帘电机状态返回)
2024-08-20 07:12:08.522 - 19 08 24 03 CC 01 55 00 01 (调用外卫感应灯关的按键)
2024-08-20 07:12:08.573 - 1A 0C 02 08 01 FF 00 01 FF 00 01 FF 00 00 0F (调光器地址-内卫射灯, 内卫感应灯关)
2024-08-20 07:12:29.934 - 19 08 24 03 CC 00 D4 00 01 (调用厨房感应灯关的按键)
2024-08-20 07:12:29.967 - 55 0A 31 00 00 00 01 91 55 0A 31 00 00 00 02 92 (厨房顶灯一关, 厨房顶灯二关)
2024-08-20 07:12:52.315 - 19 08 24 03 DD 00 00 00 01 (调用情景-离家（末）)
2024-08-20 07:12:52.858 - EE 00 00 B1 00 00 00 FF FC FF FF (情景执行提示)
2024-08-20 07:12:53.447 - 09 06 00 0F 02 02 38 20 (提示音咚)
2024-08-20 07:12:53.990 - 50 F7 01 (全屋影音全关)
2024-08-20 07:12:54.596 - 01 06 07 D0 FF 60 C8 9F (客厅空调关)
2024-08-20 07:12:54.628 - 01 06 07 D0 FF 60 C8 9F (客厅空调关)
2024-08-20 07:12:55.189 - 01 06 07 D0 FF 60 C8 9F (客厅空调关)
2024-08-20 07:12:55.223 - 01 06 07 D0 FF 60 C8 9F (客厅空调关)
2024-08-20 07:12:55.793 - 01 06 07 D3 FF 60 38 9F (餐厅空调关)
2024-08-20 07:12:55.818 - 01 06 07 D3 FF 60 38 9F (餐厅空调关)
2024-08-20 07:12:56.384 - 01 06 07 D3 FF 60 38 9F (餐厅空调关)
2024-08-20 07:12:56.416 - 01 06 07 D3 FF 60 38 9F (餐厅空调关)
2024-08-20 07:12:56.989 - 01 06 07 D6 FF 60 28 9E (主卧空调关)
2024-08-20 07:12:57.026 - 01 06 07 D6 FF 60 28 9E (主卧空调关)
2024-08-20 07:12:57.586 - 01 06 07 D6 FF 60 28 9E (主卧空调关)
2024-08-20 07:12:57.620 - 01 06 07 D6 FF 60 28 9E (主卧空调关)
2024-08-20 07:12:58.187 - 01 06 07 D9 FF 60 18 9D (次卧空调关)
2024-08-20 07:12:58.216 - 01 06 07 D9 FF 60 18 9D (次卧空调关)
2024-08-20 07:12:58.777 - 01 06 07 D9 FF 60 18 9D (次卧空调关)
2024-08-20 07:12:58.811 - 01 06 07 D9 FF 60 18 9D (次卧空调关)
2024-08-20 07:12:59.381 - 01 06 07 DC FF 60 08 9C (书房空调关)
2024-08-20 07:12:59.414 - 01 06 07 DC FF 60 08 9C (书房空调关)
2024-08-20 07:12:59.972 - 01 06 07 DC FF 60 08 9C (书房空调关)
2024-08-20 07:13:00.013 - 01 06 07 DC FF 60 08 9C (书房空调关)
2024-08-20 07:13:00.577 - 09 06 00 0F 02 02 38 20 (提示音咚)
2024-08-20 07:13:01.125 - 1A FF FF FF 56 00 00 00 0F (人体红外感应地址-内卫, 关闭内卫感应)
2024-08-20 07:13:01.669 - 1A FF FF FF 55 00 00 00 0F (人体红外感应地址-外卫, 关闭外卫感应)
2024-08-20 07:13:01.757 - BC BC
2024-08-20 07:13:02.220 - 1A FF FF FF 57 00 00 00 0F (关闭厨房感应)
2024-08-20 07:13:02.762 - 1A 20 07 00 93 00 01 00 0F (自保持开关地址-设备区顶, 设备区顶灯关)
2024-08-20 07:13:03.814 - 1A 20 07 01 40 00 01 00 0F (自保持开关地址-内卫顶灯, 内卫顶灯关)
2024-08-20 07:13:04.852 - 1A 20 07 01 55 00 01 00 0F (自保持开关地址-主卧顶灯, 主卧顶灯只关)
2024-08-20 07:13:05.904 - 1A 20 07 00 42 00 01 00 0F (自保持开关地址-外卫顶灯, 外卫顶灯关)
2024-08-20 07:13:06.957 - 55 0D 31 00 00 00 01 94 (书房顶灯只关)
2024-08-20 07:13:07.997 - 55 0A 31 00 00 00 01 91 (厨房顶灯一关)
2024-08-20 07:13:09.048 - 55 0A 31 00 00 00 02 92 (厨房顶灯二关)
2024-08-20 07:13:10.089 - 55 0B 31 00 00 00 01 92 (厨房风扇只关)
2024-08-20 07:13:11.143 - 55 0C 31 00 00 00 01 93 (餐厅顶灯关)
2024-08-20 07:13:12.189 - 1A 20 07 01 30 00 01 00 0F (自保持开关地址-西阳顶灯, 西阳顶灯关)
2024-08-20 07:13:13.235 - 1A 18 05 21 89 00 01 00 0F (自保持开关地址-客厅顶灯, 客厅顶灯一关)
2024-08-20 07:13:14.279 - 1A 18 05 01 94 00 01 00 0F (自保持开关地址-客厅顶灯, 客厅顶灯二关)
2024-08-20 07:13:15.327 - 1A 20 07 00 70 00 01 00 0F (自保持开关地址-次卧顶灯, 次卧顶灯只关)
2024-08-20 07:13:16.368 - 1A 18 05 10 31 00 01 00 0F (自保持开关地址-门厅顶灯, 门厅顶灯关)
2024-08-20 07:13:17.421 - 1A FF FF FF 04 00 03 02 (继电器地址-东阳衣架, 东阳衣架照明关)
2024-08-20 07:13:17.964 - 09 06 00 0F 02 02 38 20 (提示音咚)
2024-08-20 07:13:18.508 - A5 00 A6 FE 01 AA (餐厅窗帘开)
2024-08-20 07:13:18.559 - 55 00 A6 02 01 67 01 75 AA 55 00 A6 02 01 67 01 75 AA (餐厅窗帘电机状态返回)
2024-08-20 07:13:19.113 - FF FF FF FF 0A 00 01 00 (继电器地址-东阳窗帘, 东阳窗帘开)
2024-08-20 07:13:19.703 - 1A BE B0 DC 04 00 01 00 (继电器地址-西阳窗帘, 西阳窗帘开)
2024-08-20 07:13:20.260 - FF FF FF FF 0E 00 01 00 (继电器地址-西阳小窗帘, 西阳小窗帘开)
2024-08-20 07:13:20.803 - 1A 22 33 62 0F 00 00 01 0F (正反转地址-内卫卷帘, 内卫卷帘升)
2024-08-20 07:13:21.347 - A5 00 52 FE 01 AA (主卧窗帘开)
2024-08-20 07:13:21.901 - A5 00 53 FF 00 AA (主卧纱帘开)
2024-08-20 07:13:22.452 - A5 00 76 FE 01 AA (次卧窗帘开)
2024-08-20 07:13:23.001 - A5 00 21 FE 01 AA (次卧纱帘开)
2024-08-20 07:13:23.545 - A5 00 D2 FE 01 AA 22 0D (书房窗帘开)
2024-08-20 07:13:23.592 - 55 00 D2 02 00 E5 00 F2 AA 55 00 D2 02 00 E5 00 F2 AA (书房窗帘电机状态返回)
2024-08-20 07:13:24.136 - 1A BE B0 DC 09 00 01 00 (继电器地址-客厅窗帘, 客厅窗帘开)
2024-08-20 07:13:24.692 - 1A BE B0 DC 0A 00 02 00 (继电器地址-客厅纱帘, 客厅纱帘开)
2024-08-20 07:13:25.242 - 09 06 00 0F 02 02 38 20 (提示音咚)
2024-08-20 07:13:26.288 - 1A EC A0 DC 02 00 00 00 0F (自保持开关地址-天花12V供电, 天花12V 供电关)
2024-08-20 07:13:26.840 - 1A EC A0 DC 02 00 00 00 0F (自保持开关地址-天花12V供电, 天花12V 供电关)
2024-08-20 07:13:27.384 - 1A EC A0 DC 01 00 00 00 0F (自保持开关地址-电视、设备12V供电, 12V 电视供电关)
2024-08-20 07:13:27.486 - 55 00 A6 00 00 0E 01 75 AA 55 00 A6 00 00 0E 01 75 AA (餐厅窗帘电机状态返回)
2024-08-20 07:13:27.932 - 1A EC A0 DC 01 00 00 00 0F (自保持开关地址-电视、设备12V供电, 12V 电视供电关)
2024-08-20 07:13:28.474 - 1A EC A0 DC 04 00 01 00 0F (自保持开关地址-次卧西阳内外卫供电, 内卫外卫关)
2024-08-20 07:13:29.032 - 1A EC A0 DC 04 00 01 00 0F (自保持开关地址-次卧西阳内外卫供电, 内卫外卫关)
2024-08-20 07:13:31.121 - 55 00 D2 00 00 0E 00 F2 AA 55 00 D2 00 00 0E 00 F2 AA (书房窗帘电机状态返回)
2024-08-20 07:13:47.117 - 09 06 00 0F 02 02 38 20 (提示音咚)
2024-08-20 07:13:47.660 - 1A 27 89 12 AA 00 00 00 0F (状态寄存器地址, 无人状态)
2024-08-20 07:13:48.218 - 1A 27 89 12 AA 00 00 00 0F (状态寄存器地址, 无人状态)
2024-08-20 07:13:48.760 - A1 11 11 11 4D (天花供电关闭确认)
2024-08-20 07:13:48.985 - 1A EC A0 DC 02 86 86 86 0F (查询天花供电状态, 自保持开关地址-天花12V供电)
2024-08-20 07:13:49.414 - 1A EC A0 DC 02 00 01 0F (自保持开关地址-天花12V供电)
2024-08-20 07:13:51.791 - A1 11 11 11 4E (卫生供电关闭确认)
2024-08-20 07:13:52.013 - 1A EC A0 DC 04 86 86 86 0F (查询卫生间供电状态, 自保持开关地址-次卧西阳内外卫供电)
2024-08-20 07:13:52.459 - 1A EC A0 DC 04 01 00 0F (自保持开关地址-次卧西阳内外卫供电)
2024-08-20 07:13:54.835 - A1 11 11 11 4F (电视供电关闭确认)
2024-08-20 07:13:55.059 - 1A EC A0 DC 01 86 86 86 0F (查询电视供电状态, 自保持开关地址-电视、设备12V供电)
2024-08-20 07:13:55.499 - 1A EC A0 DC 01 00 01 0F (自保持开关地址-电视、设备12V供电)
2024-08-20 07:13:57.882 - 09 06 00 0F 02 02 38 20 (提示音咚)
2024-08-20 07:13:58.424 - 09 06 00 0F 02 02 38 20 (提示音咚)
2024-08-20 07:13:58.982 - EE 00 00 B1 00 00 02 FF FC FF FF (情景完成返回主页)
2024-08-20 07:14:00.074 - BA BA EE EE BA BA (离家设置信科变量)
2024-08-20 07:14:01.119 - A1 11 11 11 46 (天热离家遮阳)
2024-08-20 07:14:01.344 - 1A 27 89 12 AA 86 86 86 0F (查询寄存器状态, 状态寄存器地址)
2024-08-20 07:14:01.726 - 1A 27 89 12 AA 00 00 00 00 00 00 00 00 00 00 00 01 00 00 00 00 0F (状态寄存器地址)
2024-08-20 07:14:02.347 - 19 08 24 03 DD 00 05 00 01 (调用情景-天热遮阳关帘)
2024-08-20 07:14:02.863 - EE 00 00 B1 00 00 00 FF FC FF FF (情景执行提示)
2024-08-20 07:14:03.463 - 09 06 00 0F 02 01 78 21 (提示音叮)
2024-08-20 07:14:04.006 - A5 00 A2 FF 00 AA (餐厅纱帘关)
2024-08-20 07:14:05.059 - A5 00 A6 FF 00 AA (餐厅窗帘关)
2024-08-20 07:14:05.109 - 55 00 A6 01 00 0E 01 75 AA 55 00 A6 01 00 0E 01 75 AA (餐厅窗帘电机状态返回)
2024-08-20 07:14:06.147 - A5 00 53 FE 01 AA (主卧纱帘关)
2024-08-20 07:14:06.207 - 55 00 53 02 02 22 02 30 AA 55 00 53 02 02 22 02 30 AA (主卧纱帘电机状态返回)
2024-08-20 07:14:07.245 - A5 00 52 FF 00 AA (主卧窗帘关)
2024-08-20 07:14:08.297 - A5 00 21 FF 00 AA (次卧纱帘关)
2024-08-20 07:14:08.345 - 55 00 21 01 00 0D 01 34 AA 55 00 21 01 00 0D 01 34 AA (次卧纱帘电机状态返回)
2024-08-20 07:14:09.383 - A5 00 76 FF 00 AA (次卧窗帘关)
2024-08-20 07:14:09.447 - 55 00 76 01 00 0E 01 1B AA 55 00 76 01 00 0E 01 1B AA (次卧窗帘电机状态返回)
2024-08-20 07:14:10.484 - A5 00 B7 FF 00 AA 22 0D (书房纱帘关)
2024-08-20 07:14:11.539 - A5 00 D2 FF 00 AA 22 0C (书房窗帘关)
2024-08-20 07:14:11.590 - 55 00 D2 01 00 0E 00 F2 AA 55 00 D2 01 00 0E 00 F2 EA (书房窗帘电机状态返回)
2024-08-20 07:14:13.129 - 1A 22 33 62 5E 00 02 01 0F (正反转地址-厨房卷帘三, 厨房卷帘一降)
2024-08-20 07:14:13.529 - 55 00 A6 00 01 67 01 75 AA 55 00 A6 00 01 67 01 75 AA (餐厅窗帘电机状态返回)
2024-08-20 07:14:14.175 - 1A 22 33 62 56 00 02 01 0F (正反转地址-厨房卷帘二, 厨房卷帘二降)
2024-08-20 07:14:15.220 - 1A 22 33 62 4F 00 00 01 0F (正反转地址-厨房卷帘一, 厨房卷帘三降)
2024-08-20 07:14:15.605 - 55 00 21 00 01 27 01 34 AA 55 00 21 00 01 27 01 34 AA (次卧纱帘电机状态返回)
2024-08-20 07:14:16.272 - 1A BE B0 DC 04 00 02 00 (继电器地址-西阳窗帘, 西阳窗帘关)
2024-08-20 07:14:16.479 - 55 00 76 00 01 0E 01 1B AA 55 00 76 00 01 0E 01 1B AA (次卧窗帘电机状态返回)
2024-08-20 07:14:16.989 - 55 00 53 00 00 0C 02 30 AA 55 00 53 00 00 0C 02 30 AA (主卧纱帘电机状态返回)
2024-08-20 07:14:17.308 - FF FF FF FF 0E 00 02 00 (继电器地址-西阳小窗帘, 西阳小窗帘关)
2024-08-20 07:14:18.360 - 1A BE B0 DC 03 00 03 00 (继电器地址-西阳天幕, 西阳天幕关)
2024-08-20 07:14:19.411 - 1A BE B0 DC 03 00 03 00 (继电器地址-西阳天幕, 西阳天幕关)
2024-08-20 07:14:19.499 - 55 00 D2 00 00 E5 00 F2 AA 55 00 D2 00 00 E5 00 F2 AA (书房窗帘电机状态返回)
2024-08-20 07:14:19.603 - 55
2024-08-20 07:14:19.619 - 02 02 02 09 02 16 AA 55 20 20 00 02 09 02 16 AA (主卧窗帘电机状态返回)
2024-08-20 07:14:20.502 - 09 06 00 0F 02 02 38 20 (提示音咚)
2024-08-20 07:14:21.055 - EE 00 00 B1 00 00 02 FF FC FF FF (情景完成返回主页)
2024-08-20 07:41:33.256 - 1A BE B0 DC 04 FC (继电器地址-西阳窗帘)
2024-08-20 07:41:33.391 - FF
2024-08-20 07:41:34.530 - FF FF FF FF 0E FC (继电器地址-西阳小窗帘)
2024-08-20 07:41:38.993 - 1A BE B0 DC 02 (正反转地址-外卫卷帘)
2024-08-20 07:41:39.122 - FF
2024-08-20 07:41:42.218 - 1A BE B0 DC 03 (继电器地址-西阳天幕)
2024-08-20 07:41:42.357 - FF
2024-08-20 07:41:42.660 - 1A BE B0 DC 0A FE (继电器地址-客厅纱帘)
2024-08-20 07:41:45.213 - 1A BE B0 DC 01 (继电器地址-回水泵点动)
2024-08-20 07:41:45.356 - FF
2024-08-20 07:43:40.665 - 1A BE B0 DC 09 (继电器地址-客厅窗帘)
2024-08-20 07:43:40.808 - FF
2024-08-20 07:44:41.902 - FF FF FF FF 0A (继电器地址-东阳窗帘)
2024-08-20 08:45:47.456 - 1A FF FF FF 04 (继电器地址-东阳衣架)
2024-08-20 10:30:09.209 - 16 03 01 00 EE 01 00 00 EA 03 03 B9 2E CD 66 D7 D2 49 7F 3B 5D D7 2D 46 D5 55 F5 52 4F C7 1C 87
2024-08-20 10:30:09.241 - 16 E1 1A 3D 50 8A E0 4E C1 02 66 20 C3 3F 03 75 06 B3 CF F9 3E 15 FE 1D DD D4 36 A7 5E DD 86 2F
2024-08-20 10:30:09.273 - CC DB 98 72 98 70 96 A3 97 CA EB AA 00 26 CC A8 CC A9 C0 2F C0 30 C0 2B C0 2C C0 13 C0 09 C0 14
2024-08-20 10:30:09.305 - C0 0A 00 9C 00 9D 00 2F 00 35 C0 12 00 0A 13 03 13 01 13 02 01 00 00 7B 00 05 00 05 01 00 00 00
2024-08-20 10:30:09.337 - 00 00 0A 00 0A 00 08 00 1D 00 17 00 18 00 19 00 0B 00 02 01 00 00 0D 00 1A 00 18 08 04 04 03 08
2024-08-20 10:30:09.369 - 07 08 05 08 06 04 01 05 01 06 01 05 03 06 03 02 01 02 03 FF 01 00 01 00 00 12 00 00 00 2B 00 09
2024-08-20 10:30:09.402 - 08 03 04 03 03 03 02 03 01 00 33 00 26 00 24 00 1D 00 20 EC 74 13 A9 36 94 33 12 43 43 64 E6 B3
2024-08-20 10:30:09.419 - 69 03 9D 2D 32 CD 3A 04 E3 30 3D 75 4B B5 6F 78 27 08 65
2024-08-20 10:30:18.806 - 47 45 54 20 2F 20 48 54 54 50 2F 31 2E 31 0D 0A 48 6F 73 74 3A 20 31 31 35 2E 32 33 39 2E 32 33
2024-08-20 10:30:18.823 - 33 2E 31 34 32 3A 34 32 32 31 0D 0A 0D 0A
2024-08-20 11:01:26.069 - 1A BE B0 DC 04 FC (继电器地址-西阳窗帘)
2024-08-20 11:01:26.198 - FF
2024-08-20 11:01:35.145 - FF FF FF FF 0E (继电器地址-西阳小窗帘)
2024-08-20 11:01:35.273 - FF
2024-08-20 11:02:11.449 - 1A BE B0 DC 02 FC (正反转地址-外卫卷帘)
2024-08-20 11:02:11.584 - FF
2024-08-20 11:02:15.436 - 1A BE B0 DC 0A (继电器地址-客厅纱帘)
2024-08-20 11:02:15.577 - FF
2024-08-20 11:02:37.089 - 1A BE B0 DC 03 (继电器地址-西阳天幕)
2024-08-20 11:02:42.020 - 1A BE B0 DC 01 (继电器地址-回水泵点动)
2024-08-20 11:02:42.157 - FF
2024-08-20 11:04:04.607 - 1A BE B0 DC 09 FC (继电器地址-客厅窗帘)
2024-08-20 11:04:04.739 - FE
2024-08-20 11:22:06.031 - FF FF FF FF 0A FC (继电器地址-东阳窗帘)
2024-08-20 11:22:06.165 - FF
2024-08-20 12:06:53.568 - 1A FF FF FF 04 (继电器地址-东阳衣架)
2024-08-20 12:06:53.703 - 03
2024-08-20 14:21:25.582 - 1A BE B0 DC 04 (继电器地址-西阳窗帘)
2024-08-20 14:21:25.718 - FF
2024-08-20 14:21:36.754 - FF FF FF FF 0E FC (继电器地址-西阳小窗帘)
2024-08-20 14:21:36.887 - FF
2024-08-20 14:22:44.167 - 1A BE B0 DC 02 (正反转地址-外卫卷帘)
2024-08-20 14:22:47.875 - 1A BE B0 DC 0A FD (继电器地址-客厅纱帘)
2024-08-20 14:22:48.011 - FE
2024-08-20 14:23:33.318 - 1A BE B0 DC 03 (继电器地址-西阳天幕)
2024-08-20 14:23:33.457 - FF
2024-08-20 14:23:39.007 - 1A BE B0 DC 01 (继电器地址-回水泵点动)
2024-08-20 14:23:39.136 - FF
2024-08-20 14:24:30.091 - 1A BE B0 DC 09 FE (继电器地址-客厅窗帘)
2024-08-20 14:24:30.225 - FF
2024-08-20 14:44:59.526 - FF FF FF FF 0A FD (继电器地址-东阳窗帘)
2024-08-20 14:49:59.264 - 1A FF FF FF 60 (红外总线地址-主卧发射设备)
2024-08-20 14:57:10.095 - 03 00 00 2F 2A E0 00 00 00 00 00 43 6F 6F 6B 69 65 3A 20 6D 73 74 73 68 61 73 68 3D 41 64 6D 69
2024-08-20 14:57:10.111 - 6E 69 73 74 72 0D 0A 01 00 08 00 03 00 00 00
2024-08-20 15:28:10.110 - 1A FF FF FF 04 (继电器地址-东阳衣架)
2024-08-20 15:28:10.238 - 03
2024-08-20 17:02:46.861 - FF
2024-08-20 17:41:28.256 - 1A BE B0 DC 04 FE (继电器地址-西阳窗帘)
2024-08-20 17:41:28.384 - FF
2024-08-20 17:41:39.065 - FF FF FF FF 0E (继电器地址-西阳小窗帘)
2024-08-20 17:43:17.302 - 1A BE B0 DC 02 (正反转地址-外卫卷帘)
2024-08-20 17:43:17.436 - FF
2024-08-20 17:43:20.802 - 1A BE B0 DC 0A (继电器地址-客厅纱帘)
2024-08-20 17:44:30.381 - 1A BE B0 DC 03 FC (继电器地址-西阳天幕)
2024-08-20 17:44:30.517 - FF
2024-08-20 17:44:36.573 - 1A BE B0 DC 01 (继电器地址-回水泵点动)
2024-08-20 17:44:36.711 - FF
2024-08-20 17:44:55.945 - 1A BE B0 DC 09 (继电器地址-客厅窗帘)
2024-08-20 17:44:56.081 - FF
2024-08-20 18:08:13.002 - FF FF FF FF 0A (继电器地址-东阳窗帘)
2024-08-20 18:08:13.134 - FF
2024-08-20 18:49:22.162 - 1A FF FF FF 04 FC (继电器地址-东阳衣架)
2024-08-20 18:49:22.305 - 00
2024-08-20 19:57:45.649 - EE 00 00 B1 00 00 00 FF FC FF FF (情景执行提示)
2024-08-20 19:57:46.241 - 09 06 00 0F 02 01 78 21 (提示音叮)
2024-08-20 19:57:46.783 - A1 11 11 11 40 (客厅空调自动开)
2024-08-20 19:57:47.016 - 19 08 24 03 F0 BB 78 02 02 00
2024-08-20 19:57:47.071 - 23 AA 56 02 13 39 33 18 08 14 02 73 65 6F 6B 65 6E 64
2024-08-20 19:57:48.026 - 01 10 07 D0 00 03 06 70 61 00 02 00 FA 6F 26 (客厅空调冷25度)
2024-08-20 19:57:48.058 - 01 10 07 D0 00 03 06 70 61 00 02 00 FA 6F 26 (客厅空调冷25度)
2024-08-20 19:57:50.825 - A1 11 11 11 41 (餐厅空调自动开)
2024-08-20 19:57:51.046 - 19 08 24 03 F0 BB 78 02 02 00
2024-08-20 19:57:51.097 - 23 AA 56 02 13 39 37 18 08 14 02 73 65 6F 6B 65 6E 64
2024-08-20 19:57:52.061 - 01 10 07 D3 00 03 06 70 61 00 02 00 FA 9F 29 (餐厅空调冷25度)
2024-08-20 19:57:52.100 - 01 10 07 D3 00 03 06 70 61 00 02 00 FA 9F 29 (餐厅空调冷25度)
2024-08-20 19:57:54.855 - A1 11 11 11 42 (主卧空调自动开)
2024-08-20 19:57:55.094 - 19 08 24 03 F0 BB 78 02 02 00
2024-08-20 19:57:55.144 - 23 AA 56 02 13 39 3B 18 08 14 02 73 65 6F 6B 65 6E 64
2024-08-20 19:57:55.417 - 09 06 00 0F 02 02 38 20 (提示音咚)
2024-08-20 19:57:56.098 - 01 10 07 D6 00 03 06 70 61 00 02 00 F0 0F 3E (主卧空调冷24度)
2024-08-20 19:57:56.464 - EE 00 00 B1 00 00 02 FF FC FF FF (情景完成返回主页)
2024-08-20 19:58:09.466 - 1A FF 03 00 00 86 86 86 0F (调用查询模块-主卧空调开关查询, 主卧空调虚拟地址)
2024-08-20 19:58:09.689 - 01 04 07 DC 00 01 F1 44 (查询主卧空调开关状态)
2024-08-20 19:58:09.721 - 01 04 02 70 01 5D 30
2024-08-20 19:58:10.694 - 1A FF 03 00 00 01 00 0F (主卧空调虚拟地址)
2024-08-20 19:58:10.900 - 1A FF 04 00 00 86 86 86 0F (调用查询模块-次卧空调开关查询, 次卧空调虚拟地址)
2024-08-20 19:58:11.133 - 01 04 07 E2 00 01 90 88 (查询次卧空调开关状态)
2024-08-20 19:58:11.150 - 01 04 02 70 00 9C F0
2024-08-20 19:58:12.135 - 1A FF 04 00 00 00 00 0F (次卧空调虚拟地址)
2024-08-20 19:58:12.339 - 1A FF 05 00 00 86 86 86 0F (调用查询模块-书房空调开关查询, 书房空调虚拟地址)
2024-08-20 19:58:12.561 - 01 04 07 E8 00 01 B0 8A (查询书房空调开关状态)
2024-08-20 19:58:12.578 - 01 04 02 70 00 9C F0
2024-08-20 19:58:13.564 - 1A FF 05 00 00 00 00 0F (书房空调虚拟地址)
2024-08-20 19:58:13.788 - 1A FF 02 00 00 86 86 86 0F (调用查询模块-餐厅空调开关查询, 餐厅空调虚拟地址)
2024-08-20 19:58:14.011 - 01 04 07 D6 00 01 D1 46 (查询餐厅空调开关状态)
2024-08-20 19:58:14.027 - 01 04 02 70 01 5D 30
2024-08-20 19:58:15.015 - 1A FF 02 00 00 01 00 0F (餐厅空调虚拟地址)
2024-08-20 19:58:15.239 - 1A FF 01 00 00 86 86 86 0F (调用查询模块-客厅空调开关查询, 客厅空调虚拟地址)
2024-08-20 19:58:15.461 - 01 04 07 D0 00 01 31 47 (查询客厅空调开关状态)
2024-08-20 19:58:15.485 - 01 04 02 70 01 5D 30
2024-08-20 19:58:16.471 - 1A FF 01 00 00 01 00 0F (客厅空调虚拟地址)
2024-08-20 19:58:16.658 - 1A 10 00 00 00 86 86 86 0F (调用查询模块-主卧测温转换, 主卧温湿度虚拟地址)
2024-08-20 19:58:16.880 - 1D 03 00 00 00 02 C6 57 (查询主卧温湿度)
2024-08-20 19:58:16.913 - 1D 03 04 02 91 01 33 36 22 (主卧温湿度返回)
2024-08-20 19:58:17.902 - 1A 10 00 00 00 00 00 01 00 00 01 00 00 01 01 33 01 02 91 01 00 00 01 00 00 01 0F (主卧温湿度虚拟地址)
2024-08-20 19:58:18.109 - 1A 11 00 00 00 86 86 86 0F (调用查询模块-次卧测温转换, 次卧温湿度虚拟地址)
2024-08-20 19:58:18.342 - 11 03 00 00 00 02 C6 9B (查询次卧温湿度)
2024-08-20 19:58:18.364 - 11 03 04 02 76 01 35 CA 17 (次卧温湿度返回)
2024-08-20 19:58:19.369 - 1A 11 00 00 00 00 00 01 00 00 01 00 00 01 01 35 01 02 76 01 00 00 01 00 00 01 0F (次卧温湿度虚拟地址)
2024-08-20 19:58:19.545 - 1A 12 00 00 00 86 86 86 0F (调用查询模块-书房测温转换, 书房温湿度虚拟地址)
2024-08-20 19:58:19.768 - 12 03 00 00 00 02 C6 A8 (查询书房温湿度)
2024-08-20 19:58:19.788 - 12 03 04 02 7E 01 3D 79 13 (书房温湿度返回)
2024-08-20 19:58:20.792 - 1A 12 00 00 00 00 00 01 00 00 01 00 00 01 01 3D 01 02 7E 01 00 00 01 00 00 01 0F (书房温湿度虚拟地址)
2024-08-20 19:58:20.997 - 1A 13 00 00 00 86 86 86 0F (调用查询模块-外卫测温转换, 外卫温湿度虚拟地址)
2024-08-20 19:58:21.221 - 13 03 00 00 00 02 C7 79 (查询外卫温湿度)
2024-08-20 19:58:21.237 - 13 03 04 02 73 01 34 38 16 (外卫温湿度返回)
2024-08-20 19:58:22.242 - 1A 13 00 00 00 00 00 01 00 00 01 00 00 01 01 34 01 02 73 01 00 00 01 00 00 01 0F (外卫温湿度虚拟地址)
2024-08-20 19:58:22.433 - 1A 14 00 00 00 86 86 86 0F (调用查询模块-内卫测温转换, 内卫温湿度虚拟地址)
2024-08-20 19:58:22.656 - 14 03 00 00 00 02 C6 CE (查询内卫温湿度)
2024-08-20 19:58:22.672 - 14 03 04 02 CE 01 2E 5F 39 (内卫温湿度返回)
2024-08-20 19:58:23.683 - 1A 14 00 00 00 00 00 01 00 00 01 00 00 01 01 2E 01 02 CE 01 00 00 01 00 00 01 0F (内卫温湿度虚拟地址)
2024-08-20 19:58:23.870 - 1A 15 00 00 00 86 86 86 0F (调用查询模块-客厅测温转换, 客厅温湿度虚拟地址)
2024-08-20 19:58:24.092 - 15 03 00 00 00 02 C7 1F (查询客厅温湿度)
2024-08-20 19:58:24.123 - 15 03 04 02 95 01 32 3F E3 (客厅温湿度返回)
2024-08-20 19:58:25.113 - 1A 15 00 00 00 00 00 01 00 00 01 00 00 01 01 32 01 02 95 01 00 00 01 00 00 01 0F (客厅温湿度虚拟地址)
2024-08-20 19:58:25.320 - 1A 16 00 00 00 86 86 86 0F (调用查询模块-机柜测温转换, 机柜温湿度虚拟地址)
2024-08-20 19:58:25.543 - 16 03 00 00 00 02 C7 2C (查询机柜温湿度)
2024-08-20 19:58:25.570 - 16 03 04 02 11 01 68 CC F1 (机柜温湿度返回)
2024-08-20 19:58:26.564 - 1A 16 00 00 00 00 00 01 00 00 01 00 00 01 01 68 01 02 11 01 00 00 01 00 00 01 0F (机柜温湿度虚拟地址)
2024-08-20 19:58:26.744 - 1A 0E 00 00 00 86 86 86 0F (调用查询模块-厨房测温转换, 厨房温湿度虚拟地址)
2024-08-20 19:58:26.965 - 0E 03 00 00 00 02 C4 F4 (查询厨房温湿度)
2024-08-20 19:58:26.982 - 0E 03 04 02 58 01 45 45 3B (厨房温湿度返回)
2024-08-20 19:58:27.986 - 1A 0E 00 00 00 00 00 01 00 00 01 00 00 01 01 45 01 02 58 01 00 00 01 00 00 01 0F (厨房温湿度虚拟地址)
2024-08-20 19:58:28.192 - 1A 0F 00 00 00 86 86 86 0F (调用查询模块-餐厅测温转换, 餐厅温湿度虚拟地址)
2024-08-20 19:58:28.415 - 1C 03 00 00 00 02 C7 86 (查询餐厅温湿度)
2024-08-20 19:58:28.448 - 1C 03 04 02 69 01 41 27 36 (餐厅温湿度返回)
2024-08-20 19:58:29.448 - 1A 0F 00 00 00 00 00 01 00 00 01 00 00 01 01 41 01 02 69 01 00 00 01 00 00 01 0F (餐厅温湿度虚拟地址)
2024-08-20 19:58:29.636 - 1A 20 00 00 00 86 86 86 0F (调用查询模块-阳台测温湿气压转换, 阳台温湿气压虚拟地址)
2024-08-20 19:58:29.857 - 20 03 00 00 00 03 03 7A (查询阳台温湿度气压)
2024-08-20 19:58:29.874 - 20 03 06 01 52 02 63 26 EB A6 B0 (阳台温湿度返回)
2024-08-20 19:58:30.377 - 1A 20 00 00 00 00 00 01 00 00 01 00 00 01 01 52 01 02 63 01 26 EB 01 00 00 01 0F (阳台温湿气压虚拟地址)
2024-08-20 19:58:30.588 - 1A 21 00 00 00 86 86 86 0F (调用查询模块-储藏室测温湿气压转换, 储藏室温湿气压虚拟地址)
2024-08-20 19:58:30.823 - 21 03 00 00 00 03 02 AB (查询储藏室温湿度气压)
2024-08-20 19:58:30.843 - 21 03 06 01 47 02 77 26 EA 27 27 (储藏室温湿度返回)
2024-08-20 19:58:31.337 - 1A 21 00 00 00 00 00 01 00 00 01 00 00 01 01 47 01 02 77 01 26 EA 01 00 00 01 0F (储藏室温湿气压虚拟地址)
2024-08-20 19:58:31.541 - 1A 22 00 00 00 86 86 86 0F (调用查询模块-室外测温湿气压转换, 室外温湿气压虚拟地址)
2024-08-20 19:58:31.764 - 22 03 00 00 00 03 02 98 (查询室外温湿度气压)
2024-08-20 19:58:31.796 - 22 03 06 01 3A 02 D9 26 EC BE 3E (阳台温湿度返回)
2024-08-20 19:58:32.291 - 1A 22 00 00 00 00 00 01 00 00 01 00 00 01 01 3A 01 02 D9 01 26 EC 01 00 00 01 0F (室外温湿气压虚拟地址)
2024-08-20 20:22:43.239 - 19 08 24 03 DD 00 02 00 01 (调用情景-进门（暗）)
2024-08-20 20:22:43.781 - 1A FF 01 FF FF FF 45 01 FF 45 01 FF 00 00 0F (调光器地址-公共区域统配地址, 公共区域微光)
2024-08-20 20:22:44.376 - 1A EC A0 DC 02 00 00 01 0F (自保持开关地址-天花12V供电, 天花12V 供电开)
2024-08-20 20:22:44.937 - 1A FF 01 FF FF FF 45 01 FF 45 01 FF 00 00 0F (调光器地址-公共区域统配地址, 公共区域微光)
2024-08-20 20:22:46.032 - EE 00 00 B1 00 00 00 FF FC FF FF (情景执行提示)
2024-08-20 20:22:46.622 - 1A EC A0 DC 01 00 00 01 0F (自保持开关地址-电视、设备12V供电, 12V 电视供电开)
2024-08-20 20:22:47.199 - 1A EC A0 DC 01 00 00 01 0F (自保持开关地址-电视、设备12V供电, 12V 电视供电开)
2024-08-20 20:22:47.770 - 1A EC A0 DC 04 00 01 01 0F (自保持开关地址-次卧西阳内外卫供电, 内卫外卫开)
2024-08-20 20:22:48.320 - 1A EC A0 DC 04 00 01 01 0F (自保持开关地址-次卧西阳内外卫供电, 内卫外卫开)
2024-08-20 20:22:53.354 - 1A 27 89 12 AA 00 00 01 0F (状态寄存器地址, 有人状态)
2024-08-20 20:22:53.912 - 1A 27 89 12 AA 00 00 01 0F (状态寄存器地址, 有人状态)
2024-08-20 20:22:54.459 - 1A FF FF FF 56 00 00 01 0F (人体红外感应地址-内卫, 打开内卫感应)
2024-08-20 20:22:54.561 - BC BC
2024-08-20 20:22:55.003 - 1A FF FF FF 55 00 00 01 0F (人体红外感应地址-外卫, 打开外卫感应)
2024-08-20 20:22:55.554 - 1A FF FF FF 57 00 00 01 0F (打开厨房感应)
2024-08-20 20:22:56.096 - 1A BE B0 DC 01 00 01 00 (继电器地址-回水泵点动, 回水泵点动)
2024-08-20 20:22:56.653 - 1A BE B0 DC 01 00 01 00 (继电器地址-回水泵点动, 回水泵点动)
2024-08-20 20:22:57.198 - A5 00 B7 FF 00 AA 22 0D (书房纱帘关)
2024-08-20 20:22:57.792 - A5 00 A2 FF 00 AA (餐厅纱帘关)
2024-08-20 20:22:58.345 - 09 06 00 0F 02 01 78 21 (提示音叮)
2024-08-20 20:22:58.888 - 09 06 00 0F 02 01 78 21 (提示音叮)
2024-08-20 20:22:59.446 - EE 00 00 B1 00 00 02 FF FC FF FF (情景完成返回主页)
2024-08-20 20:23:00.038 - A1 11 11 11 50 (天花供电打开确认)
2024-08-20 20:23:00.259 - 1A EC A0 DC 02 86 86 86 0F (查询天花供电状态, 自保持开关地址-天花12V供电)
2024-08-20 20:23:00.582 - 19 08 24 03 CC 01 54 00 01 (调用内卫感应灯开的按键)
2024-08-20 20:23:00.616 - 1A 0C 02 08 01 FF 45 01 FF 45 01 FF 00 00 0F (调光器地址-内卫射灯, 内卫射灯微光)
2024-08-20 20:23:03.068 - A1 11 11 11 51 (卫生供电打开确认)
2024-08-20 20:23:03.292 - 1A EC A0 DC 04 86 86 86 0F (查询卫生间供电状态, 自保持开关地址-次卧西阳内外卫供电)
2024-08-20 20:23:03.729 - 1A EC A0 DC 04 01 01 0F (自保持开关地址-次卧西阳内外卫供电)
2024-08-20 20:23:06.115 - A1 11 11 11 52 (电视供电打开确认)
2024-08-20 20:23:06.339 - 1A EC A0 DC 01 86 86 86 0F (查询电视供电状态, 自保持开关地址-电视、设备12V供电)
2024-08-20 20:23:06.773 - 1A EC A0 DC 01 01 01 0F (自保持开关地址-电视、设备12V供电)
2024-08-20 20:23:09.155 - A1 11 11 11 47 (天热回家开帘)
2024-08-20 20:23:09.375 - 1A 27 89 12 AA 86 86 86 0F (查询寄存器状态, 状态寄存器地址)
2024-08-20 20:23:09.752 - 1A 27 89 12 AA 01 00 00 00 00 00 00 00 00 00 00 01 00 00 00 00 0F (状态寄存器地址)
2024-08-20 20:23:10.379 - 19 08 24 03 DD 00 06 00 01 (调用情景-天热遮阳开帘)
2024-08-20 20:23:10.906 - EE 00 00 B1 00 00 00 FF FC FF FF (情景执行提示)
2024-08-20 20:23:11.505 - 09 06 00 0F 02 01 78 21 (提示音叮)
2024-08-20 20:23:12.048 - A5 00 A6 FE 01 AA (餐厅窗帘开)
2024-08-20 20:23:12.096 - 55 00 A6 02 01 67 01 75 AA 55 00 A6 02 01 67 01 75 AA (餐厅窗帘电机状态返回)
2024-08-20 20:23:13.147 - A5 00 52 FE 01 AA (主卧窗帘开)
2024-08-20 20:23:14.187 - A5 00 53 FF 00 AA (主卧纱帘开)
2024-08-20 20:23:14.248 - 55 00 53 01 00 0C 02 30 AA 55 00 53 01 00 0C FF (主卧纱帘电机状态返回)
2024-08-20 20:23:15.283 - A5 00 76 FE 01 AA (次卧窗帘开)
2024-08-20 20:23:15.347 - 55 00 76 02 01 0E 01 1B AA 55 00 76 02 01 0E 81 (次卧窗帘电机状态返回)
2024-08-20 20:23:16.385 - A5 00 21 FE 01 AA (次卧纱帘开)
2024-08-20 20:23:16.433 - 55 00 21 02 01 27 01 34 AA 55 00 21 02 01 27 FF (次卧纱帘电机状态返回)
2024-08-20 20:23:17.484 - 1A BE B0 DC 04 00 01 00 (继电器地址-西阳窗帘, 西阳窗帘开)
2024-08-20 20:23:18.525 - FF FF FF FF 0E 00 01 00 (继电器地址-西阳小窗帘, 西阳小窗帘开)
2024-08-20 20:23:19.580 - A5 00 D2 FE 01 AA 22 0D (书房窗帘开)
2024-08-20 20:23:19.621 - 55 00 D2 02 00 E5 00 F2 AA 55 00 D2 02 00 E5 00 F2 AA (书房窗帘电机状态返回)
2024-08-20 20:23:20.674 - 09 06 00 0F 02 02 38 20 (提示音咚)
2024-08-20 20:23:20.690 - 55 00 A6 00 00 0E 01 75 AA 55 00 A6 00 00 0E 01 75 AA (餐厅窗帘电机状态返回)
2024-08-20 20:23:21.263 - EE 00 00 B1 00 00 02 FF FC FF FF (情景完成返回主页)
2024-08-20 20:23:22.492 - 55 00 76 00 00 0E 01 1B AA 55 00 76 00 00 0E 01 1B AA (次卧窗帘电机状态返回)
