2024-08-29 18:56:18.147 - 19 08 24 03 CC 00 D3 00 01 (调用厨房感应灯开的按键)
2024-08-29 18:56:18.185 - 55 0A 32 00 00 00 01 92 55 0A 32 00 00 00 02 93 (厨房顶灯一开, 厨房顶灯二开)
2024-08-29 18:56:19.422 - FF
2024-08-29 18:56:53.217 - 19 08 24 03 CC 00 D4 00 01 (调用厨房感应灯关的按键)
2024-08-29 18:56:53.267 - 55 0A 31 00 00 00 01 91 55 0A 31 00 00 00 02 92 (厨房顶灯一关, 厨房顶灯二关)
2024-08-29 18:57:02.738 - 19 08 24 03 CC 00 D3 00 01 (调用厨房感应灯开的按键)
2024-08-29 18:57:02.780 - 55 0A 32 00 00 00 01 92 55 0A 32 00 00 00 02 93 (厨房顶灯一开, 厨房顶灯二开)
2024-08-29 18:57:38.304 - 19 08 24 03 CC 00 D4 00 01 (调用厨房感应灯关的按键)
2024-08-29 18:57:38.338 - 55 0A 31 00 00 00 01 91 55 0A 31 00 00 00 02 92 (厨房顶灯一关, 厨房顶灯二关)
2024-08-29 18:57:53.332 - 19 08 24 03 CC 00 D3 00 01 (调用厨房感应灯开的按键)
2024-08-29 18:57:53.369 - 55 0A 32 00 00 00 01 92 55 0A 32 00 00 00 02 93 (厨房顶灯一开, 厨房顶灯二开)
2024-08-29 18:58:28.897 - 19 08 24 03 CC 00 D4 00 01 (调用厨房感应灯关的按键)
2024-08-29 18:58:28.942 - 55 0A 31 00 00 00 01 91 55 0A 31 00 00 00 02 92 (厨房顶灯一关, 厨房顶灯二关)
2024-08-29 18:58:28.994 - 19 08 24 03 CC 01 CC 00 01 (调用茶吧感应灯开的按键)
2024-08-29 18:58:43.526 - 19 08 24 03 CC 01 CD 00 01 (调用茶吧感应灯关的按键)
2024-08-29 18:58:43.556 - 1A AA AA AA 88 FF 00 01 FF 00 01 0F (调光器地址-茶吧灯带, 茶吧灯带关闭)
2024-08-29 19:00:44.135 - 19 08 24 03 CC 01 52 00 01 (调用外卫感应灯开的按键)
2024-08-29 19:00:44.166 - 1A 0D 01 07 01 FF 45 01 FF 45 01 FF 00 00 0F (调光器地址-外卫射灯, 外卫感应灯开)
2024-08-29 19:01:21.712 - 19 08 24 03 CC 01 53 00 01 (调用外卫感应灯关的按键)
2024-08-29 19:01:21.746 - 1A 0D 01 07 01 FF 00 01 FF 00 01 FF 00 00 0F (调光器地址-外卫射灯, 外卫感应灯关)
2024-08-29 19:02:00.415 - 19 08 24 03 CC 01 CC 00 01 (调用茶吧感应灯开的按键)
2024-08-29 19:02:00.449 - 1A AA AA AA 88 FF B0 01 FF B0 01 0F (调光器地址-茶吧灯带, 茶吧灯带明亮)
2024-08-29 19:02:02.795 - EE 00 71 B1 01 00 03 FF FC FF FF
2024-08-29 19:02:03.533 - 55 0C 30 00 00 00 01 92 (餐厅顶灯开关)
2024-08-29 19:02:15.366 - 19 08 24 03 CC 00 D3 00 01 (调用厨房感应灯开的按键)
2024-08-29 19:02:15.429 - 55 0A 32 00 00 00 01 92 55 0A 32 00 00 00 02 93 (厨房顶灯一开, 厨房顶灯二开)
2024-08-29 19:02:27.846 - 19 08 24 03 CC 01 52 00 01 (调用外卫感应灯开的按键)
2024-08-29 19:02:27.882 - 1A 0D 01 07 01 FF 45 01 FF 45 01 FF 00 00 0F (调光器地址-外卫射灯, 外卫感应灯开)
2024-08-29 19:02:46.383 - 19 08 24 03 CC 01 53 00 01 (调用外卫感应灯关的按键)
2024-08-29 19:02:46.417 - 1A 0D 01 07 01 FF 00 01 FF 00 01 FF 00 00 0F (调光器地址-外卫射灯, 外卫感应灯关)
2024-08-29 19:03:01.465 - 19 08 24 03 CC 00 D4 00 01 (调用厨房感应灯关的按键)
2024-08-29 19:03:01.500 - 55 0A 31 00 00 00 01 91 55 0A 31 00 00 00 02 92 (厨房顶灯一关, 厨房顶灯二关)
2024-08-29 19:03:18.149 - FF
2024-08-29 19:04:45.668 - 19 08 24 03 CC 00 D3 00 01 (调用厨房感应灯开的按键)
2024-08-29 19:04:45.718 - 55 0A 32 00 00 00 01 92 55 0A 32 00 00 00 02 93 (厨房顶灯一开, 厨房顶灯二开)
2024-08-29 19:05:20.740 - 19 08 24 03 CC 00 D4 00 01 (调用厨房感应灯关的按键)
2024-08-29 19:05:20.788 - 55 0A 31 00 00 00 01 91 55 0A 31 00 00 00 02 92 (厨房顶灯一关, 厨房顶灯二关)
2024-08-29 19:05:39.266 - 19 08 24 03 CC 00 D3 00 01 (调用厨房感应灯开的按键)
2024-08-29 19:05:39.311 - 55 0A 32 00 00 00 01 92 55 0A 32 00 00 00 02 93 (厨房顶灯一开, 厨房顶灯二开)
2024-08-29 19:06:14.846 - 19 08 24 03 CC 00 D4 00 01 (调用厨房感应灯关的按键)
2024-08-29 19:06:14.880 - 55 0A 31 00 00 00 01 91 55 0A 31 00 00 00 02 92 (厨房顶灯一关, 厨房顶灯二关)
2024-08-29 19:07:30.494 - 19 08 24 03 CC 00 D3 00 01 (调用厨房感应灯开的按键)
2024-08-29 19:07:30.528 - 55 0A 32 00 00 00 01 92 55 0A 32 00 00 00 02 93 (厨房顶灯一开, 厨房顶灯二开)
2024-08-29 19:08:11.567 - 19 08 24 03 CC 00 D4 00 01 (调用厨房感应灯关的按键)
2024-08-29 19:08:11.611 - 55 0A 31 00 00 00 01 91 55 0A 31 00 00 00 02 92 (厨房顶灯一关, 厨房顶灯二关)
2024-08-29 19:09:15.190 - 19 08 24 03 CC 00 D3 00 01 (调用厨房感应灯开的按键)
2024-08-29 19:09:15.224 - 55 0A 32 00 00 00 01 92 55 0A 32 00 00 00 02 93 (厨房顶灯一开, 厨房顶灯二开)
2024-08-29 19:09:55.778 - 19 08 24 03 CC 00 D4 00 01 (调用厨房感应灯关的按键)
2024-08-29 19:09:55.805 - 55 0A 31 00 00 00 01 91 55 0A 31 00 00 00 02 92 (厨房顶灯一关, 厨房顶灯二关)
2024-08-29 19:11:21.449 - 19 08 24 03 CC 00 D3 00 01 (调用厨房感应灯开的按键)
2024-08-29 19:11:21.485 - 55 0A 32 00 00 00 01 92 55 0A 32 00 00 00 02 93 (厨房顶灯一开, 厨房顶灯二开)
2024-08-29 19:12:06.024 - 19 08 24 03 CC 00 D4 00 01 (调用厨房感应灯关的按键)
2024-08-29 19:12:06.070 - 55 0A 31 00 00 00 01 91 55 0A 31 00 00 00 02 92 (厨房顶灯一关, 厨房顶灯二关)
2024-08-29 19:15:00.380 - 19 08 24 03 CC 00 D3 00 01 (调用厨房感应灯开的按键)
2024-08-29 19:15:00.412 - 55 0A 32 00 00 00 01 92 55 0A 32 00 00 00 02 93 (厨房顶灯一开, 厨房顶灯二开)
2024-08-29 19:15:35.950 - 19 08 24 03 CC 00 D4 00 01 (调用厨房感应灯关的按键)
2024-08-29 19:15:35.982 - 55 0A 31 00 00 00 01 91 55 0A 31 00 00 00 02 92 (厨房顶灯一关, 厨房顶灯二关)
2024-08-29 19:17:18.645 - 19 08 24 03 CC 00 D3 00 01 (调用厨房感应灯开的按键)
2024-08-29 19:17:18.677 - 55 0A 32 00 00 00 01 92 55 0A 32 00 00 00 02 93 (厨房顶灯一开, 厨房顶灯二开)
2024-08-29 19:18:02.726 - 19 08 24 03 CC 00 D4 00 01 (调用厨房感应灯关的按键)
2024-08-29 19:18:02.773 - 55 0A 31 00 00 00 01 91 55 0A 31 00 00 00 02 92 (厨房顶灯一关, 厨房顶灯二关)
2024-08-29 19:18:11.245 - 19 08 24 03 CC 00 D3 00 01 (调用厨房感应灯开的按键)
2024-08-29 19:18:11.291 - 55 0A 32 00 00 00 01 92 55 0A 32 00 00 00 02 93 (厨房顶灯一开, 厨房顶灯二开)
2024-08-29 19:18:46.821 - 19 08 24 03 CC 00 D4 00 01 (调用厨房感应灯关的按键)
2024-08-29 19:18:46.858 - 55 0A 31 00 00 00 01 91 55 0A 31 00 00 00 02 92 (厨房顶灯一关, 厨房顶灯二关)
2024-08-29 19:25:26.607 - 19 08 24 03 CC 00 D3 00 01 (调用厨房感应灯开的按键)
2024-08-29 19:25:26.647 - 55 0A 32 00 00 00 01 92 55 0A 32 00 00 00 02 93 (厨房顶灯一开, 厨房顶灯二开)
2024-08-29 19:26:01.678 - 19 08 24 03 CC 00 D4 00 01 (调用厨房感应灯关的按键)
2024-08-29 19:26:01.712 - 55 0A 31 00 00 00 01 91 55 0A 31 00 00 00 02 92 (厨房顶灯一关, 厨房顶灯二关)
2024-08-29 19:27:33.861 - 19 08 24 03 CC 00 D3 00 01 (调用厨房感应灯开的按键)
2024-08-29 19:27:33.895 - 55 0A 32 00 00 00 01 92 55 0A 32 00 00 00 02 93 (厨房顶灯一开, 厨房顶灯二开)
2024-08-29 19:28:08.929 - 19 08 24 03 CC 00 D4 00 01 (调用厨房感应灯关的按键)
2024-08-29 19:28:08.963 - 55 0A 31 00 00 00 01 91 55 0A 31 00 00 00 02 92 (厨房顶灯一关, 厨房顶灯二关)
2024-08-29 19:28:27.968 - 19 08 24 03 CC 00 D3 00 01 (调用厨房感应灯开的按键)
2024-08-29 19:28:27.995 - 55 0A 32 00 00 00 01 92 55 0A 32 00 00 00 02 93 (厨房顶灯一开, 厨房顶灯二开)
2024-08-29 19:28:43.083 - 19 08 24 03 CC 01 CD 00 01 (调用茶吧感应灯关的按键)
2024-08-29 19:28:43.099 - 1A AA AA AA 88 FF 00 01 FF 00 01 0F (调光器地址-茶吧灯带, 茶吧灯带关闭)
2024-08-29 19:28:46.081 - 19 08 24 03 CC 01 CC 00 01 (调用茶吧感应灯开的按键)
2024-08-29 19:28:46.114 - 1A AA AA AA 88 FF B0 01 FF B0 01 0F (调光器地址-茶吧灯带, 茶吧灯带明亮)
2024-08-29 19:29:03.031 - 19 08 24 03 CC 00 D4 00 01 (调用厨房感应灯关的按键)
2024-08-29 19:29:03.065 - 55 0A 31 00 00 00 01 91 55 0A 31 00 00 00 02 92 (厨房顶灯一关, 厨房顶灯二关)
2024-08-29 19:31:02.271 - 19 08 24 03 CC 00 D3 00 01 (调用厨房感应灯开的按键)
2024-08-29 19:31:02.305 - 55 0A 32 00 00 00 01 92 55 0A 32 00 00 00 02 93 (厨房顶灯一开, 厨房顶灯二开)
2024-08-29 19:31:37.837 - 19 08 24 03 CC 00 D4 00 01 (调用厨房感应灯关的按键)
2024-08-29 19:31:37.869 - 55 0A 31 00 00 00 01 91 55 0A 31 00 00 00 02 92 (厨房顶灯一关, 厨房顶灯二关)
2024-08-29 19:34:28.173 - 19 08 24 03 CC 00 D3 00 01 (调用厨房感应灯开的按键)
2024-08-29 19:34:28.207 - 55 0A 32 00 00 00 01 92 55 0A 32 00 00 00 02 93 (厨房顶灯一开, 厨房顶灯二开)
2024-08-29 19:35:12.762 - 19 08 24 03 CC 00 D4 00 01 (调用厨房感应灯关的按键)
2024-08-29 19:35:12.794 - 55 0A 31 00 00 00 01 91 55 0A 31 00 00 00 02 92 (厨房顶灯一关, 厨房顶灯二关)
2024-08-29 19:35:45.415 - 19 08 24 03 CC 01 CD 00 01 (调用茶吧感应灯关的按键)
2024-08-29 19:35:45.447 - 1A AA AA AA 88 FF 00 01 FF 00 01 0F (调光器地址-茶吧灯带, 茶吧灯带关闭)
2024-08-29 19:36:26.903 - 19 08 24 03 CC 00 D3 00 01 (调用厨房感应灯开的按键)
2024-08-29 19:36:26.935 - 55 0A 32 00 00 00 01 92 55 0A 32 00 00 00 02 93 (厨房顶灯一开, 厨房顶灯二开)
2024-08-29 19:36:44.031 - 19 08 24 03 CC 01 CC 00 01 (调用茶吧感应灯开的按键)
2024-08-29 19:36:44.063 - 1A AA AA AA 88 FF B0 01 FF B0 01 0F (调光器地址-茶吧灯带, 茶吧灯带明亮)
2024-08-29 19:36:53.411 - 19 08 24 03 CC 01 52 00 01 (调用外卫感应灯开的按键)
2024-08-29 19:36:53.456 - 1A 0D 01 07 01 FF 45 01 FF 45 01 FF 00 00 0F (调光器地址-外卫射灯, 外卫感应灯开)
2024-08-29 19:37:01.984 - 19 08 24 03 CC 00 D4 00 01 (调用厨房感应灯关的按键)
2024-08-29 19:37:02.024 - 55 0A 31 00 00 00 01 91 55 0A 31 00 00 00 02 92 (厨房顶灯一关, 厨房顶灯二关)
2024-08-29 19:37:11.961 - 19 08 24 03 CC 01 53 00 01 (调用外卫感应灯关的按键)
2024-08-29 19:37:11.984 - 1A 0D 01 07 01 FF 00 01 FF 00 01 FF 00 00 0F (调光器地址-外卫射灯, 外卫感应灯关)
2024-08-29 19:38:00.680 - 19 08 24 03 CC 01 CD 00 01 (调用茶吧感应灯关的按键)
2024-08-29 19:38:00.714 - 1A AA AA AA 88 FF 00 01 FF 00 01 0F (调光器地址-茶吧灯带, 茶吧灯带关闭)
2024-08-29 19:39:13.322 - 19 08 24 03 CC 01 CC 00 01 (调用茶吧感应灯开的按键)
2024-08-29 19:39:13.370 - 1A AA AA AA 88 FF B0 01 FF B0 01 0F (调光器地址-茶吧灯带, 茶吧灯带明亮)
2024-08-29 19:39:34.363 - 19 08 24 03 CC 01 CD 00 01 (调用茶吧感应灯关的按键)
2024-08-29 19:39:34.395 - 1A AA AA AA 88 FF 00 01 FF 00 01 0F (调光器地址-茶吧灯带, 茶吧灯带关闭)
2024-08-29 19:39:35.872 - 19 08 24 03 CC 01 CC 00 01 (调用茶吧感应灯开的按键)
2024-08-29 19:39:35.894 - 1A AA AA AA 88 FF B0 01 FF B0 01 0F (调光器地址-茶吧灯带, 茶吧灯带明亮)
2024-08-29 19:40:52.021 - 19 08 24 03 CC 01 CD 00 01 (调用茶吧感应灯关的按键)
2024-08-29 19:40:52.055 - 1A AA AA AA 88 FF 00 01 FF 00 01 0F (调光器地址-茶吧灯带, 茶吧灯带关闭)
2024-08-29 19:41:39.114 - 19 08 24 03 CC 01 CC 00 01 (调用茶吧感应灯开的按键)
2024-08-29 19:41:39.148 - 1A AA AA AA 88 FF B0 01 FF B0 01 0F (调光器地址-茶吧灯带, 茶吧灯带明亮)
2024-08-29 19:42:41.152 - 19 08 24 03 CC 00 D3 00 01 (调用厨房感应灯开的按键)
2024-08-29 19:42:41.186 - 55 0A 32 00 00 00 01 92 55 0A 32 00 00 00 02 93 (厨房顶灯一开, 厨房顶灯二开)
2024-08-29 19:46:00.544 - 19 08 24 03 CC 00 D4 00 01 (调用厨房感应灯关的按键)
2024-08-29 19:46:00.575 - 55 0A 31 00 00 00 01 91 55 0A 31 00 00 00 02 92 (厨房顶灯一关, 厨房顶灯二关)
2024-08-29 19:46:11.564 - 19 08 24 03 CC 00 D3 00 01 (调用厨房感应灯开的按键)
2024-08-29 19:46:11.596 - 55 0A 32 00 00 00 01 92 55 0A 32 00 00 00 02 93 (厨房顶灯一开, 厨房顶灯二开)
2024-08-29 19:46:46.583 - 19 08 24 03 CC 01 52 00 01 (调用外卫感应灯开的按键)
2024-08-29 19:46:46.616 - 1A 0D 01 07 01 FF 45 01 FF 45 01 FF 00 00 0F (调光器地址-外卫射灯, 外卫感应灯开)
2024-08-29 19:47:37.738 - 19 08 24 03 CC 00 D4 00 01 (调用厨房感应灯关的按键)
2024-08-29 19:47:37.770 - 55 0A 31 00 00 00 01 91 55 0A 31 00 00 00 02 92 (厨房顶灯一关, 厨房顶灯二关)
2024-08-29 19:47:52.271 - 19 08 24 03 CC 00 D3 00 01 (调用厨房感应灯开的按键)
2024-08-29 19:47:52.303 - 55 0A 32 00 00 00 01 92 55 0A 32 00 00 00 02 93 (厨房顶灯一开, 厨房顶灯二开)
2024-08-29 19:48:27.700 - 19 08 24 03 CC 01 54 00 01 (调用内卫感应灯开的按键)
2024-08-29 19:48:27.732 - 1A 0C 02 08 01 FF 45 01 FF 45 01 FF 00 00 0F (调光器地址-内卫射灯, 内卫射灯微光)
2024-08-29 19:48:28.418 - 19 08 24 03 CC 01 CD 00 01 (调用茶吧感应灯关的按键)
2024-08-29 19:48:28.452 - 1A AA AA AA 88 FF 00 01 FF 00 01 0F (调光器地址-茶吧灯带, 茶吧灯带关闭)
2024-08-29 19:49:04.917 - 19 08 24 03 CC 00 D4 00 01 (调用厨房感应灯关的按键)
2024-08-29 19:49:04.950 - 55 0A 31 00 00 00 01 91 55 0A 31 00 00 00 02 92 (厨房顶灯一关, 厨房顶灯二关)
2024-08-29 19:51:24.270 - 19 08 24 03 CC 01 CC 00 01 (调用茶吧感应灯开的按键)
2024-08-29 19:51:24.301 - 1A AA AA AA 88 FF B0 01 FF B0 01 0F (调光器地址-茶吧灯带, 茶吧灯带明亮)
2024-08-29 19:51:28.051 - 19 08 24 03 CC 01 55 00 01 (调用内卫感应灯关的按键)
2024-08-29 19:51:28.084 - 1A 0C 02 08 01 FF 00 01 FF 00 01 FF 00 00 0F (调光器地址-内卫射灯, 内卫感应灯关)
2024-08-29 19:52:31.268 - 19 08 24 03 CC 01 53 00 01 (调用外卫感应灯关的按键)
2024-08-29 19:52:31.299 - 1A 0D 01 07 01 FF 00 01 FF 00 01 FF 00 00 0F (调光器地址-外卫射灯, 外卫感应灯关)
2024-08-29 19:54:44.585 - 19 08 24 03 CC 00 D3 00 01 (调用厨房感应灯开的按键)
2024-08-29 19:54:44.617 - 55 0A 32 00 00 00 01 92 55 0A 32 00 00 00 02 93 (厨房顶灯一开, 厨房顶灯二开)
2024-08-29 19:55:19.651 - 19 08 24 03 CC 00 D4 00 01 (调用厨房感应灯关的按键)
2024-08-29 19:55:19.683 - 55 0A 31 00 00 00 01 91 55 0A 31 00 00 00 02 92 (厨房顶灯一关, 厨房顶灯二关)
2024-08-29 19:55:24.246 - 19 08 24 03 CC 01 CD 00 01 (调用茶吧感应灯关的按键)
2024-08-29 19:55:24.278 - 1A AA AA AA 88 FF 00 01 FF 00 01 0F (调光器地址-茶吧灯带, 茶吧灯带关闭)
2024-08-29 19:55:39.773 - 19 08 24 03 CC 01 CC 00 01 (调用茶吧感应灯开的按键)
2024-08-29 19:55:39.807 - 1A AA AA AA 88 FF B0 01 FF B0 01 0F (调光器地址-茶吧灯带, 茶吧灯带明亮)
2024-08-29 19:55:54.418 - 55 0C 30 00 00 00 01 92 (餐厅顶灯开关)
2024-08-29 19:55:57.310 - 19 08 24 03 CC 01 CD 00 01 (调用茶吧感应灯关的按键)
2024-08-29 19:55:57.362 - 1A AA AA AA 88 FF 00 01 FF 00 01 0F (调光器地址-茶吧灯带, 茶吧灯带关闭)
2024-08-29 19:56:18.853 - 19 08 24 03 CC 01 CC 00 01 (调用茶吧感应灯开的按键)
2024-08-29 19:56:18.885 - 1A AA AA AA 88 FF B0 01 FF B0 01 0F (调光器地址-茶吧灯带, 茶吧灯带明亮)
2024-08-29 19:56:26.288 - 19 08 24 03 CC 00 D3 00 01 (调用厨房感应灯开的按键)
2024-08-29 19:56:26.322 - 55 0A 32 00 00 00 01 92 55 0A 32 00 00 00 02 93 (厨房顶灯一开, 厨房顶灯二开)
2024-08-29 19:56:40.896 - 19 08 24 03 DD 00 1A 00 01 (调用情景-客厅电视播放)
2024-08-29 19:56:41.438 - EE 00 00 B1 00 00 00 FF FC FF FF (情景执行提示)
2024-08-29 19:56:41.901 - 19 08 24 03 CC 01 CD 00 01 (调用茶吧感应灯关的按键)
2024-08-29 19:56:41.917 - 1A AA AA AA 88 FF 00 01 FF 00 01 0F (调光器地址-茶吧灯带, 茶吧灯带关闭)
2024-08-29 19:56:42.332 - 09 06 00 0F 02 01 78 21 (提示音叮)
2024-08-29 19:56:42.923 - 50 F0 08 (开客厅影视)
2024-08-29 19:56:51.938 - 50 F1 28 (客厅—有线2)
2024-08-29 19:56:52.499 - 09 06 00 0F 02 01 78 21 (提示音叮)
2024-08-29 19:56:53.044 - EE 00 00 B1 00 00 02 FF FC FF FF (情景完成返回主页)
2024-08-29 19:57:13.880 - 19 08 24 03 CC 00 D4 00 01 (调用厨房感应灯关的按键)
2024-08-29 19:57:13.914 - 55 0A 31 00 00 00 01 91 55 0A 31 00 00 00 02 92 (厨房顶灯一关, 厨房顶灯二关)
2024-08-29 20:05:38.362 - 19 08 24 03 CC 00 D3 00 01 (调用厨房感应灯开的按键)
2024-08-29 20:05:38.395 - 55 0A 32 00 00 00 01 92 55 0A 32 00 00 00 02 93 (厨房顶灯一开, 厨房顶灯二开)
2024-08-29 20:06:03.231 - 19 08 24 03 CC 01 02 00 01
2024-08-29 20:06:03.263 - 1A 22 33 62 0F 00 02 01 0F (正反转地址-内卫卷帘, 内卫卷帘降)
2024-08-29 20:06:03.773 - 19 08 24 03 CC 01 54 00 01 (调用内卫感应灯开的按键)
2024-08-29 20:06:03.807 - 1A 0C 02 08 01 FF 45 01 FF 45 01 FF 00 00 0F (调光器地址-内卫射灯, 内卫射灯微光)
2024-08-29 20:06:18.126 - 19 08 24 03 DD 00 42 00 01 (调用情景-主卧电视空调)
2024-08-29 20:06:18.639 - EE 00 00 B1 00 00 00 FF FC FF FF (情景执行提示)
2024-08-29 20:06:19.231 - 09 06 00 0F 02 01 78 21 (提示音叮)
2024-08-29 20:06:19.776 - 50 F0 05 (开主卧影视)
2024-08-29 20:06:20.320 - 50 F0 04 (开内卫影视)
2024-08-29 20:06:20.881 - 1A FF FF FF 56 00 00 00 0F (人体感应地址-内卫, 关闭内卫感应)
2024-08-29 20:06:21.478 - 1A 22 33 62 0F 00 02 01 0F (正反转地址-内卫卷帘, 内卫卷帘降)
2024-08-29 20:06:22.051 - A5 00 53 FE 01 AA (主卧纱帘关)
2024-08-29 20:06:22.106 - 55 00 53 02 02 22 02 30 AA 55 00 53 02 02 22 02 30 EA (主卧纱帘电机状态返回)
2024-08-29 20:06:23.120 - A5 00 52 FF 00 AA (主卧窗帘关)
2024-08-29 20:06:24.173 - 1A 0C 02 04 FF FF 45 01 FF 45 01 FF 00 00 0F (主卧调光微光)
2024-08-29 20:06:27.967 - 19 08 24 03 CC 00 D4 00 01 (调用厨房感应灯关的按键)
2024-08-29 20:06:28.025 - 55 0A 31 00 00 00 01 91 55 0A 31 00 00 00 02 92 (厨房顶灯一关, 厨房顶灯二关)
2024-08-29 20:06:28.432 - 1A 0C 02 08 01 FF 45 01 FF 45 01 FF 00 00 0F (调光器地址-内卫射灯, 内卫射灯微光)
2024-08-29 20:06:29.045 - 50 F1 25 (主卧—有线2)
2024-08-29 20:06:29.594 - A1 11 11 11 42 (主卧空调自动开)
2024-08-29 20:06:29.828 - 19 08 24 03 F0 BB 78 02 02 00
2024-08-29 20:06:29.865 - 23 AA 56 02 14 06 3A 18 08 1D 04 73 65 6F 6B 65 6E 64
2024-08-29 20:06:30.136 - 50 F1 24 (内卫—有线2)
2024-08-29 20:06:30.832 - 01 10 07 D6 00 03 06 70 61 00 02 00 F0 0F 3E (主卧空调冷24度)
2024-08-29 20:06:30.870 - 01 10 07 D6 00 03 06 70 61 00 02 00 F0 0F 3E (主卧空调冷24度)
2024-08-29 20:06:32.178 - AF BF CF DF C2 21 (有线2/快捷-凤凰卫视)
2024-08-29 20:06:33.454 - 55 00 53 00 00 0C 02 30 AA 55 00 53 00 00 0C 02 30 AA (主卧纱帘电机状态返回)
2024-08-29 20:06:34.234 - 1A FF FF FF 60 0B 01 01 0F (红外总线地址-主卧发射设备, 主卧电视电源)
2024-08-29 20:06:34.713 - 55 20 20 00 02 09 02 16 AA 55 20 20 00 02 09 02 16 AA (主卧窗帘电机状态返回)
2024-08-29 20:06:42.257 - 09 06 00 0F 02 02 38 20 (提示音咚)
2024-08-29 20:06:42.805 - EE 00 00 B1 00 00 02 FF FC FF FF (情景完成返回主页)
2024-08-29 20:07:16.661 - 19 08 24 03 CC 01 CC 00 01 (调用茶吧感应灯开的按键)
2024-08-29 20:07:16.707 - 1A AA AA AA 88 FF B0 01 FF B0 01 0F (调光器地址-茶吧灯带, 茶吧灯带明亮)
2024-08-29 20:07:29.086 - 19 08 24 03 CC 00 D3 00 01 (调用厨房感应灯开的按键)
2024-08-29 20:07:29.118 - 55 0A 32 00 00 00 01 92 55 0A 32 00 00 00 02 93 (厨房顶灯一开, 厨房顶灯二开)
2024-08-29 20:07:40.205 - 19 08 24 03 CC 01 CD 00 01 (调用茶吧感应灯关的按键)
2024-08-29 20:07:40.236 - 1A AA AA AA 88 FF 00 01 FF 00 01 0F (调光器地址-茶吧灯带, 茶吧灯带关闭)
2024-08-29 20:08:20.285 - 19 08 24 03 CC 01 CC 00 01 (调用茶吧感应灯开的按键)
2024-08-29 20:08:20.317 - 1A AA AA AA 88 FF B0 01 FF B0 01 0F (调光器地址-茶吧灯带, 茶吧灯带明亮)
2024-08-29 20:08:40.819 - 19 08 24 03 CC 01 CD 00 01 (调用茶吧感应灯关的按键)
2024-08-29 20:08:40.853 - 1A AA AA AA 88 FF 00 01 FF 00 01 0F (调光器地址-茶吧灯带, 茶吧灯带关闭)
2024-08-29 20:09:36.435 - 19 08 24 03 CC 01 CC 00 01 (调用茶吧感应灯开的按键)
2024-08-29 20:09:36.466 - 1A AA AA AA 88 FF B0 01 FF B0 01 0F (调光器地址-茶吧灯带, 茶吧灯带明亮)
2024-08-29 20:10:02.987 - 19 08 24 03 CC 01 CD 00 01 (调用茶吧感应灯关的按键)
2024-08-29 20:10:03.019 - 1A AA AA AA 88 FF 00 01 FF 00 01 0F (调光器地址-茶吧灯带, 茶吧灯带关闭)
2024-08-29 20:11:47.193 - 19 08 24 03 CC 01 CC 00 01 (调用茶吧感应灯开的按键)
2024-08-29 20:11:47.225 - 1A AA AA AA 88 FF B0 01 FF B0 01 0F (调光器地址-茶吧灯带, 茶吧灯带明亮)
2024-08-29 20:11:59.208 - 19 08 24 03 CC 01 CD 00 01 (调用茶吧感应灯关的按键)
2024-08-29 20:11:59.242 - 1A AA AA AA 88 FF 00 01 FF 00 01 0F (调光器地址-茶吧灯带, 茶吧灯带关闭)
2024-08-29 20:13:40.317 - 19 08 24 03 CC 00 D4 00 01 (调用厨房感应灯关的按键)
2024-08-29 20:13:40.349 - 55 0A 31 00 00 00 01 91 55 0A 31 00 00 00 02 92 (厨房顶灯一关, 厨房顶灯二关)
2024-08-29 20:13:48.838 - 19 08 24 03 CC 00 D3 00 01 (调用厨房感应灯开的按键)
2024-08-29 20:13:48.869 - 55 0A 32 00 00 00 01 92 55 0A 32 00 00 00 02 93 (厨房顶灯一开, 厨房顶灯二开)
2024-08-29 20:14:58.476 - 19 08 24 03 CC 00 D4 00 01 (调用厨房感应灯关的按键)
2024-08-29 20:14:58.510 - 55 0A 31 00 00 00 01 91 55 0A 31 00 00 00 02 92 (厨房顶灯一关, 厨房顶灯二关)
2024-08-29 20:15:54.080 - 19 08 24 03 CC 00 D3 00 01 (调用厨房感应灯开的按键)
2024-08-29 20:15:54.114 - 55 0A 32 00 00 00 01 92 55 0A 32 00 00 00 02 93 (厨房顶灯一开, 厨房顶灯二开)
2024-08-29 20:29:55.738 - 19 08 24 03 CC 00 D4 00 01 (调用厨房感应灯关的按键)
2024-08-29 20:29:55.772 - 55 0A 31 00 00 00 01 91 55 0A 31 00 00 00 02 92 (厨房顶灯一关, 厨房顶灯二关)
2024-08-29 20:31:21.899 - 19 08 24 03 CC 00 D3 00 01 (调用厨房感应灯开的按键)
2024-08-29 20:31:21.933 - 55 0A 32 00 00 00 01 92 55 0A 32 00 00 00 02 93 (厨房顶灯一开, 厨房顶灯二开)
2024-08-29 20:46:52.450 - FF
2024-08-29 20:59:12.669 - 19 08 24 03 CC 01 52 00 01 (调用外卫感应灯开的按键)
2024-08-29 20:59:12.717 - 1A 0D 01 07 01 FF 45 01 FF 45 01 FF 00 00 0F (调光器地址-外卫射灯, 外卫感应灯开)
2024-08-29 20:59:12.813 - 19 08 24 03 CC 01 CC 00 01 (调用茶吧感应灯开的按键)
2024-08-29 20:59:25.840 - 19 08 24 03 CC 01 CD 00 01 (调用茶吧感应灯关的按键)
2024-08-29 20:59:25.884 - 1A AA AA AA 88 FF 00 01 FF 00 01 0F (调光器地址-茶吧灯带, 茶吧灯带关闭)
2024-08-29 20:59:32.210 - 19 08 24 03 CC 01 53 00 01 (调用外卫感应灯关的按键)
2024-08-29 20:59:32.244 - 1A 0D 01 07 01 FF 00 01 FF 00 01 FF 00 00 0F (调光器地址-外卫射灯, 外卫感应灯关)
2024-08-29 21:00:18.446 - 19 08 24 03 CC 01 CC 00 01 (调用茶吧感应灯开的按键)
2024-08-29 21:00:18.472 - 1A AA AA AA 88 FF B0 01 FF B0 01 0F (调光器地址-茶吧灯带, 茶吧灯带明亮)
2024-08-29 21:00:30.966 - 19 08 24 03 CC 01 CD 00 01 (调用茶吧感应灯关的按键)
2024-08-29 21:00:30.998 - 1A AA AA AA 88 FF 00 01 FF 00 01 0F (调光器地址-茶吧灯带, 茶吧灯带关闭)
2024-08-29 21:01:12.223 - 19 08 24 03 DD 00 3B 00 01 (调用情景-书房照明关帘)
2024-08-29 21:01:12.781 - EE 00 00 B1 00 00 00 FF FC FF FF (情景执行提示)
2024-08-29 21:01:13.371 - 09 06 00 0F 02 01 78 21 (提示音叮)
2024-08-29 21:01:13.930 - 1A 0A 04 06 01 FF F0 01 FF F0 01 FF 00 00 0F (调光器地址-书房射灯, 书房射灯明亮)
2024-08-29 21:01:18.014 - A5 00 B7 FF 00 AA 22 0D (书房纱帘关)
2024-08-29 21:01:19.052 - A5 00 D2 FF 00 AA 22 0C (书房窗帘关)
2024-08-29 21:01:19.115 - 55 00 D2 01 00 0E 00 F2 AA 55 00 D2 01 00 0E 00 FA (书房窗帘电机状态返回)
2024-08-29 21:01:20.151 - 09 06 00 0F 02 02 38 20 (提示音咚)
2024-08-29 21:01:20.702 - EE 00 00 B1 00 00 02 FF FC FF FF (情景完成返回主页)
2024-08-29 21:01:27.013 - 55 00 D2 00 00 E5 00 F2 AA 55 00 D2 00 00 E5 00 F2 AA (书房窗帘电机状态返回)
2024-08-29 21:03:22.005 - 1A BE B0 DC 04 FE (继电器地址-西阳窗帘)
2024-08-29 21:03:22.136 - FF
2024-08-29 21:04:24.095 - FF FF FF FF 0E (继电器地址-西阳小窗帘)
2024-08-29 21:04:24.231 - FE
2024-08-29 21:06:29.406 - 1A BE B0 DC 09 (继电器地址-客厅窗帘)
2024-08-29 21:07:32.482 - 1A BE B0 DC 02 FC (正反转地址-外卫卷帘)
2024-08-29 21:07:32.619 - FF
2024-08-29 21:07:34.167 - 1A BE B0 DC 0A (继电器地址-客厅纱帘)
2024-08-29 21:08:39.111 - 1A BE B0 DC 01 (继电器地址-回水泵点动)
2024-08-29 21:08:40.260 - 1A BE B0 DC 03 (继电器地址-西阳天幕)
2024-08-29 21:08:40.404 - FF
2024-08-29 21:09:26.661 - FF FF FF FF 0A (继电器地址-东阳窗帘)
2024-08-29 21:09:26.797 - FE
2024-08-29 21:21:50.501 - FF
2024-08-29 21:28:41.854 - 1A FF FF FF 04 FC (继电器地址-东阳衣架)
2024-08-29 21:28:41.988 - 00
2024-08-29 21:30:55.079 - 19 08 24 03 CC 01 CC 00 01 (调用茶吧感应灯开的按键)
2024-08-29 21:30:55.130 - 1A AA AA AA 88 FF B0 01 FF B0 01 0F (调光器地址-茶吧灯带, 茶吧灯带明亮)
2024-08-29 21:34:38.026 - 19 08 24 03 CC 01 CD 00 01 (调用茶吧感应灯关的按键)
2024-08-29 21:34:38.077 - 1A AA AA AA 88 FF 00 01 FF 00 01 0F (调光器地址-茶吧灯带, 茶吧灯带关闭)
2024-08-29 21:47:53.990 - FF
2024-08-29 21:53:08.710 - 19 08 24 03 CC 01 CC 00 01 (调用茶吧感应灯开的按键)
2024-08-29 21:53:08.761 - 1A AA AA AA 88 FF B0 01 FF B0 01 0F (调光器地址-茶吧灯带, 茶吧灯带明亮)
2024-08-29 21:53:55.813 - 19 08 24 03 CC 01 CD 00 01 (调用茶吧感应灯关的按键)
2024-08-29 21:53:55.849 - 1A AA AA AA 88 FF 00 01 FF 00 01 0F (调光器地址-茶吧灯带, 茶吧灯带关闭)
2024-08-29 22:00:06.534 - 19 08 24 03 CC 01 CC 00 01 (调用茶吧感应灯开的按键)
2024-08-29 22:00:06.568 - 1A AA AA AA 88 FF B0 01 FF B0 01 0F (调光器地址-茶吧灯带, 茶吧灯带明亮)
2024-08-29 22:01:11.168 - 19 08 24 03 CC 01 CD 00 01 (调用茶吧感应灯关的按键)
2024-08-29 22:01:11.200 - 1A AA AA AA 88 FF 00 01 FF 00 01 0F (调光器地址-茶吧灯带, 茶吧灯带关闭)
2024-08-29 22:01:13.169 - 19 08 24 03 CC 01 CC 00 01 (调用茶吧感应灯开的按键)
2024-08-29 22:01:13.203 - 1A AA AA AA 88 FF B0 01 FF B0 01 0F (调光器地址-茶吧灯带, 茶吧灯带明亮)
2024-08-29 22:01:29.710 - 19 08 24 03 CC 01 CD 00 01 (调用茶吧感应灯关的按键)
2024-08-29 22:01:29.740 - 1A AA AA AA 88 FF 00 01 FF 00 01 0F (调光器地址-茶吧灯带, 茶吧灯带关闭)
2024-08-29 22:01:41.953 - 19 08 24 03 DD 00 3A 00 01 (调用情景-离开书房)
2024-08-29 22:01:42.459 - EE 00 00 B1 00 00 00 FF FC FF FF (情景执行提示)
2024-08-29 22:01:43.055 - 09 06 00 0F 02 01 78 21 (提示音叮)
2024-08-29 22:01:43.600 - 01 06 07 DC FF 60 08 9C (书房空调关)
2024-08-29 22:01:43.634 - 01 06 07 DC FF 60 08 9C (书房空调关)
2024-08-29 22:01:44.195 - 50 F5 07 (关书房影视)
2024-08-29 22:01:44.743 - A5 00 D2 FE 01 AA 22 0D (书房窗帘开)
2024-08-29 22:01:44.791 - 55 00 D2 02 00 E5 00 F2 AA 55 00 D2 02 00 E5 00 F2 AA (书房窗帘电机状态返回)
2024-08-29 22:01:45.845 - A5 00 B7 FF 00 AA 22 0D (书房纱帘关)
2024-08-29 22:01:46.883 - 55 0D 31 00 00 00 01 94 (书房顶灯只关)
2024-08-29 22:01:47.937 - 1A 0A 04 06 01 FF 00 01 FF 00 01 FF 00 00 0F (调光器地址-书房射灯, 书房射灯关闭)
2024-08-29 22:01:51.677 - 55 00 D2 00 00 0E 00 F2 AA 55 00 D2 00 00 0E 00 F2 AA (书房窗帘电机状态返回)
2024-08-29 22:01:52.017 - 09 06 00 0F 02 02 38 20 (提示音咚)
2024-08-29 22:01:52.578 - EE 00 00 B1 00 00 02 FF FC FF FF (情景完成返回主页)
2024-08-29 22:02:32.559 - 1A AA AA AA 66 00 00 02 0F (调光器地址-东阳筒灯, 东阳筒灯开关)
2024-08-29 22:02:38.833 - 1A AA AA AA 66 00 64 01 00 64 01 0F (调光器地址-东阳筒灯)
2024-08-29 22:02:39.750 - 1A AA AA AA 66 01 0F (调光器地址-东阳筒灯)
2024-08-29 22:03:09.987 - 1A AA AA AA 66 00 00 02 0F (调光器地址-东阳筒灯, 东阳筒灯开关)
2024-08-29 22:03:16.231 - 1A AA AA AA 66 00 64 00 00 64 00 0F (调光器地址-东阳筒灯)
2024-08-29 22:03:17.156 - 1A AA AA AA 66 00 0F (调光器地址-东阳筒灯)
2024-08-29 22:12:55.974 - FF
2024-08-29 22:15:19.611 - 19 08 24 03 DD 00 1B 00 01 (调用情景-外卫使用)
2024-08-29 22:15:20.169 - EE 00 00 B1 00 00 00 FF FC FF FF (情景执行提示)
2024-08-29 22:15:20.759 - 09 06 00 0F 02 01 78 21 (提示音叮)
2024-08-29 22:15:21.321 - 1A BE B0 DC 02 00 01 00 (正反转地址-外卫卷帘, 外卫卷帘降)
2024-08-29 22:15:21.860 - 50 F0 03 (开外卫影视)
2024-08-29 22:15:22.409 - 1A FF FF FF 55 00 00 00 0F (人体感应地址-外卫, 关闭外卫感应)
2024-08-29 22:15:22.970 - 1A 0D 01 07 01 FF 45 01 FF 45 01 FF 00 00 0F (调光器地址-外卫射灯, 外卫感应灯开)
2024-08-29 22:15:25.049 - 1A BE B0 DC 01 00 01 00 (继电器地址-回水泵点动, 回水泵点动)
2024-08-29 22:15:26.103 - 1A BE B0 DC 01 00 01 00 (继电器地址-回水泵点动, 回水泵点动)
2024-08-29 22:15:27.140 - 1A BE B0 DC 01 00 01 00 (继电器地址-回水泵点动, 回水泵点动)
2024-08-29 22:15:28.191 - 50 F1 43 (外卫—CH4)
2024-08-29 22:15:45.181 - A1 11 11 11 11 05 (外卫使用浴霸判断)
2024-08-29 22:15:45.404 - 13 03 00 00 00 02 C7 79 (查询外卫温湿度)
2024-08-29 22:15:45.437 - 13 03 04 01 A1 01 07 D8 7E (外卫温湿度返回)
2024-08-29 22:15:47.239 - 09 06 00 0F 02 02 38 20 (提示音咚)
2024-08-29 22:15:49.280 - EE 00 00 B1 00 00 02 FF FC FF FF (情景完成返回主页)
2024-08-29 22:29:22.644 - 19 08 24 03 DD 00 1C 00 01 (调用情景-外卫使用完毕)
2024-08-29 22:29:23.171 - EE 00 00 B1 00 00 00 FF FC FF FF (情景执行提示)
2024-08-29 22:29:23.766 - 09 06 00 0F 02 01 78 21 (提示音叮)
2024-08-29 22:29:24.327 - 1A 0D 01 07 01 FF 00 01 FF 00 01 FF 00 00 0F (调光器地址-外卫射灯, 外卫感应灯关)
2024-08-29 22:29:24.910 - 50 F5 03 (关外卫影视)
2024-08-29 22:29:25.466 - 1A 20 07 00 42 00 01 00 0F (自保持开关地址-外卫顶灯, 外卫顶灯关)
2024-08-29 22:29:26.012 - 1A FF FF FF 55 00 00 01 0F (人体感应地址-外卫, 打开外卫感应)
2024-08-29 22:29:26.107 - BC BC
2024-08-29 22:29:26.411 - 19 08 24 03 CC 01 52 00 01 (调用外卫感应灯开的按键)
2024-08-29 22:29:26.458 - 1A 0D 01 07 01 FF 45 01 FF 45 01 FF 00 00 0F (调光器地址-外卫射灯, 外卫感应灯开)
2024-08-29 22:29:28.852 - 09 06 00 0F 02 02 38 20 (提示音咚)
2024-08-29 22:29:29.409 - EE 00 00 B1 00 00 02 FF FC FF FF (情景完成返回主页)
2024-08-29 22:29:33.546 - 19 08 24 03 CC 01 CC 00 01 (调用茶吧感应灯开的按键)
2024-08-29 22:29:33.580 - 1A AA AA AA 88 FF B0 01 FF B0 01 0F (调光器地址-茶吧灯带, 茶吧灯带明亮)
2024-08-29 22:29:34.623 - 19 08 24 03 CC 01 53 00 01 (调用外卫感应灯关的按键)
2024-08-29 22:29:34.654 - 1A 0D 01 07 01 FF 00 01 FF 00 01 FF 00 00 0F (调光器地址-外卫射灯, 外卫感应灯关)
2024-08-29 22:30:10.111 - 19 08 24 03 CC 01 CD 00 01 (调用茶吧感应灯关的按键)
2024-08-29 22:30:10.145 - 1A AA AA AA 88 FF 00 01 FF 00 01 0F (调光器地址-茶吧灯带, 茶吧灯带关闭)
2024-08-29 22:30:19.135 - 19 08 24 03 CC 01 CC 00 01 (调用茶吧感应灯开的按键)
2024-08-29 22:30:19.167 - 1A AA AA AA 88 FF B0 01 FF B0 01 0F (调光器地址-茶吧灯带, 茶吧灯带明亮)
2024-08-29 22:32:39.409 - 19 08 24 03 CC 01 CD 00 01 (调用茶吧感应灯关的按键)
2024-08-29 22:32:39.441 - 1A AA AA AA 88 FF 00 01 FF 00 01 0F (调光器地址-茶吧灯带, 茶吧灯带关闭)
2024-08-29 22:33:25.507 - 19 08 24 03 CC 01 CC 00 01 (调用茶吧感应灯开的按键)
2024-08-29 22:33:25.523 - 1A AA AA AA 88 FF B0 01 FF B0 01 0F (调光器地址-茶吧灯带, 茶吧灯带明亮)
2024-08-29 22:33:52.052 - 19 08 24 03 CC 01 CD 00 01 (调用茶吧感应灯关的按键)
2024-08-29 22:33:52.085 - 1A AA AA AA 88 FF 00 01 FF 00 01 0F (调光器地址-茶吧灯带, 茶吧灯带关闭)
2024-08-29 22:36:43.787 - FF
2024-08-29 22:45:00.046 - 19 08 24 03 DD 00 13 00 01 (调用情景-公共区域关)
2024-08-29 22:45:00.378 - 19 08 24 03 CC 01 CC 00 01 (调用茶吧感应灯开的按键)
2024-08-29 22:45:00.427 - 1A AA AA AA 88 FF B0 01 FF B0 01 0F (调光器地址-茶吧灯带, 茶吧灯带明亮)
2024-08-29 22:45:00.828 - EE 00 00 B1 00 00 00 FF FC FF FF (情景执行提示)
2024-08-29 22:45:01.399 - 09 06 00 0F 02 01 78 21 (提示音叮)
2024-08-29 22:45:01.950 - 55 0B 31 00 00 00 01 92 (厨房风扇只关)
2024-08-29 22:45:02.995 - 01 06 07 D3 FF 60 38 9F (餐厅空调关)
2024-08-29 22:45:03.026 - 01 06 07 D3 FF 60 38 9F (餐厅空调关)
2024-08-29 22:45:04.078 - 01 06 07 D0 FF 60 C8 9F (客厅空调关)
2024-08-29 22:45:04.111 - 01 06 07 D0 FF 60 C8 9F (客厅空调关)
2024-08-29 22:45:08.176 - 50 F5 02 (关厨房影视)
2024-08-29 22:45:09.215 - 50 F5 01 (关餐厅影视)
2024-08-29 22:45:10.268 - 50 F5 08 (关客厅影视)
2024-08-29 22:45:11.318 - 50 F5 03 (关外卫影视)
2024-08-29 22:45:12.360 - 55 0A 31 00 00 00 01 91 (厨房顶灯一关)
2024-08-29 22:45:13.414 - 55 0A 31 00 00 00 02 92 (厨房顶灯二关)
2024-08-29 22:45:14.460 - 55 0C 31 00 00 00 01 93 (餐厅顶灯关)
2024-08-29 22:45:15.503 - 1A 18 05 10 31 00 01 00 0F (自保持开关地址-门厅顶灯, 门厅顶灯关)
2024-08-29 22:45:16.551 - 1A 20 07 00 42 00 01 00 0F (自保持开关地址-外卫顶灯, 外卫顶灯关)
2024-08-29 22:45:17.601 - 1A 18 05 21 89 00 01 00 0F (自保持开关地址-客厅顶灯, 客厅顶灯一关)
2024-08-29 22:45:18.649 - 1A 18 05 01 94 00 01 00 0F (自保持开关地址-客厅顶灯, 客厅顶灯二关)
2024-08-29 22:45:19.691 - 1A 20 07 01 30 00 01 00 0F (自保持开关地址-西阳顶灯, 西阳顶灯关)
2024-08-29 22:45:20.743 - 1A FF 01 FF FF FF 00 01 FF 00 01 FF 00 00 0F (调光器地址-公共区域统配地址, 公共区域灯光全关)
2024-08-29 22:45:21.834 - 09 06 00 0F 02 02 38 20 (提示音咚)
2024-08-29 22:45:23.874 - EE 00 00 B1 00 00 02 FF FC FF FF (情景完成返回主页)
2024-08-29 22:45:35.439 - 19 08 24 03 CC 01 CD 00 01 (调用茶吧感应灯关的按键)
2024-08-29 22:45:35.490 - 1A AA AA AA 88 FF 00 01 FF 00 01 0F (调光器地址-茶吧灯带, 茶吧灯带关闭)
2024-08-29 22:45:39.044 - 19 08 24 03 DD 00 4F 00 01 (调用情景-内卫使用完毕)
2024-08-29 22:45:39.572 - EE 00 00 B1 00 00 00 FF FC FF FF (情景执行提示)
2024-08-29 22:45:40.176 - 09 06 00 0F 02 01 78 21 (提示音叮)
2024-08-29 22:45:40.728 - 1A 0C 02 08 01 FF 00 01 FF 00 01 FF 00 00 0F (调光器地址-内卫射灯, 内卫感应灯关)
2024-08-29 22:45:44.799 - 50 F5 04 (关内卫影视)
2024-08-29 22:45:45.358 - 1A 20 07 01 40 00 01 00 0F (自保持开关地址-内卫顶灯, 内卫顶灯关)
2024-08-29 22:45:45.900 - 1A FF FF FF 56 00 00 01 0F (人体感应地址-内卫, 打开内卫感应)
2024-08-29 22:45:46.012 - BC BC
2024-08-29 22:45:48.453 - 09 06 00 0F 02 02 38 20 (提示音咚)
2024-08-29 22:45:48.995 - EE 00 00 B1 00 00 02 FF FC FF FF (情景完成返回主页)
2024-08-29 22:47:49.627 - FF
2024-08-29 22:51:17.315 - FF
2024-08-29 23:12:38.194 - 19 08 24 03 CC 01 55 00 01 (调用内卫感应灯关的按键)
2024-08-29 23:12:38.243 - 1A 0C 02 08 01 FF 00 01 FF 00 01 FF 00 00 0F (调光器地址-内卫射灯, 内卫感应灯关)
2024-08-29 23:13:30.803 - 19 08 24 03 CC 01 54 00 01 (调用内卫感应灯开的按键)
2024-08-29 23:13:30.835 - 1A 0C 02 08 01 FF 45 01 FF 45 01 FF 00 00 0F (调光器地址-内卫射灯, 内卫射灯微光)
2024-08-29 23:16:17.723 - FF
2024-08-29 23:20:58.183 - 19 08 24 03 CC 01 55 00 01 (调用内卫感应灯关的按键)
2024-08-29 23:20:58.231 - 1A 0C 02 08 01 FF 00 01 FF 00 01 FF 00 00 0F (调光器地址-内卫射灯, 内卫感应灯关)
2024-08-29 23:27:01.395 - 19 08 24 03 CC 01 54 00 01 (调用内卫感应灯开的按键)
2024-08-29 23:27:01.446 - 1A 0C 02 08 01 FF 45 01 FF 45 01 FF 00 00 0F (调光器地址-内卫射灯, 内卫射灯微光)
2024-08-29 23:28:31.682 - FF
2024-08-29 23:35:05.349 - 19 08 24 03 CC 01 55 00 01 (调用内卫感应灯关的按键)
2024-08-29 23:35:05.396 - 1A 0C 02 08 01 FF 00 01 FF 00 01 FF 00 00 0F (调光器地址-内卫射灯, 内卫感应灯关)
2024-08-29 23:36:40.035 - 19 08 24 03 CC 01 54 00 01 (调用内卫感应灯开的按键)
2024-08-29 23:36:40.083 - 1A 0C 02 08 01 FF 45 01 FF 45 01 FF 00 00 0F (调光器地址-内卫射灯, 内卫射灯微光)
2024-08-29 23:39:01.438 - FF
2024-08-29 23:40:00.944 - FF
2024-08-29 23:41:02.843 - FF
2024-08-29 23:41:11.117 - FF
2024-08-29 23:42:01.666 - 19 08 24 03 CC 01 55 00 01 (调用内卫感应灯关的按键)
2024-08-29 23:42:01.727 - 1A 0C 02 08 01 FF 00 01 FF 00 01 FF 00 00 0F (调光器地址-内卫射灯, 内卫感应灯关)
2024-08-29 23:43:59.367 - 19 08 24 03 CC 01 CC 00 01 (调用茶吧感应灯开的按键)
2024-08-29 23:43:59.394 - 1A AA AA AA 88 FF B0 01 FF B0 01 0F (调光器地址-茶吧灯带, 茶吧灯带明亮)
2024-08-29 23:44:06.380 - 19 08 24 03 CC 01 CD 00 01 (调用茶吧感应灯关的按键)
2024-08-29 23:44:06.408 - 1A AA AA AA 88 FF 00 01 FF 00 01 0F (调光器地址-茶吧灯带, 茶吧灯带关闭)
2024-08-29 23:45:19.068 - 19 08 24 03 CC 01 54 00 01 (调用内卫感应灯开的按键)
2024-08-29 23:45:19.101 - 1A 0C 02 08 01 FF 45 01 FF 45 01 FF 00 00 0F (调光器地址-内卫射灯, 内卫射灯微光)
2024-08-29 23:47:19.309 - 19 08 24 03 CC 01 55 00 01 (调用内卫感应灯关的按键)
2024-08-29 23:47:19.343 - 1A 0C 02 08 01 FF 00 01 FF 00 01 FF 00 00 0F (调光器地址-内卫射灯, 内卫感应灯关)
2024-08-29 23:48:06.896 - 19 08 24 03 CC 01 54 00 01 (调用内卫感应灯开的按键)
2024-08-29 23:48:06.928 - 1A 0C 02 08 01 FF 45 01 FF 45 01 FF 00 00 0F (调光器地址-内卫射灯, 内卫射灯微光)
2024-08-29 23:48:10.089 - 19 08 24 03 DD 00 4B 00 01 (调用情景-主卧睡觉)
2024-08-29 23:48:10.617 - EE 00 00 B1 00 00 00 FF FC FF FF (情景执行提示)
2024-08-29 23:48:11.218 - 09 06 00 0F 02 01 78 21 (提示音叮)
2024-08-29 23:48:11.761 - 50 F5 04 (关内卫影视)
2024-08-29 23:48:12.303 - A5 00 53 FE 01 AA (主卧纱帘关)
2024-08-29 23:48:13.356 - A5 00 52 FF 00 AA (主卧窗帘关)
2024-08-29 23:48:14.408 - 1A 22 33 62 0F 00 02 01 0F (正反转地址-内卫卷帘, 内卫卷帘降)
2024-08-29 23:48:15.446 - 1A 20 07 01 40 00 01 00 0F (自保持开关地址-内卫顶灯, 内卫顶灯关)
2024-08-29 23:48:16.501 - 1A 20 07 01 55 00 01 00 0F (自保持开关地址-主卧顶灯, 主卧顶灯只关)
2024-08-29 23:48:17.046 - 1A FF FF FF 56 00 00 01 0F (人体感应地址-内卫, 打开内卫感应)
2024-08-29 23:48:17.063 - BC BC
2024-08-29 23:48:20.647 - 1A 0C 02 08 01 FF 00 01 FF 00 01 FF 00 00 0F (调光器地址-内卫射灯, 内卫感应灯关)
2024-08-29 23:48:21.239 - 1A 0C 02 04 01 FF 00 01 FF 00 01 FF 00 00 0F (调光器地址-主卧筒灯, 主卧筒灯关闭)
2024-08-29 23:48:21.841 - 1A 0C 02 04 03 FF 00 01 FF 00 01 FF 00 00 0F (调光器地址-主卧灯带, 主卧灯带关闭)
2024-08-29 23:48:22.437 - 1A 0C 02 04 04 FF 00 01 FF 00 01 FF 00 00 0F (调光器地址-主卧南阅, 主卧南阅关闭)
2024-08-29 23:48:23.032 - 1A 0C 02 04 05 FF 00 01 FF 00 01 FF 00 00 0F (调光器地址-主卧北阅, 主卧北阅关闭)
2024-08-29 23:48:23.630 - 1A 0C 02 04 02 FF 00 01 FF 00 01 FF 00 00 0F (调光器地址-主卧过道, 主卧过道关闭)
2024-08-29 23:48:24.223 - 09 06 00 0F 02 02 38 20 (提示音咚)
2024-08-29 23:48:24.777 - EE 00 00 B1 00 00 02 FF FC FF FF (情景完成返回主页)
2024-08-29 23:48:32.470 - 19 08 24 03 CC 01 55 00 01 (调用内卫感应灯关的按键)
2024-08-29 23:48:32.530 - 1A 0C 02 08 01 FF 00 01 FF 00 01 FF 00 00 0F (调光器地址-内卫射灯, 内卫感应灯关)
2024-08-29 23:49:03.761 - FF
2024-08-30 00:12:56.607 - 19 08 24 03 CC 00 D4 00 01 (调用厨房感应灯关的按键)
2024-08-30 00:12:56.657 - 55 0A 31 00 00 00 01 91 55 0A 31 00 00 00 02 92 (厨房顶灯一关, 厨房顶灯二关)
2024-08-30 00:17:05.100 - 19 08 24 03 CC 00 D3 00 01 (调用厨房感应灯开的按键)
2024-08-30 00:17:05.147 - 55 0A 32 00 00 00 01 92 55 0A 32 00 00 00 02 93 (厨房顶灯一开, 厨房顶灯二开)
2024-08-30 00:18:51.804 - 19 08 24 03 CC 00 D4 00 01 (调用厨房感应灯关的按键)
2024-08-30 00:18:51.836 - 55 0A 31 00 00 00 01 91 55 0A 31 00 00 00 02 92 (厨房顶灯一关, 厨房顶灯二关)
2024-08-30 00:23:25.344 - 19 08 24 03 CC 00 D3 00 01 (调用厨房感应灯开的按键)
2024-08-30 00:23:25.378 - 55 0A 32 00 00 00 01 92 55 0A 32 00 00 00 02 93 (厨房顶灯一开, 厨房顶灯二开)
2024-08-30 00:24:00.420 - 19 08 24 03 CC 00 D4 00 01 (调用厨房感应灯关的按键)
2024-08-30 00:24:00.454 - 55 0A 31 00 00 00 01 91 55 0A 31 00 00 00 02 92 (厨房顶灯一关, 厨房顶灯二关)
2024-08-30 00:27:05.116 - 1A BE B0 DC 04 (继电器地址-西阳窗帘)
2024-08-30 00:27:05.252 - FF
2024-08-30 00:27:28.823 - 19 08 24 03 CC 00 D3 00 01 (调用厨房感应灯开的按键)
2024-08-30 00:27:28.879 - 55 0A 32 00 00 00 01 92 55 0A 32 00 00 00 02 93 (厨房顶灯一开, 厨房顶灯二开)
2024-08-30 00:28:03.891 - 19 08 24 03 CC 00 D4 00 01 (调用厨房感应灯关的按键)
2024-08-30 00:28:03.942 - 55 0A 31 00 00 00 01 91 55 0A 31 00 00 00 02 92 (厨房顶灯一关, 厨房顶灯二关)
2024-08-30 00:28:06.699 - FF FF FF FF 0E FC (继电器地址-西阳小窗帘)
2024-08-30 00:28:06.835 - FF
2024-08-30 00:28:29.949 - 19 08 24 03 CC 00 D3 00 01 (调用厨房感应灯开的按键)
2024-08-30 00:28:30.002 - 55 0A 32 00 00 00 01 92 55 0A 32 00 00 00 02 93 (厨房顶灯一开, 厨房顶灯二开)
2024-08-30 00:29:05.017 - 19 08 24 03 CC 00 D4 00 01 (调用厨房感应灯关的按键)
2024-08-30 00:29:05.096 - 55 0A 31 00 00 00 01 91 55 0A 31 00 00 00 02 92 (厨房顶灯一关, 厨房顶灯二关)
2024-08-30 00:30:10.482 - 1A BE B0 DC 09 (继电器地址-客厅窗帘)
2024-08-30 00:30:10.610 - FF
2024-08-30 00:30:51.220 - 19 08 24 03 CC 00 D3 00 01 (调用厨房感应灯开的按键)
2024-08-30 00:30:51.271 - 55 0A 32 00 00 00 01 92 55 0A 32 00 00 00 02 93 (厨房顶灯一开, 厨房顶灯二开)
2024-08-30 00:31:12.308 - 1A BE B0 DC 02 (正反转地址-外卫卷帘)
2024-08-30 00:31:13.516 - 1A BE B0 DC 0A FE (继电器地址-客厅纱帘)
2024-08-30 00:31:39.319 - 19 08 24 03 CC 00 D4 00 01 (调用厨房感应灯关的按键)
2024-08-30 00:31:39.370 - 55 0A 31 00 00 00 01 91 55 0A 31 00 00 00 02 92 (厨房顶灯一关, 厨房顶灯二关)
2024-08-30 00:32:17.041 - 1A BE B0 DC 01 FC (继电器地址-回水泵点动)
2024-08-30 00:32:17.584 - 1A BE B0 DC 03 (继电器地址-西阳天幕)
2024-08-30 00:33:08.041 - FF FF FF FF 0A (继电器地址-东阳窗帘)
2024-08-30 00:33:08.177 - FF
2024-08-30 00:34:44.681 - 19 08 24 03 CC 00 D3 00 01 (调用厨房感应灯开的按键)
2024-08-30 00:34:44.740 - 55 0A 32 00 00 00 01 92 55 0A 32 00 00 00 02 93 (厨房顶灯一开, 厨房顶灯二开)
2024-08-30 00:34:45.973 - FF
2024-08-30 00:35:26.262 - 19 08 24 03 CC 00 D4 00 01 (调用厨房感应灯关的按键)
2024-08-30 00:35:26.294 - 55 0A 31 00 00 00 01 91 55 0A 31 00 00 00 02 92 (厨房顶灯一关, 厨房顶灯二关)
2024-08-30 00:41:57.535 - 19 08 24 03 CC 00 D3 00 01 (调用厨房感应灯开的按键)
2024-08-30 00:41:57.584 - 55 0A 32 00 00 00 01 92 55 0A 32 00 00 00 02 93 (厨房顶灯一开, 厨房顶灯二开)
2024-08-30 00:43:14.690 - 19 08 24 03 CC 00 D4 00 01 (调用厨房感应灯关的按键)
2024-08-30 00:43:14.724 - 55 0A 31 00 00 00 01 91 55 0A 31 00 00 00 02 92 (厨房顶灯一关, 厨房顶灯二关)
2024-08-30 00:44:12.800 - 19 08 24 03 CC 00 D3 00 01 (调用厨房感应灯开的按键)
2024-08-30 00:44:12.832 - 55 0A 32 00 00 00 01 92 55 0A 32 00 00 00 02 93 (厨房顶灯一开, 厨房顶灯二开)
2024-08-30 00:44:57.879 - 19 08 24 03 CC 00 D4 00 01 (调用厨房感应灯关的按键)
2024-08-30 00:44:57.927 - 55 0A 31 00 00 00 01 91 55 0A 31 00 00 00 02 92 (厨房顶灯一关, 厨房顶灯二关)
2024-08-30 00:46:12.532 - 19 08 24 03 CC 00 D3 00 01 (调用厨房感应灯开的按键)
2024-08-30 00:46:12.566 - 55 0A 32 00 00 00 01 92 55 0A 32 00 00 00 02 93 (厨房顶灯一开, 厨房顶灯二开)
2024-08-30 00:46:56.124 - 19 08 24 03 CC 00 D4 00 01 (调用厨房感应灯关的按键)
2024-08-30 00:46:56.156 - 55 0A 31 00 00 00 01 91 55 0A 31 00 00 00 02 92 (厨房顶灯一关, 厨房顶灯二关)
2024-08-30 00:49:27.912 - 19 08 24 03 CC 00 D3 00 01 (调用厨房感应灯开的按键)
2024-08-30 00:49:27.946 - 55 0A 32 00 00 00 01 92 55 0A 32 00 00 00 02 93 (厨房顶灯一开, 厨房顶灯二开)
2024-08-30 00:49:42.828 - 1A FF FF FF 04 (继电器地址-东阳衣架)
2024-08-30 00:49:42.964 - FE
2024-08-30 00:50:02.988 - 19 08 24 03 CC 00 D4 00 01 (调用厨房感应灯关的按键)
2024-08-30 00:50:03.036 - 55 0A 31 00 00 00 01 91 55 0A 31 00 00 00 02 92 (厨房顶灯一关, 厨房顶灯二关)
2024-08-30 00:50:37.058 - 19 08 24 03 CC 00 D3 00 01 (调用厨房感应灯开的按键)
2024-08-30 00:50:37.112 - 55 0A 32 00 00 00 01 92 55 0A 32 00 00 00 02 93 (厨房顶灯一开, 厨房顶灯二开)
2024-08-30 00:51:12.621 - 19 08 24 03 CC 00 D4 00 01 (调用厨房感应灯关的按键)
2024-08-30 00:51:12.655 - 55 0A 31 00 00 00 01 91 55 0A 31 00 00 00 02 92 (厨房顶灯一关, 厨房顶灯二关)
2024-08-30 00:51:25.650 - 19 08 24 03 CC 00 D3 00 01 (调用厨房感应灯开的按键)
2024-08-30 00:51:25.681 - 55 0A 32 00 00 00 01 92 55 0A 32 00 00 00 02 93 (厨房顶灯一开, 厨房顶灯二开)
2024-08-30 00:52:01.221 - 19 08 24 03 CC 00 D4 00 01 (调用厨房感应灯关的按键)
2024-08-30 00:52:01.253 - 55 0A 31 00 00 00 01 91 55 0A 31 00 00 00 02 92 (厨房顶灯一关, 厨房顶灯二关)
2024-08-30 00:55:36.145 - 19 08 24 03 CC 00 D3 00 01 (调用厨房感应灯开的按键)
2024-08-30 00:55:36.179 - 55 0A 32 00 00 00 01 92 55 0A 32 00 00 00 02 93 (厨房顶灯一开, 厨房顶灯二开)
2024-08-30 00:56:11.715 - 19 08 24 03 CC 00 D4 00 01 (调用厨房感应灯关的按键)
2024-08-30 00:56:11.746 - 55 0A 31 00 00 00 01 91 55 0A 31 00 00 00 02 92 (厨房顶灯一关, 厨房顶灯二关)
2024-08-30 00:59:16.074 - 19 08 24 03 CC 00 D3 00 01 (调用厨房感应灯开的按键)
2024-08-30 00:59:16.116 - 55 0A 32 00 00 00 01 92 55 0A 32 00 00 00 02 93 (厨房顶灯一开, 厨房顶灯二开)
2024-08-30 00:59:51.149 - 19 08 24 03 CC 00 D4 00 01 (调用厨房感应灯关的按键)
2024-08-30 00:59:51.181 - 55 0A 31 00 00 00 01 91 55 0A 31 00 00 00 02 92 (厨房顶灯一关, 厨房顶灯二关)
2024-08-30 01:04:33.693 - 19 08 24 03 CC 00 D3 00 01 (调用厨房感应灯开的按键)
2024-08-30 01:04:33.741 - 55 0A 32 00 00 00 01 92 55 0A 32 00 00 00 02 93 (厨房顶灯一开, 厨房顶灯二开)
2024-08-30 01:05:08.770 - 19 08 24 03 CC 00 D4 00 01 (调用厨房感应灯关的按键)
2024-08-30 01:05:08.804 - 55 0A 31 00 00 00 01 91 55 0A 31 00 00 00 02 92 (厨房顶灯一关, 厨房顶灯二关)
2024-08-30 01:05:38.824 - 19 08 24 03 CC 00 D3 00 01 (调用厨房感应灯开的按键)
2024-08-30 01:05:38.856 - 55 0A 32 00 00 00 01 92 55 0A 32 00 00 00 02 93 (厨房顶灯一开, 厨房顶灯二开)
2024-08-30 01:06:13.898 - 19 08 24 03 CC 00 D4 00 01 (调用厨房感应灯关的按键)
2024-08-30 01:06:13.931 - 55 0A 31 00 00 00 01 91 55 0A 31 00 00 00 02 92 (厨房顶灯一关, 厨房顶灯二关)
2024-08-30 01:07:26.544 - 19 08 24 03 CC 00 D3 00 01 (调用厨房感应灯开的按键)
2024-08-30 01:07:26.578 - 55 0A 32 00 00 00 01 92 55 0A 32 00 00 00 02 93 (厨房顶灯一开, 厨房顶灯二开)
2024-08-30 01:08:01.615 - 19 08 24 03 CC 00 D4 00 01 (调用厨房感应灯关的按键)
2024-08-30 01:08:01.650 - 55 0A 31 00 00 00 01 91 55 0A 31 00 00 00 02 92 (厨房顶灯一关, 厨房顶灯二关)
2024-08-30 01:10:43.431 - 19 08 24 03 CC 00 D3 00 01 (调用厨房感应灯开的按键)
2024-08-30 01:10:43.464 - 55 0A 32 00 00 00 01 92 55 0A 32 00 00 00 02 93 (厨房顶灯一开, 厨房顶灯二开)
2024-08-30 01:11:24.013 - 19 08 24 03 CC 00 D4 00 01 (调用厨房感应灯关的按键)
2024-08-30 01:11:24.045 - 55 0A 31 00 00 00 01 91 55 0A 31 00 00 00 02 92 (厨房顶灯一关, 厨房顶灯二关)
2024-08-30 01:12:50.682 - 19 08 24 03 CC 00 D3 00 01 (调用厨房感应灯开的按键)
2024-08-30 01:12:50.714 - 55 0A 32 00 00 00 01 92 55 0A 32 00 00 00 02 93 (厨房顶灯一开, 厨房顶灯二开)
2024-08-30 01:13:30.257 - 19 08 24 03 CC 00 D4 00 01 (调用厨房感应灯关的按键)
2024-08-30 01:13:30.290 - 55 0A 31 00 00 00 01 91 55 0A 31 00 00 00 02 92 (厨房顶灯一关, 厨房顶灯二关)
2024-08-30 01:13:57.313 - 19 08 24 03 CC 00 D3 00 01 (调用厨房感应灯开的按键)
2024-08-30 01:13:57.345 - 55 0A 32 00 00 00 01 92 55 0A 32 00 00 00 02 93 (厨房顶灯一开, 厨房顶灯二开)
2024-08-30 01:14:32.883 - 19 08 24 03 CC 00 D4 00 01 (调用厨房感应灯关的按键)
2024-08-30 01:14:32.917 - 55 0A 31 00 00 00 01 91 55 0A 31 00 00 00 02 92 (厨房顶灯一关, 厨房顶灯二关)
2024-08-30 01:22:13.281 - 19 08 24 03 CC 00 D3 00 01 (调用厨房感应灯开的按键)
2024-08-30 01:22:13.314 - 55 0A 32 00 00 00 01 92 55 0A 32 00 00 00 02 93 (厨房顶灯一开, 厨房顶灯二开)
2024-08-30 01:22:48.357 - 19 08 24 03 CC 00 D4 00 01 (调用厨房感应灯关的按键)
2024-08-30 01:22:48.388 - 55 0A 31 00 00 00 01 91 55 0A 31 00 00 00 02 92 (厨房顶灯一关, 厨房顶灯二关)
2024-08-30 01:25:41.697 - 19 08 24 03 CC 00 D3 00 01 (调用厨房感应灯开的按键)
2024-08-30 01:25:41.731 - 55 0A 32 00 00 00 01 92 55 0A 32 00 00 00 02 93 (厨房顶灯一开, 厨房顶灯二开)
2024-08-30 01:26:17.268 - 19 08 24 03 CC 00 D4 00 01 (调用厨房感应灯关的按键)
2024-08-30 01:26:17.300 - 55 0A 31 00 00 00 01 91 55 0A 31 00 00 00 02 92 (厨房顶灯一关, 厨房顶灯二关)
2024-08-30 01:32:15.968 - 19 08 24 03 CC 00 D3 00 01 (调用厨房感应灯开的按键)
2024-08-30 01:32:16.000 - 55 0A 32 00 00 00 01 92 55 0A 32 00 00 00 02 93 (厨房顶灯一开, 厨房顶灯二开)
2024-08-30 01:32:51.031 - 19 08 24 03 CC 00 D4 00 01 (调用厨房感应灯关的按键)
2024-08-30 01:32:51.078 - 55 0A 31 00 00 00 01 91 55 0A 31 00 00 00 02 92 (厨房顶灯一关, 厨房顶灯二关)
2024-08-30 01:45:19.863 - FF
2024-08-30 02:00:32.304 - 19 08 24 03 CC 00 D3 00 01 (调用厨房感应灯开的按键)
2024-08-30 02:00:32.355 - 55 0A 32 00 00 00 01 92 55 0A 32 00 00 00 02 93 (厨房顶灯一开, 厨房顶灯二开)
2024-08-30 02:01:09.382 - 19 08 24 03 CC 00 D4 00 01 (调用厨房感应灯关的按键)
2024-08-30 02:01:09.433 - 55 0A 31 00 00 00 01 91 55 0A 31 00 00 00 02 92 (厨房顶灯一关, 厨房顶灯二关)
2024-08-30 02:14:09.919 - 19 08 24 03 CC 00 D3 00 01 (调用厨房感应灯开的按键)
2024-08-30 02:14:09.952 - 55 0A 32 00 00 00 01 92 55 0A 32 00 00 00 02 93 (厨房顶灯一开, 厨房顶灯二开)
2024-08-30 02:14:44.979 - 19 08 24 03 CC 00 D4 00 01 (调用厨房感应灯关的按键)
2024-08-30 02:14:45.011 - 55 0A 31 00 00 00 01 91 55 0A 31 00 00 00 02 92 (厨房顶灯一关, 厨房顶灯二关)
2024-08-30 02:15:31.078 - 19 08 24 03 CC 00 D3 00 01 (调用厨房感应灯开的按键)
2024-08-30 02:15:31.112 - 55 0A 32 00 00 00 01 92 55 0A 32 00 00 00 02 93 (厨房顶灯一开, 厨房顶灯二开)
2024-08-30 02:16:06.146 - 19 08 24 03 CC 00 D4 00 01 (调用厨房感应灯关的按键)
2024-08-30 02:16:06.180 - 55 0A 31 00 00 00 01 91 55 0A 31 00 00 00 02 92 (厨房顶灯一关, 厨房顶灯二关)
2024-08-30 02:17:59.367 - 19 08 24 03 CC 00 D3 00 01 (调用厨房感应灯开的按键)
2024-08-30 02:17:59.399 - 55 0A 32 00 00 00 01 92 55 0A 32 00 00 00 02 93 (厨房顶灯一开, 厨房顶灯二开)
2024-08-30 02:18:34.931 - 19 08 24 03 CC 00 D4 00 01 (调用厨房感应灯关的按键)
2024-08-30 02:18:34.963 - 55 0A 31 00 00 00 01 91 55 0A 31 00 00 00 02 92 (厨房顶灯一关, 厨房顶灯二关)
2024-08-30 02:19:04.999 - 19 08 24 03 CC 00 D3 00 01 (调用厨房感应灯开的按键)
2024-08-30 02:19:05.033 - 55 0A 32 00 00 00 01 92 55 0A 32 00 00 00 02 93 (厨房顶灯一开, 厨房顶灯二开)
2024-08-30 02:19:40.062 - 19 08 24 03 CC 00 D4 00 01 (调用厨房感应灯关的按键)
2024-08-30 02:19:40.104 - 55 0A 31 00 00 00 01 91 55 0A 31 00 00 00 02 92 (厨房顶灯一关, 厨房顶灯二关)
2024-08-30 02:20:31.162 - 19 08 24 03 CC 00 D3 00 01 (调用厨房感应灯开的按键)
2024-08-30 02:20:31.194 - 55 0A 32 00 00 00 01 92 55 0A 32 00 00 00 02 93 (厨房顶灯一开, 厨房顶灯二开)
2024-08-30 02:21:06.228 - 19 08 24 03 CC 00 D4 00 01 (调用厨房感应灯关的按键)
2024-08-30 02:21:06.271 - 55 0A 31 00 00 00 01 91 55 0A 31 00 00 00 02 92 (厨房顶灯一关, 厨房顶灯二关)
2024-08-30 02:22:20.379 - 19 08 24 03 CC 00 D3 00 01 (调用厨房感应灯开的按键)
2024-08-30 02:22:20.411 - 55 0A 32 00 00 00 01 92 55 0A 32 00 00 00 02 93 (厨房顶灯一开, 厨房顶灯二开)
2024-08-30 02:22:56.449 - 19 08 24 03 CC 00 D4 00 01 (调用厨房感应灯关的按键)
2024-08-30 02:22:56.489 - 55 0A 31 00 00 00 01 91 55 0A 31 00 00 00 02 92 (厨房顶灯一关, 厨房顶灯二关)
2024-08-30 02:23:10.479 - 19 08 24 03 CC 00 D3 00 01 (调用厨房感应灯开的按键)
2024-08-30 02:23:10.513 - 55 0A 32 00 00 00 01 92 55 0A 32 00 00 00 02 93 (厨房顶灯一开, 厨房顶灯二开)
2024-08-30 02:24:09.093 - 19 08 24 03 CC 00 D4 00 01 (调用厨房感应灯关的按键)
2024-08-30 02:24:09.127 - 55 0A 31 00 00 00 01 91 55 0A 31 00 00 00 02 92 (厨房顶灯一关, 厨房顶灯二关)
2024-08-30 02:25:58.311 - 19 08 24 03 CC 00 D3 00 01 (调用厨房感应灯开的按键)
2024-08-30 02:25:58.346 - 55 0A 32 00 00 00 01 92 55 0A 32 00 00 00 02 93 (厨房顶灯一开, 厨房顶灯二开)
2024-08-30 02:26:40.890 - 19 08 24 03 CC 00 D4 00 01 (调用厨房感应灯关的按键)
2024-08-30 02:26:40.922 - 55 0A 31 00 00 00 01 91 55 0A 31 00 00 00 02 92 (厨房顶灯一关, 厨房顶灯二关)
2024-08-30 02:30:39.360 - 19 08 24 03 CC 00 D3 00 01 (调用厨房感应灯开的按键)
2024-08-30 02:30:39.394 - 55 0A 32 00 00 00 01 92 55 0A 32 00 00 00 02 93 (厨房顶灯一开, 厨房顶灯二开)
2024-08-30 02:31:26.957 - 19 08 24 03 CC 00 D4 00 01 (调用厨房感应灯关的按键)
2024-08-30 02:31:26.989 - 55 0A 31 00 00 00 01 91 55 0A 31 00 00 00 02 92 (厨房顶灯一关, 厨房顶灯二关)
2024-08-30 02:33:24.690 - 19 08 24 03 CC 00 D3 00 01 (调用厨房感应灯开的按键)
2024-08-30 02:33:24.722 - 55 0A 32 00 00 00 01 92 55 0A 32 00 00 00 02 93 (厨房顶灯一开, 厨房顶灯二开)
2024-08-30 02:34:50.356 - 19 08 24 03 CC 00 D4 00 01 (调用厨房感应灯关的按键)
2024-08-30 02:34:50.388 - 55 0A 31 00 00 00 01 91 55 0A 31 00 00 00 02 92 (厨房顶灯一关, 厨房顶灯二关)
2024-08-30 02:35:35.232 - FF
2024-08-30 02:35:35.948 - 19 08 24 03 CC 00 D3 00 01 (调用厨房感应灯开的按键)
2024-08-30 02:35:36.027 - 55 0A 32 00 00 00 01 92 55 0A 32 00 00 00 02 93 (厨房顶灯一开, 厨房顶灯二开)
2024-08-30 02:36:14.022 - 19 08 24 03 CC 00 D4 00 01 (调用厨房感应灯关的按键)
2024-08-30 02:36:14.071 - 55 0A 31 00 00 00 01 91 55 0A 31 00 00 00 02 92 (厨房顶灯一关, 厨房顶灯二关)
2024-08-30 02:36:36.737 - FF
2024-08-30 02:44:19.978 - 19 08 24 03 CC 00 D3 00 01 (调用厨房感应灯开的按键)
2024-08-30 02:44:20.026 - 55 0A 32 00 00 00 01 92 55 0A 32 00 00 00 02 93 (厨房顶灯一开, 厨房顶灯二开)
2024-08-30 02:45:12.576 - 19 08 24 03 CC 00 D4 00 01 (调用厨房感应灯关的按键)
2024-08-30 02:45:12.625 - 55 0A 31 00 00 00 01 91 55 0A 31 00 00 00 02 92 (厨房顶灯一关, 厨房顶灯二关)
2024-08-30 02:46:31.727 - 19 08 24 03 CC 00 D3 00 01 (调用厨房感应灯开的按键)
2024-08-30 02:46:31.759 - 55 0A 32 00 00 00 01 92 55 0A 32 00 00 00 02 93 (厨房顶灯一开, 厨房顶灯二开)
2024-08-30 02:47:07.307 - 19 08 24 03 CC 00 D4 00 01 (调用厨房感应灯关的按键)
2024-08-30 02:47:07.343 - 55 0A 31 00 00 00 01 91 55 0A 31 00 00 00 02 92 (厨房顶灯一关, 厨房顶灯二关)
2024-08-30 02:49:47.118 - 19 08 24 03 CC 00 D3 00 01 (调用厨房感应灯开的按键)
2024-08-30 02:49:47.150 - 55 0A 32 00 00 00 01 92 55 0A 32 00 00 00 02 93 (厨房顶灯一开, 厨房顶灯二开)
2024-08-30 02:50:29.198 - 19 08 24 03 CC 00 D4 00 01 (调用厨房感应灯关的按键)
2024-08-30 02:50:29.230 - 55 0A 31 00 00 00 01 91 55 0A 31 00 00 00 02 92 (厨房顶灯一关, 厨房顶灯二关)
2024-08-30 02:52:16.910 - 19 08 24 03 CC 00 D3 00 01 (调用厨房感应灯开的按键)
2024-08-30 02:52:16.942 - 55 0A 32 00 00 00 01 92 55 0A 32 00 00 00 02 93 (厨房顶灯一开, 厨房顶灯二开)
2024-08-30 02:52:51.984 - 19 08 24 03 CC 00 D4 00 01 (调用厨房感应灯关的按键)
2024-08-30 02:52:52.016 - 55 0A 31 00 00 00 01 91 55 0A 31 00 00 00 02 92 (厨房顶灯一关, 厨房顶灯二关)
2024-08-30 02:53:38.575 - 19 08 24 03 CC 00 D3 00 01 (调用厨房感应灯开的按键)
2024-08-30 02:53:38.611 - 55 0A 32 00 00 00 01 92 55 0A 32 00 00 00 02 93 (厨房顶灯一开, 厨房顶灯二开)
2024-08-30 02:54:13.637 - 19 08 24 03 CC 00 D4 00 01 (调用厨房感应灯关的按键)
2024-08-30 02:54:13.671 - 55 0A 31 00 00 00 01 91 55 0A 31 00 00 00 02 92 (厨房顶灯一关, 厨房顶灯二关)
2024-08-30 02:54:31.181 - 19 08 24 03 CC 00 D3 00 01 (调用厨房感应灯开的按键)
2024-08-30 02:54:31.213 - 55 0A 32 00 00 00 01 92 55 0A 32 00 00 00 02 93 (厨房顶灯一开, 厨房顶灯二开)
2024-08-30 02:55:06.237 - 19 08 24 03 CC 00 D4 00 01 (调用厨房感应灯关的按键)
2024-08-30 02:55:06.285 - 55 0A 31 00 00 00 01 91 55 0A 31 00 00 00 02 92 (厨房顶灯一关, 厨房顶灯二关)
2024-08-30 02:56:00.353 - 19 08 24 03 CC 00 D3 00 01 (调用厨房感应灯开的按键)
2024-08-30 02:56:00.385 - 55 0A 32 00 00 00 01 92 55 0A 32 00 00 00 02 93 (厨房顶灯一开, 厨房顶灯二开)
2024-08-30 02:56:35.416 - 19 08 24 03 CC 00 D4 00 01 (调用厨房感应灯关的按键)
2024-08-30 02:56:35.460 - 55 0A 31 00 00 00 01 91 55 0A 31 00 00 00 02 92 (厨房顶灯一关, 厨房顶灯二关)
2024-08-30 02:57:50.067 - 19 08 24 03 CC 00 D3 00 01 (调用厨房感应灯开的按键)
2024-08-30 02:57:50.099 - 55 0A 32 00 00 00 01 92 55 0A 32 00 00 00 02 93 (厨房顶灯一开, 厨房顶灯二开)
2024-08-30 02:58:34.158 - 19 08 24 03 CC 00 D4 00 01 (调用厨房感应灯关的按键)
2024-08-30 02:58:34.190 - 55 0A 31 00 00 00 01 91 55 0A 31 00 00 00 02 92 (厨房顶灯一关, 厨房顶灯二关)
2024-08-30 02:58:38.165 - 19 08 24 03 CC 00 D3 00 01 (调用厨房感应灯开的按键)
2024-08-30 02:58:38.199 - 55 0A 32 00 00 00 01 92 55 0A 32 00 00 00 02 93 (厨房顶灯一开, 厨房顶灯二开)
2024-08-30 02:59:26.756 - 19 08 24 03 CC 00 D4 00 01 (调用厨房感应灯关的按键)
2024-08-30 02:59:26.789 - 55 0A 31 00 00 00 01 91 55 0A 31 00 00 00 02 92 (厨房顶灯一关, 厨房顶灯二关)
2024-08-30 02:59:32.322 - 50 F7 01 (全屋影音全关)
2024-08-30 02:59:42.289 - 19 08 24 03 CC 00 D3 00 01 (调用厨房感应灯开的按键)
2024-08-30 02:59:42.321 - 55 0A 32 00 00 00 01 92 55 0A 32 00 00 00 02 93 (厨房顶灯一开, 厨房顶灯二开)
2024-08-30 03:00:19.357 - 19 08 24 03 CC 00 D4 00 01 (调用厨房感应灯关的按键)
2024-08-30 03:00:19.391 - 55 0A 31 00 00 00 01 91 55 0A 31 00 00 00 02 92 (厨房顶灯一关, 厨房顶灯二关)
2024-08-30 03:00:34.892 - 19 08 24 03 CC 00 D3 00 01 (调用厨房感应灯开的按键)
2024-08-30 03:00:34.924 - 55 0A 32 00 00 00 01 92 55 0A 32 00 00 00 02 93 (厨房顶灯一开, 厨房顶灯二开)
2024-08-30 03:01:10.467 - 19 08 24 03 CC 00 D4 00 01 (调用厨房感应灯关的按键)
2024-08-30 03:01:10.498 - 55 0A 31 00 00 00 01 91 55 0A 31 00 00 00 02 92 (厨房顶灯一关, 厨房顶灯二关)
2024-08-30 03:01:10.961 - 19 08 24 03 CC 00 D3 00 01 (调用厨房感应灯开的按键)
2024-08-30 03:01:10.995 - 55 0A 32 00 00 00 01 92 55 0A 32 00 00 00 02 93 (厨房顶灯一开, 厨房顶灯二开)
2024-08-30 03:01:46.530 - 19 08 24 03 CC 00 D4 00 01 (调用厨房感应灯关的按键)
2024-08-30 03:01:46.562 - 55 0A 31 00 00 00 01 91 55 0A 31 00 00 00 02 92 (厨房顶灯一关, 厨房顶灯二关)
2024-08-30 03:03:12.694 - 19 08 24 03 CC 00 D3 00 01 (调用厨房感应灯开的按键)
2024-08-30 03:03:12.742 - 55 0A 32 00 00 00 01 92 55 0A 32 00 00 00 02 93 (厨房顶灯一开, 厨房顶灯二开)
2024-08-30 03:03:48.277 - 19 08 24 03 CC 00 D4 00 01 (调用厨房感应灯关的按键)
2024-08-30 03:03:48.309 - 55 0A 31 00 00 00 01 91 55 0A 31 00 00 00 02 92 (厨房顶灯一关, 厨房顶灯二关)
2024-08-30 03:05:43.002 - 19 08 24 03 CC 00 D3 00 01 (调用厨房感应灯开的按键)
2024-08-30 03:05:43.036 - 55 0A 32 00 00 00 01 92 55 0A 32 00 00 00 02 93 (厨房顶灯一开, 厨房顶灯二开)
2024-08-30 03:06:18.066 - 19 08 24 03 CC 00 D4 00 01 (调用厨房感应灯关的按键)
2024-08-30 03:06:18.106 - 55 0A 31 00 00 00 01 91 55 0A 31 00 00 00 02 92 (厨房顶灯一关, 厨房顶灯二关)
2024-08-30 03:06:23.067 - 19 08 24 03 CC 00 D3 00 01 (调用厨房感应灯开的按键)
2024-08-30 03:06:23.114 - 55 0A 32 00 00 00 01 92 55 0A 32 00 00 00 02 93 (厨房顶灯一开, 厨房顶灯二开)
2024-08-30 03:06:58.144 - 19 08 24 03 CC 00 D4 00 01 (调用厨房感应灯关的按键)
2024-08-30 03:06:58.176 - 55 0A 31 00 00 00 01 91 55 0A 31 00 00 00 02 92 (厨房顶灯一关, 厨房顶灯二关)
2024-08-30 03:09:21.430 - 19 08 24 03 CC 00 D3 00 01 (调用厨房感应灯开的按键)
2024-08-30 03:09:21.462 - 55 0A 32 00 00 00 01 92 55 0A 32 00 00 00 02 93 (厨房顶灯一开, 厨房顶灯二开)
2024-08-30 03:09:56.995 - 19 08 24 03 CC 00 D4 00 01 (调用厨房感应灯关的按键)
2024-08-30 03:09:57.028 - 55 0A 31 00 00 00 01 91 55 0A 31 00 00 00 02 92 (厨房顶灯一关, 厨房顶灯二关)
2024-08-30 03:13:07.371 - 19 08 24 03 CC 00 D3 00 01 (调用厨房感应灯开的按键)
2024-08-30 03:13:07.412 - 55 0A 32 00 00 00 01 92 55 0A 32 00 00 00 02 93 (厨房顶灯一开, 厨房顶灯二开)
2024-08-30 03:13:42.935 - 19 08 24 03 CC 00 D4 00 01 (调用厨房感应灯关的按键)
2024-08-30 03:13:42.966 - 55 0A 31 00 00 00 01 91 55 0A 31 00 00 00 02 92 (厨房顶灯一关, 厨房顶灯二关)
2024-08-30 03:23:09.816 - FF
2024-08-30 03:24:45.673 - FF
2024-08-30 03:29:02.254 - 19 08 24 03 CC 00 D3 00 01 (调用厨房感应灯开的按键)
2024-08-30 03:29:02.307 - 55 0A 32 00 00 00 01 92 55 0A 32 00 00 00 02 93 (厨房顶灯一开, 厨房顶灯二开)
2024-08-30 03:29:37.824 - 19 08 24 03 CC 00 D4 00 01 (调用厨房感应灯关的按键)
2024-08-30 03:29:37.856 - 55 0A 31 00 00 00 01 91 55 0A 31 00 00 00 02 92 (厨房顶灯一关, 厨房顶灯二关)
2024-08-30 03:29:59.366 - 19 08 24 03 CC 00 D3 00 01 (调用厨房感应灯开的按键)
2024-08-30 03:29:59.400 - 55 0A 32 00 00 00 01 92 55 0A 32 00 00 00 02 93 (厨房顶灯一开, 厨房顶灯二开)
2024-08-30 03:31:28.324 - 19 08 24 03 CC 01 54 00 01 (调用内卫感应灯开的按键)
2024-08-30 03:31:28.358 - 1A 0C 02 08 01 FF 45 01 FF 45 01 FF 00 00 0F (调光器地址-内卫射灯, 内卫射灯微光)
2024-08-30 03:31:28.532 - 19 08 24 03 CC 00 D4 00 01 (调用厨房感应灯关的按键)
2024-08-30 03:34:41.922 - 19 08 24 03 CC 00 D3 00 01 (调用厨房感应灯开的按键)
2024-08-30 03:34:41.956 - 55 0A 32 00 00 00 01 92 55 0A 32 00 00 00 02 93 (厨房顶灯一开, 厨房顶灯二开)
2024-08-30 03:34:46.719 - 19 08 24 03 CC 01 55 00 01 (调用内卫感应灯关的按键)
2024-08-30 03:34:46.753 - 1A 0C 02 08 01 FF 00 01 FF 00 01 FF 00 00 0F (调光器地址-内卫射灯, 内卫感应灯关)
2024-08-30 03:36:13.397 - 19 08 24 03 CC 01 54 00 01 (调用内卫感应灯开的按键)
2024-08-30 03:36:13.429 - 1A 0C 02 08 01 FF 45 01 FF 45 01 FF 00 00 0F (调光器地址-内卫射灯, 内卫射灯微光)
2024-08-30 03:36:38.948 - 19 08 24 03 CC 01 55 00 01 (调用内卫感应灯关的按键)
2024-08-30 03:36:38.980 - 1A 0C 02 08 01 FF 00 01 FF 00 01 FF 00 00 0F (调光器地址-内卫射灯, 内卫感应灯关)
2024-08-30 03:36:56.684 - 19 08 24 03 CC 00 D4 00 01 (调用厨房感应灯关的按键)
2024-08-30 03:36:56.716 - 55 0A 31 00 00 00 01 91 55 0A 31 00 00 00 02 92 (厨房顶灯一关, 厨房顶灯二关)
2024-08-30 03:37:34.257 - 19 08 24 03 CC 00 D3 00 01 (调用厨房感应灯开的按键)
2024-08-30 03:37:34.291 - 55 0A 32 00 00 00 01 92 55 0A 32 00 00 00 02 93 (厨房顶灯一开, 厨房顶灯二开)
2024-08-30 03:38:37.372 - 19 08 24 03 CC 00 D4 00 01 (调用厨房感应灯关的按键)
2024-08-30 03:38:37.419 - 55 0A 31 00 00 00 01 91 55 0A 31 00 00 00 02 92 (厨房顶灯一关, 厨房顶灯二关)
2024-08-30 03:41:02.670 - 19 08 24 03 CC 00 D3 00 01 (调用厨房感应灯开的按键)
2024-08-30 03:41:02.702 - 55 0A 32 00 00 00 01 92 55 0A 32 00 00 00 02 93 (厨房顶灯一开, 厨房顶灯二开)
2024-08-30 03:42:11.803 - 19 08 24 03 CC 00 D4 00 01 (调用厨房感应灯关的按键)
2024-08-30 03:42:11.842 - 55 0A 31 00 00 00 01 91 55 0A 31 00 00 00 02 92 (厨房顶灯一关, 厨房顶灯二关)
2024-08-30 03:47:03.299 - 1A BE B0 DC 04 FC (继电器地址-西阳窗帘)
2024-08-30 03:47:03.440 - FF
2024-08-30 03:48:07.367 - FF FF FF FF 0E FE (继电器地址-西阳小窗帘)
2024-08-30 03:48:07.511 - FE
2024-08-30 03:49:41.184 - 19 08 24 03 CC 00 D3 00 01 (调用厨房感应灯开的按键)
2024-08-30 03:49:41.245 - 55 0A 32 00 00 00 01 92 55 0A 32 00 00 00 02 93 (厨房顶灯一开, 厨房顶灯二开)
2024-08-30 03:50:19.757 - 19 08 24 03 CC 00 D4 00 01 (调用厨房感应灯关的按键)
2024-08-30 03:50:19.816 - 55 0A 31 00 00 00 01 91 55 0A 31 00 00 00 02 92 (厨房顶灯一关, 厨房顶灯二关)
2024-08-30 03:50:32.037 - 1A BE B0 DC 09 (继电器地址-客厅窗帘)
2024-08-30 03:51:43.445 - 1A BE B0 DC 02 (正反转地址-外卫卷帘)
2024-08-30 03:51:43.581 - FE
2024-08-30 03:51:49.142 - 1A BE B0 DC 0A FC (继电器地址-客厅纱帘)
2024-08-30 03:51:49.282 - FF
2024-08-30 03:53:09.812 - 1A BE B0 DC 01 FC (继电器地址-回水泵点动)
2024-08-30 03:53:09.942 - FF
2024-08-30 03:53:13.769 - 1A BE B0 DC 03 FC (继电器地址-西阳天幕)
2024-08-30 03:53:13.905 - FF
2024-08-30 03:53:25.122 - FF FF FF FF 0A FE (继电器地址-东阳窗帘)
2024-08-30 03:53:25.250 - FE
2024-08-30 03:59:07.305 - 19 08 24 03 CC 00 D3 00 01 (调用厨房感应灯开的按键)
2024-08-30 03:59:07.353 - 55 0A 32 00 00 00 01 92 55 0A 32 00 00 00 02 93 (厨房顶灯一开, 厨房顶灯二开)
2024-08-30 03:59:46.378 - 19 08 24 03 CC 00 D4 00 01 (调用厨房感应灯关的按键)
2024-08-30 03:59:46.433 - 55 0A 31 00 00 00 01 91 55 0A 31 00 00 00 02 92 (厨房顶灯一关, 厨房顶灯二关)
2024-08-30 04:01:27.571 - 19 08 24 03 CC 00 D3 00 01 (调用厨房感应灯开的按键)
2024-08-30 04:01:27.603 - 55 0A 32 00 00 00 01 92 55 0A 32 00 00 00 02 93 (厨房顶灯一开, 厨房顶灯二开)
2024-08-30 04:02:24.181 - 19 08 24 03 CC 00 D4 00 01 (调用厨房感应灯关的按键)
2024-08-30 04:02:24.226 - 55 0A 31 00 00 00 01 91 55 0A 31 00 00 00 02 92 (厨房顶灯一关, 厨房顶灯二关)
2024-08-30 04:05:00.998 - 19 08 24 03 CC 00 D3 00 01 (调用厨房感应灯开的按键)
2024-08-30 04:05:01.031 - 55 0A 32 00 00 00 01 92 55 0A 32 00 00 00 02 93 (厨房顶灯一开, 厨房顶灯二开)
2024-08-30 04:05:36.568 - 19 08 24 03 CC 00 D4 00 01 (调用厨房感应灯关的按键)
2024-08-30 04:05:36.602 - 55 0A 31 00 00 00 01 91 55 0A 31 00 00 00 02 92 (厨房顶灯一关, 厨房顶灯二关)
2024-08-30 04:10:40.911 - 1A FF FF FF 04 FC (继电器地址-东阳衣架)
2024-08-30 04:10:41.047 - 00
2024-08-30 04:18:41.845 - FF
2024-08-30 04:19:33.110 - 1A EC A0 DC 01 00 01 00 0F (自保持开关地址-电视、设备12V供电, 12V 设备供电关)
2024-08-30 04:19:33.652 - 1A EC A0 DC 01 00 01 00 0F (自保持开关地址-电视、设备12V供电, 12V 设备供电关)
2024-08-30 04:19:43.718 - 1A EC A0 DC 01 00 01 01 0F (自保持开关地址-电视、设备12V供电, 12V 设备供电开)
2024-08-30 04:19:43.957 - 0A 00
2024-08-30 04:19:43.957 - 00
2024-08-30 04:19:44.089 - FF
2024-08-30 04:19:44.116 - 1A 27 89 12
2024-08-30 04:19:44.123 - FF
2024-08-30 04:19:44.148 - EE 00 7E 07 FF FC FF
2024-08-30 04:19:44.310 - A7
2024-08-30 04:19:44.310 - EB DF 4A FF
2024-08-30 04:19:44.310 - FF
2024-08-30 04:19:44.344 - EE 00 71 B1 01 00 02 FF FC FF FF
2024-08-30 04:19:44.451 - F7
2024-08-30 04:19:44.667 - FF
2024-08-30 04:19:44.769 - 1A EC A0 DC 01 00 01 01 0F (自保持开关地址-电视、设备12V供电, 12V 设备供电开)
2024-08-30 04:19:45.232 - FC
2024-08-30 04:19:45.365 - F7
2024-08-30 04:19:45.552 - 68 86
2024-08-30 04:19:45.603 - 68 86 FE
2024-08-30 04:19:45.679 - FF
2024-08-30 04:19:45.679 - FF
2024-08-30 04:19:45.688 - CB
2024-08-30 04:19:45.688 - FF
2024-08-30 04:19:45.688 - 68 86
2024-08-30 04:19:45.822 - 1A BE B0 DC 03 (继电器地址-西阳天幕)
2024-08-30 04:19:45.950 - FC
2024-08-30 04:19:46.253 - FE
2024-08-30 04:19:46.861 - FF
2024-08-30 04:19:47.195 - 68 86 FF
2024-08-30 04:19:53.169 - 19 08 24 03 CC 01 CC 00 01 (调用茶吧感应灯开的按键)
2024-08-30 04:19:53.224 - 1A AA AA AA 88 FF B0 01 FF B0 01 0F (调光器地址-茶吧灯带, 茶吧灯带明亮)
2024-08-30 04:20:01.167 - 19 08 24 03 CC 01 CD 00 01 (调用茶吧感应灯关的按键)
2024-08-30 04:20:01.199 - 1A AA AA AA 88 FF 00 01 FF 00 01 0F (调光器地址-茶吧灯带, 茶吧灯带关闭)
2024-08-30 04:34:28.367 - 19 08 24 03 CC 00 D3 00 01 (调用厨房感应灯开的按键)
2024-08-30 04:34:28.402 - 55 0A 32 00 00 00 01 92 55 0A 32 00 00 00 02 93 (厨房顶灯一开, 厨房顶灯二开)
2024-08-30 04:35:03.437 - 19 08 24 03 CC 00 D4 00 01 (调用厨房感应灯关的按键)
2024-08-30 04:35:03.472 - 55 0A 31 00 00 00 01 91 55 0A 31 00 00 00 02 92 (厨房顶灯一关, 厨房顶灯二关)
2024-08-30 04:37:24.708 - 19 08 24 03 CC 00 D3 00 01 (调用厨房感应灯开的按键)
2024-08-30 04:37:24.739 - 55 0A 32 00 00 00 01 92 55 0A 32 00 00 00 02 93 (厨房顶灯一开, 厨房顶灯二开)
2024-08-30 04:38:03.291 - 19 08 24 03 CC 00 D4 00 01 (调用厨房感应灯关的按键)
2024-08-30 04:38:03.326 - 55 0A 31 00 00 00 01 91 55 0A 31 00 00 00 02 92 (厨房顶灯一关, 厨房顶灯二关)
2024-08-30 04:39:26.950 - 19 08 24 03 CC 00 D3 00 01 (调用厨房感应灯开的按键)
2024-08-30 04:39:26.983 - 55 0A 32 00 00 00 01 92 55 0A 32 00 00 00 02 93 (厨房顶灯一开, 厨房顶灯二开)
2024-08-30 04:40:02.026 - 19 08 24 03 CC 00 D4 00 01 (调用厨房感应灯关的按键)
2024-08-30 04:40:02.058 - 55 0A 31 00 00 00 01 91 55 0A 31 00 00 00 02 92 (厨房顶灯一关, 厨房顶灯二关)
2024-08-30 04:40:06.033 - 19 08 24 03 CC 00 D3 00 01 (调用厨房感应灯开的按键)
2024-08-30 04:40:06.067 - 55 0A 32 00 00 00 01 92 55 0A 32 00 00 00 02 93 (厨房顶灯一开, 厨房顶灯二开)
2024-08-30 04:40:41.101 - 19 08 24 03 CC 00 D4 00 01 (调用厨房感应灯关的按键)
2024-08-30 04:40:41.137 - 55 0A 31 00 00 00 01 91 55 0A 31 00 00 00 02 92 (厨房顶灯一关, 厨房顶灯二关)
2024-08-30 04:41:01.137 - 19 08 24 03 CC 00 D3 00 01 (调用厨房感应灯开的按键)
2024-08-30 04:41:01.169 - 55 0A 32 00 00 00 01 92 55 0A 32 00 00 00 02 93 (厨房顶灯一开, 厨房顶灯二开)
2024-08-30 04:41:36.208 - 19 08 24 03 CC 00 D4 00 01 (调用厨房感应灯关的按键)
2024-08-30 04:41:36.242 - 55 0A 31 00 00 00 01 91 55 0A 31 00 00 00 02 92 (厨房顶灯一关, 厨房顶灯二关)
2024-08-30 04:42:01.260 - 19 08 24 03 CC 00 D3 00 01 (调用厨房感应灯开的按键)
2024-08-30 04:42:01.292 - 55 0A 32 00 00 00 01 92 55 0A 32 00 00 00 02 93 (厨房顶灯一开, 厨房顶灯二开)
2024-08-30 04:42:36.323 - 19 08 24 03 CC 00 D4 00 01 (调用厨房感应灯关的按键)
2024-08-30 04:42:36.361 - 55 0A 31 00 00 00 01 91 55 0A 31 00 00 00 02 92 (厨房顶灯一关, 厨房顶灯二关)
2024-08-30 04:43:34.937 - 19 08 24 03 CC 00 D3 00 01 (调用厨房感应灯开的按键)
2024-08-30 04:43:34.974 - 55 0A 32 00 00 00 01 92 55 0A 32 00 00 00 02 93 (厨房顶灯一开, 厨房顶灯二开)
2024-08-30 04:44:10.002 - 19 08 24 03 CC 00 D4 00 01 (调用厨房感应灯关的按键)
2024-08-30 04:44:10.035 - 55 0A 31 00 00 00 01 91 55 0A 31 00 00 00 02 92 (厨房顶灯一关, 厨房顶灯二关)
2024-08-30 04:44:15.018 - 19 08 24 03 CC 00 D3 00 01 (调用厨房感应灯开的按键)
2024-08-30 04:44:15.057 - 55 0A 32 00 00 00 01 92 55 0A 32 00 00 00 02 93 (厨房顶灯一开, 厨房顶灯二开)
2024-08-30 04:44:50.084 - 19 08 24 03 CC 00 D4 00 01 (调用厨房感应灯关的按键)
2024-08-30 04:44:50.118 - 55 0A 31 00 00 00 01 91 55 0A 31 00 00 00 02 92 (厨房顶灯一关, 厨房顶灯二关)
2024-08-30 04:45:38.687 - 19 08 24 03 CC 00 D3 00 01 (调用厨房感应灯开的按键)
2024-08-30 04:45:38.721 - 55 0A 32 00 00 00 01 92 55 0A 32 00 00 00 02 93 (厨房顶灯一开, 厨房顶灯二开)
2024-08-30 04:46:13.753 - 19 08 24 03 CC 00 D4 00 01 (调用厨房感应灯关的按键)
2024-08-30 04:46:13.787 - 55 0A 31 00 00 00 01 91 55 0A 31 00 00 00 02 92 (厨房顶灯一关, 厨房顶灯二关)
2024-08-30 04:46:38.793 - 19 08 24 03 CC 00 D3 00 01 (调用厨房感应灯开的按键)
2024-08-30 04:46:38.825 - 55 0A 32 00 00 00 01 92 55 0A 32 00 00 00 02 93 (厨房顶灯一开, 厨房顶灯二开)
2024-08-30 04:47:22.387 - 19 08 24 03 CC 00 D4 00 01 (调用厨房感应灯关的按键)
2024-08-30 04:47:22.426 - 55 0A 31 00 00 00 01 91 55 0A 31 00 00 00 02 92 (厨房顶灯一关, 厨房顶灯二关)
2024-08-30 04:49:32.493 - EE 00 00 B1 00 00 00 FF FC FF FF (情景执行提示)
2024-08-30 04:49:33.084 - A5 00 A2 FF 00 AA (餐厅纱帘关)
2024-08-30 04:49:34.190 - A5 00 A6 FF 00 AA (餐厅窗帘关)
2024-08-30 04:49:34.248 - 55 00 A6 01 00 0E 01 75 AA 55 00 A6 01 00 0E 01 75 (餐厅窗帘电机状态返回)
2024-08-30 04:49:35.286 - A5 00 B7 FF 00 AA 22 0D (书房纱帘关)
2024-08-30 04:49:36.388 - A5 00 D2 FF 00 AA 22 0C (书房窗帘关)
2024-08-30 04:49:36.436 - 55 00 D2 01 00 0E 00 F2 AA 55 00 D2 01 00 0E (书房窗帘电机状态返回)
2024-08-30 04:49:37.488 - EE 00 00 B1 00 00 02 FF FC FF FF (情景完成返回主页)
2024-08-30 04:49:42.814 - 55 00 A6 00 01 67 01 75 AA 55 00 A6 00 01 67 01 75 AA (餐厅窗帘电机状态返回)
2024-08-30 04:49:44.394 - 55 00 D2 00 00 E5 00 F2 AA 55 00 D2 00 00 E5 00 F2 AA (书房窗帘电机状态返回)
2024-08-30 04:50:08.206 - 19 08 24 03 CC 00 D3 00 01 (调用厨房感应灯开的按键)
2024-08-30 04:50:08.270 - 55 0A 32 00 00 00 01 92 55 0A 32 00 00 00 02 93 (厨房顶灯一开, 厨房顶灯二开)
2024-08-30 04:50:43.284 - 19 08 24 03 CC 00 D4 00 01 (调用厨房感应灯关的按键)
2024-08-30 04:50:43.315 - 55 0A 31 00 00 00 01 91 55 0A 31 00 00 00 02 92 (厨房顶灯一关, 厨房顶灯二关)
2024-08-30 04:50:56.809 - 19 08 24 03 CC 00 D3 00 01 (调用厨房感应灯开的按键)
2024-08-30 04:50:56.841 - 55 0A 32 00 00 00 01 92 55 0A 32 00 00 00 02 93 (厨房顶灯一开, 厨房顶灯二开)
2024-08-30 04:51:31.880 - 19 08 24 03 CC 00 D4 00 01 (调用厨房感应灯关的按键)
2024-08-30 04:51:31.912 - 55 0A 31 00 00 00 01 91 55 0A 31 00 00 00 02 92 (厨房顶灯一关, 厨房顶灯二关)
2024-08-30 04:52:28.986 - 19 08 24 03 CC 00 D3 00 01 (调用厨房感应灯开的按键)
2024-08-30 04:52:29.028 - 55 0A 32 00 00 00 01 92 55 0A 32 00 00 00 02 93 (厨房顶灯一开, 厨房顶灯二开)
2024-08-30 04:53:04.056 - 19 08 24 03 CC 00 D4 00 01 (调用厨房感应灯关的按键)
2024-08-30 04:53:04.088 - 55 0A 31 00 00 00 01 91 55 0A 31 00 00 00 02 92 (厨房顶灯一关, 厨房顶灯二关)
2024-08-30 04:53:32.117 - 19 08 24 03 CC 00 D3 00 01 (调用厨房感应灯开的按键)
2024-08-30 04:53:32.149 - 55 0A 32 00 00 00 01 92 55 0A 32 00 00 00 02 93 (厨房顶灯一开, 厨房顶灯二开)
2024-08-30 04:54:07.185 - 19 08 24 03 CC 00 D4 00 01 (调用厨房感应灯关的按键)
2024-08-30 04:54:07.217 - 55 0A 31 00 00 00 01 91 55 0A 31 00 00 00 02 92 (厨房顶灯一关, 厨房顶灯二关)
2024-08-30 04:54:40.246 - 19 08 24 03 CC 00 D3 00 01 (调用厨房感应灯开的按键)
2024-08-30 04:54:40.287 - 55 0A 32 00 00 00 01 92 55 0A 32 00 00 00 02 93 (厨房顶灯一开, 厨房顶灯二开)
2024-08-30 04:55:15.320 - 19 08 24 03 CC 00 D4 00 01 (调用厨房感应灯关的按键)
2024-08-30 04:55:15.354 - 55 0A 31 00 00 00 01 91 55 0A 31 00 00 00 02 92 (厨房顶灯一关, 厨房顶灯二关)
2024-08-30 04:55:52.894 - 19 08 24 03 CC 00 D3 00 01 (调用厨房感应灯开的按键)
2024-08-30 04:55:52.942 - 55 0A 32 00 00 00 01 92 55 0A 32 00 00 00 02 93 (厨房顶灯一开, 厨房顶灯二开)
2024-08-30 04:56:27.956 - 19 08 24 03 CC 00 D4 00 01 (调用厨房感应灯关的按键)
2024-08-30 04:56:27.997 - 55 0A 31 00 00 00 01 91 55 0A 31 00 00 00 02 92 (厨房顶灯一关, 厨房顶灯二关)
2024-08-30 04:57:18.059 - 19 08 24 03 CC 00 D3 00 01 (调用厨房感应灯开的按键)
2024-08-30 04:57:18.091 - 55 0A 32 00 00 00 01 92 55 0A 32 00 00 00 02 93 (厨房顶灯一开, 厨房顶灯二开)
2024-08-30 04:57:53.130 - 19 08 24 03 CC 00 D4 00 01 (调用厨房感应灯关的按键)
2024-08-30 04:57:53.162 - 55 0A 31 00 00 00 01 91 55 0A 31 00 00 00 02 92 (厨房顶灯一关, 厨房顶灯二关)
2024-08-30 04:59:15.292 - 19 08 24 03 CC 00 D3 00 01 (调用厨房感应灯开的按键)
2024-08-30 04:59:15.324 - 55 0A 32 00 00 00 01 92 55 0A 32 00 00 00 02 93 (厨房顶灯一开, 厨房顶灯二开)
2024-08-30 04:59:50.862 - 19 08 24 03 CC 00 D4 00 01 (调用厨房感应灯关的按键)
2024-08-30 04:59:50.896 - 55 0A 31 00 00 00 01 91 55 0A 31 00 00 00 02 92 (厨房顶灯一关, 厨房顶灯二关)
2024-08-30 05:00:15.408 - 19 08 24 03 CC 00 D3 00 01 (调用厨房感应灯开的按键)
2024-08-30 05:00:15.440 - 55 0A 32 00 00 00 01 92 55 0A 32 00 00 00 02 93 (厨房顶灯一开, 厨房顶灯二开)
2024-08-30 05:00:50.984 - 19 08 24 03 CC 00 D4 00 01 (调用厨房感应灯关的按键)
2024-08-30 05:00:51.011 - 55 0A 31 00 00 00 01 91 55 0A 31 00 00 00 02 92 (厨房顶灯一关, 厨房顶灯二关)
2024-08-30 05:01:03.501 - 19 08 24 03 CC 00 D3 00 01 (调用厨房感应灯开的按键)
2024-08-30 05:01:03.535 - 55 0A 32 00 00 00 01 92 55 0A 32 00 00 00 02 93 (厨房顶灯一开, 厨房顶灯二开)
2024-08-30 05:01:38.573 - 19 08 24 03 CC 00 D4 00 01 (调用厨房感应灯关的按键)
2024-08-30 05:01:38.621 - 55 0A 31 00 00 00 01 91 55 0A 31 00 00 00 02 92 (厨房顶灯一关, 厨房顶灯二关)
2024-08-30 05:02:14.140 - 19 08 24 03 CC 00 D3 00 01 (调用厨房感应灯开的按键)
2024-08-30 05:02:14.171 - 55 0A 32 00 00 00 01 92 55 0A 32 00 00 00 02 93 (厨房顶灯一开, 厨房顶灯二开)
2024-08-30 05:02:49.715 - 19 08 24 03 CC 00 D4 00 01 (调用厨房感应灯关的按键)
2024-08-30 05:02:49.749 - 55 0A 31 00 00 00 01 91 55 0A 31 00 00 00 02 92 (厨房顶灯一关, 厨房顶灯二关)
2024-08-30 05:04:10.374 - 19 08 24 03 CC 00 D3 00 01 (调用厨房感应灯开的按键)
2024-08-30 05:04:10.408 - 55 0A 32 00 00 00 01 92 55 0A 32 00 00 00 02 93 (厨房顶灯一开, 厨房顶灯二开)
2024-08-30 05:04:46.437 - 19 08 24 03 CC 00 D4 00 01 (调用厨房感应灯关的按键)
2024-08-30 05:04:46.471 - 55 0A 31 00 00 00 01 91 55 0A 31 00 00 00 02 92 (厨房顶灯一关, 厨房顶灯二关)
2024-08-30 05:05:50.561 - 19 08 24 03 CC 00 D3 00 01 (调用厨房感应灯开的按键)
2024-08-30 05:05:50.595 - 55 0A 32 00 00 00 01 92 55 0A 32 00 00 00 02 93 (厨房顶灯一开, 厨房顶灯二开)
2024-08-30 05:06:25.633 - 19 08 24 03 CC 00 D4 00 01 (调用厨房感应灯关的按键)
2024-08-30 05:06:25.666 - 55 0A 31 00 00 00 01 91 55 0A 31 00 00 00 02 92 (厨房顶灯一关, 厨房顶灯二关)
2024-08-30 05:07:59.820 - 19 08 24 03 CC 00 D3 00 01 (调用厨房感应灯开的按键)
2024-08-30 05:07:59.854 - 55 0A 32 00 00 00 01 92 55 0A 32 00 00 00 02 93 (厨房顶灯一开, 厨房顶灯二开)
2024-08-30 05:08:34.890 - 19 08 24 03 CC 00 D4 00 01 (调用厨房感应灯关的按键)
2024-08-30 05:08:34.921 - 55 0A 31 00 00 00 01 91 55 0A 31 00 00 00 02 92 (厨房顶灯一关, 厨房顶灯二关)
2024-08-30 05:08:37.894 - 19 08 24 03 CC 00 D3 00 01 (调用厨房感应灯开的按键)
2024-08-30 05:08:37.942 - 55 0A 32 00 00 00 01 92 55 0A 32 00 00 00 02 93 (厨房顶灯一开, 厨房顶灯二开)
2024-08-30 05:09:13.466 - 19 08 24 03 CC 00 D4 00 01 (调用厨房感应灯关的按键)
2024-08-30 05:09:13.528 - 55 0A 31 00 00 00 01 91 55 0A 31 00 00 00 02 92 (厨房顶灯一关, 厨房顶灯二关)
2024-08-30 05:10:33.621 - 19 08 24 03 CC 00 D3 00 01 (调用厨房感应灯开的按键)
2024-08-30 05:10:33.655 - 55 0A 32 00 00 00 01 92 55 0A 32 00 00 00 02 93 (厨房顶灯一开, 厨房顶灯二开)
2024-08-30 05:11:08.691 - 19 08 24 03 CC 00 D4 00 01 (调用厨房感应灯关的按键)
2024-08-30 05:11:08.725 - 55 0A 31 00 00 00 01 91 55 0A 31 00 00 00 02 92 (厨房顶灯一关, 厨房顶灯二关)
2024-08-30 05:11:48.763 - 19 08 24 03 CC 00 D3 00 01 (调用厨房感应灯开的按键)
2024-08-30 05:11:48.809 - 55 0A 32 00 00 00 01 92 55 0A 32 00 00 00 02 93 (厨房顶灯一开, 厨房顶灯二开)
2024-08-30 05:12:24.343 - 19 08 24 03 CC 00 D4 00 01 (调用厨房感应灯关的按键)
2024-08-30 05:12:24.375 - 55 0A 31 00 00 00 01 91 55 0A 31 00 00 00 02 92 (厨房顶灯一关, 厨房顶灯二关)
2024-08-30 05:12:43.374 - 19 08 24 03 CC 00 D3 00 01 (调用厨房感应灯开的按键)
2024-08-30 05:12:43.417 - 55 0A 32 00 00 00 01 92 55 0A 32 00 00 00 02 93 (厨房顶灯一开, 厨房顶灯二开)
2024-08-30 05:13:18.442 - 19 08 24 03 CC 00 D4 00 01 (调用厨房感应灯关的按键)
2024-08-30 05:13:18.476 - 55 0A 31 00 00 00 01 91 55 0A 31 00 00 00 02 92 (厨房顶灯一关, 厨房顶灯二关)
2024-08-30 05:15:23.193 - 19 08 24 03 CC 00 D3 00 01 (调用厨房感应灯开的按键)
2024-08-30 05:15:23.225 - 55 0A 32 00 00 00 01 92 55 0A 32 00 00 00 02 93 (厨房顶灯一开, 厨房顶灯二开)
2024-08-30 05:15:58.264 - 19 08 24 03 CC 00 D4 00 01 (调用厨房感应灯关的按键)
2024-08-30 05:15:58.296 - 55 0A 31 00 00 00 01 91 55 0A 31 00 00 00 02 92 (厨房顶灯一关, 厨房顶灯二关)
2024-08-30 05:16:19.303 - 19 08 24 03 CC 00 D3 00 01 (调用厨房感应灯开的按键)
2024-08-30 05:16:19.335 - 55 0A 32 00 00 00 01 92 55 0A 32 00 00 00 02 93 (厨房顶灯一开, 厨房顶灯二开)
2024-08-30 05:16:54.872 - 19 08 24 03 CC 00 D4 00 01 (调用厨房感应灯关的按键)
2024-08-30 05:16:54.906 - 55 0A 31 00 00 00 01 91 55 0A 31 00 00 00 02 92 (厨房顶灯一关, 厨房顶灯二关)
2024-08-30 05:17:15.913 - 19 08 24 03 CC 00 D3 00 01 (调用厨房感应灯开的按键)
2024-08-30 05:17:15.945 - 55 0A 32 00 00 00 01 92 55 0A 32 00 00 00 02 93 (厨房顶灯一开, 厨房顶灯二开)
2024-08-30 05:17:53.484 - 19 08 24 03 CC 00 D4 00 01 (调用厨房感应灯关的按键)
2024-08-30 05:17:53.515 - 55 0A 31 00 00 00 01 91 55 0A 31 00 00 00 02 92 (厨房顶灯一关, 厨房顶灯二关)
2024-08-30 05:19:07.636 - 19 08 24 03 CC 00 D3 00 01 (调用厨房感应灯开的按键)
2024-08-30 05:19:07.670 - 55 0A 32 00 00 00 01 92 55 0A 32 00 00 00 02 93 (厨房顶灯一开, 厨房顶灯二开)
2024-08-30 05:19:44.210 - 19 08 24 03 CC 00 D4 00 01 (调用厨房感应灯关的按键)
2024-08-30 05:19:44.244 - 55 0A 31 00 00 00 01 91 55 0A 31 00 00 00 02 92 (厨房顶灯一关, 厨房顶灯二关)
2024-08-30 05:19:44.710 - 19 08 24 03 CC 00 D3 00 01 (调用厨房感应灯开的按键)
2024-08-30 05:19:44.742 - 55 0A 32 00 00 00 01 92 55 0A 32 00 00 00 02 93 (厨房顶灯一开, 厨房顶灯二开)
2024-08-30 05:20:20.282 - 19 08 24 03 CC 00 D4 00 01 (调用厨房感应灯关的按键)
2024-08-30 05:20:20.314 - 55 0A 31 00 00 00 01 91 55 0A 31 00 00 00 02 92 (厨房顶灯一关, 厨房顶灯二关)
2024-08-30 05:20:55.849 - 19 08 24 03 CC 00 D3 00 01 (调用厨房感应灯开的按键)
2024-08-30 05:20:55.880 - 55 0A 32 00 00 00 01 92 55 0A 32 00 00 00 02 93 (厨房顶灯一开, 厨房顶灯二开)
2024-08-30 05:21:30.920 - 19 08 24 03 CC 00 D4 00 01 (调用厨房感应灯关的按键)
2024-08-30 05:21:30.955 - 55 0A 31 00 00 00 01 91 55 0A 31 00 00 00 02 92 (厨房顶灯一关, 厨房顶灯二关)
2024-08-30 05:23:16.119 - 19 08 24 03 CC 00 D3 00 01 (调用厨房感应灯开的按键)
2024-08-30 05:23:16.151 - 55 0A 32 00 00 00 01 92 55 0A 32 00 00 00 02 93 (厨房顶灯一开, 厨房顶灯二开)
2024-08-30 05:23:51.187 - 19 08 24 03 CC 00 D4 00 01 (调用厨房感应灯关的按键)
2024-08-30 05:23:51.229 - 55 0A 31 00 00 00 01 91 55 0A 31 00 00 00 02 92 (厨房顶灯一关, 厨房顶灯二关)
2024-08-30 05:30:58.536 - 19 08 24 03 CC 00 D3 00 01 (调用厨房感应灯开的按键)
2024-08-30 05:30:58.570 - 55 0A 32 00 00 00 01 92 55 0A 32 00 00 00 02 93 (厨房顶灯一开, 厨房顶灯二开)
2024-08-30 05:31:33.601 - 19 08 24 03 CC 00 D4 00 01 (调用厨房感应灯关的按键)
2024-08-30 05:31:33.654 - 55 0A 31 00 00 00 01 91 55 0A 31 00 00 00 02 92 (厨房顶灯一关, 厨房顶灯二关)
2024-08-30 05:31:35.607 - 19 08 24 03 CC 00 D3 00 01 (调用厨房感应灯开的按键)
2024-08-30 05:31:35.641 - 55 0A 32 00 00 00 01 92 55 0A 32 00 00 00 02 93 (厨房顶灯一开, 厨房顶灯二开)
2024-08-30 05:32:10.674 - 19 08 24 03 CC 00 D4 00 01 (调用厨房感应灯关的按键)
2024-08-30 05:32:10.708 - 55 0A 31 00 00 00 01 91 55 0A 31 00 00 00 02 92 (厨房顶灯一关, 厨房顶灯二关)
2024-08-30 05:33:42.848 - 19 08 24 03 CC 00 D3 00 01 (调用厨房感应灯开的按键)
2024-08-30 05:33:42.881 - 55 0A 32 00 00 00 01 92 55 0A 32 00 00 00 02 93 (厨房顶灯一开, 厨房顶灯二开)
2024-08-30 05:34:18.425 - 19 08 24 03 CC 00 D4 00 01 (调用厨房感应灯关的按键)
2024-08-30 05:34:18.459 - 55 0A 31 00 00 00 01 91 55 0A 31 00 00 00 02 92 (厨房顶灯一关, 厨房顶灯二关)
2024-08-30 05:44:17.937 - 1A FF FF FF 60 (红外总线地址-主卧发射设备)
2024-08-30 06:00:40.152 - 19 08 24 03 CC 01 CC 00 01 (调用茶吧感应灯开的按键)
2024-08-30 06:00:40.189 - 1A AA AA AA 88 FF B0 01 FF B0 01 0F (调光器地址-茶吧灯带, 茶吧灯带明亮)
2024-08-30 06:00:47.159 - 19 08 24 03 CC 01 CD 00 01 (调用茶吧感应灯关的按键)
2024-08-30 06:00:47.193 - 1A AA AA AA 88 FF 00 01 FF 00 01 0F (调光器地址-茶吧灯带, 茶吧灯带关闭)
2024-08-30 06:02:00.150 - FF
2024-08-30 06:44:33.076 - EE 00 00 B1 00 00 00 FF FC FF FF (情景执行提示)
2024-08-30 06:44:33.668 - 09 06 00 0F 02 01 78 21 (提示音叮)
2024-08-30 06:44:34.263 - 50 F0 04 (开内卫影视)
2024-08-30 06:44:34.816 - 50 F0 05 (开主卧影视)
2024-08-30 06:44:35.358 - A5 00 53 FE 01 AA (主卧纱帘关)
2024-08-30 06:44:35.913 - A5 00 53 FE 01 AA (主卧纱帘关)
2024-08-30 06:44:36.458 - A5 00 52 FE 01 AA (主卧窗帘开)
2024-08-30 06:44:37.510 - A5 00 52 FE 01 AA (主卧窗帘开)
2024-08-30 06:44:38.548 - 1A 22 33 62 0F 00 02 01 0F (正反转地址-内卫卷帘, 内卫卷帘降)
2024-08-30 06:44:39.109 - 1A FF FF FF 56 00 00 00 0F (人体感应地址-内卫, 关闭内卫感应)
2024-08-30 06:44:39.211 - BC BC
2024-08-30 06:44:39.653 - 1A 20 07 01 55 00 01 00 0F (自保持开关地址-主卧顶灯, 主卧顶灯只关)
2024-08-30 06:44:40.708 - 1A 0C 02 08 01 FF F0 01 FF F0 01 FF 00 00 0F (调光器地址-内卫射灯, 内卫射灯明亮)
2024-08-30 06:44:41.307 - 1A 0C 02 04 01 FF 00 01 FF 00 01 FF 00 00 0F (调光器地址-主卧筒灯, 主卧筒灯关闭)
2024-08-30 06:44:41.900 - 1A 0C 02 04 03 FF 45 01 FF 45 01 FF 00 00 0F (调光器地址-主卧灯带, 主卧灯带微光)
2024-08-30 06:44:42.503 - 1A 0C 02 04 02 FF F0 01 FF 00 01 FF 00 00 0F (调光器地址-主卧过道, 主卧过道暖光)
2024-08-30 06:44:43.101 - 1A 0C 02 04 05 FF 00 01 FF 00 01 FF 00 00 0F (调光器地址-主卧北阅, 主卧北阅关闭)
2024-08-30 06:44:43.699 - 1A 0C 02 04 04 FF 00 01 FF 00 01 FF 00 00 0F (调光器地址-主卧南阅, 主卧南阅关闭)
2024-08-30 06:44:44.784 - 50 F1 24 (内卫—有线2)
2024-08-30 06:44:45.828 - 50 F1 25 (主卧—有线2)
2024-08-30 06:44:46.873 - AF BF CF DF C2 21 (有线2/快捷-凤凰卫视)
2024-08-30 06:44:47.426 - 1A FF FF FF 60 0B 01 01 0F (红外总线地址-主卧发射设备, 主卧电视电源)
2024-08-30 06:44:47.945 - F0 0B 01 08
2024-08-30 06:44:48.472 - 1A BE B0 DC 01 00 01 00 (继电器地址-回水泵点动, 回水泵点动)
2024-08-30 06:44:50.259 - 55 20 20 00 00 0F 02 16 AA 55 20 20 00 00 0F 02 16 AA (主卧窗帘电机状态返回)
2024-08-30 06:44:52.530 - 09 06 00 0F 02 02 38 20 (提示音咚)
2024-08-30 06:44:53.085 - EE 00 00 B1 00 00 02 FF FC FF FF (情景完成返回主页)
2024-08-30 06:44:54.180 - A1 11 11 11 11 01 (内卫浴霸取暖判断)
2024-08-30 06:44:54.401 - 14 03 00 00 00 02 C6 CE (查询内卫温湿度)
2024-08-30 06:44:54.427 - 14 03 04 01 E9 00 FC 6E BB (内卫温湿度返回)
2024-08-30 06:45:42.499 - FF
2024-08-30 06:51:13.138 - 19 08 24 03 CC 01 CC 00 01 (调用茶吧感应灯开的按键)
2024-08-30 06:51:13.189 - 1A AA AA AA 88 FF B0 01 FF B0 01 0F (调光器地址-茶吧灯带, 茶吧灯带明亮)
2024-08-30 06:51:20.157 - 19 08 24 03 CC 01 CD 00 01 (调用茶吧感应灯关的按键)
2024-08-30 06:51:20.199 - 1A AA AA AA 88 FF 00 01 FF 00 01 0F (调光器地址-茶吧灯带, 茶吧灯带关闭)
2024-08-30 07:04:50.612 - 19 08 24 03 CC 00 D3 00 01 (调用厨房感应灯开的按键)
2024-08-30 07:04:50.646 - 55 0A 32 00 00 00 01 92 55 0A 32 00 00 00 02 93 (厨房顶灯一开, 厨房顶灯二开)
2024-08-30 07:07:24.903 - 19 08 24 03 CC 00 D4 00 01 (调用厨房感应灯关的按键)
2024-08-30 07:07:24.949 - 55 0A 31 00 00 00 01 91 55 0A 31 00 00 00 02 92 (厨房顶灯一关, 厨房顶灯二关)
2024-08-30 07:13:42.653 - 19 08 24 03 DD 00 40 00 01 (调用情景-离开主卧)
2024-08-30 07:13:43.201 - EE 00 00 B1 00 00 00 FF FC FF FF (情景执行提示)
2024-08-30 07:13:43.806 - 09 06 00 0F 02 01 78 21 (提示音叮)
2024-08-30 07:13:44.348 - 50 F5 05 (关主卧影视)
2024-08-30 07:13:44.899 - 50 F5 04 (关内卫影视)
2024-08-30 07:13:45.451 - 01 06 07 D6 FF 60 28 9E (主卧空调关)
2024-08-30 07:13:45.498 - 01 06 07 D6 FF 60 28 9E (主卧空调关)
2024-08-30 07:13:46.041 - A5 00 52 FE 01 AA (主卧窗帘开)
2024-08-30 07:13:47.094 - A5 00 52 FE 01 AA (主卧窗帘开)
2024-08-30 07:13:48.130 - A5 00 53 FF 00 AA (主卧纱帘开)
2024-08-30 07:13:48.180 - 55 00 53 01 00 0C 02 30 AA 55 00 53 01 00 0C 02 30 AA (主卧纱帘电机状态返回)
2024-08-30 07:13:48.736 - A5 00 53 FF 00 AA (主卧纱帘开)
2024-08-30 07:13:49.286 - 1A 22 33 62 0F 00 00 01 0F (正反转地址-内卫卷帘, 内卫卷帘升)
2024-08-30 07:13:50.000 - 55 20 20 00 00 0F 02 16 AA 55 20 20 00 00 0F 02 16 AA (主卧窗帘电机状态返回)
2024-08-30 07:13:50.331 - 1A 20 07 01 40 00 01 00 0F (自保持开关地址-内卫顶灯, 内卫顶灯关)
2024-08-30 07:13:51.353 - 19 08 24 03 CC 01 CC 00 01 (调用茶吧感应灯开的按键)
2024-08-30 07:13:51.385 - 1A 20 07 01 55 00 01 00 0F (自保持开关地址-主卧顶灯, 主卧顶灯只关)
2024-08-30 07:13:51.497 - 1A AA AA AA 88 FF B0 01 FF B0 01 0F (调光器地址-茶吧灯带, 茶吧灯带明亮)
2024-08-30 07:13:52.381 - 1A 0C 02 08 01 FF 00 01 FF 00 01 FF 00 00 0F (调光器地址-内卫射灯, 内卫感应灯关)
2024-08-30 07:13:52.975 - 1A FF FF FF 56 00 00 01 0F (人体感应地址-内卫, 打开内卫感应)
2024-08-30 07:13:53.394 - 19 08 24 03 CC 01 54 00 01 (调用内卫感应灯开的按键)
2024-08-30 07:13:53.426 - 1A 0C 02 08 01 FF 45 01 FF 45 01 FF 00 00 0F (调光器地址-内卫射灯, 内卫射灯微光)
2024-08-30 07:13:56.820 - 1A 0C 02 04 FF FF 00 01 FF 00 01 FF 00 00 0F (主卧调光全关)
2024-08-30 07:13:57.911 - 09 06 00 0F 02 02 38 20 (提示音咚)
2024-08-30 07:13:58.453 - EE 00 00 B1 00 00 02 FF FC FF FF (情景完成返回主页)
2024-08-30 07:13:58.836 - 55 00 53 00 02 22 02 30 AA 55 00 53 00 02 22 02 30 AA (主卧纱帘电机状态返回)
2024-08-30 07:14:20.733 - 19 08 24 03 CC 00 D3 00 01 (调用厨房感应灯开的按键)
2024-08-30 07:14:20.783 - 55 0A 32 00 00 00 01 92 55 0A 32 00 00 00 02 93 (厨房顶灯一开, 厨房顶灯二开)
2024-08-30 07:14:41.686 - 19 08 24 03 CC 01 55 00 01 (调用内卫感应灯关的按键)
2024-08-30 07:14:41.726 - 1A 0C 02 08 01 FF 00 01 FF 00 01 FF 00 00 0F (调光器地址-内卫射灯, 内卫感应灯关)
2024-08-30 07:15:36.297 - 19 08 24 03 CC 01 54 00 01 (调用内卫感应灯开的按键)
2024-08-30 07:15:36.331 - 1A 0C 02 08 01 FF 45 01 FF 45 01 FF 00 00 0F (调光器地址-内卫射灯, 内卫射灯微光)
2024-08-30 07:15:39.886 - 19 08 24 03 CC 00 D4 00 01 (调用厨房感应灯关的按键)
2024-08-30 07:15:39.920 - 55 0A 31 00 00 00 01 91 55 0A 31 00 00 00 02 92 (厨房顶灯一关, 厨房顶灯二关)
2024-08-30 07:16:01.845 - 19 08 24 03 CC 01 55 00 01 (调用内卫感应灯关的按键)
2024-08-30 07:16:01.877 - 1A 0C 02 08 01 FF 00 01 FF 00 01 FF 00 00 0F (调光器地址-内卫射灯, 内卫感应灯关)
2024-08-30 07:16:06.484 - 19 08 24 03 DD 00 00 00 01 (调用情景-离家（末）)
2024-08-30 07:16:06.982 - EE 00 00 B1 00 00 00 FF FC FF FF (情景执行提示)
2024-08-30 07:16:07.572 - 09 06 00 0F 02 02 38 20 (提示音咚)
2024-08-30 07:16:08.151 - 50 F7 01 (全屋影音全关)
2024-08-30 07:16:08.729 - 01 06 07 D0 FF 60 C8 9F (客厅空调关)
2024-08-30 07:16:08.784 - 01 06 07 D0 FF 60 FC
2024-08-30 07:16:09.327 - 01 06 07 D0 FF 60 C8 9F (客厅空调关)
2024-08-30 07:16:09.359 - 01 06 07 D0 FF 60 C8 9F (客厅空调关)
2024-08-30 07:16:09.919 - 01 06 07 D3 FF 60 38 9F (餐厅空调关)
2024-08-30 07:16:09.953 - 01 06 07 D3 FF 60 38 9F (餐厅空调关)
2024-08-30 07:16:10.125 - 19 08 24 03 CC 01 CD 00 01 (调用茶吧感应灯关的按键)
2024-08-30 07:16:10.174 - 1A AA AA AA 88 FF 00 01 FF 00 01 0F (调光器地址-茶吧灯带, 茶吧灯带关闭)
2024-08-30 07:16:10.572 - 01 06 07 D3 FF 60 38 9F (餐厅空调关)
2024-08-30 07:16:10.616 - 01 06 07 D3 FF 60 38 9F (餐厅空调关)
2024-08-30 07:16:11.212 - 01 06 07 D6 FF 60 28 9E (主卧空调关)
2024-08-30 07:16:11.246 - 01 06 07 D6 FF 60 28 9E (主卧空调关)
2024-08-30 07:16:11.816 - 01 06 07 D6 FF 60 28 9E (主卧空调关)
2024-08-30 07:16:11.858 - 01 06 07 D6 FF 60 28 9E (主卧空调关)
2024-08-30 07:16:12.420 - 01 06 07 D9 FF 60 18 9D (次卧空调关)
2024-08-30 07:16:12.454 - 01 06 07 D9 FF 60 18 9D (次卧空调关)
2024-08-30 07:16:13.015 - 01 06 07 D9 FF 60 18 9D (次卧空调关)
2024-08-30 07:16:13.049 - 01 06 07 D9 FF 60 18 9D (次卧空调关)
2024-08-30 07:16:13.610 - 01 06 07 DC FF 60 08 9C (书房空调关)
2024-08-30 07:16:13.643 - 01 06 07 DC FF 60 08 9C (书房空调关)
2024-08-30 07:16:14.208 - 01 06 07 DC FF 60 08 9C (书房空调关)
2024-08-30 07:16:14.241 - 01 06 07 DC FF 60 08 9C (书房空调关)
2024-08-30 07:16:14.799 - 09 06 00 0F 02 02 38 20 (提示音咚)
2024-08-30 07:16:15.411 - 1A FF FF FF 56 00 00 00 0F (人体感应地址-内卫, 关闭内卫感应)
2024-08-30 07:16:15.962 - 1A FF FF FF 55 00 00 00 0F (人体感应地址-外卫, 关闭外卫感应)
2024-08-30 07:16:16.042 - BC BC
2024-08-30 07:16:16.505 - 1A FF FF FF 57 00 00 00 0F (人体感应地址-厨房, 关闭厨房感应)
2024-08-30 07:16:17.047 - 1A FF FF FF 58 00 00 00 0F (人体感应地址-茶吧, 关闭茶吧感应)
2024-08-30 07:16:17.094 - BC BC
2024-08-30 07:16:17.651 - 1A 20 07 00 93 00 01 00 0F (自保持开关地址-设备区顶, 设备区顶灯关)
2024-08-30 07:16:18.692 - 1A 20 07 01 40 00 01 00 0F (自保持开关地址-内卫顶灯, 内卫顶灯关)
2024-08-30 07:16:19.746 - 1A 20 07 01 55 00 01 00 0F (自保持开关地址-主卧顶灯, 主卧顶灯只关)
2024-08-30 07:16:20.783 - 1A 20 07 00 42 00 01 00 0F (自保持开关地址-外卫顶灯, 外卫顶灯关)
2024-08-30 07:16:21.838 - 55 0D 31 00 00 00 01 94 (书房顶灯只关)
2024-08-30 07:16:22.885 - 55 0A 31 00 00 00 01 91 (厨房顶灯一关)
2024-08-30 07:16:23.930 - 55 0A 31 00 00 00 02 92 (厨房顶灯二关)
2024-08-30 07:16:24.974 - 55 0B 31 00 00 00 01 92 (厨房风扇只关)
2024-08-30 07:16:26.021 - 55 0C 31 00 00 00 01 93 (餐厅顶灯关)
2024-08-30 07:16:27.064 - 1A 20 07 01 30 00 01 00 0F (自保持开关地址-西阳顶灯, 西阳顶灯关)
2024-08-30 07:16:28.118 - 1A 18 05 21 89 00 01 00 0F (自保持开关地址-客厅顶灯, 客厅顶灯一关)
2024-08-30 07:16:29.155 - 1A 18 05 01 94 00 01 00 0F (自保持开关地址-客厅顶灯, 客厅顶灯二关)
2024-08-30 07:16:30.208 - 1A 20 07 00 70 00 01 00 0F (自保持开关地址-次卧顶灯, 次卧顶灯只关)
2024-08-30 07:16:31.244 - 1A 18 05 10 31 00 01 00 0F (自保持开关地址-门厅顶灯, 门厅顶灯关)
2024-08-30 07:16:32.298 - 1A FF FF FF 04 00 03 02 (继电器地址-东阳衣架, 东阳衣架照明关)
2024-08-30 07:16:32.842 - 09 06 00 0F 02 02 38 20 (提示音咚)
2024-08-30 07:16:33.395 - A5 00 A6 FE 01 AA (餐厅窗帘开)
2024-08-30 07:16:33.444 - 55 00 A6 02 01 67 01 75 AA 55 00 A6 02 01 67 01 75 AA (餐厅窗帘电机状态返回)
2024-08-30 07:16:33.998 - FF FF FF FF 0A 00 01 00 (继电器地址-东阳窗帘, 东阳窗帘开)
2024-08-30 07:16:34.544 - 1A BE B0 DC 04 00 01 00 (继电器地址-西阳窗帘, 西阳窗帘开)
2024-08-30 07:16:35.088 - FF FF FF FF 0E 00 01 00 (继电器地址-西阳小窗帘, 西阳小窗帘开)
2024-08-30 07:16:35.631 - 1A 22 33 62 0F 00 00 01 0F (正反转地址-内卫卷帘, 内卫卷帘升)
2024-08-30 07:16:36.188 - A5 00 52 FE 01 AA (主卧窗帘开)
2024-08-30 07:16:36.737 - A5 00 53 FF 00 AA (主卧纱帘开)
2024-08-30 07:16:37.281 - A5 00 76 FE 01 AA (次卧窗帘开)
2024-08-30 07:16:37.833 - A5 00 21 FE 01 AA (次卧纱帘开)
2024-08-30 07:16:38.423 - A5 00 D2 FE 01 AA 22 0D (书房窗帘开)
2024-08-30 07:16:38.473 - 55 00 D2 02 00 E5 00 F2 AA 55 00 D2 02 00 E5 00 F2 AA (书房窗帘电机状态返回)
2024-08-30 07:16:39.029 - 1A BE B0 DC 09 00 01 00 (继电器地址-客厅窗帘, 客厅窗帘开)
2024-08-30 07:16:39.579 - 1A BE B0 DC 0A 00 02 00 (继电器地址-客厅纱帘, 客厅纱帘开)
2024-08-30 07:16:40.123 - 09 06 00 0F 02 02 38 20 (提示音咚)
2024-08-30 07:16:41.167 - 1A EC A0 DC 02 00 00 00 0F (自保持开关地址-天花12V供电, 天花12V 供电关)
2024-08-30 07:16:41.723 - 1A EC A0 DC 02 00 00 00 0F (自保持开关地址-天花12V供电, 天花12V 供电关)
2024-08-30 07:16:42.267 - 1A EC A0 DC 01 00 00 00 0F (自保持开关地址-电视、设备12V供电, 12V 电视供电关)
2024-08-30 07:16:42.427 - 55 00 A6 00 00 0E 01 75 AA 55 00 A6 00 00 0E 01 75 AA (餐厅窗帘电机状态返回)
2024-08-30 07:16:42.811 - 1A EC A0 DC 01 00 00 00 0F (自保持开关地址-电视、设备12V供电, 12V 电视供电关)
2024-08-30 07:16:43.367 - 1A EC A0 DC 04 00 01 00 0F (自保持开关地址-次卧西阳内外卫供电, 内卫外卫关)
2024-08-30 07:16:43.917 - 1A EC A0 DC 04 00 01 00 0F (自保持开关地址-次卧西阳内外卫供电, 内卫外卫关)
2024-08-30 07:16:45.940 - 55 00 D2 00 00 0E 00 F2 AA 55 00 D2 00 00 0E 00 F2 AA (书房窗帘电机状态返回)
2024-08-30 07:17:01.905 - 09 06 00 0F 02 02 38 20 (提示音咚)
2024-08-30 07:17:02.454 - 1A 27 89 12 AA 00 00 00 0F (状态寄存器地址, 无人状态)
2024-08-30 07:17:02.998 - 1A 27 89 12 AA 00 00 00 0F (状态寄存器地址, 无人状态)
2024-08-30 07:17:03.543 - A1 11 11 11 4D (天花供电关闭确认)
2024-08-30 07:17:03.773 - 1A EC A0 DC 02 86 86 86 0F (查询天花供电状态, 自保持开关地址-天花12V供电)
2024-08-30 07:17:04.203 - 1A EC A0 DC 02 00 01 0F (自保持开关地址-天花12V供电)
2024-08-30 07:17:06.588 - A1 11 11 11 4E (卫生供电关闭确认)
2024-08-30 07:17:06.809 - 1A EC A0 DC 04 86 86 86 0F (查询卫生间供电状态, 自保持开关地址-次卧西阳内外卫供电)
2024-08-30 07:17:07.234 - 1A EC A0 DC 04 01 00 0F (自保持开关地址-次卧西阳内外卫供电)
2024-08-30 07:17:09.626 - A1 11 11 11 4F (电视供电关闭确认)
2024-08-30 07:17:09.849 - 1A EC A0 DC 01 86 86 86 0F (查询电视供电状态, 自保持开关地址-电视、设备12V供电)
2024-08-30 07:17:10.280 - 1A EC A0 DC 01 00 01 0F (自保持开关地址-电视、设备12V供电)
2024-08-30 07:17:12.657 - 09 06 00 0F 02 02 38 20 (提示音咚)
2024-08-30 07:17:13.218 - 09 06 00 0F 02 02 38 20 (提示音咚)
2024-08-30 07:17:13.762 - EE 00 00 B1 00 00 02 FF FC FF FF (情景完成返回主页)
2024-08-30 07:17:14.857 - BA BA EE EE BA BA (离家设置信科变量)
2024-08-30 07:17:15.906 - A1 11 11 11 46 (天热离家遮阳)
2024-08-30 07:17:16.127 - 1A 27 89 12 AA 86 86 86 0F (查询寄存器状态, 状态寄存器地址)
2024-08-30 07:17:16.501 - 1A 27 89 12 AA 00 00 00 00 00 00 00 00 00 00 00 01 00 00 00 00 0F (状态寄存器地址)
2024-08-30 07:17:17.131 - 19 08 24 03 DD 00 05 00 01 (调用情景-天热遮阳关帘)
2024-08-30 07:17:17.648 - EE 00 00 B1 00 00 00 FF FC FF FF (情景执行提示)
2024-08-30 07:17:18.238 - 09 06 00 0F 02 01 78 21 (提示音叮)
2024-08-30 07:17:18.798 - A5 00 A2 FF 00 AA (餐厅纱帘关)
2024-08-30 07:17:19.886 - A5 00 A6 FF 00 AA (餐厅窗帘关)
2024-08-30 07:17:19.944 - 55 00 A6 01 00 0E 01 75 AA 55 00 A6 01 00 0E 01 75 AA (餐厅窗帘电机状态返回)
2024-08-30 07:17:20.982 - A5 00 53 FE 01 AA (主卧纱帘关)
2024-08-30 07:17:21.046 - 55 00 53 02 02 22 02 30 AA 55 00 53 02 02 22 02 30 AA (主卧纱帘电机状态返回)
2024-08-30 07:17:22.115 - A5 00 52 FF 00 AA (主卧窗帘关)
2024-08-30 07:17:23.168 - A5 00 21 FF 00 AA (次卧纱帘关)
2024-08-30 07:17:23.236 - 55 00 21 01 00 0D 01 34 AA 55 00 21 01 00 0D 01 34 FF (次卧纱帘电机状态返回)
2024-08-30 07:17:24.274 - A5 00 76 FF 00 AA (次卧窗帘关)
2024-08-30 07:17:24.332 - 55 00 76 01 00 0E 01 1B AA 55 00 76 01 00 0E 01 9B (次卧窗帘电机状态返回)
2024-08-30 07:17:25.369 - A5 00 B7 FF 00 AA 22 0D (书房纱帘关)
2024-08-30 07:17:26.420 - A5 00 D2 FF 00 AA 22 0C (书房窗帘关)
2024-08-30 07:17:26.469 - 55 00 D2 01 00 0E 00 F2 AA 55 00 D2 01 00 0E 00 F2 AA (书房窗帘电机状态返回)
2024-08-30 07:17:28.015 - 1A 22 33 62 5E 00 02 01 0F (正反转地址-厨房卷帘三, 厨房卷帘一降)
2024-08-30 07:17:28.414 - 55 00 A6 00 01 67 01 75 AA 55 00 A6 00 01 67 01 75 AA (餐厅窗帘电机状态返回)
2024-08-30 07:17:29.068 - 1A 22 33 62 56 00 02 01 0F (正反转地址-厨房卷帘二, 厨房卷帘二降)
2024-08-30 07:17:30.107 - 1A 22 33 62 4F 00 00 01 0F (正反转地址-厨房卷帘一, 厨房卷帘三降)
2024-08-30 07:17:30.536 - 55 00 21 00 01 27 01 34 AA 55 00 21 00 01 27 01 34 AA (次卧纱帘电机状态返回)
2024-08-30 07:17:31.158 - 1A BE B0 DC 04 00 02 00 (继电器地址-西阳窗帘, 西阳窗帘关)
2024-08-30 07:17:31.493 - 55 00 76 00 01 0E 01 1B AA 55 00 76 00 01 0E 01 1B AA (次卧窗帘电机状态返回)
2024-08-30 07:17:31.960 - 55 00 53 00 00 0C 02 30 AA 55 00 53 00 00 0C 02 30 AA (主卧纱帘电机状态返回)
2024-08-30 07:17:32.198 - FF FF FF FF 0E 00 02 00 (继电器地址-西阳小窗帘, 西阳小窗帘关)
2024-08-30 07:17:33.251 - 1A BE B0 DC 03 00 03 00 (继电器地址-西阳天幕, 西阳天幕关)
2024-08-30 07:17:34.289 - 1A BE B0 DC 03 00 03 00 (继电器地址-西阳天幕, 西阳天幕关)
2024-08-30 07:17:34.349 - 55 00 D2 00 00 E5 00 F2 AA 55 00 D2 00 00 E5 00 F2 AA (书房窗帘电机状态返回)
2024-08-30 07:17:34.510 - 55 20 20 00 02 09 02 16 AA 55 20 20 00 02 09 02 16 AA (主卧窗帘电机状态返回)
2024-08-30 07:17:35.392 - 09 06 00 0F 02 02 38 20 (提示音咚)
2024-08-30 07:17:35.941 - EE 00 00 B1 00 00 02 FF FC FF FF (情景完成返回主页)
2024-08-30 07:19:20.545 - 1B 03 00 00 00 02 C6 31 (查询室外光线)
2024-08-30 07:19:20.560 - 1B 03 04 00 00 07 85 82 61 (室外光线返回)
2024-08-30 07:19:20.883 - 1A EC A0 DC 02 00 00 01 0F (自保持开关地址-天花12V供电, 天花12V 供电开)
2024-08-30 07:19:21.189 - 19 08 24 03 DD 00 0C 00 01 (调用情景-信科调用进门亮)
2024-08-30 07:19:21.410 - 1A AA AA AA 88 (调光器地址-茶吧灯带)
2024-08-30 07:19:21.692 - EE 00 00 B1 00 00 00 FF FC FF FF (情景执行提示)
2024-08-30 07:19:22.282 - 09 06 00 0F 02 01 78 21 (提示音叮)
2024-08-30 07:19:22.838 - 1A EC A0 DC 02 00 00 01 0F (自保持开关地址-天花12V供电, 天花12V 供电开)
2024-08-30 07:19:23.384 - 1A EC A0 DC 04 00 01 01 0F (自保持开关地址-次卧西阳内外卫供电, 内卫外卫开)
2024-08-30 07:19:23.926 - 1A EC A0 DC 04 00 01 01 0F (自保持开关地址-次卧西阳内外卫供电, 内卫外卫开)
2024-08-30 07:19:24.483 - 1A EC A0 DC 01 00 00 01 0F (自保持开关地址-电视、设备12V供电, 12V 电视供电开)
2024-08-30 07:19:29.574 - 1A 27 89 12 AA 00 00 01 0F (状态寄存器地址, 有人状态)
2024-08-30 07:19:30.117 - 1A 27 89 12 AA 00 00 01 0F (状态寄存器地址, 有人状态)
2024-08-30 07:19:30.672 - 1A 0C 02 08 01 FF 45 01 FF 45 01 FF 00 00 0F (调光器地址-内卫射灯, 内卫射灯微光)
2024-08-30 07:19:31.274 - 1A 0D 01 07 01 FF 45 01 FF 45 01 FF 00 00 0F (调光器地址-外卫射灯, 外卫感应灯开)
2024-08-30 07:19:31.852 - 1A FF FF FF 57 00 00 01 0F (人体感应地址-厨房, 打开厨房感应)
2024-08-30 07:19:32.267 - 19 08 24 03 CC 00 D3 00 01 (调用厨房感应灯开的按键)
2024-08-30 07:19:32.315 - 55 0A 32 00 00 00 01 92 55 0A 32 00 00 00 02 93 (厨房顶灯一开, 厨房顶灯二开)
2024-08-30 07:19:32.720 - 1A FF FF FF 58 00 00 01 0F (人体感应地址-茶吧, 打开茶吧感应)
2024-08-30 07:19:32.771 - BC BC
2024-08-30 07:19:33.351 - 1A BE B0 DC 01 00 01 00 (继电器地址-回水泵点动, 回水泵点动)
2024-08-30 07:19:33.908 - 1A BE B0 DC 01 00 01 00 (继电器地址-回水泵点动, 回水泵点动)
2024-08-30 07:19:34.455 - 09 06 00 0F 02 01 78 21 (提示音叮)
2024-08-30 07:19:35.000 - 09 06 00 0F 02 01 78 21 (提示音叮)
2024-08-30 07:19:35.553 - EE 00 00 B1 00 00 02 FF FC FF FF (情景完成返回主页)
2024-08-30 07:19:36.143 - A1 11 11 11 50 (天花供电打开确认)
2024-08-30 07:19:36.377 - 1A EC A0 DC 02 86 86 86 0F (查询天花供电状态, 自保持开关地址-天花12V供电)
2024-08-30 07:19:36.803 - 1A EC A0 DC 02 01 01 0F (自保持开关地址-天花12V供电)
2024-08-30 07:19:38.679 - A1 11 11 11 51 (卫生供电打开确认)
2024-08-30 07:19:38.912 - 1A EC A0 DC 04 86 86 86 0F (查询卫生间供电状态, 自保持开关地址-次卧西阳内外卫供电)
2024-08-30 07:19:39.337 - 1A EC A0 DC 04 01 01 0F (自保持开关地址-次卧西阳内外卫供电)
2024-08-30 07:19:41.231 - A1 11 11 11 52 (电视供电打开确认)
2024-08-30 07:19:41.447 - 1A EC A0 DC 01 86 86 86 0F (查询电视供电状态, 自保持开关地址-电视、设备12V供电)
2024-08-30 07:19:41.885 - 1A EC A0 DC 01 01 01 0F (自保持开关地址-电视、设备12V供电)
2024-08-30 07:19:46.258 - A1 11 11 11 47 (天热回家开帘)
2024-08-30 07:19:46.481 - 1A 27 89 12 AA 86 86 86 0F (查询寄存器状态, 状态寄存器地址)
2024-08-30 07:19:46.870 - 1A 27 89 12 AA 01 00 00 00 00 00 00 00 00 00 00 01 00 00 00 00 0F (状态寄存器地址)
2024-08-30 07:19:47.486 - 19 08 24 03 DD 00 06 00 01 (调用情景-天热遮阳开帘)
2024-08-30 07:19:48.013 - EE 00 00 B1 00 00 00 FF FC FF FF (情景执行提示)
2024-08-30 07:19:48.605 - 09 06 00 0F 02 01 78 21 (提示音叮)
2024-08-30 07:19:49.150 - A5 00 A6 FE 01 AA (餐厅窗帘开)
2024-08-30 07:19:49.208 - 55 00 A6 02 01 67 01 75 AA 55 00 A6 02 01 67 01 75 AA (餐厅窗帘电机状态返回)
2024-08-30 07:19:50.245 - A5 00 52 FE 01 AA (主卧窗帘开)
2024-08-30 07:19:51.299 - A5 00 53 FF 00 AA (主卧纱帘开)
2024-08-30 07:19:51.347 - 55 00 53 01 00 0C 02 30 AA 55 00 53 01 00 0C 02 30 FE (主卧纱帘电机状态返回)
2024-08-30 07:19:52.384 - A5 00 76 FE 01 AA (次卧窗帘开)
2024-08-30 07:19:52.447 - 55 00 76 02 01 0E 01 1B AA 55 00 76 02 01 0E 01 1B AA (次卧窗帘电机状态返回)
2024-08-30 07:19:53.486 - A5 00 21 FE 01 AA (次卧纱帘开)
2024-08-30 07:19:53.537 - 55 00 21 02 01 27 01 34 AA 55 00 21 02 01 27 01 34 AA (次卧纱帘电机状态返回)
2024-08-30 07:19:54.583 - 1A BE B0 DC 04 00 01 00 (继电器地址-西阳窗帘, 西阳窗帘开)
2024-08-30 07:19:55.636 - FF FF FF FF 0E 00 01 00 (继电器地址-西阳小窗帘, 西阳小窗帘开)
2024-08-30 07:19:56.672 - A5 00 D2 FE 01 AA 22 0D (书房窗帘开)
2024-08-30 07:19:56.737 - 55 00 D2 02 00 E5 00 F2 AA 55 00 D2 02 00 E5 00 (书房窗帘电机状态返回)
2024-08-30 07:19:57.773 - 09 06 00 0F 02 02 38 20 (提示音咚)
2024-08-30 07:19:58.318 - EE 00 00 B1 00 00 02 FF FC FF FF (情景完成返回主页)
2024-08-30 07:19:58.845 - 19 08 24 03 CC 01 CC 00 01 (调用茶吧感应灯开的按键)
2024-08-30 07:19:58.896 - 1A AA AA AA 88 FF B0 01 FF B0 01 0F (调光器地址-茶吧灯带, 茶吧灯带明亮)
2024-08-30 07:19:59.356 - 55 00 76 00 00 0E 01 1B AA 55 00 76 00 00 0E 01 1B AA (次卧窗帘电机状态返回)
2024-08-30 07:20:01.057 - 55 00 21 00 00 0D 01 34 AA 55 00 21 00 00 0D 01 34 AA (次卧纱帘电机状态返回)
2024-08-30 07:20:02.416 - 55 20 20 00 00 0F 02 16 AA 55 20 20 00 00 0F 02 16 AA (主卧窗帘电机状态返回)
2024-08-30 07:20:02.491 - 55 00 53 00 02 22 02 30 AA 55 00 53 00 02 22 02 30 AA (主卧纱帘电机状态返回)
2024-08-30 07:20:04.219 - 55 00 D2 00 00 0E 00 F2 AA 55 00 D2 00 00 0E 00 F2 AA (书房窗帘电机状态返回)
2024-08-30 07:20:27.089 - 19 08 24 03 CC 00 D4 00 01 (调用厨房感应灯关的按键)
2024-08-30 07:20:27.137 - 55 0A 31 00 00 00 01 91 55 0A 31 00 00 00 02 92 (厨房顶灯一关, 厨房顶灯二关)
2024-08-30 07:20:32.111 - 19 08 24 03 DD 00 00 00 01 (调用情景-离家（末）)
2024-08-30 07:20:32.654 - EE 00 00 B1 00 00 00 FF FC FF FF (情景执行提示)
2024-08-30 07:20:33.249 - 09 06 00 0F 02 02 38 20 (提示音咚)
2024-08-30 07:20:33.794 - 50 F7 01 (全屋影音全关)
2024-08-30 07:20:34.407 - 01 06 07 D0 FF 60 C8 9F (客厅空调关)
2024-08-30 07:20:34.442 - 01 06 07 D0 FF 60 C8 9F (客厅空调关)
2024-08-30 07:20:35.002 - 01 06 07 D0 FF 60 C8 9F (客厅空调关)
2024-08-30 07:20:35.036 - 01 06 07 D0 FF 60 C8 9F (客厅空调关)
2024-08-30 07:20:35.597 - 01 06 07 D3 FF 60 38 9F (餐厅空调关)
2024-08-30 07:20:35.631 - 01 06 07 D3 FF 60 38 9F (餐厅空调关)
2024-08-30 07:20:36.197 - 01 06 07 D3 FF 60 38 9F (餐厅空调关)
2024-08-30 07:20:36.229 - 01 06 07 D3 FF 60 38 9F (餐厅空调关)
2024-08-30 07:20:36.787 - 01 06 07 D6 FF 60 28 9E (主卧空调关)
2024-08-30 07:20:36.821 - 01 06 07 D6 FF 60 28 9E (主卧空调关)
2024-08-30 07:20:37.392 - 01 06 07 D6 FF 60 28 9E (主卧空调关)
2024-08-30 07:20:37.424 - 01 06 07 D6 FF 60 28 9E (主卧空调关)
2024-08-30 07:20:37.983 - 01 06 07 D9 FF 60 18 9D (次卧空调关)
2024-08-30 07:20:38.015 - 01 06 07 D9 FF 60 18 9D (次卧空调关)
2024-08-30 07:20:38.430 - 19 08 24 03 CC 01 CD 00 01 (调用茶吧感应灯关的按键)
2024-08-30 07:20:38.478 - 1A AA AA AA 88 FF 00 01 FF 00 01 0F (调光器地址-茶吧灯带, 茶吧灯带关闭)
2024-08-30 07:20:38.880 - 01 06 07 D9 FF 60 18 9D (次卧空调关)
2024-08-30 07:20:38.914 - 01 06 07 D9 FF 60 18 9D (次卧空调关)
2024-08-30 07:20:39.484 - 01 06 07 DC FF 60 08 9C (书房空调关)
2024-08-30 07:20:39.516 - 01 06 07 DC FF 60 08 9C (书房空调关)
2024-08-30 07:20:40.074 - 01 06 07 DC FF 60 08 9C (书房空调关)
2024-08-30 07:20:40.107 - 01 06 07 DC FF 60 08 9C (书房空调关)
2024-08-30 07:20:40.684 - 09 06 00 0F 02 02 38 20 (提示音咚)
2024-08-30 07:20:41.227 - 1A FF FF FF 56 00 00 00 0F (人体感应地址-内卫, 关闭内卫感应)
2024-08-30 07:20:41.244 - BC BC
2024-08-30 07:20:41.828 - 1A FF FF FF 55 00 00 00 0F (人体感应地址-外卫, 关闭外卫感应)
2024-08-30 07:20:41.845 - BC BC
2024-08-30 07:20:42.418 - 1A FF FF FF 57 00 00 00 0F (人体感应地址-厨房, 关闭厨房感应)
2024-08-30 07:20:42.976 - 1A FF FF FF 58 00 00 00 0F (人体感应地址-茶吧, 关闭茶吧感应)
2024-08-30 07:20:43.024 - BC BC
2024-08-30 07:20:43.575 - 1A 20 07 00 93 00 01 00 0F (自保持开关地址-设备区顶, 设备区顶灯关)
2024-08-30 07:20:44.620 - 1A 20 07 01 40 00 01 00 0F (自保持开关地址-内卫顶灯, 内卫顶灯关)
2024-08-30 07:20:45.667 - 1A 20 07 01 55 00 01 00 0F (自保持开关地址-主卧顶灯, 主卧顶灯只关)
2024-08-30 07:20:46.709 - 1A 20 07 00 42 00 01 00 0F (自保持开关地址-外卫顶灯, 外卫顶灯关)
2024-08-30 07:20:47.761 - 55 0D 31 00 00 00 01 94 (书房顶灯只关)
2024-08-30 07:20:48.799 - 55 0A 31 00 00 00 01 91 (厨房顶灯一关)
2024-08-30 07:20:49.851 - 55 0A 31 00 00 00 02 92 (厨房顶灯二关)
2024-08-30 07:20:50.891 - 55 0B 31 00 00 00 01 92 (厨房风扇只关)
2024-08-30 07:20:51.942 - 55 0C 31 00 00 00 01 93 (餐厅顶灯关)
2024-08-30 07:20:52.993 - 1A 20 07 01 30 00 01 00 0F (自保持开关地址-西阳顶灯, 西阳顶灯关)
2024-08-30 07:20:54.034 - 1A 18 05 21 89 00 01 00 0F (自保持开关地址-客厅顶灯, 客厅顶灯一关)
2024-08-30 07:20:55.088 - 1A 18 05 01 94 00 01 00 0F (自保持开关地址-客厅顶灯, 客厅顶灯二关)
2024-08-30 07:20:56.125 - 1A 20 07 00 70 00 01 00 0F (自保持开关地址-次卧顶灯, 次卧顶灯只关)
2024-08-30 07:20:57.180 - 1A 18 05 10 31 00 01 00 0F (自保持开关地址-门厅顶灯, 门厅顶灯关)
2024-08-30 07:20:58.218 - 1A FF FF FF 04 00 03 02 (继电器地址-东阳衣架, 东阳衣架照明关)
2024-08-30 07:20:58.768 - 09 06 00 0F 02 02 38 20 (提示音咚)
2024-08-30 07:20:59.310 - A5 00 A6 FE 01 AA (餐厅窗帘开)
2024-08-30 07:20:59.869 - FF FF FF FF 0A 00 01 00 (继电器地址-东阳窗帘, 东阳窗帘开)
2024-08-30 07:21:00.411 - 1A BE B0 DC 04 00 01 00 (继电器地址-西阳窗帘, 西阳窗帘开)
2024-08-30 07:21:00.956 - FF FF FF FF 0E 00 01 00 (继电器地址-西阳小窗帘, 西阳小窗帘开)
2024-08-30 07:21:01.511 - 1A 22 33 62 0F 00 00 01 0F (正反转地址-内卫卷帘, 内卫卷帘升)
2024-08-30 07:21:02.061 - A5 00 52 FE 01 AA (主卧窗帘开)
2024-08-30 07:21:02.657 - A5 00 53 FF 00 AA (主卧纱帘开)
2024-08-30 07:21:03.204 - A5 00 76 FE 01 AA (次卧窗帘开)
2024-08-30 07:21:03.744 - A5 00 21 FE 01 AA (次卧纱帘开)
2024-08-30 07:21:04.305 - A5 00 D2 FE 01 AA 22 0D (书房窗帘开)
2024-08-30 07:21:04.850 - 1A BE B0 DC 09 00 01 00 (继电器地址-客厅窗帘, 客厅窗帘开)
2024-08-30 07:21:05.403 - 1A BE B0 DC 0A 00 02 00 (继电器地址-客厅纱帘, 客厅纱帘开)
2024-08-30 07:21:05.945 - 09 06 00 0F 02 02 38 20 (提示音咚)
2024-08-30 07:21:06.998 - 1A EC A0 DC 02 00 00 00 0F (自保持开关地址-天花12V供电, 天花12V 供电关)
2024-08-30 07:21:07.542 - 1A EC A0 DC 02 00 00 00 0F (自保持开关地址-天花12V供电, 天花12V 供电关)
2024-08-30 07:21:08.084 - 1A EC A0 DC 01 00 00 00 0F (自保持开关地址-电视、设备12V供电, 12V 电视供电关)
2024-08-30 07:21:08.642 - 1A EC A0 DC 01 00 00 00 0F (自保持开关地址-电视、设备12V供电, 12V 电视供电关)
2024-08-30 07:21:09.187 - 1A EC A0 DC 04 00 01 00 0F (自保持开关地址-次卧西阳内外卫供电, 内卫外卫关)
2024-08-30 07:21:09.731 - 1A EC A0 DC 04 00 01 00 0F (自保持开关地址-次卧西阳内外卫供电, 内卫外卫关)
2024-08-30 07:21:27.817 - 09 06 00 0F 02 02 38 20 (提示音咚)
2024-08-30 07:21:28.424 - 1A 27 89 12 AA 00 00 00 0F (状态寄存器地址, 无人状态)
2024-08-30 07:21:28.968 - 1A 27 89 12 AA 00 00 00 0F (状态寄存器地址, 无人状态)
2024-08-30 07:21:29.512 - A1 11 11 11 4D (天花供电关闭确认)
2024-08-30 07:21:29.746 - 1A EC A0 DC 02 86 86 86 0F (查询天花供电状态, 自保持开关地址-天花12V供电)
2024-08-30 07:21:30.177 - 1A EC A0 DC 02 00 01 0F (自保持开关地址-天花12V供电)
2024-08-30 07:21:32.557 - A1 11 11 11 4E (卫生供电关闭确认)
2024-08-30 07:21:32.778 - 1A EC A0 DC 04 86 86 86 0F (查询卫生间供电状态, 自保持开关地址-次卧西阳内外卫供电)
2024-08-30 07:21:33.207 - 1A EC A0 DC 04 01 00 0F (自保持开关地址-次卧西阳内外卫供电)
2024-08-30 07:21:35.584 - A1 11 11 11 4F (电视供电关闭确认)
2024-08-30 07:21:35.822 - 1A EC A0 DC 01 86 86 86 0F (查询电视供电状态, 自保持开关地址-电视、设备12V供电)
2024-08-30 07:21:36.253 - 1A EC A0 DC 01 00 01 0F (自保持开关地址-电视、设备12V供电)
2024-08-30 07:21:38.631 - 09 06 00 0F 02 02 38 20 (提示音咚)
2024-08-30 07:21:39.189 - 09 06 00 0F 02 02 38 20 (提示音咚)
2024-08-30 07:21:39.734 - EE 00 00 B1 00 00 02 FF FC FF FF (情景完成返回主页)
2024-08-30 07:21:40.832 - BA BA EE EE BA BA (离家设置信科变量)
2024-08-30 07:21:41.869 - A1 11 11 11 46 (天热离家遮阳)
2024-08-30 07:21:42.099 - 1A 27 89 12 AA 86 86 86 0F (查询寄存器状态, 状态寄存器地址)
2024-08-30 07:21:42.475 - 1A 27 89 12 AA 00 00 00 00 00 00 00 00 00 00 00 01 00 00 00 00 0F (状态寄存器地址)
2024-08-30 07:21:43.102 - 19 08 24 03 DD 00 05 00 01 (调用情景-天热遮阳关帘)
2024-08-30 07:21:43.671 - EE 00 00 B1 00 00 00 FF FC FF FF (情景执行提示)
2024-08-30 07:21:44.262 - 09 06 00 0F 02 01 78 21 (提示音叮)
2024-08-30 07:21:44.805 - A5 00 A2 FF 00 AA (餐厅纱帘关)
2024-08-30 07:21:45.859 - A5 00 A6 FF 00 AA (餐厅窗帘关)
2024-08-30 07:21:45.908 - 55 00 A6 01 00 0E 01 75 AA 55 00 A6 01 00 0E 01 75 AA (餐厅窗帘电机状态返回)
2024-08-30 07:21:46.959 - A5 00 53 FE 01 AA (主卧纱帘关)
2024-08-30 07:21:47.014 - 55 00 53 02 02 22 02 30 AA 55 00 53 02 02 22 02 F0 (主卧纱帘电机状态返回)
2024-08-30 07:21:48.052 - A5 00 52 FF 00 AA (主卧窗帘关)
2024-08-30 07:21:49.097 - A5 00 21 FF 00 AA (次卧纱帘关)
2024-08-30 07:21:49.145 - 55 00 21 01 00 0D 01 34 AA 55 00 21 01 00 0D 01 34 AA (次卧纱帘电机状态返回)
2024-08-30 07:21:50.199 - A5 00 76 FF 00 AA (次卧窗帘关)
2024-08-30 07:21:50.247 - 55 00 76 01 00 0E 01 1B AA 55 00 76 01 00 0E 01 9B (次卧窗帘电机状态返回)
2024-08-30 07:21:51.284 - A5 00 B7 FF 00 AA 22 0D (书房纱帘关)
2024-08-30 07:21:52.337 - A5 00 D2 FF 00 AA 22 0C (书房窗帘关)
2024-08-30 07:21:52.399 - 55 00 D2 01 00 0E 00 F2 AA 55 00 D2 01 00 0E 00 F2 AA (书房窗帘电机状态返回)
2024-08-30 07:21:53.936 - 1A 22 33 62 5E 00 02 01 0F (正反转地址-厨房卷帘三, 厨房卷帘一降)
2024-08-30 07:21:54.395 - 55 00 A6 00 01 67 01 75 AA 55 00 A6 00 01 67 01 75 AA (餐厅窗帘电机状态返回)
2024-08-30 07:21:54.984 - 1A 22 33 62 56 00 02 01 0F (正反转地址-厨房卷帘二, 厨房卷帘二降)
2024-08-30 07:21:56.027 - 1A 22 33 62 4F 00 00 01 0F (正反转地址-厨房卷帘一, 厨房卷帘三降)
2024-08-30 07:21:56.466 - 55 00 21 00 01 27 01 34 AA 55 00 21 00 01 27 01 34 AA (次卧纱帘电机状态返回)
2024-08-30 07:21:57.073 - 1A BE B0 DC 04 00 02 00 (继电器地址-西阳窗帘, 西阳窗帘关)
2024-08-30 07:21:57.099 - 55 00 76 00 01 0E 01 1B AA 55 00 76 00 01 0E 01 1B AA (次卧窗帘电机状态返回)
2024-08-30 07:21:57.758 - 55 00 53 00 00 0C 02 30 AA 55 00 53 00 00 0C 02 30 AA (主卧纱帘电机状态返回)
2024-08-30 07:21:58.173 - FF FF FF FF 0E 00 02 00 (继电器地址-西阳小窗帘, 西阳小窗帘关)
2024-08-30 07:21:59.293 - 1A BE B0 DC 03 00 03 00 (继电器地址-西阳天幕, 西阳天幕关)
2024-08-30 07:21:59.656 - 55 20 20 00 02 09 02 16 AA 55 20 20 00 02 09 02 16 AA (主卧窗帘电机状态返回)
2024-08-30 07:22:00.279 - 55 00 D2 00 00 E5 00 F2 AA 55 00 D2 00 00 E5 00 F2 AA (书房窗帘电机状态返回)
2024-08-30 07:22:00.364 - 1A BE B0 DC 03 00 03 00 (继电器地址-西阳天幕, 西阳天幕关)
2024-08-30 07:22:01.412 - 09 06 00 0F 02 02 38 20 (提示音咚)
2024-08-30 07:22:01.962 - EE 00 00 B1 00 00 02 FF FC FF FF (情景完成返回主页)
2024-08-30 07:32:27.766 - 1A FF FF FF 04 (继电器地址-东阳衣架)
2024-08-30 07:43:15.903 - 1A BE B0 DC 04 (继电器地址-西阳窗帘)
2024-08-30 07:43:16.034 - FF
2024-08-30 07:43:16.784 - FF FF FF FF 0E (继电器地址-西阳小窗帘)
2024-08-30 07:43:16.912 - FF
2024-08-30 07:43:20.499 - 1A BE B0 DC 02 FF (正反转地址-外卫卷帘)
2024-08-30 07:43:20.642 - FE
2024-08-30 07:43:21.701 - FF FF FF FF 0A FE (继电器地址-东阳窗帘)
2024-08-30 07:43:22.747 - 1A BE B0 DC 09 FC (继电器地址-客厅窗帘)
2024-08-30 07:43:22.764 - 1A BE B0 DC 01 FC (继电器地址-回水泵点动)
2024-08-30 07:43:22.892 - FF
2024-08-30 07:43:23.210 - 1A BE B0 DC 03 FC (继电器地址-西阳天幕)
2024-08-30 07:43:23.337 - FF
2024-08-30 07:43:24.023 - 1A BE B0 DC 0A FC (继电器地址-客厅纱帘)
2024-08-30 07:43:24.152 - FF
2024-08-30 10:53:28.416 - 1A FF FF FF 04 (继电器地址-东阳衣架)
2024-08-30 11:03:07.525 - 1A BE B0 DC 04 (继电器地址-西阳窗帘)
2024-08-30 11:03:07.662 - FF
2024-08-30 11:03:16.762 - FF FF FF FF 0E FC (继电器地址-西阳小窗帘)
2024-08-30 11:03:16.898 - FE
2024-08-30 11:03:34.912 - FF FF FF FF 0A FC (继电器地址-东阳窗帘)
2024-08-30 11:03:35.048 - FF
2024-08-30 11:03:46.182 - 1A BE B0 DC 09 (继电器地址-客厅窗帘)
2024-08-30 11:03:46.311 - FF
2024-08-30 11:03:51.910 - 1A BE B0 DC 02 FC (正反转地址-外卫卷帘)
2024-08-30 11:03:52.041 - FF
2024-08-30 11:03:58.306 - 1A BE B0 DC 0A (继电器地址-客厅纱帘)
2024-08-30 11:03:58.438 - FF
2024-08-30 11:04:15.905 - 1A BE B0 DC 01 FC (继电器地址-回水泵点动)
2024-08-30 11:04:16.048 - FF
2024-08-30 11:04:19.597 - 1A BE B0 DC 03 (继电器地址-西阳天幕)
2024-08-30 14:14:38.972 - 1A FF FF FF 04 (继电器地址-东阳衣架)
2024-08-30 14:14:39.100 - FB
2024-08-30 14:23:06.739 - 1A BE B0 DC 04 (继电器地址-西阳窗帘)
2024-08-30 14:23:18.389 - FF FF FF FF 0E (继电器地址-西阳小窗帘)
2024-08-30 14:23:18.528 - FF
2024-08-30 14:23:54.222 - FF FF FF FF 0A FC (继电器地址-东阳窗帘)
2024-08-30 14:24:10.672 - 1A BE B0 DC 09 (继电器地址-客厅窗帘)
2024-08-30 14:24:10.809 - FE
2024-08-30 14:24:24.062 - 1A BE B0 DC 02 (正反转地址-外卫卷帘)
2024-08-30 14:24:31.579 - 1A BE B0 DC 0A (继电器地址-客厅纱帘)
2024-08-30 14:25:09.792 - 1A BE B0 DC 01 (继电器地址-回水泵点动)
2024-08-30 14:25:09.933 - FE
2024-08-30 14:25:17.461 - 1A BE B0 DC 03 FC (继电器地址-西阳天幕)
2024-08-30 14:38:53.388 - 1A FF FF FF 60 (红外总线地址-主卧发射设备)
2024-08-30 14:43:13.004 - 03 00 00 2F 2A E0 00 00 00 00 00 43 6F 6F 6B 69 65 3A 20 6D 73 74 73 68 61 73 68 3D 41 64 6D 69
2024-08-30 14:43:13.021 - 6E 69 73 74 72 0D 0A 01 00 08 00 03 00 00 00
2024-08-30 14:44:46.451 - 03 00 00 2F 2A E0 00 00 00 00 00 43 6F 6F 6B 69 65 3A 20 6D 73 74 73 68 61 73 68 3D 41 64 6D 69
2024-08-30 14:44:46.468 - 6E 69 73 74 72 0D 0A 01 00 08 00 03 00 00 00
2024-08-30 14:46:54.690 - 1B 03 00 00 00 02 C6 31 (查询室外光线)
2024-08-30 14:46:54.718 - 1B 03 04 00 00 04 4C 42 C7 (室外光线返回)
2024-08-30 14:46:55.026 - 1A EC A0 DC 02 00 00 01 0F (自保持开关地址-天花12V供电, 天花12V 供电开)
2024-08-30 14:46:55.330 - 19 08 24 03 DD 00 0C 00 01 (调用情景-信科调用进门亮)
2024-08-30 14:46:55.551 - 1A AA AA AA 88 (调光器地址-茶吧灯带)
2024-08-30 14:46:55.870 - EE 00 00 B1 00 00 00 FF FC FF FF (情景执行提示)
2024-08-30 14:46:56.460 - 09 06 00 0F 02 01 78 21 (提示音叮)
2024-08-30 14:46:57.014 - 1A EC A0 DC 02 00 00 01 0F (自保持开关地址-天花12V供电, 天花12V 供电开)
2024-08-30 14:46:57.562 - 1A EC A0 DC 04 00 01 01 0F (自保持开关地址-次卧西阳内外卫供电, 内卫外卫开)
2024-08-30 14:46:58.104 - 1A EC A0 DC 04 00 01 01 0F (自保持开关地址-次卧西阳内外卫供电, 内卫外卫开)
2024-08-30 14:46:58.647 - 1A EC A0 DC 01 00 00 01 0F (自保持开关地址-电视、设备12V供电, 12V 电视供电开)
2024-08-30 14:47:03.749 - 1A 27 89 12 AA 00 00 01 0F (状态寄存器地址, 有人状态)
2024-08-30 14:47:04.295 - 1A 27 89 12 AA 00 00 01 0F (状态寄存器地址, 有人状态)
2024-08-30 14:47:04.852 - 1A 0C 02 08 01 FF 45 01 FF 45 01 FF 00 00 0F (调光器地址-内卫射灯, 内卫射灯微光)
2024-08-30 14:47:05.450 - 1A 0D 01 07 01 FF 45 01 FF 45 01 FF 00 00 0F (调光器地址-外卫射灯, 外卫感应灯开)
2024-08-30 14:47:06.034 - 1A FF FF FF 57 00 00 01 0F (人体感应地址-厨房, 打开厨房感应)
2024-08-30 14:47:06.447 - 19 08 24 03 CC 00 D3 00 01 (调用厨房感应灯开的按键)
2024-08-30 14:47:06.504 - 55 0A 32 00 00 00 01 92 55 0A 32 00 00 00 02 93 (厨房顶灯一开, 厨房顶灯二开)
2024-08-30 14:47:06.895 - 1A FF FF FF 58 00 00 01 0F (人体感应地址-茶吧, 打开茶吧感应)
2024-08-30 14:47:06.946 - BC BC
2024-08-30 14:47:07.531 - 1A BE B0 DC 01 00 01 00 (继电器地址-回水泵点动, 回水泵点动)
2024-08-30 14:47:08.084 - 1A BE B0 DC 01 00 01 00 (继电器地址-回水泵点动, 回水泵点动)
2024-08-30 14:47:08.632 - 09 06 00 0F 02 01 78 21 (提示音叮)
2024-08-30 14:47:09.174 - 09 06 00 0F 02 01 78 21 (提示音叮)
2024-08-30 14:47:09.732 - EE 00 00 B1 00 00 02 FF FC FF FF (情景完成返回主页)
2024-08-30 14:47:10.323 - A1 11 11 11 50 (天花供电打开确认)
2024-08-30 14:47:10.534 - 1A EC A0 DC 02 86 86 86 0F (查询天花供电状态, 自保持开关地址-天花12V供电)
2024-08-30 14:47:10.978 - 1A EC A0 DC 02 01 01 0F (自保持开关地址-天花12V供电)
2024-08-30 14:47:12.864 - A1 11 11 11 51 (卫生供电打开确认)
2024-08-30 14:47:13.085 - 1A EC A0 DC 04 86 86 86 0F (查询卫生间供电状态, 自保持开关地址-次卧西阳内外卫供电)
2024-08-30 14:47:13.512 - 1A EC A0 DC 04 01 01 0F (自保持开关地址-次卧西阳内外卫供电)
2024-08-30 14:47:14.981 - 19 08 24 03 CC 01 CC 00 01 (调用茶吧感应灯开的按键)
2024-08-30 14:47:15.029 - 1A AA AA AA 88 FF B0 01 FF B0 01 0F (调光器地址-茶吧灯带, 茶吧灯带明亮)
2024-08-30 14:47:15.427 - A1 11 11 11 52 (电视供电打开确认)
2024-08-30 14:47:15.635 - 1A EC A0 DC 01 86 86 86 0F (查询电视供电状态, 自保持开关地址-电视、设备12V供电)
2024-08-30 14:47:16.083 - 1A EC A0 DC 01 01 01 0F (自保持开关地址-电视、设备12V供电)
2024-08-30 14:47:20.489 - A1 11 11 11 47 (天热回家开帘)
2024-08-30 14:47:20.709 - 1A 27 89 12 AA 86 86 86 0F (查询寄存器状态, 状态寄存器地址)
2024-08-30 14:47:21.096 - 1A 27 89 12 AA 01 00 00 00 00 00 00 00 00 00 00 01 00 00 00 00 0F (状态寄存器地址)
2024-08-30 14:47:21.714 - 19 08 24 03 DD 00 06 00 01 (调用情景-天热遮阳开帘)
2024-08-30 14:47:22.241 - EE 00 00 B1 00 00 00 FF FC FF FF (情景执行提示)
2024-08-30 14:47:22.831 - 09 06 00 0F 02 01 78 21 (提示音叮)
2024-08-30 14:47:23.426 - A5 00 A6 FE 01 AA (餐厅窗帘开)
2024-08-30 14:47:23.486 - 55 00 A6 02 01 67 01 75 AA 55 00 A6 02 01 67 01 75 AA (餐厅窗帘电机状态返回)
2024-08-30 14:47:24.531 - A5 00 52 FE 01 AA (主卧窗帘开)
2024-08-30 14:47:25.576 - A5 00 53 FF 00 AA (主卧纱帘开)
2024-08-30 14:47:25.624 - 55 00 53 01 00 0C 02 30 AA 55 00 53 01 00 0C 02 30 AA (主卧纱帘电机状态返回)
2024-08-30 14:47:26.660 - A5 00 76 FE 01 AA (次卧窗帘开)
2024-08-30 14:47:26.725 - 55 00 76 02 01 0E 01 1B AA 55 00 76 02 01 0E 01 1B AA (次卧窗帘电机状态返回)
2024-08-30 14:47:27.762 - A5 00 21 FE 01 AA (次卧纱帘开)
2024-08-30 14:47:27.813 - 55 00 21 02 01 27 01 34 AA 55 00 21 02 01 27 01 34 AA (次卧纱帘电机状态返回)
2024-08-30 14:47:28.867 - 1A BE B0 DC 04 00 01 00 (继电器地址-西阳窗帘, 西阳窗帘开)
2024-08-30 14:47:29.914 - FF FF FF FF 0E 00 01 00 (继电器地址-西阳小窗帘, 西阳小窗帘开)
2024-08-30 14:47:30.958 - A5 00 D2 FE 01 AA 22 0D (书房窗帘开)
2024-08-30 14:47:31.009 - 55 00 D2 02 00 E5 00 F2 AA 55 00 D2 02 00 E5 00 F2 AA (书房窗帘电机状态返回)
2024-08-30 14:47:32.052 - 09 06 00 0F 02 02 38 20 (提示音咚)
2024-08-30 14:47:32.167 - 28
2024-08-30 14:47:32.167 - 75 AA
2024-08-30 14:47:32.609 - EE 00 00 B1 00 00 02 FF FC FF FF (情景完成返回主页)
2024-08-30 14:47:33.488 - 55 00 76 00 00 0E 01 1B AA 55 00 76 00 00 0E 01 1B AA (次卧窗帘电机状态返回)
2024-08-30 14:47:35.093 - 55 00 21 00 00 0D 01 34 AA 55 00 21 00 00 0D 01 34 AA (次卧纱帘电机状态返回)
2024-08-30 14:47:36.537 - 55 20 20 00 00 0E 02 16 AA 55 20 20 00 00 0E 02 16 AA (主卧窗帘电机状态返回)
2024-08-30 14:47:36.673 - 55 00 53 00 02 22 02 30 AA 55 00 53 00 02 22 02 30 AA (主卧纱帘电机状态返回)
2024-08-30 14:47:38.425 - 55 00 D2 00 00 0E 00 F2 AA 55 00 D2 00 00 0E 00 F2 AA (书房窗帘电机状态返回)
