2024-09-16 11:11:18.948 - 1A 20 07 01 40 00 01 01 0F (自保持开关地址-内卫顶灯, 内卫顶灯开)
2024-09-16 11:11:20.383 - 1A 20 07 01 40 00 01 00 0F (自保持开关地址-内卫顶灯, 内卫顶灯关)
2024-09-16 11:17:33.885 - 19 08 24 03 CC 00 D3 00 01 (调用厨房感应灯开的按键)
2024-09-16 11:17:33.919 - 55 0A 32 00 00 00 01 92 55 0A 32 00 00 00 02 93 (厨房顶灯一开, 厨房顶灯二开)
2024-09-16 11:18:08.955 - 19 08 24 03 CC 00 D4 00 01 (调用厨房感应灯关的按键)
2024-09-16 11:18:08.989 - 55 0A 31 00 00 00 01 91 55 0A 31 00 00 00 02 92 (厨房顶灯一关, 厨房顶灯二关)
2024-09-16 11:21:47.238 - 1A BE B0 DC 04 (继电器地址-西阳窗帘)
2024-09-16 11:21:47.372 - FE
2024-09-16 11:22:08.552 - FF FF FF FF 0E FC (继电器地址-西阳小窗帘)
2024-09-16 11:24:37.632 - 1A BE B0 DC 09 FE (继电器地址-客厅窗帘)
2024-09-16 11:26:49.620 - 1A BE B0 DC 02 FD (正反转地址-外卫卷帘)
2024-09-16 11:26:49.752 - FF
2024-09-16 11:27:52.465 - 1A BE B0 DC 0A FC (继电器地址-客厅纱帘)
2024-09-16 11:27:52.599 - FE
2024-09-16 11:29:17.498 - 1A BE B0 DC 01 FC (继电器地址-回水泵点动)
2024-09-16 11:29:17.633 - FF
2024-09-16 11:31:24.523 - 1A BE B0 DC 03 (继电器地址-西阳天幕)
2024-09-16 11:31:24.658 - FF
2024-09-16 11:41:49.313 - FF FF FF FF 0A (继电器地址-东阳窗帘)
2024-09-16 11:54:28.739 - 19 08 24 03 CC 00 D3 00 01 (调用厨房感应灯开的按键)
2024-09-16 11:54:28.792 - 55 0A 32 00 00 00 01 92 55 0A 32 00 00 00 02 93 (厨房顶灯一开, 厨房顶灯二开)
2024-09-16 11:55:03.807 - 19 08 24 03 CC 00 D4 00 01 (调用厨房感应灯关的按键)
2024-09-16 11:55:03.862 - 55 0A 31 00 00 00 01 91 55 0A 31 00 00 00 02 92 (厨房顶灯一关, 厨房顶灯二关)
2024-09-16 11:56:01.922 - 19 08 24 03 CC 00 D3 00 01 (调用厨房感应灯开的按键)
2024-09-16 11:56:01.957 - 55 0A 32 00 00 00 01 92 55 0A 32 00 00 00 02 93 (厨房顶灯一开, 厨房顶灯二开)
2024-09-16 11:56:37.493 - 19 08 24 03 CC 00 D4 00 01 (调用厨房感应灯关的按键)
2024-09-16 11:56:37.527 - 55 0A 31 00 00 00 01 91 55 0A 31 00 00 00 02 92 (厨房顶灯一关, 厨房顶灯二关)
2024-09-16 12:44:36.151 - 19 08 24 03 CC 00 D3 00 01 (调用厨房感应灯开的按键)
2024-09-16 12:44:36.188 - 55 0A 32 00 00 00 01 92 55 0A 32 00 00 00 02 93 (厨房顶灯一开, 厨房顶灯二开)
2024-09-16 12:45:11.220 - 19 08 24 03 CC 00 D4 00 01 (调用厨房感应灯关的按键)
2024-09-16 12:45:11.254 - 55 0A 31 00 00 00 01 91 55 0A 31 00 00 00 02 92 (厨房顶灯一关, 厨房顶灯二关)
2024-09-16 12:54:06.853 - 19 08 24 03 CC 01 CC 00 01 (调用茶吧感应灯开的按键)
2024-09-16 12:54:06.883 - 1A AA AA AA 88 FF B0 01 FF B0 01 0F (调光器地址-茶吧灯带, 茶吧灯带明亮)
2024-09-16 12:55:41.906 - 19 08 24 03 DD 00 65 00 01 (调用情景-厨房照明全开)
2024-09-16 12:55:42.423 - EE 00 00 B1 00 00 00 FF FC FF FF (情景执行提示)
2024-09-16 12:55:43.014 - 09 06 00 0F 02 01 78 21 (提示音叮)
2024-09-16 12:55:44.062 - 1A FF FF FF 57 00 00 00 0F (人体感应地址-厨房, 关闭厨房感应)
2024-09-16 12:55:44.222 - 19 08 24 03 22 00 01 00 01
2024-09-16 12:55:50.302 - 19 08 24 03 DD 00 65 00 01 (调用情景-厨房照明全开)
2024-09-16 12:55:50.840 - EE 00 00 B1 00 00 00 FF FC FF FF (情景执行提示)
2024-09-16 12:55:51.436 - 09 06 00 0F 02 01 78 21 (提示音叮)
2024-09-16 12:55:52.484 - 1A FF FF FF 57 00 00 00 0F (人体感应地址-厨房, 关闭厨房感应)
2024-09-16 12:55:52.496 - BC BC
2024-09-16 12:55:53.578 - 55 0A 32 00 00 00 01 92 (厨房顶灯一开)
2024-09-16 12:55:54.625 - 55 0A 32 00 00 00 02 93 (厨房顶灯二开)
2024-09-16 12:55:55.673 - 09 06 00 0F 02 02 38 20 (提示音咚)
2024-09-16 12:55:56.223 - EE 00 00 B1 00 00 02 FF FC FF FF (情景完成返回主页)
2024-09-16 12:55:57.573 - 19 08 24 03 CC 01 CD 00 01 (调用茶吧感应灯关的按键)
2024-09-16 12:55:57.622 - 1A AA AA AA 88 FF 00 01 FF 00 01 0F (调光器地址-茶吧灯带, 茶吧灯带关闭)
2024-09-16 12:58:52.419 - 19 08 24 03 CC 01 CC 00 01 (调用茶吧感应灯开的按键)
2024-09-16 12:58:52.449 - 1A AA AA AA 88 FF B0 01 FF B0 01 0F (调光器地址-茶吧灯带, 茶吧灯带明亮)
2024-09-16 12:59:09.953 - 19 08 24 03 CC 01 CD 00 01 (调用茶吧感应灯关的按键)
2024-09-16 12:59:09.984 - 1A AA AA AA 88 FF 00 01 FF 00 01 0F (调光器地址-茶吧灯带, 茶吧灯带关闭)
2024-09-16 12:59:35.003 - 19 08 24 03 CC 01 CC 00 01 (调用茶吧感应灯开的按键)
2024-09-16 12:59:35.033 - 1A AA AA AA 88 FF B0 01 FF B0 01 0F (调光器地址-茶吧灯带, 茶吧灯带明亮)
2024-09-16 12:59:53.038 - 19 08 24 03 CC 01 CD 00 01 (调用茶吧感应灯关的按键)
2024-09-16 12:59:53.068 - 1A AA AA AA 88 FF 00 01 FF 00 01 0F (调光器地址-茶吧灯带, 茶吧灯带关闭)
2024-09-16 13:02:10.309 - 19 08 24 03 CC 01 CC 00 01 (调用茶吧感应灯开的按键)
2024-09-16 13:02:10.339 - 1A AA AA AA 88 FF B0 01 FF B0 01 0F (调光器地址-茶吧灯带, 茶吧灯带明亮)
2024-09-16 13:02:32.353 - 19 08 24 03 CC 01 CD 00 01 (调用茶吧感应灯关的按键)
2024-09-16 13:02:32.383 - 1A AA AA AA 88 FF 00 01 FF 00 01 0F (调光器地址-茶吧灯带, 茶吧灯带关闭)
2024-09-16 13:04:33.454 - 1A FF FF FF 04 (继电器地址-东阳衣架)
2024-09-16 13:10:03.866 - 19 08 24 03 DD 00 00 00 01 (调用情景-离家（末）)
2024-09-16 13:10:04.413 - EE 00 00 B1 00 00 00 FF FC FF FF (情景执行提示)
2024-09-16 13:10:05.007 - 09 06 00 0F 02 02 38 20 (提示音咚)
2024-09-16 13:10:05.550 - 50 F7 01 (全屋影音全关)
2024-09-16 13:10:06.153 - 01 06 07 D0 FF 60 C8 9F (客厅空调关)
2024-09-16 13:10:06.702 - 01 06 07 D0 FF 60 C8 9F (客厅空调关)
2024-09-16 13:10:07.249 - 01 06 07 D3 FF 60 38 9F (餐厅空调关)
2024-09-16 13:10:07.799 - 01 06 07 D3 FF 60 38 9F (餐厅空调关)
2024-09-16 13:10:08.347 - 01 06 07 D6 FF 60 28 9E (主卧空调关)
2024-09-16 13:10:08.895 - 01 06 07 D6 FF 60 28 9E (主卧空调关)
2024-09-16 13:10:09.443 - 01 06 07 D9 FF 60 18 9D (次卧空调关)
2024-09-16 13:10:09.990 - 01 06 07 D9 FF 60 18 9D (次卧空调关)
2024-09-16 13:10:10.540 - 01 06 07 DC FF 60 08 9C (书房空调关)
2024-09-16 13:10:11.086 - 01 06 07 DC FF 60 08 9C (书房空调关)
2024-09-16 13:10:11.635 - 09 06 00 0F 02 02 38 20 (提示音咚)
2024-09-16 13:10:12.185 - 1A FF FF FF 56 00 00 00 0F (人体感应地址-内卫, 关闭内卫感应)
2024-09-16 13:10:12.199 - BC BC
2024-09-16 13:10:12.783 - 1A FF FF FF 55 00 00 00 0F (人体感应地址-外卫, 关闭外卫感应)
2024-09-16 13:10:12.796 - BC BC
2024-09-16 13:10:13.381 - 1A FF FF FF 57 00 00 00 0F (人体感应地址-厨房, 关闭厨房感应)
2024-09-16 13:10:13.394 - BC BC
2024-09-16 13:10:14.008 - 1A FF FF FF 58 00 00 00 0F (人体感应地址-茶吧, 关闭茶吧感应)
2024-09-16 13:10:14.056 - BC BC
2024-09-16 13:10:14.577 - 1A 20 07 00 93 00 01 00 0F (自保持开关地址-设备区顶, 设备区顶灯关)
2024-09-16 13:10:15.623 - 1A 20 07 01 40 00 01 00 0F (自保持开关地址-内卫顶灯, 内卫顶灯关)
2024-09-16 13:10:16.669 - 1A 20 07 01 55 00 01 00 0F (自保持开关地址-主卧顶灯, 主卧顶灯只关)
2024-09-16 13:10:17.716 - 1A 20 07 00 42 00 01 00 0F (自保持开关地址-外卫顶灯, 外卫顶灯关)
2024-09-16 13:10:18.762 - 55 0D 31 00 00 00 01 94 (书房顶灯只关)
2024-09-16 13:10:19.808 - 55 0A 31 00 00 00 01 91 (厨房顶灯一关)
2024-09-16 13:10:20.855 - 55 0A 31 00 00 00 02 92 (厨房顶灯二关)
2024-09-16 13:10:21.901 - 55 0B 31 00 00 00 01 92 (厨房风扇只关)
2024-09-16 13:10:22.948 - 55 0C 31 00 00 00 01 93 (餐厅顶灯关)
2024-09-16 13:10:23.995 - 1A 20 07 01 30 00 01 00 0F (自保持开关地址-西阳顶灯, 西阳顶灯关)
2024-09-16 13:10:25.042 - 1A 18 05 21 89 00 01 00 0F (自保持开关地址-客厅顶灯, 客厅顶灯一关)
2024-09-16 13:10:26.087 - 1A 18 05 01 94 00 01 00 0F (自保持开关地址-客厅顶灯, 客厅顶灯二关)
2024-09-16 13:10:27.135 - 1A 20 07 00 70 00 01 00 0F (自保持开关地址-次卧顶灯, 次卧顶灯只关)
2024-09-16 13:10:28.181 - 1A 18 05 10 31 00 01 00 0F (自保持开关地址-门厅顶灯, 门厅顶灯关)
2024-09-16 13:10:29.226 - 1A FF FF FF 04 00 03 02 (继电器地址-东阳衣架, 东阳衣架照明关)
2024-09-16 13:10:29.774 - 09 06 00 0F 02 02 38 20 (提示音咚)
2024-09-16 13:10:30.320 - A5 00 A6 FE 01 AA (餐厅窗帘开)
2024-09-16 13:10:30.870 - FF FF FF FF 0A 00 01 00 (继电器地址-东阳窗帘, 东阳窗帘开)
2024-09-16 13:10:31.418 - 1A BE B0 DC 04 00 01 00 (继电器地址-西阳窗帘, 西阳窗帘开)
2024-09-16 13:10:31.966 - FF FF FF FF 0E 00 01 00 (继电器地址-西阳小窗帘, 西阳小窗帘开)
2024-09-16 13:10:32.515 - 1A 22 33 62 0F 00 00 01 0F (正反转地址-内卫卷帘, 内卫卷帘升)
2024-09-16 13:10:33.060 - A5 00 52 FE 01 AA (主卧窗帘开)
2024-09-16 13:10:33.609 - A5 00 53 FF 00 AA (主卧纱帘开)
2024-09-16 13:10:34.158 - A5 00 76 FE 01 AA (次卧窗帘开)
2024-09-16 13:10:34.706 - A5 00 21 FE 01 AA (次卧纱帘开)
2024-09-16 13:10:35.255 - A5 00 D2 FE 01 AA 22 0D (书房窗帘开)
2024-09-16 13:10:35.803 - 1A BE B0 DC 09 00 01 00 (继电器地址-客厅窗帘, 客厅窗帘开)
2024-09-16 13:10:36.352 - 1A BE B0 DC 0A 00 02 00 (继电器地址-客厅纱帘, 客厅纱帘开)
2024-09-16 13:10:36.901 - 09 06 00 0F 02 02 38 20 (提示音咚)
2024-09-16 13:10:37.949 - 1A EC A0 DC 02 00 00 00 0F (自保持开关地址-天花12V供电, 天花12V 供电关)
2024-09-16 13:10:38.495 - 1A EC A0 DC 02 00 00 00 0F (自保持开关地址-天花12V供电, 天花12V 供电关)
2024-09-16 13:10:39.044 - 1A EC A0 DC 01 00 00 00 0F (自保持开关地址-电视、设备12V供电, 12V 电视供电关)
2024-09-16 13:10:39.642 - 1A EC A0 DC 01 00 00 00 0F (自保持开关地址-电视、设备12V供电, 12V 电视供电关)
2024-09-16 13:10:40.190 - 1A EC A0 DC 04 00 01 00 0F (自保持开关地址-次卧西阳内外卫供电, 内卫外卫关)
2024-09-16 13:10:40.788 - 1A EC A0 DC 04 00 01 00 0F (自保持开关地址-次卧西阳内外卫供电, 内卫外卫关)
2024-09-16 13:10:42.359 - 1A BB BB BB 01 02 00 (开水器电源关)
2024-09-16 13:10:55.381 - 09 06 00 0F 02 02 38 20 (提示音咚)
2024-09-16 13:10:55.980 - 1A 27 89 12 AA 00 00 00 0F (状态寄存器地址, 无人状态)
2024-09-16 13:10:56.528 - 1A 27 89 12 AA 00 00 00 0F (状态寄存器地址, 无人状态)
2024-09-16 13:10:57.073 - A1 11 11 11 4D (天花供电关闭确认)
2024-09-16 13:10:57.303 - 1A EC A0 DC 02 86 86 86 0F (查询天花供电状态, 自保持开关地址-天花12V供电)
2024-09-16 13:10:57.736 - 1A EC A0 DC 02 00 01 0F (自保持开关地址-天花12V供电)
2024-09-16 13:11:00.113 - A1 11 11 11 4E (卫生供电关闭确认)
2024-09-16 13:11:00.343 - 1A EC A0 DC 04 86 86 86 0F (查询卫生间供电状态, 自保持开关地址-次卧西阳内外卫供电)
2024-09-16 13:11:00.775 - 1A EC A0 DC 04 01 00 0F (自保持开关地址-次卧西阳内外卫供电)
2024-09-16 13:11:03.153 - A1 11 11 11 4F (电视供电关闭确认)
2024-09-16 13:11:03.381 - 1A EC A0 DC 01 86 86 86 0F (查询电视供电状态, 自保持开关地址-电视、设备12V供电)
2024-09-16 13:11:03.815 - 1A EC A0 DC 01 00 01 0F (自保持开关地址-电视、设备12V供电)
2024-09-16 13:11:06.194 - 09 06 00 0F 02 02 38 20 (提示音咚)
2024-09-16 13:11:06.742 - 09 06 00 0F 02 02 38 20 (提示音咚)
2024-09-16 13:11:07.295 - EE 00 00 B1 00 00 02 FF FC FF FF (情景完成返回主页)
2024-09-16 13:11:08.385 - BA BA EE EE BA BA (离家设置信科变量)
2024-09-16 13:11:09.431 - A1 11 11 11 46 (天热离家遮阳)
2024-09-16 13:11:09.661 - 1A 27 89 12 AA 86 86 86 0F (查询寄存器状态, 状态寄存器地址)
2024-09-16 13:11:10.043 - 1A 27 89 12 AA 00 00 00 00 00 00 00 00 00 00 00 01 00 00 00 00 0F (状态寄存器地址)
2024-09-16 13:11:10.665 - 19 08 24 03 DD 00 05 00 01 (调用情景-天热遮阳关帘)
2024-09-16 13:11:11.230 - EE 00 00 B1 00 00 00 FF FC FF FF (情景执行提示)
2024-09-16 13:11:11.825 - 09 06 00 0F 02 01 78 21 (提示音叮)
2024-09-16 13:11:12.371 - A5 00 A2 FF 00 AA (餐厅纱帘关)
2024-09-16 13:11:13.419 - A5 00 A6 FF 00 AA (餐厅窗帘关)
2024-09-16 13:11:13.468 - 55 00 A6 01 00 0E 01 74 AA 55 00 A6 01 00 0E 01 74 AA (餐厅窗帘电机状态返回)
2024-09-16 13:11:14.513 - A5 00 53 FE 01 AA (主卧纱帘关)
2024-09-16 13:11:14.568 - 55 00 53 02 02 22 02 30 AA 55 00 53 02 02 22 02 30 AA (主卧纱帘电机状态返回)
2024-09-16 13:11:15.611 - A5 00 52 FF 00 AA (主卧窗帘关)
2024-09-16 13:11:16.658 - A5 00 21 FF 00 AA (次卧纱帘关)
2024-09-16 13:11:16.713 - 55 00 21 01 00 0D 01 34 AA 55 00 21 01 00 0D 01 34 AA (次卧纱帘电机状态返回)
2024-09-16 13:11:17.753 - A5 00 76 FF 00 AA (次卧窗帘关)
2024-09-16 13:11:17.809 - 55 00 76 01 00 0E 01 1B AA 55 00 76 01 00 0E F9 (次卧窗帘电机状态返回)
2024-09-16 13:11:18.851 - A5 00 B7 FF 00 AA 22 0D (书房纱帘关)
2024-09-16 13:11:19.899 - A5 00 D2 FF 00 AA 22 0C (书房窗帘关)
2024-09-16 13:11:19.954 - 55 00 D2 01 00 0D 01 0B AA 55 00 D2 01 00 0D 01 0B FF (书房窗帘电机状态返回)
2024-09-16 13:11:21.494 - 1A 22 33 62 5E 00 02 01 0F (正反转地址-厨房卷帘三, 厨房卷帘一降)
2024-09-16 13:11:22.254 - 55 00 A6 00 01 66 01 74 AA 55 00 A6 00 01 66 01 74 AA (餐厅窗帘电机状态返回)
2024-09-16 13:11:22.540 - 1A 22 33 62 56 00 02 01 0F (正反转地址-厨房卷帘二, 厨房卷帘二降)
2024-09-16 13:11:23.588 - 1A 22 33 62 4F 00 00 01 0F (正反转地址-厨房卷帘一, 厨房卷帘三降)
2024-09-16 13:11:24.057 - 55 00 21 00 01 27 01 34 AA 55 00 21 00 01 27 01 34 AA (次卧纱帘电机状态返回)
2024-09-16 13:11:24.633 - 1A BE B0 DC 04 00 02 00 (继电器地址-西阳窗帘, 西阳窗帘关)
2024-09-16 13:11:25.115 - 55 00 76 00 01 0E 01 1B AA 55 00 76 00 01 0E 01 1B AA (次卧窗帘电机状态返回)
2024-09-16 13:11:25.433 - 55 00 53 00 00 0C 02 30 AA 55 00 53 00 00 0C 02 30 AA (主卧纱帘电机状态返回)
2024-09-16 13:11:25.679 - FF FF FF FF 0E 00 02 00 (继电器地址-西阳小窗帘, 西阳小窗帘关)
2024-09-16 13:11:26.724 - 1A BE B0 DC 03 00 03 00 (继电器地址-西阳天幕, 西阳天幕关)
2024-09-16 13:11:27.117 - 55 20 20 00 02 09 02 16 AA 55 20 20 00 02 09 02 16 AA (主卧窗帘电机状态返回)
2024-09-16 13:11:27.771 - 1A BE B0 DC 03 00 03 00 (继电器地址-西阳天幕, 西阳天幕关)
2024-09-16 13:11:28.817 - 09 06 00 0F 02 02 38 20 (提示音咚)
2024-09-16 13:11:29.370 - EE 00 00 B1 00 00 02 FF FC FF FF (情景完成返回主页)
2024-09-16 13:11:29.671 - 55 00 D2 00 00 FE 01 0B AA 55 00 D2 00 00 FE 01 0B AA (书房窗帘电机状态返回)
2024-09-16 14:43:17.520 - 1A BE B0 DC 04 (继电器地址-西阳窗帘)
2024-09-16 14:43:17.656 - FF
2024-09-16 14:43:23.858 - FF FF FF FF 0E FC (继电器地址-西阳小窗帘)
2024-09-16 14:43:23.991 - FF
2024-09-16 14:47:36.006 - 1A BE B0 DC 09 FD (继电器地址-客厅窗帘)
2024-09-16 14:47:36.140 - FF
2024-09-16 14:49:36.164 - 1A BE B0 DC 02 (正反转地址-外卫卷帘)
2024-09-16 14:49:36.300 - FE
2024-09-16 14:51:40.699 - 1A BE B0 DC 0A FD (继电器地址-客厅纱帘)
2024-09-16 14:51:40.835 - FE
2024-09-16 14:51:45.643 - 1A BE B0 DC 01 FE (继电器地址-回水泵点动)
2024-09-16 14:51:45.779 - FF
2024-09-16 14:53:48.163 - 1A BE B0 DC 03 (继电器地址-西阳天幕)
2024-09-16 14:53:48.300 - FF
2024-09-16 15:04:46.846 - FF FF FF FF 0A FE (继电器地址-东阳窗帘)
2024-09-16 15:04:46.979 - FF
2024-09-16 16:04:26.814 - B8 A7 19 55 00 00 19 08 24 03 00 00 04 00 00 0A 01 22 00 06 10 00 7F 23 E8
2024-09-16 16:04:27.235 - B8 A7 19 55 00 00 19 08 24 03 00 00 04 00 00 0A 01 22 00 06 10 00 7F 23 E8
2024-09-16 16:04:27.700 - B8 A7 19 55 00 00 19 08 24 03 00 00 04 00 00 0A 01 22 00 06 10 00 7F 23 E8
2024-09-16 16:04:28.165 - B8 A7 19 55 00 00 19 08 24 03 00 00 04 00 00 0A 01 22 00 06 10 00 7F 23 E8
2024-09-16 16:04:28.652 - B8 A7 19 55 00 00 19 08 24 03 00 00 04 00 00 0A 01 22 00 06 10 00 7F 23 E8
2024-09-16 16:04:29.120 - B8 A7 19 55 00 00 19 08 24 03 00 00 04 00 00 0A 01 22 00 06 10 00 7F 23 E8
2024-09-16 16:04:29.593 - B8 A7 19 55 00 00 19 08 24 03 00 00 04 00 00 0A 01 22 00 06 10 00 7F 23 E8
2024-09-16 16:04:30.061 - B8 A7 19 55 00 00 19 08 24 03 00 00 04 00 00 0A 01 22 00 06 10 00 7F 23 E8
2024-09-16 16:04:30.526 - B8 A7 19 55 00 00 19 08 24 03 00 00 04 00 00 0A 01 22 00 06 10 00 7F 23 E8
2024-09-16 16:04:30.997 - B8 A7 19 55 00 00 19 08 24 03 00 00 04 00 00 0A 01 22 00 06 10 00 7F 23 E8
2024-09-16 16:04:31.464 - B8 A7 19 55 00 00 19 08 24 03 00 00 04 00 00 0A 01 22 00 06 10 00 7F 23 E8
2024-09-16 16:04:31.932 - B8 A7 19 55 00 00 19 08 24 03 00 00 04 00 00 0A 01 22 00 06 10 00 7F 23 E8
2024-09-16 16:04:32.386 - B8 A7 19 55 00 00 19 08 24 03 00 00 04 00 00 0A 01 22 00 06 10 00 7F 23 E8
2024-09-16 16:04:32.858 - B8 A7 19 55 00 00 19 08 24 03 00 00 04 00 00 0A 01 22 00 06 10 00 7F 23 E8
2024-09-16 16:04:33.362 - B8 A7 19 55 00 00 19 08 24 03 00 00 04 00 00 0A 01 22 00 06 10 00 7F 23 E8
2024-09-16 16:04:33.845 - B8 A7 19 55 00 00 19 08 24 03 00 00 04 00 00 0A 01 22 00 06 10 00 7F 23 E8
2024-09-16 16:04:34.338 - B8 A7 19 55 00 00 19 08 24 03 00 00 04 00 00 0A 01 22 00 06 10 00 7F 23 E8
2024-09-16 16:04:34.780 - B8 A7 19 55 00 00 19 08 24 03 00 00 04 00 00 0A 01 22 00 06 10 00 7F 23 E8
2024-09-16 16:04:35.275 - B8 A7 19 55 00 00 19 08 24 03 00 00 04 00 00 0A 01 22 00 06 10 00 7F 23 E8
2024-09-16 16:04:35.743 - B8 A7 19 55 00 00 19 08 24 03 00 00 04 00 00 0A 01 22 00 06 10 00 7F 23 E8
2024-09-16 16:04:36.212 - B8 A7 19 55 00 00 19 08 24 03 00 00 04 00 00 0A 01 22 00 06 10 00 7F 23 E8
2024-09-16 16:04:36.681 - B8 A7 19 55 00 00 19 08 24 03 00 00 04 00 00 0A 01 22 00 06 10 00 7F 23 E8
2024-09-16 16:04:37.150 - B8 A7 19 55 00 00 19 08 24 03 00 00 04 00 00 0A 01 22 00 06 10 00 7F 23 E8
2024-09-16 16:04:37.638 - B8 A7 19 55 00 00 19 08 24 03 00 00 04 00 00 0A 01 22 00 06 10 00 7F 23 E8
2024-09-16 16:04:38.120 - B8 A7 19 55 00 00 19 08 24 03 00 00 04 00 00 0A 01 22 00 06 10 00 7F 23 E8
2024-09-16 16:04:38.600 - B8 A7 19 55 00 00 19 08 24 03 00 00 04 00 00 0A 01 22 00 06 10 00 7F 23 E8
2024-09-16 16:04:39.064 - B8 A7 19 55 00 00 19 08 24 03 00 00 04 00 00 0A 01 22 00 06 10 00 7F 23 E8
2024-09-16 16:04:39.533 - B8 A7 19 55 00 00 19 08 24 03 00 00 04 00 00 0A 01 22 00 06 10 00 7F 23 E8
2024-09-16 16:04:40.009 - B8 A7 19 55 00 00 19 08 24 03 00 00 04 00 00 0A 01 22 00 06 10 00 7F 23 E8
2024-09-16 16:04:40.485 - B8 A7 19 55 00 00 19 08 24 03 00 00 04 00 00 0A 01 22 00 06 10 00 7F 23 E8
2024-09-16 16:04:57.026 - B8 A7 19 55 00 00 19 08 24 03 00 00 04 00 00 0A 01 22 00 06 10 00 7F 23 E8
2024-09-16 16:04:57.440 - B8 A7 19 55 00 00 19 08 24 03 00 00 04 00 00 0A 01 22 00 06 10 00 7F 23 E8
2024-09-16 16:04:57.904 - B8 A7 19 55 00 00 19 08 24 03 00 00 04 00 00 0A 01 22 00 06 10 00 7F 23 E8
2024-09-16 16:04:58.410 - B8 A7 19 55 00 00 19 08 24 03 00 00 04 00 00 0A 01 22 00 06 10 00 7F 23 E8
2024-09-16 16:04:58.903 - B8 A7 19 55 00 00 19 08 24 03 00 00 04 00 00 0A 01 22 00 06 10 00 7F 23 E8
2024-09-16 16:04:59.369 - B8 A7 19 55 00 00 19 08 24 03 00 00 04 00 00 0A 01 22 00 06 10 00 7F 23 E8
2024-09-16 16:04:59.838 - B8 A7 19 55 00 00 19 08 24 03 00 00 04 00 00 0A 01 22 00 06 10 00 7F 23 E8
2024-09-16 16:05:00.315 - B8 A7 19 55 00 00 19 08 24 03 00 00 04 00 00 0A 01 22 00 06 10 00 7F 23 E8
2024-09-16 16:05:00.778 - B8 A7 19 55 00 00 19 08 24 03 00 00 04 00 00 0A 01 22 00 06 10 00 7F 23 E8
2024-09-16 16:05:01.248 - B8 A7 19 55 00 00 19 08 24 03 00 00 04 00 00 0A 01 22 00 06 10 00 7F 23 E8
2024-09-16 16:05:01.714 - B8 A7 19 55 00 00 19 08 24 03 00 00 04 00 00 0A 01 22 00 06 10 00 7F 23 E8
2024-09-16 16:05:02.201 - B8 A7 19 55 00 00 19 08 24 03 00 00 04 00 00 0A 01 22 00 06 10 00 7F 23 E8
2024-09-16 16:05:02.689 - B8 A7 19 55 00 00 19 08 24 03 00 00 04 00 00 0A 01 22 00 06 10 00 7F 23 E8
2024-09-16 16:05:03.138 - B8 A7 19 55 00 00 19 08 24 03 00 00 04 00 00 0A 01 22 00 06 10 00 7F 23 E8
2024-09-16 16:05:03.608 - B8 A7 19 55 00 00 19 08 24 03 00 00 04 00 00 0A 01 22 00 06 10 00 7F 23 E8
2024-09-16 16:05:04.077 - B8 A7 19 55 00 00 19 08 24 03 00 00 04 00 00 0A 01 22 00 06 10 00 7F 23 E8
2024-09-16 16:05:04.548 - B8 A7 19 55 00 00 19 08 24 03 00 00 04 00 00 0A 01 22 00 06 10 00 7F 23 E8
2024-09-16 16:05:05.013 - B8 A7 19 55 00 00 19 08 24 03 00 00 04 00 00 0A 01 22 00 06 10 00 7F 23 E8
2024-09-16 16:05:05.484 - B8 A7 19 55 00 00 19 08 24 03 00 00 04 00 00 0A 01 22 00 06 10 00 7F 23 E8
2024-09-16 16:05:05.953 - B8 A7 19 55 00 00 19 08 24 03 00 00 04 00 00 0A 01 22 00 06 10 00 7F 23 E8
2024-09-16 16:05:06.423 - B8 A7 19 55 00 00 19 08 24 03 00 00 04 00 00 0A 01 22 00 06 10 00 7F 23 E8
2024-09-16 16:05:06.930 - B8 A7 19 55 00 00 19 08 24 03 00 00 04 00 00 0A 01 22 00 06 10 00 7F 23 E8
2024-09-16 16:05:07.402 - B8 A7 19 55 00 00 19 08 24 03 00 00 04 00 00 0A 01 22 00 06 10 00 7F 23 E8
2024-09-16 16:05:07.869 - B8 A7 19 55 00 00 19 08 24 03 00 00 04 00 00 0A 01 22 00 06 10 00 7F 23 E8
2024-09-16 16:05:08.354 - B8 A7 19 55 00 00 19 08 24 03 00 00 04 00 00 0A 01 22 00 06 10 00 7F 23 E8
2024-09-16 16:05:08.839 - B8 A7 19 55 00 00 19 08 24 03 00 00 04 00 00 0A 01 22 00 06 10 00 7F 23 E8
2024-09-16 16:05:09.347 - B8 A7 19 55 00 00 19 08 24 03 00 00 04 00 00 0A 01 22 00 06 10 00 7F 23 E8
2024-09-16 16:05:09.821 - B8 A7 19 55 00 00 19 08 24 03 00 00 04 00 00 0A 01 22 00 06 10 00 7F 23 E8
2024-09-16 16:05:10.292 - B8 A7 19 55 00 00 19 08 24 03 00 00 04 00 00 0A 01 22 00 06 10 00 7F 23 E8
2024-09-16 16:05:10.760 - B8 A7 19 55 00 00 19 08 24 03 00 00 04 00 00 0A 01 22 00 06 10 00 7F 23 E8
2024-09-16 16:25:34.729 - 1A FF FF FF 04 FE (继电器地址-东阳衣架)
2024-09-16 16:25:34.863 - 00
2024-09-16 16:28:27.693 - 03 00 00 2F 2A E0 00 00 00 00 00 43 6F 6F 6B 69 65 3A 20 6D 73 74 73 68 61 73 68 3D 41 64 6D 69
2024-09-16 16:28:27.712 - 6E 69 73 74 72 0D 0A 01 00 08 00 03 00 00 00
2024-09-16 16:32:19.776 - 03 00 00 2F 2A E0 00 00 00 00 00 43 6F 6F 6B 69 65 3A 20 6D 73 74 73 68 61 73 68 3D 41 64 6D 69
2024-09-16 16:32:19.794 - 6E 69 73 74 72 0D 0A 01 00 08 00 03 00 00 00
2024-09-16 16:39:36.204 - 1A 20 00 00 00 86 86 86 0F (调用查询模块-阳台测温湿气压转换, 阳台温湿气压虚拟地址)
2024-09-16 16:39:36.426 - 20 03 00 00 00 03 03 7A (查询阳台温湿度气压)
2024-09-16 16:39:36.449 - 20 03 06 01 22 03 0A 26 F3 36 91 (阳台温湿度返回)
2024-09-16 16:39:36.949 - 1A 20 00 00 00 00 00 01 00 00 01 00 00 01 01 22 01 03 0A 01 26 F3 01 00 00 01 0F (阳台温湿气压虚拟地址)
2024-09-16 16:39:37.090 - 1A 21 00 00 00 86 86 86 0F (调用查询模块-储藏室测温湿气压转换, 储藏室温湿气压虚拟地址)
2024-09-16 16:39:37.319 - 21 03 00 00 00 03 02 AB (查询储藏室温湿度气压)
2024-09-16 16:39:37.340 - 21 03 06 01 30 02 B5 26 F2 72 DA (储藏室温湿度返回)
2024-09-16 16:39:37.841 - 1A 21 00 00 00 00 00 01 00 00 01 00 00 01 01 30 01 02 B5 01 26 F2 01 00 00 01 0F (储藏室温湿气压虚拟地址)
2024-09-16 16:39:38.000 - 1A 22 00 00 00 86 86 86 0F (调用查询模块-室外测温湿气压转换, 室外温湿气压虚拟地址)
2024-09-16 16:39:38.222 - 22 03 00 00 00 03 02 98 (查询室外温湿度气压)
2024-09-16 16:39:38.243 - 22 03 06 01 26 03 05 26 F2 2F F2 (室外温湿度返回)
2024-09-16 16:39:38.743 - 1A 22 00 00 00 00 00 01 00 00 01 00 00 01 01 26 01 03 05 01 26 F2 01 00 00 01 0F (室外温湿气压虚拟地址)
2024-09-16 16:39:38.882 - 1A 23 00 00 00 86 86 86 0F (调用查询模块-客厅测温湿气压转换, 客厅温湿气压虚拟地址)
2024-09-16 16:39:39.104 - 23 03 00 00 00 03 03 49 (查询客厅温湿度气压)
2024-09-16 16:39:39.126 - 23 03 06 01 36 02 9A 26 F3 13 B3 (客厅温湿度返回)
2024-09-16 16:39:39.627 - 1A 23 00 00 00 00 00 01 00 00 01 00 00 01 01 36 01 02 9A 01 26 F3 01 00 00 01 0F (客厅温湿气压虚拟地址)
2024-09-16 16:39:39.756 - 1A 24 00 00 00 86 86 86 0F (调用查询模块-餐厅测温湿气压转换, 餐厅温湿气压虚拟地址)
2024-09-16 16:39:39.977 - 24 03 00 00 00 03 02 FE (查询餐厅温湿度气压)
2024-09-16 16:39:39.997 - 24 03 06 01 38 02 8A 26 F1 DC 46 (餐厅温湿度返回)
2024-09-16 16:39:40.499 - 1A 24 00 00 00 00 00 01 00 00 01 00 00 01 01 38 01 02 8A 01 26 F1 01 00 00 01 0F (餐厅温湿气压虚拟地址)
2024-09-16 16:39:40.721 - 1A 25 00 00 00 86 86 86 0F (调用查询模块-主卧测温湿气压转换, 主卧温湿气压虚拟地址)
2024-09-16 16:39:40.949 - 25 03 00 00 00 03 03 2F (查询主卧温湿度气压)
2024-09-16 16:39:40.970 - 25 03 06 01 3B 02 77 26 F0 C5 E6 (主卧温湿度返回)
2024-09-16 16:39:41.472 - 1A 25 00 00 00 00 00 01 00 00 01 00 00 01 01 3B 01 02 77 01 26 F0 01 00 00 01 0F (主卧温湿气压虚拟地址)
2024-09-16 16:40:14.586 - EE 00 00 B1 00 00 00 FF FC FF FF (情景执行提示)
2024-09-16 16:40:15.181 - 09 06 00 0F 02 01 78 21 (提示音叮)
2024-09-16 16:40:15.776 - A1 11 11 11 40 (客厅空调自动开)
2024-09-16 16:40:16.002 - 19 08 24 03 F0 BB 78 02 02 00
2024-09-16 16:40:16.052 - 23 AA 56 02 10 28 0F 18 09 10 01 73 65 6F 6B 65 6E 64
2024-09-16 16:40:17.011 - 01 10 07 D0 00 03 06 70 61 00 02 00 FA 6F 26 (客厅空调冷25度)
2024-09-16 16:40:19.813 - A1 11 11 11 41 (餐厅空调自动开)
2024-09-16 16:40:20.042 - 19 08 24 03 F0 BB 78 02 02 00
2024-09-16 16:40:20.094 - 23 AA 56 02 10 28 13 18 09 10 01 73 65 6F 6B 65 6E 64
2024-09-16 16:40:21.052 - 01 10 07 D3 00 03 06 70 61 00 02 00 FA 9F 29 (餐厅空调冷25度)
2024-09-16 16:40:23.848 - A1 11 11 11 42 (主卧空调自动开)
2024-09-16 16:40:24.074 - 19 08 24 03 F0 BB 78 02 02 00
2024-09-16 16:40:24.125 - 23 AA 56 02 10 28 17 18 09 10 01 73 65 6F 6B 65 6E 64
2024-09-16 16:40:25.084 - 01 10 07 D6 00 03 06 70 61 00 02 00 F0 0F 3E (主卧空调冷24度)
2024-09-16 16:40:25.894 - 09 06 00 0F 02 02 38 20 (提示音咚)
2024-09-16 16:40:26.446 - EE 00 00 B1 00 00 02 FF FC FF FF (情景完成返回主页)
2024-09-16 16:41:02.044 - 03 00 00 2F 2A E0 00 00 00 00 00 43 6F 6F 6B 69 65 3A 20 6D 73 74 73 68 61 73 68 3D 41 64 6D 69
2024-09-16 16:41:02.061 - 6E 69 73 74 72 0D 0A 01 00 08 00 03 00 00 00
2024-09-16 17:46:36.354 - 1B 03 00 00 00 02 C6 31 (查询室外光线)
2024-09-16 17:46:36.373 - 1B 03 04 00 00 00 04 40 31 (室外光线返回)
2024-09-16 17:46:37.154 - 1A EC A0 DC 02 00 00 01 0F (自保持开关地址-天花12V供电, 天花12V 供电开)
2024-09-16 17:46:37.674 - 1A AA AA AA 88 (调光器地址-茶吧灯带)
2024-09-16 17:46:37.857 - 1A FF 01 FF FF FF 60 01 FF 60 01 FF 00 00 0F (调光器地址-公共区域统配地址)
2024-09-16 17:46:38.850 - 19 08 24 03 DD 00 0D 00 01 (调用情景-信科调用进门暗)
2024-09-16 17:46:40.912 - 1A FF 01 FF FF FF 60 01 FF 60 01 FF 00 00 0F (调光器地址-公共区域统配地址)
2024-09-16 17:46:43.000 - 1A EC A0 DC 01 00 00 01 0F (自保持开关地址-电视、设备12V供电, 12V 电视供电开)
2024-09-16 17:46:43.547 - 1A EC A0 DC 01 00 00 01 0F (自保持开关地址-电视、设备12V供电, 12V 电视供电开)
2024-09-16 17:46:44.095 - 1A EC A0 DC 04 00 01 01 0F (自保持开关地址-次卧西阳内外卫供电, 内卫外卫开)
2024-09-16 17:46:44.693 - 1A EC A0 DC 04 00 01 01 0F (自保持开关地址-次卧西阳内外卫供电, 内卫外卫开)
2024-09-16 17:46:45.239 - 1A BB BB BB 01 01 00 (开水器电源开)
2024-09-16 17:46:46.787 - 1A 27 89 12 AA 00 00 01 0F (状态寄存器地址, 有人状态)
2024-09-16 17:46:47.334 - 1A 27 89 12 AA 00 00 01 0F (状态寄存器地址, 有人状态)
2024-09-16 17:46:47.880 - 1A BE B0 DC 01 00 01 00 (继电器地址-回水泵点动, 回水泵点动)
2024-09-16 17:46:48.430 - 1A FF FF FF 56 00 00 01 0F (人体感应地址-内卫, 打开内卫感应)
2024-09-16 17:46:48.924 - 19 08 24 03 DD 00 10 00 01 (调用情景-客餐厅空调开)
2024-09-16 17:46:48.978 - 1A FF FF FF 55 00 00 01 0F (人体感应地址-外卫, 打开外卫感应)
2024-09-16 17:46:49.527 - 1A FF FF FF 57 00 00 01 0F (人体感应地址-厨房, 打开厨房感应)
2024-09-16 17:46:50.076 - 1A FF FF FF 58 00 00 01 0F (人体感应地址-茶吧, 打开茶吧感应)
2024-09-16 17:46:50.126 - BC BC
2024-09-16 17:46:50.688 - 1A BE B0 DC 01 00 01 00 (继电器地址-回水泵点动, 回水泵点动)
2024-09-16 17:46:51.270 - A5 00 B7 FF 00 AA 22 0D (书房纱帘关)
2024-09-16 17:46:51.816 - A5 00 A2 FF 00 AA (餐厅纱帘关)
2024-09-16 17:46:52.365 - 09 06 00 0F 02 01 78 21 (提示音叮)
2024-09-16 17:46:52.913 - 09 06 00 0F 02 01 78 21 (提示音叮)
2024-09-16 17:46:53.465 - EE 00 00 B1 00 00 02 FF FC FF FF (情景完成返回主页)
2024-09-16 17:46:54.057 - A1 11 11 11 50 (天花供电打开确认)
2024-09-16 17:46:54.278 - 1A EC A0 DC 02 86 86 86 0F (查询天花供电状态, 自保持开关地址-天花12V供电)
2024-09-16 17:46:54.711 - 1A EC A0 DC 02 01 01 0F (自保持开关地址-天花12V供电)
2024-09-16 17:46:56.598 - A1 11 11 11 51 (卫生供电打开确认)
2024-09-16 17:46:56.826 - 1A EC A0 DC 04 86 86 86 0F (查询卫生间供电状态, 自保持开关地址-次卧西阳内外卫供电)
2024-09-16 17:46:57.060 - 19 08 24 03 CC 01 54 00 01 (调用内卫感应灯开的按键)
2024-09-16 17:46:57.096 - 1A 0C 02 08 01 FF 45 01 FF 45 01 FF 00 00 0F (调光器地址-内卫射灯, 内卫射灯微光)
2024-09-16 17:46:57.258 - 1A EC A0 DC 04 01 01 0F (自保持开关地址-次卧西阳内外卫供电)
2024-09-16 17:46:59.140 - A1 11 11 11 52 (电视供电打开确认)
2024-09-16 17:46:59.365 - 1A EC A0 DC 01 86 86 86 0F (查询电视供电状态, 自保持开关地址-电视、设备12V供电)
2024-09-16 17:46:59.798 - 1A EC A0 DC 01 01 01 0F (自保持开关地址-电视、设备12V供电)
2024-09-16 17:47:04.171 - A1 11 11 11 47 (天热回家开帘)
2024-09-16 17:47:04.399 - 1A 27 89 12 AA 86 86 86 0F (查询寄存器状态, 状态寄存器地址)
2024-09-16 17:47:04.766 - 1A 27 89 12 AA 01 00 (状态寄存器地址)
2024-09-16 17:47:04.769 - 00
2024-09-16 17:47:04.781 - 00 00 00 01 00 00 00 00 0F
2024-09-16 17:47:05.370 - 09 06 00 0F 02 01 78 21 (提示音叮)
2024-09-16 17:47:05.916 - A1 11 11 11 40 (客厅空调自动开)
2024-09-16 17:47:06.145 - 19 08 24 03 F0 BB 78 02 02 00
2024-09-16 17:47:06.176 - 23 AA 56 02 11 2F 05 18 09 10 01 73 65 6F 6B 65 6E 64
2024-09-16 17:47:07.154 - 01 10 07 D0 00 03 06 70 61 00 02 00 FA 6F 26 (客厅空调冷25度)
2024-09-16 17:47:09.953 - A1 11 11 11 41 (餐厅空调自动开)
2024-09-16 17:47:10.177 - 19 08 24 03 F0 BB 78 02 02 00
2024-09-16 17:47:10.228 - 23 AA 56 02 11 2F 0A 18 09 10 01 73 65 6F 6B 65 6E 64
2024-09-16 17:47:11.186 - 01 10 07 D3 00 03 06 70 61 00 02 00 FA 9F 29 (餐厅空调冷25度)
2024-09-16 17:47:13.990 - 09 06 00 0F 02 02 38 20 (提示音咚)
2024-09-16 17:47:14.542 - EE 00 00 B1 00 00 02 FF FC FF FF (情景完成返回主页)
2024-09-16 17:47:37.139 - 19 08 24 03 CC 01 55 00 01 (调用内卫感应灯关的按键)
2024-09-16 17:47:37.193 - 1A 0C 02 08 01 FF 00 01 FF 00 01 FF 00 00 0F (调光器地址-内卫射灯, 内卫感应灯关)
2024-09-16 17:48:02.976 - EE 00 00 B1 00 00 00 FF FC FF FF (情景执行提示)
2024-09-16 17:48:03.571 - 09 06 00 0F 02 01 78 21 (提示音叮)
2024-09-16 17:48:04.116 - A5 00 A6 FE 01 AA (餐厅窗帘开)
2024-09-16 17:48:04.166 - 55 00 A6 02 01 66 01 74 AA 55 00 A6 02 01 66 01 74 AA (餐厅窗帘电机状态返回)
2024-09-16 17:48:05.214 - A5 00 52 FE 01 AA (主卧窗帘开)
2024-09-16 17:48:06.260 - A5 00 53 FF 00 AA (主卧纱帘开)
2024-09-16 17:48:06.309 - 55 00 53 01 00 0C 02 30 AA 55 00 53 01 00 0C 02 30 AA (主卧纱帘电机状态返回)
2024-09-16 17:48:07.355 - A5 00 76 FE 01 AA (次卧窗帘开)
2024-09-16 17:48:07.407 - 55 00 76 02 01 0E 01 1B AA 55 00 76 02 01 0E 01 1B AA (次卧窗帘电机状态返回)
2024-09-16 17:48:08.452 - A5 00 21 FE 01 AA (次卧纱帘开)
2024-09-16 17:48:08.506 - 55 00 21 02 01 27 01 34 AA 55 00 21 02 01 27 01 34 AA (次卧纱帘电机状态返回)
2024-09-16 17:48:09.550 - 1A BE B0 DC 04 00 01 00 (继电器地址-西阳窗帘, 西阳窗帘开)
2024-09-16 17:48:10.596 - FF FF FF FF 0E 00 01 00 (继电器地址-西阳小窗帘, 西阳小窗帘开)
2024-09-16 17:48:11.643 - A5 00 D2 FE 01 AA 22 0D (书房窗帘开)
2024-09-16 17:48:11.698 - 55 00 D2 02 00 FE 01 0B AA 55 00 D2 02 00 FE FF (书房窗帘电机状态返回)
2024-09-16 17:48:12.740 - 09 06 00 0F 02 02 38 20 (提示音咚)
2024-09-16 17:48:12.787 - 55 00 A6 00 00 0E 01 74 AA 55 00 A6 00 00 0E 01 74 AA (餐厅窗帘电机状态返回)
2024-09-16 17:48:13.339 - EE 00 00 B1 00 00 02 FF FC FF FF (情景完成返回主页)
2024-09-16 17:48:14.423 - 55 00 76 00 00 0E 01 1B AA 55 00 76 00 00 0E 01 1B AA (次卧窗帘电机状态返回)
2024-09-16 17:48:16.084 - 55 00 21 00 00 0D 01 34 AA 55 00 21 00 00 0D 01 34 AA (次卧纱帘电机状态返回)
2024-09-16 17:48:17.206 - 55 20 20 00 00 0E 02 16 AA 55 20 20 00 00 0E 02 16 AA (主卧窗帘电机状态返回)
2024-09-16 17:48:17.276 - 55 00 53 00 02 23 02 30 AA 55 00 53 00 02 23 02 30 AA (主卧纱帘电机状态返回)
2024-09-16 17:48:17.475 - EE 00 00 B1 00 00 00 FF FC FF FF (情景执行提示)
2024-09-16 17:48:18.069 - 09 06 00 0F 02 01 78 21 (提示音叮)
2024-09-16 17:48:18.359 - 55 00 53 00 02 22 02 30 AA 55 00 53 00 02 22 02 30 AA (主卧纱帘电机状态返回)
2024-09-16 17:48:18.615 - A1 11 11 11 40 (客厅空调自动开)
2024-09-16 17:48:18.844 - 19 08 24 03 F0 BB 78 02 02 00
2024-09-16 17:48:18.894 - 23 AA 56 02 11 30 12 18 09 10 01 73 65 6F 6B 65 6E 64
2024-09-16 17:48:19.855 - 55 00 D2 00 00 0D 01 0B AA 55 00 D2 00 00 0D 01 0B AA (书房窗帘电机状态返回)
2024-09-16 17:48:19.877 - 01 10 07 D0 00 03 06 70 61 00 02 00 FA 6F 26 (客厅空调冷25度)
2024-09-16 17:48:22.652 - A1 11 11 11 41 (餐厅空调自动开)
2024-09-16 17:48:22.876 - 19 08 24 03 F0 BB 78 02 02 00
2024-09-16 17:48:22.926 - 23 AA 56 02 11 30 16 18 09 10 01 73 65 6F 6B 65 6E 64
2024-09-16 17:48:23.885 - 01 10 07 D3 00 03 06 70 61 00 02 00 FA 9F 29 (餐厅空调冷25度)
2024-09-16 17:48:26.687 - A1 11 11 11 42 (主卧空调自动开)
2024-09-16 17:48:26.919 - 19 08 24 03 F0 BB 78 02 02 00
2024-09-16 17:48:26.968 - 23 AA 56 02 11 30 1A 18 09 10 01 73 65 6F 6B 65 6E 64
2024-09-16 17:48:27.927 - 01 10 07 D6 00 03 06 70 61 00 02 00 F0 0F 3E (主卧空调冷24度)
2024-09-16 17:48:28.782 - 09 06 00 0F 02 02 38 20 (提示音咚)
2024-09-16 17:48:29.384 - EE 00 00 B1 00 00 02 FF FC FF FF (情景完成返回主页)
2024-09-16 17:48:35.065 - EE 00 00 B1 00 00 00 FF FC FF FF (情景执行提示)
2024-09-16 17:48:35.659 - 09 06 00 0F 02 01 78 21 (提示音叮)
2024-09-16 17:48:36.232 - A1 11 11 11 40 (客厅空调自动开)
2024-09-16 17:48:36.455 - 19 08 24 03 F0 BB 78 02 02 00
2024-09-16 17:48:36.506 - 23 AA 56 02 11 30 24 18 09 10 01 73 65 6F 6B 65 6E 64
2024-09-16 17:48:37.465 - 01 10 07 D0 00 03 06 70 61 00 02 00 FA 6F 26 (客厅空调冷25度)
2024-09-16 17:48:40.291 - A1 11 11 11 41 (餐厅空调自动开)
2024-09-16 17:48:40.518 - 19 08 24 03 F0 BB 78 02 02 00
2024-09-16 17:48:40.569 - 23 AA 56 02 11 30 28 18 09 10 01 73 65 6F 6B 65 6E 64
2024-09-16 17:48:41.529 - 01 10 07 D3 00 03 06 70 61 00 02 00 FA 9F 29 (餐厅空调冷25度)
2024-09-16 17:48:44.326 - A1 11 11 11 42 (主卧空调自动开)
2024-09-16 17:48:44.549 - 19 08 24 03 F0 BB 78 02 02 00
2024-09-16 17:48:44.602 - 23 AA 56 02 11 30 2C 18 09 10 01 73 65 6F 6B 65 6E 64
2024-09-16 17:48:45.559 - 01 10 07 D6 00 03 06 70 61 00 02 00 F0 0F 3E (主卧空调冷24度)
2024-09-16 17:48:46.372 - 09 06 00 0F 02 02 38 20 (提示音咚)
2024-09-16 17:48:46.923 - EE 00 00 B1 00 00 02 FF FC FF FF (情景完成返回主页)
2024-09-16 17:49:07.354 - EE 00 00 B1 00 00 00 FF FC FF FF (情景执行提示)
2024-09-16 17:49:07.948 - 09 06 00 0F 02 01 78 21 (提示音叮)
2024-09-16 17:49:08.493 - A1 11 11 11 40 (客厅空调自动开)
2024-09-16 17:49:08.724 - 19 08 24 03 F0 BB 78 02 02 00
2024-09-16 17:49:08.775 - 23 AA 56 02 11 31 08 18 09 10 01 73 65 6F 6B 65 6E 64
2024-09-16 17:49:09.734 - 01 10 07 D0 00 03 06 70 61 00 02 00 FA 6F 26 (客厅空调冷25度)
2024-09-16 17:49:12.529 - A1 11 11 11 41 (餐厅空调自动开)
2024-09-16 17:49:12.755 - 19 08 24 03 F0 BB 78 02 02 00
2024-09-16 17:49:12.807 - 23 AA 56 02 11 31 0C 18 09 10 01 73 65 6F 6B 65 6E 64
2024-09-16 17:49:13.765 - 01 10 07 D3 00 03 06 70 61 00 02 00 FA 9F 29 (餐厅空调冷25度)
2024-09-16 17:49:16.565 - A1 11 11 11 42 (主卧空调自动开)
2024-09-16 17:49:16.787 - 19 08 24 03 F0 BB 78 02 02 00
2024-09-16 17:49:16.839 - 23 AA 56 02 11 31 10 18 09 10 01 73 65 6F 6B 65 6E 64
2024-09-16 17:49:17.798 - 01 10 07 D6 00 03 06 70 61 00 02 00 F0 0F 3E (主卧空调冷24度)
2024-09-16 17:49:18.612 - 09 06 00 0F 02 02 38 20 (提示音咚)
2024-09-16 17:49:19.163 - EE 00 00 B1 00 00 02 FF FC FF FF (情景完成返回主页)
2024-09-16 17:49:54.371 - 00
2024-09-16 17:49:54.384 - 35 00
2024-09-16 17:49:54.387 - 01 30 00
2024-09-16 17:49:54.391 - 00 00
2024-09-16 17:49:54.416 - 00 00 01 43
2024-09-16 17:49:54.420 - 00
2024-09-16 17:49:54.422 - 00
2024-09-16 17:49:54.424 - 00
2024-09-16 17:49:54.432 - 80
2024-09-16 17:49:54.555 - F0
2024-09-16 17:50:36.245 - EE 00 00 B1 00 00 00 FF FC FF FF (情景执行提示)
2024-09-16 17:50:36.840 - 09 06 00 0F 02 01 78 21 (提示音叮)
2024-09-16 17:50:37.386 - A1 11 11 11 40 (客厅空调自动开)
2024-09-16 17:50:37.612 - 19 08 24 03 F0 BB 78 02 02 00
2024-09-16 17:50:37.662 - 23 AA 56 02 11 32 25 18 09 10 01 73 65 6F 6B 65 6E 64
2024-09-16 17:50:38.621 - 01 10 07 D0 00 03 06 70 61 00 02 00 FA 6F 26 (客厅空调冷25度)
2024-09-16 17:50:41.422 - A1 11 11 11 41 (餐厅空调自动开)
2024-09-16 17:50:41.644 - 19 08 24 03 F0 BB 78 02 02 00
2024-09-16 17:50:41.695 - 23 AA 56 02 11 32 29 18 09 10 01 73 65 6F 6B 65 6E 64
2024-09-16 17:50:42.654 - 01 10 07 D3 00 03 06 70 61 00 02 00 FA 9F 29 (餐厅空调冷25度)
2024-09-16 17:50:45.457 - A1 11 11 11 42 (主卧空调自动开)
2024-09-16 17:50:45.687 - 19 08 24 03 F0 BB 78 02 02 00
2024-09-16 17:50:45.738 - 23 AA 56 02 11 32 2D 18 09 10 01 73 65 6F 6B 65 6E 64
2024-09-16 17:50:46.696 - 01 10 07 D6 00 03 06 70 61 00 02 00 F0 0F 3E (主卧空调冷24度)
2024-09-16 17:50:47.504 - 09 06 00 0F 02 02 38 20 (提示音咚)
2024-09-16 17:50:48.055 - EE 00 00 B1 00 00 02 FF FC FF FF (情景完成返回主页)
2024-09-16 17:51:01.498 - A1 11 11 11 40 (客厅空调自动开)
2024-09-16 17:51:01.726 - 19 08 24 03 F0 BB 78 02 02 00
2024-09-16 17:51:01.777 - 23 AA 56 02 11 33 01 18 09 10 01 73 65 6F 6B 65 6E 64
2024-09-16 17:51:02.736 - 01 10 07 D0 00 03 06 70 61 00 02 00 FA 6F 26 (客厅空调冷25度)
2024-09-16 17:51:05.612 - A1 11 11 11 40 (客厅空调自动开)
2024-09-16 17:51:05.839 - 19 08 24 03 F0 BB 78 02 02 00
2024-09-16 17:51:05.890 - 23 AA 56 02 11 33 05 18 09 10 01 73 65 6F 6B 65 6E 64
2024-09-16 17:51:06.849 - 01 10 07 D0 00 03 06 70 61 00 02 00 FA 6F 26 (客厅空调冷25度)
2024-09-16 17:51:10.949 - A1 11 11 11 40 (客厅空调自动开)
2024-09-16 17:51:11.176 - 19 08 24 03 F0 BB 78 02 02 00
2024-09-16 17:51:11.247 - 23 AA 56 02 11 33 0B 18 09 10 01 73 65 6F 6B 65 6E 64
2024-09-16 17:51:12.185 - 01 10 07 D0 00 03 06 70 61 00 02 00 FA 6F 26 (客厅空调冷25度)
2024-09-16 17:51:14.155 - 01 10 07 D0 00 03 06 70 61 00 02 00 FA 6F 26 (客厅空调冷25度)
2024-09-16 17:51:16.837 - 01 10 07 D0 00 03 06 70 61 00 02 00 FA 6F 26 (客厅空调冷25度)
2024-09-16 17:51:17.992 - 01 10 07 D0 00 03 06 70 61 00 02 00 FA 6F 26 (客厅空调冷25度)
2024-09-16 17:51:19.054 - 01 10 07 D0 00 03 06 70 61 00 02 00 FA 6F 26 (客厅空调冷25度)
2024-09-16 17:51:20.804 - 01 10 07 D0 00 03 06 70 61 00 02 00 FA 6F 26 (客厅空调冷25度)
2024-09-16 17:51:33.871 - EE 00 6E B1 01 00 09 FF FC FF FF
2024-09-16 17:51:35.462 - EE 00 6E B1 01 00 0B FF FC FF FF
2024-09-16 17:51:35.787 - 01 04 07 D0 00 06 70 85
2024-09-16 17:51:41.494 - EE 00 6E B1 11 00 0B 00 05 10 01 01 FF FC FF FF
2024-09-16 17:51:41.812 - 01 06 07 D1 00 02 59 46
2024-09-16 17:51:44.393 - EE 00 6E B1 11 00 0B 00 08 10 01 01 FF FC FF FF
2024-09-16 17:51:44.714 - 01 06 07 D0 70 FF EC C7
2024-09-16 17:51:47.670 - EE 00 6E B1 11 00 0B 00 04 10 01 01 FF FC FF FF
2024-09-16 17:51:47.996 - 01 06 07 D0 FF 61 09 5F
2024-09-16 17:51:51.221 - EE 00 6E B1 11 00 0B 00 04 10 01 00 FF FC FF FF
2024-09-16 17:51:51.537 - 01 06 07 D0 FF 60 C8 9F (客厅空调关)
2024-09-16 17:51:55.605 - EE 00 6E B1 01 00 09 FF FC FF FF
2024-09-16 17:51:59.491 - EE 00 6E B1 01 00 02 FF FC FF FF
2024-09-16 17:52:27.463 - EE 00 00 B1 00 00 00 FF FC FF FF (情景执行提示)
2024-09-16 17:52:28.057 - 09 06 00 0F 02 01 78 21 (提示音叮)
2024-09-16 17:52:28.631 - A1 11 11 11 40 (客厅空调自动开)
2024-09-16 17:52:28.855 - 19 08 24 03 F0 BB 78 02 02 00
2024-09-16 17:52:28.905 - 23 AA 56 02 11 34 1C 18 09 10 01 73 65 6F 6B 65 6E 64
2024-09-16 17:52:29.864 - 01 10 07 D0 00 03 06 70 61 00 02 00 FA 6F 26 (客厅空调冷25度)
2024-09-16 17:52:32.687 - A1 11 11 11 41 (餐厅空调自动开)
2024-09-16 17:52:32.917 - 19 08 24 03 F0 BB 78 02 02 00
2024-09-16 17:52:32.967 - 23 AA 56 02 11 34 20 18 09 10 01 73 65 6F 6B 65 6E 64
2024-09-16 17:52:33.926 - 01 10 07 D3 00 03 06 70 61 00 02 00 FA 9F 29 (餐厅空调冷25度)
2024-09-16 17:52:36.723 - A1 11 11 11 42 (主卧空调自动开)
2024-09-16 17:52:36.948 - 19 08 24 03 F0 BB 78 02 02 00
2024-09-16 17:52:37.028 - 23 AA 56 02 11 34 24 18 09 10 01 73 65 6F 6B 65 6E 64
2024-09-16 17:52:37.959 - 01 10 07 D6 00 03 06 70 61 00 02 00 F0 0F 3E (主卧空调冷24度)
2024-09-16 17:52:38.770 - 09 06 00 0F 02 02 38 20 (提示音咚)
2024-09-16 17:52:39.320 - EE 00 00 B1 00 00 02 FF FC FF FF (情景完成返回主页)
2024-09-16 17:53:13.550 - EE 00 00 B1 00 00 00 FF FC FF FF (情景执行提示)
2024-09-16 17:53:14.145 - 09 06 00 0F 02 01 78 21 (提示音叮)
2024-09-16 17:53:14.691 - A1 11 11 11 40 (客厅空调自动开)
2024-09-16 17:53:14.916 - 19 08 24 03 F0 BB 78 02 02 00
2024-09-16 17:53:14.967 - 23 AA 56 02 11 35 0E 18 09 10 01 73 65 6F 6B 65 6E 64
2024-09-16 17:53:15.925 - 01 10 07 D0 00 03 06 70 61 00 02 00 FA 6F 26 (客厅空调冷25度)
2024-09-16 17:53:15.968 - 01 10 07 D0 00 03 06 70 61 00 02 00 FA 6F 26 (客厅空调冷25度)
2024-09-16 17:53:18.776 - A1 11 11 11 41 (餐厅空调自动开)
2024-09-16 17:53:18.997 - 19 08 24 03 F0 BB 78 02 02 00
2024-09-16 17:53:19.048 - 23 AA 56 02 11 35 12 18 09 10 01 73 65 6F 6B 65 6E 64
2024-09-16 17:53:20.007 - 01 10 07 D3 00 03 06 70 61 00 02 00 FA 9F 29 (餐厅空调冷25度)
2024-09-16 17:53:20.048 - 01 10 07 D3 00 03 06 70 61 00 02 00 FA 9F 29 (餐厅空调冷25度)
2024-09-16 17:53:22.812 - A1 11 11 11 42 (主卧空调自动开)
2024-09-16 17:53:23.040 - 19 08 24 03 F0 BB 78 02 02 00
2024-09-16 17:53:23.091 - 23 AA 56 02 11 35 16 18 09 10 01 73 65 6F 6B 65 6E 64
2024-09-16 17:53:24.049 - 01 10 07 D6 00 03 06 70 61 00 02 00 F0 0F 3E (主卧空调冷24度)
2024-09-16 17:53:24.086 - 01 10 07 D6 00 03 06 70 61 00 02 00 F0 0F 3E (主卧空调冷24度)
2024-09-16 17:53:24.857 - 09 06 00 0F 02 02 38 20 (提示音咚)
2024-09-16 17:53:25.409 - EE 00 00 B1 00 00 02 FF FC FF FF (情景完成返回主页)
2024-09-16 17:54:00.577 - 19 08 24 03 CC 01 CC 00 01 (调用茶吧感应灯开的按键)
2024-09-16 17:54:00.625 - 1A AA AA AA 88 FF B0 01 FF B0 01 0F (调光器地址-茶吧灯带, 茶吧灯带明亮)
2024-09-16 17:54:05.262 - FF
2024-09-16 17:54:05.264 - 00
2024-09-16 17:54:05.282 - 03
2024-09-16 17:54:05.291 - FE
2024-09-16 17:54:05.305 - FF
2024-09-16 17:54:05.306 - 02
2024-09-16 17:54:07.590 - 19 08 24 03 CC 01 CD 00 01 (调用茶吧感应灯关的按键)
2024-09-16 17:54:07.639 - 1A AA AA AA 88 FF 00 01 FF 00 01 0F (调光器地址-茶吧灯带, 茶吧灯带关闭)
2024-09-16 17:54:46.878 - EE 00 00 B1 00 00 00 FF FC FF FF (情景执行提示)
2024-09-16 17:54:47.473 - 09 06 00 0F 02 01 78 21 (提示音叮)
2024-09-16 17:54:48.022 - 01 06 07 D0 FF 60 C8 9F (客厅空调关)
2024-09-16 17:54:52.107 - 01 06 07 D3 FF 60 38 9F (餐厅空调关)
2024-09-16 17:54:56.142 - 01 06 07 D6 FF 60 28 9E (主卧空调关)
2024-09-16 17:54:56.690 - 09 06 00 0F 02 02 38 20 (提示音咚)
2024-09-16 17:54:57.242 - EE 00 00 B1 00 00 02 FF FC FF FF (情景完成返回主页)
2024-09-16 17:55:09.100 - EE 00 00 B1 00 00 00 FF FC FF FF (情景执行提示)
2024-09-16 17:55:09.695 - 09 06 00 0F 02 01 78 21 (提示音叮)
2024-09-16 17:55:10.244 - 01 06 07 D0 FF 60 C8 9F (客厅空调关)
2024-09-16 17:55:10.269 - 01 06 07 D0 FF 60 C8 9F (客厅空调关)
2024-09-16 17:55:14.328 - 01 06 07 D3 FF 60 38 9F (餐厅空调关)
2024-09-16 17:55:14.360 - 01 06 07 D3 FF 60 38 9F (餐厅空调关)
2024-09-16 17:55:18.442 - 01 06 07 D6 FF 60 28 9E (主卧空调关)
2024-09-16 17:55:18.471 - 01 06 07 D6 FF 60 28 9E (主卧空调关)
2024-09-16 17:55:19.013 - 09 06 00 0F 02 02 38 20 (提示音咚)
2024-09-16 17:55:19.563 - EE 00 00 B1 00 00 02 FF FC FF FF (情景完成返回主页)
2024-09-16 17:57:15.757 - EE 00 00 B1 00 00 00 FF FC FF FF (情景执行提示)
2024-09-16 17:57:16.352 - 09 06 00 0F 02 01 78 21 (提示音叮)
2024-09-16 17:57:16.897 - A1 11 11 11 40 (客厅空调自动开)
2024-09-16 17:57:17.124 - 19 08 24 03 F0 BB 78 02 02 00
2024-09-16 17:57:17.214 - 23 AA 56 02 11 39 11 18 09 10 01 73 65 6F 6B 65 6E 64
2024-09-16 17:57:18.133 - 01 10 07 D0 00 03 06 70 61 00 02 00 FA 6F 26 (客厅空调冷25度)
2024-09-16 17:57:18.171 - 01 10 07 D0 00 03 06 70 61 00 02 00 FA 6F 26 (客厅空调冷25度)
2024-09-16 17:57:20.933 - A1 11 11 11 41 (餐厅空调自动开)
2024-09-16 17:57:21.155 - 19 08 24 03 F0 BB 78 02 02 00
2024-09-16 17:57:21.208 - 23 AA 56 02 11 39 15 18 09 10 01 73 65 6F 6B 65 6E 64
2024-09-16 17:57:22.165 - 01 10 07 D3 00 03 06 70 61 00 02 00 FA 9F 29 (餐厅空调冷25度)
2024-09-16 17:57:22.201 - 01 10 07 D3 00 03 06 70 61 00 02 00 FA 9F 29 (餐厅空调冷25度)
2024-09-16 17:57:24.967 - A1 11 11 11 42 (主卧空调自动开)
2024-09-16 17:57:25.199 - 19 08 24 03 F0 BB 78 02 02 00
2024-09-16 17:57:25.248 - 23 AA 56 02 11 39 19 18 09 10 01 73 65 6F 6B 65 6E 64
2024-09-16 17:57:26.208 - 01 10 07 D6 00 03 06 70 61 00 02 00 F0 0F 3E (主卧空调冷24度)
2024-09-16 17:57:26.250 - 01 10 07 D6 00 03 06 70 61 00 02 00 F0 0F 3E (主卧空调冷24度)
2024-09-16 17:57:27.064 - 09 06 00 0F 02 02 38 20 (提示音咚)
2024-09-16 17:57:27.664 - EE 00 00 B1 00 00 02 FF FC FF FF (情景完成返回主页)
2024-09-16 17:57:46.698 - EE 00 00 B1 00 00 00 FF FC FF FF (情景执行提示)
2024-09-16 17:57:47.293 - 09 06 00 0F 02 01 78 21 (提示音叮)
2024-09-16 17:57:47.840 - 01 06 07 D0 FF 60 C8 9F (客厅空调关)
2024-09-16 17:57:47.875 - 01 06 07 D0 FF 60 C8 9F (客厅空调关)
2024-09-16 17:57:51.926 - 01 06 07 D3 FF 60 38 9F (餐厅空调关)
2024-09-16 17:57:51.954 - 01 06 07 D3 FF 60 38 9F (餐厅空调关)
2024-09-16 17:57:56.013 - 01 06 07 D6 FF 60 28 9E (主卧空调关)
2024-09-16 17:57:56.046 - 01 06 07 D6 FF 60 28 9E (主卧空调关)
2024-09-16 17:57:56.610 - 09 06 00 0F 02 02 38 20 (提示音咚)
2024-09-16 17:57:57.161 - EE 00 00 B1 00 00 02 FF FC FF FF (情景完成返回主页)
2024-09-16 17:58:00.500 - EE 00 00 B1 00 00 00 FF FC FF FF (情景执行提示)
2024-09-16 17:58:01.096 - 09 06 00 0F 02 01 78 21 (提示音叮)
2024-09-16 17:58:01.639 - A1 11 11 11 40 (客厅空调自动开)
2024-09-16 17:58:01.867 - 19 08 24 03 F0 BB 78 02 02 00
2024-09-16 17:58:01.918 - 23 AA 56 02 11 3A 01 18 09 10 01 73 65 6F 6B 65 6E 64
2024-09-16 17:58:02.877 - 01 10 07 D0 00 03 06 70 61 00 02 00 FA 6F 26 (客厅空调冷25度)
2024-09-16 17:58:02.920 - 01 10 07 D0 00 03 06 70 61 00 02 00 FA 6F 26 (客厅空调冷25度)
2024-09-16 17:58:05.725 - A1 11 11 11 41 (餐厅空调自动开)
2024-09-16 17:58:05.948 - 19 08 24 03 F0 BB 78 02 02 00
2024-09-16 17:58:06.000 - 23 AA 56 02 11 3A 05 18 09 10 01 73 65 6F 6B 65 6E 64
2024-09-16 17:58:06.958 - 01 10 07 D3 00 03 06 70 61 00 02 00 FA 9F 29 (餐厅空调冷25度)
2024-09-16 17:58:07.007 - 01 FC
2024-09-16 17:58:09.760 - A1 11 11 11 42 (主卧空调自动开)
2024-09-16 17:58:09.991 - 19 08 24 03 F0 BB 78 02 02 00
2024-09-16 17:58:10.042 - 23 AA 56 02 11 3A 09 18 09 10 01 73 65 6F 6B 65 6E 64
2024-09-16 17:58:11.000 - 01 10 07 D6 00 03 06 70 61 00 02 00 F0 0F 3E (主卧空调冷24度)
2024-09-16 17:58:11.042 - 01 10 07 D6 00 03 06 70 61 00 02 00 F0 0F 3E (主卧空调冷24度)
2024-09-16 17:58:11.807 - 09 06 00 0F 02 02 38 20 (提示音咚)
2024-09-16 17:58:12.358 - EE 00 00 B1 00 00 02 FF FC FF FF (情景完成返回主页)
2024-09-16 17:58:39.543 - 19 08 24 03 CC 01 52 00 01 (调用外卫感应灯开的按键)
2024-09-16 17:58:39.596 - 1A 0D 01 07 01 FF 45 01 FF 45 01 FF 00 00 0F (调光器地址-外卫射灯, 外卫感应灯开)
2024-09-16 18:00:10.656 - 19 08 24 03 CC 01 54 00 01 (调用内卫感应灯开的按键)
2024-09-16 18:00:10.689 - 1A 0C 02 08 01 FF 45 01 FF 45 01 FF 00 00 0F (调光器地址-内卫射灯, 内卫射灯微光)
2024-09-16 18:00:16.733 - 19 08 24 03 CC 01 53 00 01 (调用外卫感应灯关的按键)
2024-09-16 18:00:16.768 - 1A 0D 01 07 01 FF 00 01 FF 00 01 FF 00 00 0F (调光器地址-外卫射灯, 外卫感应灯关)
2024-09-16 18:00:37.209 - 19 08 24 03 CC 01 55 00 01 (调用内卫感应灯关的按键)
2024-09-16 18:00:37.243 - 1A 0C 02 08 01 FF 00 01 FF 00 01 FF 00 00 0F (调光器地址-内卫射灯, 内卫感应灯关)
2024-09-16 18:01:25.029 - EE 00 6E B1 01 00 03 FF FC FF FF
2024-09-16 18:01:27.234 - EE 00 6E B1 01 00 08 FF FC FF FF
2024-09-16 18:01:27.759 - 1A BE B0 DC 0A 00 01 00 (继电器地址-客厅纱帘, 客厅纱帘关)
2024-09-16 18:01:51.355 - 19 08 24 03 CC 01 54 00 01 (调用内卫感应灯开的按键)
2024-09-16 18:01:51.408 - 1A 0C 02 08 01 FF 45 01 FF 45 01 FF 00 00 0F (调光器地址-内卫射灯, 内卫射灯微光)
2024-09-16 18:01:54.229 - 1A 20 07 00 93 00 01 02 0F (自保持开关地址-设备区顶, 设备区顶灯开关)
2024-09-16 18:03:03.497 - 19 08 24 03 CC 01 55 00 01 (调用内卫感应灯关的按键)
2024-09-16 18:03:03.531 - 1A 0C 02 08 01 FF 00 01 FF 00 01 FF 00 00 0F (调光器地址-内卫射灯, 内卫感应灯关)
2024-09-16 18:03:04.742 - 1A BE B0 DC 04 FE (继电器地址-西阳窗帘)
2024-09-16 18:03:18.259 - 1A FF FF FF 04 00 02 03 (继电器地址-东阳衣架, 东阳衣架消毒开关)
2024-09-16 18:03:19.962 - 1A FF FF FF 04 00 02 03 (继电器地址-东阳衣架, 东阳衣架消毒开关)
2024-09-16 18:03:20.815 - 1A FF FF FF 04 00 01 03 (继电器地址-东阳衣架, 东阳衣架负离开关)
2024-09-16 18:03:24.849 - FF FF FF FF 0E FC (继电器地址-西阳小窗帘)
2024-09-16 18:03:24.983 - FC
2024-09-16 18:03:39.616 - FF
2024-09-16 18:04:26.819 - 19 08 24 03 CC 01 CC 00 01 (调用茶吧感应灯开的按键)
2024-09-16 18:04:26.869 - 1A AA AA AA 88 FF B0 01 FF B0 01 0F (调光器地址-茶吧灯带, 茶吧灯带明亮)
2024-09-16 18:04:37.681 - 19 08 24 03 CC 01 54 00 01 (调用内卫感应灯开的按键)
2024-09-16 18:04:37.716 - 1A 0C 02 08 01 FF 45 01 FF 45 01 FF 00 00 0F (调光器地址-内卫射灯, 内卫射灯微光)
2024-09-16 18:05:02.730 - 19 08 24 03 CC 01 55 00 01 (调用内卫感应灯关的按键)
2024-09-16 18:05:02.764 - 1A 0C 02 08 01 FF 00 01 FF 00 01 FF 00 00 0F (调光器地址-内卫射灯, 内卫感应灯关)
2024-09-16 18:05:28.437 - 19 08 24 03 CC 00 D3 00 01 (调用厨房感应灯开的按键)
2024-09-16 18:05:28.472 - 55 0A 32 00 00 00 01 92 55 0A 32 00 00 00 02 93 (厨房顶灯一开, 厨房顶灯二开)
2024-09-16 18:05:42.986 - 19 08 24 03 CC 01 CD 00 01 (调用茶吧感应灯关的按键)
2024-09-16 18:05:43.017 - 1A AA AA AA 88 FF 00 01 FF 00 01 0F (调光器地址-茶吧灯带, 茶吧灯带关闭)
2024-09-16 18:06:08.015 - 19 08 24 03 CC 00 D4 00 01 (调用厨房感应灯关的按键)
2024-09-16 18:06:08.049 - 55 0A 31 00 00 00 01 91 55 0A 31 00 00 00 02 92 (厨房顶灯一关, 厨房顶灯二关)
2024-09-16 18:06:30.405 - 19 08 24 03 CC 01 54 00 01 (调用内卫感应灯开的按键)
2024-09-16 18:06:30.437 - 1A 0C 02 08 01 FF 45 01 FF 45 01 FF 00 00 0F (调光器地址-内卫射灯, 内卫射灯微光)
2024-09-16 18:06:33.822 - 1A 20 07 00 93 00 01 02 0F (自保持开关地址-设备区顶, 设备区顶灯开关)
2024-09-16 18:06:34.685 - 1A 22 33 62 0F 00 02 01 0F (正反转地址-内卫卷帘, 内卫卷帘降)
2024-09-16 18:07:57.802 - 1A BE B0 DC 09 FC (继电器地址-客厅窗帘)
2024-09-16 18:07:57.936 - FF
2024-09-16 18:10:05.868 - 1A BE B0 DC 02 FC (正反转地址-外卫卷帘)
2024-09-16 18:10:06.003 - FF
2024-09-16 18:12:13.444 - 1A BE B0 DC 0A (继电器地址-客厅纱帘)
2024-09-16 18:12:35.245 - 1A BE B0 DC 01 (继电器地址-回水泵点动)
2024-09-16 18:12:35.381 - FF
2024-09-16 18:14:42.423 - 1A BE B0 DC 03 FE (继电器地址-西阳天幕)
2024-09-16 18:14:42.559 - FF
2024-09-16 18:21:31.679 - 19 08 24 03 CC 01 55 00 01 (调用内卫感应灯关的按键)
2024-09-16 18:21:31.730 - 1A 0C 02 08 01 FF 00 01 FF 00 01 FF 00 00 0F (调光器地址-内卫射灯, 内卫感应灯关)
2024-09-16 18:22:50.879 - EE 00 6E B1 01 00 02 FF FC FF FF
2024-09-16 18:22:51.334 - 19 08 24 03 DD 00 1A 00 01 (调用情景-客厅电视播放)
2024-09-16 18:22:51.871 - EE 00 00 B1 00 00 00 FF FC FF FF (情景执行提示)
2024-09-16 18:22:52.465 - 09 06 00 0F 02 01 78 21 (提示音叮)
2024-09-16 18:22:53.009 - 50 F0 08 (开客厅影视)
2024-09-16 18:23:01.544 - 19 08 24 03 CC 01 CC 00 01 (调用茶吧感应灯开的按键)
2024-09-16 18:23:01.573 - 1A AA AA AA 88 FF B0 01 FF B0 01 0F (调光器地址-茶吧灯带, 茶吧灯带明亮)
2024-09-16 18:23:02.031 - 50 F1 28 (客厅—有线2)
2024-09-16 18:23:02.585 - 09 06 00 0F 02 01 78 21 (提示音叮)
2024-09-16 18:23:03.135 - EE 00 00 B1 00 00 02 FF FC FF FF (情景完成返回主页)
2024-09-16 18:23:06.015 - 19 08 24 03 CC 00 D3 00 01 (调用厨房感应灯开的按键)
2024-09-16 18:23:06.051 - 55 0A 32 00 00 00 01 92 55 0A 32 00 00 00 02 93 (厨房顶灯一开, 厨房顶灯二开)
2024-09-16 18:23:10.373 - 19 08 24 03 CC 01 54 00 01 (调用内卫感应灯开的按键)
2024-09-16 18:23:10.408 - 1A 0C 02 08 01 FF 45 01 FF 45 01 FF 00 00 0F (调光器地址-内卫射灯, 内卫射灯微光)
2024-09-16 18:23:25.608 - 19 08 24 03 CC 01 CD 00 01 (调用茶吧感应灯关的按键)
2024-09-16 18:23:25.637 - 1A AA AA AA 88 FF 00 01 FF 00 (调光器地址-茶吧灯带)
2024-09-16 18:23:25.641 - 01 0F
2024-09-16 18:23:35.422 - 19 08 24 03 CC 01 55 00 01 (调用内卫感应灯关的按键)
2024-09-16 18:23:35.457 - 1A 0C 02 08 01 FF 00 01 FF 00 01 FF 00 00 0F (调光器地址-内卫射灯, 内卫感应灯关)
2024-09-16 18:23:41.140 - 19 08 24 03 CC 01 CC 00 01 (调用茶吧感应灯开的按键)
2024-09-16 18:23:41.171 - 1A AA AA AA 88 FF B0 01 FF B0 01 0F (调光器地址-茶吧灯带, 茶吧灯带明亮)
2024-09-16 18:24:24.670 - 19 08 24 03 CC 00 D4 00 01 (调用厨房感应灯关的按键)
2024-09-16 18:24:24.706 - 55 0A 31 00 00 00 01 91 55 0A 31 00 00 00 02 92 (厨房顶灯一关, 厨房顶灯二关)
2024-09-16 18:24:25.171 - 19 08 24 03 CC 00 D3 00 01 (调用厨房感应灯开的按键)
2024-09-16 18:24:25.207 - 55 0A 32 00 00 00 01 92 55 0A 32 00 00 00 02 93 (厨房顶灯一开, 厨房顶灯二开)
2024-09-16 18:24:36.250 - 19 08 24 03 CC 01 CD 00 01 (调用茶吧感应灯关的按键)
2024-09-16 18:24:36.281 - 1A AA AA AA 88 FF 00 01 FF 00 01 0F (调光器地址-茶吧灯带, 茶吧灯带关闭)
2024-09-16 18:24:36.751 - 19 08 24 03 CC 01 CC 00 01 (调用茶吧感应灯开的按键)
2024-09-16 18:24:36.780 - 1A AA AA AA 88 FF B0 01 FF B0 01 0F (调光器地址-茶吧灯带, 茶吧灯带明亮)
2024-09-16 18:24:49.276 - 19 08 24 03 CC 01 CD 00 01 (调用茶吧感应灯关的按键)
2024-09-16 18:24:49.307 - 1A AA AA AA 88 FF 00 01 FF 00 01 0F (调光器地址-茶吧灯带, 茶吧灯带关闭)
2024-09-16 18:25:00.531 - FF FF FF FF 0A (继电器地址-东阳窗帘)
2024-09-16 18:25:00.665 - FF
2024-09-16 18:25:14.267 - 19 08 24 03 CC 00 D4 00 01 (调用厨房感应灯关的按键)
2024-09-16 18:25:14.320 - 55 0A 31 00 00 00 01 91 55 0A 31 00 00 00 02 92 (厨房顶灯一关, 厨房顶灯二关)
2024-09-16 18:31:06.271 - 19 08 24 03 DD 00 3B 00 01 (调用情景-书房照明关帘)
2024-09-16 18:31:06.812 - EE 00 00 B1 00 00 00 FF FC FF FF (情景执行提示)
2024-09-16 18:31:07.407 - 09 06 00 0F 02 01 78 21 (提示音叮)
2024-09-16 18:31:08.012 - 1A 0A 04 06 01 FF F0 01 FF F0 01 FF 00 00 0F (调光器地址-书房射灯, 书房射灯明亮)
2024-09-16 18:31:12.092 - A5 00 B7 FF 00 AA 22 0D (书房纱帘关)
2024-09-16 18:31:13.137 - A5 00 D2 FF 00 AA 22 0C (书房窗帘关)
2024-09-16 18:31:13.186 - 55 00 D2 01 00 0D 01 0B AA 55 00 D2 01 00 0D 01 0B AA (书房窗帘电机状态返回)
2024-09-16 18:31:14.234 - 09 06 00 0F 02 02 38 20 (提示音咚)
2024-09-16 18:31:14.785 - EE 00 00 B1 00 00 02 FF FC FF FF (情景完成返回主页)
2024-09-16 18:31:23.229 - 55 00 D2 00 00 FE 01 0B AA 55 00 D2 00 00 FE 01 0B AA (书房窗帘电机状态返回)
2024-09-16 18:45:19.927 - 19 08 24 03 DD 00 3A 00 01 (调用情景-离开书房)
2024-09-16 18:45:20.472 - EE 00 00 B1 00 00 00 FF FC FF FF (情景执行提示)
2024-09-16 18:45:21.067 - 09 06 00 0F 02 01 78 21 (提示音叮)
2024-09-16 18:45:21.616 - 01 06 07 DC FF 60 08 9C (书房空调关)
2024-09-16 18:45:21.650 - 01 06 07 DC FF 60 08 9C (书房空调关)
2024-09-16 18:45:22.208 - 50 F5 07 (关书房影视)
2024-09-16 18:45:22.761 - A5 00 D2 FE 01 AA 22 0D (书房窗帘开)
2024-09-16 18:45:22.810 - 55 00 D2 02 00 FE 01 0B AA 55 00 D2 02 00 FE 01 0B AA (书房窗帘电机状态返回)
2024-09-16 18:45:23.858 - A5 00 B7 FF 00 AA 22 0D (书房纱帘关)
2024-09-16 18:45:24.904 - 55 0D 31 00 00 00 01 94 (书房顶灯只关)
2024-09-16 18:45:25.957 - 1A 0A 04 06 01 FF 00 01 FF 00 01 FF 00 00 0F (调光器地址-书房射灯, 书房射灯关闭)
2024-09-16 18:45:30.035 - 09 06 00 0F 02 02 38 20 (提示音咚)
2024-09-16 18:45:30.587 - EE 00 00 B1 00 00 02 FF FC FF FF (情景完成返回主页)
2024-09-16 18:45:32.318 - 1A 20 07 01 55 00 01 02 0F (自保持开关地址-主卧顶灯, 主卧顶灯开关)
2024-09-16 18:45:37.207 - 1A 20 07 01 55 00 01 02 0F (自保持开关地址-主卧顶灯, 主卧顶灯开关)
2024-09-16 18:45:43.582 - 1A AA AA AA 66 00 00 02 0F (调光器地址-东阳筒灯, 东阳筒灯开关)
2024-09-16 18:45:49.840 - 1A AA AA AA 66 00 64 01 00 64 01 0F (调光器地址-东阳筒灯)
2024-09-16 18:45:50.758 - 1A AA AA AA 66 01 0F (调光器地址-东阳筒灯)
2024-09-16 18:48:34.508 - 1A AA AA AA 66 00 00 02 0F (调光器地址-东阳筒灯, 东阳筒灯开关)
2024-09-16 18:48:40.762 - 1A AA AA AA 66 00 64 00 00 64 00 0F (调光器地址-东阳筒灯)
2024-09-16 18:48:41.678 - 1A AA AA AA 66 00 0F (调光器地址-东阳筒灯)
2024-09-16 18:49:05.775 - EE 00 6E B1 01 00 09 FF FC FF FF
2024-09-16 18:49:07.458 - 19 08 24 03 CC 01 65 00 01
2024-09-16 18:49:10.415 - EE 00 6E B1 01 00 02 FF FC FF FF
2024-09-16 18:49:20.197 - 19 08 24 03 CC 01 CC 00 01 (调用茶吧感应灯开的按键)
2024-09-16 18:49:20.247 - 1A AA AA AA 88 FF B0 01 FF B0 01 0F (调光器地址-茶吧灯带, 茶吧灯带明亮)
2024-09-16 18:49:22.616 - 19 08 24 03 CC 00 D3 00 01 (调用厨房感应灯开的按键)
2024-09-16 18:49:22.650 - 55 0A 32 00 00 00 01 92 55 0A 32 00 00 00 02 93 (厨房顶灯一开, 厨房顶灯二开)
2024-09-16 18:50:09.206 - 19 08 24 03 CC 00 D4 00 01 (调用厨房感应灯关的按键)
2024-09-16 18:50:09.242 - 55 0A 31 00 00 00 01 91 55 0A 31 00 00 00 02 92 (厨房顶灯一关, 厨房顶灯二关)
2024-09-16 18:51:43.480 - 19 08 24 03 CC 01 CD 00 01 (调用茶吧感应灯关的按键)
2024-09-16 18:51:43.510 - 1A AA AA AA 88 FF 00 01 FF 00 01 0F (调光器地址-茶吧灯带, 茶吧灯带关闭)
2024-09-16 18:53:53.503 - 19 08 24 03 CC 01 54 00 01 (调用内卫感应灯开的按键)
2024-09-16 18:53:53.536 - 1A 0C 02 08 01 FF 45 01 FF 45 01 FF 00 00 0F (调光器地址-内卫射灯, 内卫射灯微光)
2024-09-16 18:53:56.453 - 1A 20 07 00 93 00 01 02 0F (自保持开关地址-设备区顶, 设备区顶灯开关)
2024-09-16 18:53:57.415 - 1A 22 33 62 0F 00 00 01 0F (正反转地址-内卫卷帘, 内卫卷帘升)
2024-09-16 18:54:10.316 - 19 08 24 03 DD 00 09 00 01 (调用情景-工作日起床关)
2024-09-16 18:54:10.857 - EE 00 00 B1 00 00 00 FF FC FF FF (情景执行提示)
2024-09-16 18:54:11.923 - EE 00 00 B1 00 00 02 FF FC FF FF (情景完成返回主页)
2024-09-16 18:56:30.904 - 1A 22 33 62 0F 00 02 01 0F (正反转地址-内卫卷帘, 内卫卷帘降)
2024-09-16 18:56:33.312 - 1A 20 07 00 93 00 01 02 0F (自保持开关地址-设备区顶, 设备区顶灯开关)
2024-09-16 18:57:30.445 - 19 08 24 03 CC 01 55 00 01 (调用内卫感应灯关的按键)
2024-09-16 18:57:30.477 - 1A 0C 02 08 01 FF 00 01 FF 00 01 FF 00 00 0F (调光器地址-内卫射灯, 内卫感应灯关)
2024-09-16 18:58:54.609 - 19 08 24 03 CC 01 54 00 01 (调用内卫感应灯开的按键)
2024-09-16 18:58:54.644 - 1A 0C 02 08 01 FF 45 01 FF 45 01 FF 00 00 0F (调光器地址-内卫射灯, 内卫射灯微光)
2024-09-16 18:59:20.382 - 19 08 24 03 CC 01 CC 00 01 (调用茶吧感应灯开的按键)
2024-09-16 18:59:20.413 - 1A AA AA AA 88 FF B0 01 FF B0 01 0F (调光器地址-茶吧灯带, 茶吧灯带明亮)
2024-09-16 18:59:20.660 - 19 08 24 03 CC 01 55 00 01 (调用内卫感应灯关的按键)
2024-09-16 18:59:23.797 - 19 08 24 03 CC 00 D3 00 01 (调用厨房感应灯开的按键)
2024-09-16 18:59:23.833 - 55 0A 32 00 00 00 01 92 55 0A 32 00 00 00 02 93 (厨房顶灯一开, 厨房顶灯二开)
2024-09-16 18:59:34.410 - 19 08 24 03 CC 01 CD 00 01 (调用茶吧感应灯关的按键)
2024-09-16 18:59:34.441 - 1A AA AA AA 88 FF 00 01 FF 00 01 0F (调光器地址-茶吧灯带, 茶吧灯带关闭)
2024-09-16 18:59:39.421 - 19 08 24 03 CC 01 CC 00 01 (调用茶吧感应灯开的按键)
2024-09-16 18:59:39.450 - 1A AA AA AA 88 FF B0 01 FF B0 01 0F (调光器地址-茶吧灯带, 茶吧灯带明亮)
2024-09-16 19:00:16.401 - 19 08 24 03 CC 00 D4 00 01 (调用厨房感应灯关的按键)
2024-09-16 19:00:16.437 - 55 0A 31 00 00 00 01 91 55 0A 31 00 00 00 02 92 (厨房顶灯一关, 厨房顶灯二关)
2024-09-16 19:01:07.093 - 19 08 24 03 CC 01 CD 00 01 (调用茶吧感应灯关的按键)
2024-09-16 19:01:07.124 - 1A AA AA AA 88 FF 00 01 FF 00 01 0F (调光器地址-茶吧灯带, 茶吧灯带关闭)
2024-09-16 19:27:51.595 - 19 08 24 03 DD 00 1B 00 01 (调用情景-外卫使用)
2024-09-16 19:27:52.110 - EE 00 00 B1 00 00 00 FF FC FF FF (情景执行提示)
2024-09-16 19:27:52.703 - 09 06 00 0F 02 01 78 21 (提示音叮)
2024-09-16 19:27:53.281 - 1A BE B0 DC 02 00 01 00 (正反转地址-外卫卷帘, 外卫卷帘降)
2024-09-16 19:27:53.895 - 50 F0 03 (开外卫影视)
2024-09-16 19:27:54.449 - 1A FF FF FF 55 00 00 00 0F (人体感应地址-外卫, 关闭外卫感应)
2024-09-16 19:27:55.003 - 1A 0D 01 07 01 FF 45 01 FF 45 01 FF 00 00 0F (调光器地址-外卫射灯, 外卫感应灯开)
2024-09-16 19:27:57.089 - 1A BE B0 DC 01 00 01 00 (继电器地址-回水泵点动, 回水泵点动)
2024-09-16 19:27:58.135 - 1A BE B0 DC 01 00 01 00 (继电器地址-回水泵点动, 回水泵点动)
2024-09-16 19:27:59.182 - 1A BE B0 DC 01 00 01 00 (继电器地址-回水泵点动, 回水泵点动)
2024-09-16 19:28:00.224 - 50 F1 43 (外卫—CH4)
2024-09-16 19:28:17.221 - A1 11 11 11 11 05 (外卫使用浴霸判断)
2024-09-16 19:28:17.445 - 13 03 00 00 00 02 C7 79 (查询外卫温湿度)
2024-09-16 19:28:17.469 - 13 03 04 01 A2 01 10 68 70 (外卫温湿度返回)
2024-09-16 19:28:19.315 - 09 06 00 0F 02 02 38 20 (提示音咚)
2024-09-16 19:28:21.412 - EE 00 00 B1 00 00 02 FF FC FF FF (情景完成返回主页)
2024-09-16 19:39:20.812 - 19 08 24 03 DD 00 1C 00 01 (调用情景-外卫使用完毕)
2024-09-16 19:39:21.338 - EE 00 00 B1 00 00 00 FF FC FF FF (情景执行提示)
2024-09-16 19:39:21.934 - 09 06 00 0F 02 01 78 21 (提示音叮)
2024-09-16 19:39:22.487 - 1A 0D 01 07 01 FF 00 01 FF 00 01 FF 00 00 0F (调光器地址-外卫射灯, 外卫感应灯关)
2024-09-16 19:39:23.074 - 50 F5 03 (关外卫影视)
2024-09-16 19:39:23.630 - 1A 20 07 00 42 00 01 00 0F (自保持开关地址-外卫顶灯, 外卫顶灯关)
2024-09-16 19:39:24.176 - 1A FF FF FF 55 00 00 01 0F (人体感应地址-外卫, 打开外卫感应)
2024-09-16 19:39:24.272 - BC BC
2024-09-16 19:39:24.580 - 19 08 24 03 CC 01 52 00 01 (调用外卫感应灯开的按键)
2024-09-16 19:39:24.633 - 1A 0D 01 07 01 FF 45 01 FF 45 01 FF 00 00 0F (调光器地址-外卫射灯, 外卫感应灯开)
2024-09-16 19:39:27.068 - 09 06 00 0F 02 02 38 20 (提示音咚)
2024-09-16 19:39:27.671 - EE 00 00 B1 00 00 02 FF FC FF FF (情景完成返回主页)
2024-09-16 19:39:34.301 - 19 08 24 03 CC 01 53 00 01 (调用外卫感应灯关的按键)
2024-09-16 19:39:34.335 - 1A 0D 01 07 01 FF 00 01 FF 00 01 FF 00 00 0F (调光器地址-外卫射灯, 外卫感应灯关)
2024-09-16 19:39:47.673 - 19 08 24 03 CC 01 CC 00 01 (调用茶吧感应灯开的按键)
2024-09-16 19:39:47.704 - 1A AA AA AA 88 FF B0 01 FF B0 01 0F (调光器地址-茶吧灯带, 茶吧灯带明亮)
2024-09-16 19:39:50.569 - 19 08 24 03 CC 00 D3 00 01 (调用厨房感应灯开的按键)
2024-09-16 19:39:50.603 - 55 0A 32 00 00 00 01 92 55 0A 32 00 00 00 02 93 (厨房顶灯一开, 厨房顶灯二开)
2024-09-16 19:40:00.198 - 19 08 24 03 CC 01 CD 00 01 (调用茶吧感应灯关的按键)
2024-09-16 19:40:00.229 - 1A AA AA AA 88 FF 00 01 FF 00 01 0F (调光器地址-茶吧灯带, 茶吧灯带关闭)
2024-09-16 19:44:56.282 - 19 08 24 03 CC 01 CC 00 01 (调用茶吧感应灯开的按键)
2024-09-16 19:44:56.313 - 1A AA AA AA 88 FF B0 01 FF B0 01 0F (调光器地址-茶吧灯带, 茶吧灯带明亮)
2024-09-16 19:45:08.308 - 19 08 24 03 CC 01 CD 00 01 (调用茶吧感应灯关的按键)
2024-09-16 19:45:08.339 - 1A AA AA AA 88 FF 00 01 FF 00 01 0F (调光器地址-茶吧灯带, 茶吧灯带关闭)
2024-09-16 19:45:33.743 - 19 08 24 03 CC 00 D4 00 01 (调用厨房感应灯关的按键)
2024-09-16 19:45:33.778 - 55 0A 31 00 00 00 01 91 55 0A 31 00 00 00 02 92 (厨房顶灯一关, 厨房顶灯二关)
2024-09-16 19:47:25.906 - 1A FF FF FF 04 FE (继电器地址-东阳衣架)
2024-09-16 19:47:26.426 - FF
2024-09-16 20:05:22.581 - 19 08 24 03 CC 00 D3 00 01 (调用厨房感应灯开的按键)
2024-09-16 20:05:22.634 - 55 0A 32 00 00 00 01 92 55 0A 32 00 00 00 02 93 (厨房顶灯一开, 厨房顶灯二开)
2024-09-16 20:05:57.650 - 19 08 24 03 CC 00 D4 00 01 (调用厨房感应灯关的按键)
2024-09-16 20:05:57.684 - 55 0A 31 00 00 00 01 91 55 0A 31 00 00 00 02 92 (厨房顶灯一关, 厨房顶灯二关)
2024-09-16 20:20:27.498 - FF
2024-09-16 21:16:22.290 - FF
2024-09-16 21:17:56.671 - 19 08 24 03 DD 00 3B 00 01 (调用情景-书房照明关帘)
2024-09-16 21:17:57.207 - EE 00 00 B1 00 00 00 FF FC FF FF (情景执行提示)
2024-09-16 21:17:57.802 - 09 06 00 0F 02 01 78 21 (提示音叮)
2024-09-16 21:17:58.358 - 1A 0A 04 06 01 FF F0 01 FF F0 01 FF 00 00 0F (调光器地址-书房射灯, 书房射灯明亮)
2024-09-16 21:18:02.437 - A5 00 B7 FF 00 AA 22 0D (书房纱帘关)
2024-09-16 21:18:03.483 - A5 00 D2 FF 00 AA 22 0C (书房窗帘关)
2024-09-16 21:18:03.537 - 55 00 D2 01 00 0D 01 0B AA 55 00 D2 01 00 0D 01 0B AA (书房窗帘电机状态返回)
2024-09-16 21:18:04.579 - 09 06 00 0F 02 02 38 20 (提示音咚)
2024-09-16 21:18:05.131 - EE 00 00 B1 00 00 02 FF FC FF FF (情景完成返回主页)
2024-09-16 21:18:13.540 - 55 00 D2 00 00 FE 01 0B AA 55 00 D2 00 00 FE 01 0B AA (书房窗帘电机状态返回)
2024-09-16 21:23:47.535 - 1A BE B0 DC 04 (继电器地址-西阳窗帘)
2024-09-16 21:24:54.741 - FF FF FF FF 0E FE (继电器地址-西阳小窗帘)
2024-09-16 21:24:54.876 - FF
2024-09-16 21:27:40.927 - FF
2024-09-16 21:28:08.007 - 19 08 24 03 CC 01 CC 00 01 (调用茶吧感应灯开的按键)
2024-09-16 21:28:08.057 - 1A AA AA AA 88 FF B0 01 FF B0 01 0F (调光器地址-茶吧灯带, 茶吧灯带明亮)
2024-09-16 21:28:11.350 - 19 08 24 03 CC 00 D3 00 01 (调用厨房感应灯开的按键)
2024-09-16 21:28:11.384 - 55 0A 32 00 00 00 01 92 55 0A 32 00 00 00 02 93 (厨房顶灯一开, 厨房顶灯二开)
2024-09-16 21:28:20.532 - 19 08 24 03 CC 01 CD 00 01 (调用茶吧感应灯关的按键)
2024-09-16 21:28:20.563 - 1A AA AA AA 88 FF 00 01 FF 00 01 0F (调光器地址-茶吧灯带, 茶吧灯带关闭)
2024-09-16 21:28:22.535 - 19 08 24 03 CC 01 CC 00 01 (调用茶吧感应灯开的按键)
2024-09-16 21:28:22.566 - 1A AA AA AA 88 FF B0 01 FF B0 01 0F (调光器地址-茶吧灯带, 茶吧灯带明亮)
2024-09-16 21:28:35.060 - 19 08 24 03 CC 01 CD 00 01 (调用茶吧感应灯关的按键)
2024-09-16 21:28:35.090 - 1A AA AA AA 88 FF 00 01 FF 00 01 0F (调光器地址-茶吧灯带, 茶吧灯带关闭)
2024-09-16 21:28:56.101 - 19 08 24 03 CC 01 CC 00 01 (调用茶吧感应灯开的按键)
2024-09-16 21:28:56.133 - 1A AA AA AA 88 FF B0 01 FF B0 01 0F (调光器地址-茶吧灯带, 茶吧灯带明亮)
2024-09-16 21:29:03.175 - 1A BE B0 DC 09 FC (继电器地址-客厅窗帘)
2024-09-16 21:29:03.308 - FF
2024-09-16 21:29:09.629 - 19 08 24 03 CC 01 CD 00 01 (调用茶吧感应灯关的按键)
2024-09-16 21:29:09.677 - 1A AA AA AA 88 FF 00 01 FF 00 01 0F (调光器地址-茶吧灯带, 茶吧灯带关闭)
2024-09-16 21:32:08.586 - 1A BE B0 DC 02 (正反转地址-外卫卷帘)
2024-09-16 21:32:58.080 - 19 08 24 03 CC 01 CC 00 01 (调用茶吧感应灯开的按键)
2024-09-16 21:32:58.128 - 1A AA AA AA 88 FF B0 01 FF B0 01 0F (调光器地址-茶吧灯带, 茶吧灯带明亮)
2024-09-16 21:33:06.430 - 19 08 24 03 CC 00 D4 00 01 (调用厨房感应灯关的按键)
2024-09-16 21:33:06.484 - 55 0A 31 00 00 00 01 91 55 0A 31 00 00 00 02 92 (厨房顶灯一关, 厨房顶灯二关)
2024-09-16 21:33:10.103 - 19 08 24 03 CC 01 CD 00 01 (调用茶吧感应灯关的按键)
2024-09-16 21:33:10.135 - 1A AA AA AA 88 FF 00 01 FF 00 01 0F (调光器地址-茶吧灯带, 茶吧灯带关闭)
2024-09-16 21:33:18.118 - 19 08 24 03 CC 01 CC 00 01 (调用茶吧感应灯开的按键)
2024-09-16 21:33:18.149 - 1A AA AA AA 88 FF B0 01 FF B0 01 0F (调光器地址-茶吧灯带, 茶吧灯带明亮)
2024-09-16 21:33:19.957 - 19 08 24 03 CC 00 D3 00 01 (调用厨房感应灯开的按键)
2024-09-16 21:33:19.993 - 55 0A 32 00 00 00 01 92 55 0A 32 00 00 00 02 93 (厨房顶灯一开, 厨房顶灯二开)
2024-09-16 21:33:30.143 - 19 08 24 03 CC 01 CD 00 01 (调用茶吧感应灯关的按键)
2024-09-16 21:33:30.174 - 1A AA AA AA 88 FF 00 01 FF 00 01 0F (调光器地址-茶吧灯带, 茶吧灯带关闭)
2024-09-16 21:34:11.274 - 1A BE B0 DC 0A FF (继电器地址-客厅纱帘)
2024-09-16 21:34:11.408 - FF
2024-09-16 21:34:20.106 - 1A BE B0 DC 01 (继电器地址-回水泵点动)
2024-09-16 21:34:20.243 - FE
2024-09-16 21:36:22.419 - 1A BE B0 DC 03 FE (继电器地址-西阳天幕)
2024-09-16 21:36:22.552 - FF
2024-09-16 21:38:47.269 - 19 08 24 03 CC 01 CC 00 01 (调用茶吧感应灯开的按键)
2024-09-16 21:38:47.317 - 1A AA AA AA 88 FF B0 01 FF B0 01 0F (调光器地址-茶吧灯带, 茶吧灯带明亮)
2024-09-16 21:38:58.291 - 19 08 24 03 CC 01 CD 00 01 (调用茶吧感应灯关的按键)
2024-09-16 21:38:58.340 - 1A AA AA AA 88 FF 00 01 FF 00 01 0F (调光器地址-茶吧灯带, 茶吧灯带关闭)
2024-09-16 21:39:13.319 - 19 08 24 03 CC 01 CC 00 01 (调用茶吧感应灯开的按键)
2024-09-16 21:39:13.351 - 1A AA AA AA 88 FF B0 01 FF B0 01 0F (调光器地址-茶吧灯带, 茶吧灯带明亮)
2024-09-16 21:39:25.343 - 19 08 24 03 CC 01 CD 00 01 (调用茶吧感应灯关的按键)
2024-09-16 21:39:25.374 - 1A AA AA AA 88 FF 00 01 FF 00 01 0F (调光器地址-茶吧灯带, 茶吧灯带关闭)
2024-09-16 21:40:00.914 - 19 08 24 03 CC 01 CC 00 01 (调用茶吧感应灯开的按键)
2024-09-16 21:40:00.946 - 1A AA AA AA 88 FF B0 01 FF B0 01 0F (调光器地址-茶吧灯带, 茶吧灯带明亮)
2024-09-16 21:40:09.158 - 19 08 24 03 CC 01 54 00 01 (调用内卫感应灯开的按键)
2024-09-16 21:40:09.192 - 1A 0C 02 08 01 FF 45 01 FF 45 01 FF 00 00 0F (调光器地址-内卫射灯, 内卫射灯微光)
2024-09-16 21:40:10.263 - 19 08 24 03 CC 00 D4 00 01 (调用厨房感应灯关的按键)
2024-09-16 21:40:10.299 - 55 0A 31 00 00 00 01 91 55 0A 31 00 00 00 02 92 (厨房顶灯一关, 厨房顶灯二关)
2024-09-16 21:40:11.578 - 1A 22 33 62 0F 00 00 01 0F (正反转地址-内卫卷帘, 内卫卷帘升)
2024-09-16 21:40:12.937 - 19 08 24 03 CC 01 CD 00 01 (调用茶吧感应灯关的按键)
2024-09-16 21:40:12.968 - 1A AA AA AA 88 FF 00 01 FF 00 01 0F (调光器地址-茶吧灯带, 茶吧灯带关闭)
2024-09-16 21:40:13.072 - 1A 20 07 00 93 00 01 02 0F (自保持开关地址-设备区顶, 设备区顶灯开关)
2024-09-16 21:41:56.705 - 1A 20 07 00 93 00 01 02 0F (自保持开关地址-设备区顶, 设备区顶灯开关)
2024-09-16 21:41:57.377 - 1A 22 33 62 0F 00 02 01 0F (正反转地址-内卫卷帘, 内卫卷帘降)
2024-09-16 21:42:07.164 - 19 08 24 03 CC 01 CC 00 01 (调用茶吧感应灯开的按键)
2024-09-16 21:42:07.195 - 1A AA AA AA 88 FF B0 01 FF B0 01 0F (调光器地址-茶吧灯带, 茶吧灯带明亮)
2024-09-16 21:42:09.499 - 19 08 24 03 CC 00 D3 00 01 (调用厨房感应灯开的按键)
2024-09-16 21:42:09.533 - 55 0A 32 00 00 00 01 92 55 0A 32 00 00 00 02 93 (厨房顶灯一开, 厨房顶灯二开)
2024-09-16 21:42:19.188 - 19 08 24 03 CC 01 CD 00 01 (调用茶吧感应灯关的按键)
2024-09-16 21:42:19.218 - 1A AA AA AA 88 FF 00 01 FF 00 01 0F (调光器地址-茶吧灯带, 茶吧灯带关闭)
2024-09-16 21:42:58.992 - 19 08 24 03 CC 01 55 00 01 (调用内卫感应灯关的按键)
2024-09-16 21:42:59.028 - 1A 0C 02 08 01 FF 00 01 FF 00 01 FF 00 00 0F (调光器地址-内卫射灯, 内卫感应灯关)
2024-09-16 21:43:59.612 - 19 08 24 03 CC 01 54 00 01 (调用内卫感应灯开的按键)
2024-09-16 21:43:59.646 - 1A 0C 02 08 01 FF 45 01 FF 45 01 FF 00 00 0F (调光器地址-内卫射灯, 内卫射灯微光)
2024-09-16 21:44:25.162 - 19 08 24 03 CC 01 55 00 01 (调用内卫感应灯关的按键)
2024-09-16 21:44:25.197 - 1A 0C 02 08 01 FF 00 01 FF 00 01 FF 00 00 0F (调光器地址-内卫射灯, 内卫感应灯关)
2024-09-16 21:45:53.686 - FF FF FF FF 0A FF (继电器地址-东阳窗帘)
2024-09-16 21:45:53.818 - FF
2024-09-16 21:46:10.645 - 19 08 24 03 CC 01 CC 00 01 (调用茶吧感应灯开的按键)
2024-09-16 21:46:10.693 - 1A AA AA AA 88 FF B0 01 FF B0 01 0F (调光器地址-茶吧灯带, 茶吧灯带明亮)
2024-09-16 21:46:23.170 - 19 08 24 03 CC 01 CD 00 01 (调用茶吧感应灯关的按键)
2024-09-16 21:46:23.219 - 1A AA AA AA 88 FF 00 01 FF 00 01 0F (调光器地址-茶吧灯带, 茶吧灯带关闭)
2024-09-16 21:46:48.547 - 19 08 24 03 CC 00 D4 00 01 (调用厨房感应灯关的按键)
2024-09-16 21:46:48.581 - 55 0A 31 00 00 00 01 91 55 0A 31 00 00 00 02 92 (厨房顶灯一关, 厨房顶灯二关)
2024-09-16 21:53:50.050 - 19 08 24 03 CC 01 CC 00 01 (调用茶吧感应灯开的按键)
2024-09-16 21:53:50.082 - 1A AA AA AA 88 FF B0 01 FF B0 01 0F (调光器地址-茶吧灯带, 茶吧灯带明亮)
2024-09-16 21:53:52.381 - 19 08 24 03 CC 00 D3 00 01 (调用厨房感应灯开的按键)
2024-09-16 21:53:52.416 - 55 0A 32 00 00 00 01 92 55 0A 32 00 00 00 02 93 (厨房顶灯一开, 厨房顶灯二开)
2024-09-16 21:54:02.575 - 19 08 24 03 CC 01 CD 00 01 (调用茶吧感应灯关的按键)
2024-09-16 21:54:02.606 - 1A AA AA AA 88 FF 00 01 FF 00 01 0F (调光器地址-茶吧灯带, 茶吧灯带关闭)
2024-09-16 21:55:59.807 - 19 08 24 03 CC 01 CC 00 01 (调用茶吧感应灯开的按键)
2024-09-16 21:55:59.838 - 1A AA AA AA 88 FF B0 01 FF B0 01 0F (调光器地址-茶吧灯带, 茶吧灯带明亮)
2024-09-16 21:56:13.335 - 19 08 24 03 CC 01 CD 00 01 (调用茶吧感应灯关的按键)
2024-09-16 21:56:13.365 - 1A AA AA AA 88 FF 00 01 FF 00 01 0F (调光器地址-茶吧灯带, 茶吧灯带关闭)
2024-09-16 21:56:34.126 - 1A FF FF FF 04 00 01 03 (继电器地址-东阳衣架, 东阳衣架负离开关)
2024-09-16 21:56:35.371 - FF
2024-09-16 21:56:38.207 - 19 08 24 03 CC 00 D4 00 01 (调用厨房感应灯关的按键)
2024-09-16 21:56:38.260 - 55 0A 31 00 00 00 01 91 55 0A 31 00 00 00 02 92 (厨房顶灯一关, 厨房顶灯二关)
2024-09-16 21:56:43.723 - 19 08 24 03 DD 00 42 00 01 (调用情景-主卧电视空调)
2024-09-16 21:56:44.287 - EE 00 00 B1 00 00 00 FF FC FF FF (情景执行提示)
2024-09-16 21:56:44.883 - 09 06 00 0F 02 01 78 21 (提示音叮)
2024-09-16 21:56:45.426 - 50 F0 05 (开主卧影视)
2024-09-16 21:56:46.521 - 50 F0 04 (开内卫影视)
2024-09-16 21:56:47.127 - 19 08 E4 1A FF FF FF 56 00 00 00 0F (人体感应地址-内卫, 关闭内卫感应)
2024-09-16 21:56:47.724 - 1A 22 33 62 0F 00 02 01 0F (正反转地址-内卫卷帘, 内卫卷帘降)
2024-09-16 21:56:48.268 - A5 00 53 FE 01 AA (主卧纱帘关)
2024-09-16 21:56:48.327 - 55 00 53 02 02 22 02 30 AA 55 00 53 02 02 22 02 FE (主卧纱帘电机状态返回)
2024-09-16 21:56:49.367 - A5 00 52 FF 00 AA (主卧窗帘关)
2024-09-16 21:56:50.422 - 1A 0C 02 04 FF FF 45 01 FF 45 01 FF 00 00 0F (主卧调光微光)
2024-09-16 21:56:54.508 - 1A 0C 02 08 01 FF 45 01 FF 45 01 FF 00 00 0F (调光器地址-内卫射灯, 内卫射灯微光)
2024-09-16 21:56:55.095 - 50 F1 25 (主卧—有线2)
2024-09-16 21:56:55.644 - A1 11 11 11 42 (主卧空调自动开)
2024-09-16 21:56:55.869 - 19 08 24 03 F0 BB 78 02 02 00
2024-09-16 21:56:55.921 - 23 AA 56 02 15 38 38 18 09 10 01 73 65 6F 6B 65 6E 64
2024-09-16 21:56:56.190 - 50 F1 24 (内卫—有线2)
2024-09-16 21:56:56.878 - 01 10 07 D6 00 03 06 70 61 00 02 00 F0 0F 3E (主卧空调冷24度)
2024-09-16 21:56:56.921 - 01 10 07 D6 00 03 06 70 61 00 02 00 F0 0F 3E (主卧空调冷24度)
2024-09-16 21:56:58.236 - AF BF CF DF C2 21 (有线2/快捷-凤凰卫视)
2024-09-16 21:56:59.099 - 55 00 53 00 00 0B 02 30 AA 55 00 53 00 00 0B 02 30 AA (主卧纱帘电机状态返回)
2024-09-16 21:57:00.282 - 1A FF FF FF 60 0B 01 01 0F (红外总线地址-主卧发射设备, 主卧电视电源)
2024-09-16 21:57:00.798 - F0 0B 01 08
2024-09-16 21:57:01.544 - 55 20 20 00 02 09 02 16 AA 55 20 20 00 02 09 02 16 AA (主卧窗帘电机状态返回)
2024-09-16 21:57:08.309 - 09 06 00 0F 02 02 38 20 (提示音咚)
2024-09-16 21:57:08.910 - EE 00 00 B1 00 00 02 FF FC FF FF (情景完成返回主页)
2024-09-16 21:57:16.180 - 19 08 24 03 CC 01 55 00 01 (调用内卫感应灯关的按键)
2024-09-16 21:57:16.234 - 1A 0C 02 08 01 FF 00 01 FF 00 01 FF 00 00 0F (调光器地址-内卫射灯, 内卫感应灯关)
2024-09-16 21:57:21.733 - 19 08 24 03 DD 00 3A 00 01 (调用情景-离开书房)
2024-09-16 21:57:22.266 - EE 00 00 B1 00 00 00 FF FC FF FF (情景执行提示)
2024-09-16 21:57:22.861 - 09 06 00 0F 02 01 78 21 (提示音叮)
2024-09-16 21:57:23.410 - 01 06 07 DC FF 60 08 9C (书房空调关)
2024-09-16 21:57:23.443 - 01 06 07 DC FF 60 08 9C (书房空调关)
2024-09-16 21:57:24.003 - 50 F5 07 (关书房影视)
2024-09-16 21:57:24.605 - A5 00 D2 FE 01 AA 22 0D (书房窗帘开)
2024-09-16 21:57:24.657 - 55 00 D2 02 00 FE 01 0B AA 55 00 D2 02 00 FE 01 0B AA (书房窗帘电机状态返回)
2024-09-16 21:57:25.703 - A5 00 B7 FF 00 AA 22 0D (书房纱帘关)
2024-09-16 21:57:26.749 - 55 0D 31 00 00 00 01 94 (书房顶灯只关)
2024-09-16 21:57:27.803 - 1A 0A 04 06 01 FF 00 01 FF 00 01 FF 00 00 0F (调光器地址-书房射灯, 书房射灯关闭)
2024-09-16 21:57:31.881 - 09 06 00 0F 02 02 38 20 (提示音咚)
2024-09-16 21:57:31.947 - 55 00 D2 00 00 0D 01 0B AA 55 00 D2 00 00 0D 01 0B AA (书房窗帘电机状态返回)
2024-09-16 21:57:32.482 - EE 00 00 B1 00 00 02 FF FC FF FF (情景完成返回主页)
2024-09-16 21:57:37.020 - 19 08 24 03 CC 01 CC 00 01 (调用茶吧感应灯开的按键)
2024-09-16 21:57:37.070 - 1A AA AA AA 88 FF B0 01 FF B0 01 0F (调光器地址-茶吧灯带, 茶吧灯带明亮)
2024-09-16 21:57:50.046 - 19 08 24 03 CC 01 CD 00 01 (调用茶吧感应灯关的按键)
2024-09-16 21:57:50.076 - 1A AA AA AA 88 FF 00 01 FF 00 01 0F (调光器地址-茶吧灯带, 茶吧灯带关闭)
2024-09-16 21:57:52.252 - 19 08 24 03 CC 01 54 00 01 (调用内卫感应灯开的按键)
2024-09-16 21:57:52.285 - 1A 0C 02 08 01 FF 45 01 FF 45 01 FF 00 00 0F (调光器地址-内卫射灯, 内卫射灯微光)
2024-09-16 21:59:19.551 - 1A 22 33 62 0F 00 00 01 0F (正反转地址-内卫卷帘, 内卫卷帘升)
2024-09-16 21:59:24.816 - 1A 22 33 62 0F 00 02 01 0F (正反转地址-内卫卷帘, 内卫卷帘降)
2024-09-16 22:07:27.482 - FF
2024-09-16 22:09:56.415 - 1A 22 33 62 0F 00 00 01 0F (正反转地址-内卫卷帘, 内卫卷帘升)
2024-09-16 22:11:58.960 - 1A 20 07 00 93 00 01 02 0F (自保持开关地址-设备区顶, 设备区顶灯开关)
2024-09-16 22:12:46.011 - 19 08 24 03 CC 01 55 00 01 (调用内卫感应灯关的按键)
2024-09-16 22:12:46.047 - 1A 0C 02 08 01 FF 00 01 FF 00 01 FF 00 00 0F (调光器地址-内卫射灯, 内卫感应灯关)
2024-09-16 22:14:20.197 - 19 08 24 03 CC 01 54 00 01 (调用内卫感应灯开的按键)
2024-09-16 22:14:20.231 - 1A 0C 02 08 01 FF 45 01 FF 45 01 FF 00 00 0F (调光器地址-内卫射灯, 内卫射灯微光)
2024-09-16 22:14:45.749 - 19 08 24 03 CC 01 55 00 01 (调用内卫感应灯关的按键)
2024-09-16 22:14:45.783 - 1A 0C 02 08 01 FF 00 01 FF 00 01 FF 00 00 0F (调光器地址-内卫射灯, 内卫感应灯关)
2024-09-16 22:18:37.704 - 19 08 24 03 CC 01 54 00 01 (调用内卫感应灯开的按键)
2024-09-16 22:18:37.739 - 1A 0C 02 08 01 FF 45 01 FF 45 01 FF 00 00 0F (调光器地址-内卫射灯, 内卫射灯微光)
2024-09-16 22:19:05.259 - 19 08 24 03 CC 01 55 00 01 (调用内卫感应灯关的按键)
2024-09-16 22:19:05.293 - 1A 0C 02 08 01 FF 00 01 FF 00 01 FF 00 00 0F (调光器地址-内卫射灯, 内卫感应灯关)
2024-09-16 22:19:31.310 - 19 08 24 03 CC 01 54 00 01 (调用内卫感应灯开的按键)
2024-09-16 22:19:31.343 - 1A 0C 02 08 01 FF 45 01 FF 45 01 FF 00 00 0F (调光器地址-内卫射灯, 内卫射灯微光)
2024-09-16 22:19:48.844 - 19 08 24 03 CC 01 55 00 01 (调用内卫感应灯关的按键)
2024-09-16 22:19:48.879 - 1A 0C 02 08 01 FF 00 01 FF 00 01 FF 00 00 0F (调光器地址-内卫射灯, 内卫感应灯关)
2024-09-16 22:20:46.959 - 19 08 24 03 CC 01 54 00 01 (调用内卫感应灯开的按键)
2024-09-16 22:20:46.993 - 1A 0C 02 08 01 FF 45 01 FF 45 01 FF 00 00 0F (调光器地址-内卫射灯, 内卫射灯微光)
2024-09-16 22:21:04.494 - 19 08 24 03 CC 01 55 00 01 (调用内卫感应灯关的按键)
2024-09-16 22:21:04.528 - 1A 0C 02 08 01 FF 00 01 FF 00 01 FF 00 00 0F (调光器地址-内卫射灯, 内卫感应灯关)
2024-09-16 22:27:29.752 - 19 08 24 03 CC 01 54 00 01 (调用内卫感应灯开的按键)
2024-09-16 22:27:29.785 - 1A 0C 02 08 01 FF 45 01 FF 45 01 FF 00 00 0F (调光器地址-内卫射灯, 内卫射灯微光)
2024-09-16 22:28:16.343 - 19 08 24 03 CC 01 55 00 01 (调用内卫感应灯关的按键)
2024-09-16 22:28:16.377 - 1A 0C 02 08 01 FF 00 01 FF 00 01 FF 00 00 0F (调光器地址-内卫射灯, 内卫感应灯关)
2024-09-16 22:29:56.541 - 19 08 24 03 CC 01 54 00 01 (调用内卫感应灯开的按键)
2024-09-16 22:29:56.574 - 1A 0C 02 08 01 FF 45 01 FF 45 01 FF 00 00 0F (调光器地址-内卫射灯, 内卫射灯微光)
2024-09-16 22:30:22.091 - 19 08 24 03 CC 01 55 00 01 (调用内卫感应灯关的按键)
2024-09-16 22:30:22.124 - 1A 0C 02 08 01 FF 00 01 FF 00 01 FF 00 00 0F (调光器地址-内卫射灯, 内卫感应灯关)
2024-09-16 22:31:11.823 - FF
2024-09-16 22:31:44.252 - 19 08 24 03 CC 01 54 00 01 (调用内卫感应灯开的按键)
2024-09-16 22:31:44.304 - 1A 0C 02 08 01 FF 45 01 FF 45 01 FF 00 00 0F (调光器地址-内卫射灯, 内卫射灯微光)
2024-09-16 22:32:22.327 - 19 08 24 03 CC 01 55 00 01 (调用内卫感应灯关的按键)
2024-09-16 22:32:22.380 - 1A 0C 02 08 01 FF 00 01 FF 00 01 FF 00 00 0F (调光器地址-内卫射灯, 内卫感应灯关)
2024-09-16 22:32:33.349 - 19 08 24 03 CC 01 54 00 01 (调用内卫感应灯开的按键)
2024-09-16 22:32:33.384 - 1A 0C 02 08 01 FF 45 01 FF 45 01 FF 00 00 0F (调光器地址-内卫射灯, 内卫射灯微光)
2024-09-16 22:32:45.560 - 1A 20 07 00 93 00 01 02 0F (自保持开关地址-设备区顶, 设备区顶灯开关)
2024-09-16 22:32:46.313 - 1A 22 33 62 0F 00 02 01 0F (正反转地址-内卫卷帘, 内卫卷帘降)
2024-09-16 22:32:52.905 - FF
2024-09-16 22:34:34.397 - 19 08 24 03 CC 01 CC 00 01 (调用茶吧感应灯开的按键)
2024-09-16 22:34:34.445 - 1A AA AA AA 88 FF B0 01 FF B0 01 0F (调光器地址-茶吧灯带, 茶吧灯带明亮)
2024-09-16 22:34:36.704 - 19 08 24 03 CC 00 D3 00 01 (调用厨房感应灯开的按键)
2024-09-16 22:34:36.757 - 55 0A 32 00 00 00 01 92 55 0A 32 00 00 00 02 93 (厨房顶灯一开, 厨房顶灯二开)
2024-09-16 22:34:43.105 - 19 08 24 03 CC 01 55 00 01 (调用内卫感应灯关的按键)
2024-09-16 22:34:43.139 - 1A 0C 02 08 01 FF 00 01 FF 00 01 FF 00 00 0F (调光器地址-内卫射灯, 内卫感应灯关)
2024-09-16 22:34:46.421 - 19 08 24 03 CC 01 CD 00 01 (调用茶吧感应灯关的按键)
2024-09-16 22:34:46.452 - 1A AA AA AA 88 FF 00 01 FF 00 01 0F (调光器地址-茶吧灯带, 茶吧灯带关闭)
2024-09-16 22:36:17.791 - 19 08 24 03 CC 01 54 00 01 (调用内卫感应灯开的按键)
2024-09-16 22:36:17.825 - 1A 0C 02 08 01 FF 45 01 FF 45 01 FF 00 00 0F (调光器地址-内卫射灯, 内卫射灯微光)
2024-09-16 22:36:43.341 - 19 08 24 03 CC 01 55 00 01 (调用内卫感应灯关的按键)
2024-09-16 22:36:43.394 - 1A 0C 02 08 01 FF 00 01 FF 00 01 FF 00 00 0F (调光器地址-内卫射灯, 内卫感应灯关)
2024-09-16 22:36:46.660 - 19 08 24 03 CC 01 CC 00 01 (调用茶吧感应灯开的按键)
2024-09-16 22:36:46.690 - 1A AA AA AA 88 FF B0 01 FF B0 01 0F (调光器地址-茶吧灯带, 茶吧灯带明亮)
2024-09-16 22:37:25.536 - 19 08 24 03 CC 00 D4 00 01 (调用厨房感应灯关的按键)
2024-09-16 22:37:25.571 - 55 0A 31 00 00 00 01 91 55 0A 31 00 00 00 02 92 (厨房顶灯一关, 厨房顶灯二关)
2024-09-16 22:37:55.094 - 19 08 24 03 CC 00 D3 00 01 (调用厨房感应灯开的按键)
2024-09-16 22:37:55.129 - 55 0A 32 00 00 00 01 92 55 0A 32 00 00 00 02 93 (厨房顶灯一开, 厨房顶灯二开)
2024-09-16 22:38:11.326 - 19 08 24 03 CC 01 CD 00 01 (调用茶吧感应灯关的按键)
2024-09-16 22:38:11.358 - 1A AA AA AA 88 FF 00 01 FF 00 01 0F (调光器地址-茶吧灯带, 茶吧灯带关闭)
2024-09-16 22:38:14.832 - 19 08 24 03 CC 01 CC 00 01 (调用茶吧感应灯开的按键)
2024-09-16 22:38:14.865 - 1A AA AA AA 88 FF B0 01 FF B0 01 0F (调光器地址-茶吧灯带, 茶吧灯带明亮)
2024-09-16 22:38:59.721 - 19 08 24 03 CC 00 D4 00 01 (调用厨房感应灯关的按键)
2024-09-16 22:38:59.757 - 55 0A 31 00 00 00 01 91 55 0A 31 00 00 00 02 92 (厨房顶灯一关, 厨房顶灯二关)
2024-09-16 22:39:19.962 - 19 08 24 03 CC 01 CD 00 01 (调用茶吧感应灯关的按键)
2024-09-16 22:39:19.993 - 1A AA AA AA 88 FF 00 01 FF 00 01 0F (调光器地址-茶吧灯带, 茶吧灯带关闭)
2024-09-16 22:39:21.740 - 19 08 24 03 DD 00 13 00 01 (调用情景-公共区域关)
2024-09-16 22:39:22.267 - EE 00 00 B1 00 00 00 FF FC FF FF (情景执行提示)
2024-09-16 22:39:22.862 - 09 06 00 0F 02 01 78 21 (提示音叮)
2024-09-16 22:39:23.409 - 55 0B 31 00 00 00 01 92 (厨房风扇只关)
2024-09-16 22:39:24.456 - 01 06 07 D3 FF 60 38 9F (餐厅空调关)
2024-09-16 22:39:24.492 - 01 06 07 D3 FF 60 38 9F (餐厅空调关)
2024-09-16 22:39:25.552 - 01 06 07 D0 FF 60 C8 9F (客厅空调关)
2024-09-16 22:39:25.584 - 01 06 07 D0 FF 60 C8 9F (客厅空调关)
2024-09-16 22:39:29.687 - 50 F5 02 (关厨房影视)
2024-09-16 22:39:30.755 - 50 F5 01 (关餐厅影视)
2024-09-16 22:39:31.802 - 50 F5 08 (关客厅影视)
2024-09-16 22:39:32.848 - 50 F5 03 (关外卫影视)
2024-09-16 22:39:33.900 - 55 0A 31 00 00 00 01 91 (厨房顶灯一关)
2024-09-16 22:39:34.946 - 55 0A 31 00 00 00 02 92 (厨房顶灯二关)
2024-09-16 22:39:35.992 - 55 0C 31 00 00 00 01 93 (餐厅顶灯关)
2024-09-16 22:39:37.041 - 1A 18 05 10 31 00 01 00 0F (自保持开关地址-门厅顶灯, 门厅顶灯关)
2024-09-16 22:39:38.087 - 1A 20 07 00 42 00 01 00 0F (自保持开关地址-外卫顶灯, 外卫顶灯关)
2024-09-16 22:39:39.134 - 1A 18 05 21 89 00 01 00 0F (自保持开关地址-客厅顶灯, 客厅顶灯一关)
2024-09-16 22:39:40.180 - 1A 18 05 01 94 00 01 00 0F (自保持开关地址-客厅顶灯, 客厅顶灯二关)
2024-09-16 22:39:41.226 - 1A 20 07 01 30 00 01 00 0F (自保持开关地址-西阳顶灯, 西阳顶灯关)
2024-09-16 22:39:42.279 - 1A FF 01 FF FF FF 00 01 FF 00 01 FF 00 00 0F (调光器地址-公共区域统配地址, 公共区域灯光全关)
2024-09-16 22:39:43.368 - 09 06 00 0F 02 02 38 20 (提示音咚)
2024-09-16 22:39:45.414 - EE 00 00 B1 00 00 02 FF FC FF FF (情景完成返回主页)
2024-09-16 22:39:47.713 - 19 08 24 03 CC 01 54 00 01 (调用内卫感应灯开的按键)
2024-09-16 22:39:47.766 - 1A 0C 02 08 01 FF 45 01 FF 45 01 FF 00 00 0F (调光器地址-内卫射灯, 内卫射灯微光)
2024-09-16 22:45:46.283 - 19 08 24 03 DD 00 4F 00 01 (调用情景-内卫使用完毕)
2024-09-16 22:45:46.804 - EE 00 00 B1 00 00 00 FF FC FF FF (情景执行提示)
2024-09-16 22:45:47.399 - 09 06 00 0F 02 01 78 21 (提示音叮)
2024-09-16 22:45:48.005 - 1A 0C 02 08 01 FF 00 01 FF 00 01 FF 00 00 0F (调光器地址-内卫射灯, 内卫感应灯关)
2024-09-16 22:45:52.079 - 50 F5 04 (关内卫影视)
2024-09-16 22:45:52.632 - 1A 20 07 01 40 00 01 00 0F (自保持开关地址-内卫顶灯, 内卫顶灯关)
2024-09-16 22:45:53.231 - 1A FF FF FF 56 00 00 01 0F (人体感应地址-内卫, 打开内卫感应)
2024-09-16 22:45:53.244 - BC BC
2024-09-16 22:45:55.824 - 09 06 00 0F 02 02 38 20 (提示音咚)
2024-09-16 22:45:56.376 - EE 00 00 B1 00 00 02 FF FC FF FF (情景完成返回主页)
2024-09-16 22:46:14.377 - 1A 20 07 01 40 00 01 01 0F (自保持开关地址-内卫顶灯, 内卫顶灯开)
2024-09-16 22:48:03.593 - 1A 20 07 01 40 00 01 00 0F (自保持开关地址-内卫顶灯, 内卫顶灯关)
2024-09-16 22:48:28.778 - 19 08 24 03 CC 00 C0 00 01
2024-09-16 22:48:28.811 - 1A 0C 02 08 01 FF 45 01 FF 45 01 FF 00 00 0F (调光器地址-内卫射灯, 内卫射灯微光)
2024-09-16 22:51:24.085 - 19 08 24 03 CC 01 55 00 01 (调用内卫感应灯关的按键)
2024-09-16 22:51:24.121 - 1A 0C 02 08 01 FF 00 01 FF 00 01 FF 00 00 0F (调光器地址-内卫射灯, 内卫感应灯关)
2024-09-16 22:53:03.280 - 19 08 24 03 CC 01 54 00 01 (调用内卫感应灯开的按键)
2024-09-16 22:53:03.315 - 1A 0C 02 08 01 FF 45 01 FF 45 01 FF 00 00 0F (调光器地址-内卫射灯, 内卫射灯微光)
2024-09-16 22:53:28.831 - 19 08 24 03 CC 01 55 00 01 (调用内卫感应灯关的按键)
2024-09-16 22:53:28.866 - 1A 0C 02 08 01 FF 00 01 FF 00 01 FF 00 00 0F (调光器地址-内卫射灯, 内卫感应灯关)
2024-09-16 23:02:23.201 - FF
2024-09-16 23:08:21.286 - 1A FF FF FF 04 (继电器地址-东阳衣架)
2024-09-16 23:13:50.830 - FF
2024-09-16 23:15:24.316 - FF
2024-09-16 23:17:29.760 - FF
2024-09-16 23:18:36.734 - FF
2024-09-16 23:48:37.014 - FF
2024-09-16 23:59:00.658 - FF
2024-09-17 00:15:09.008 - FF
2024-09-17 00:22:03.294 - 19 08 24 03 CC 01 54 00 01 (调用内卫感应灯开的按键)
2024-09-17 00:22:03.348 - 1A 0C 02 08 01 FF 45 01 FF 45 01 FF 00 00 0F (调光器地址-内卫射灯, 内卫射灯微光)
2024-09-17 00:23:54.513 - 19 08 24 03 CC 01 55 00 01 (调用内卫感应灯关的按键)
2024-09-17 00:23:54.547 - 1A 0C 02 08 01 FF 00 01 FF 00 01 FF 00 00 0F (调光器地址-内卫射灯, 内卫感应灯关)
2024-09-17 00:25:02.146 - 19 08 24 03 CC 01 54 00 01 (调用内卫感应灯开的按键)
2024-09-17 00:25:02.179 - 1A 0C 02 08 01 FF 45 01 FF 45 01 FF 00 00 0F (调光器地址-内卫射灯, 内卫射灯微光)
2024-09-17 00:25:28.197 - 19 08 24 03 CC 01 55 00 01 (调用内卫感应灯关的按键)
2024-09-17 00:25:28.231 - 1A 0C 02 08 01 FF 00 01 FF 00 01 FF 00 00 0F (调光器地址-内卫射灯, 内卫感应灯关)
2024-09-17 00:26:47.851 - 19 08 24 03 DD 00 4B 00 01 (调用情景-主卧睡觉)
2024-09-17 00:26:48.384 - EE 00 00 B1 00 00 00 FF FC FF FF (情景执行提示)
2024-09-17 00:26:48.979 - 09 06 00 0F 02 01 78 21 (提示音叮)
2024-09-17 00:26:49.522 - 50 F5 04 (关内卫影视)
2024-09-17 00:26:50.072 - A5 00 53 FE 01 AA (主卧纱帘关)
2024-09-17 00:26:51.118 - A5 00 52 FF 00 AA (主卧窗帘关)
2024-09-17 00:26:52.169 - 1A 22 33 62 0F 00 02 01 0F (正反转地址-内卫卷帘, 内卫卷帘降)
2024-09-17 00:26:53.216 - 1A 20 07 01 40 00 01 00 0F (自保持开关地址-内卫顶灯, 内卫顶灯关)
2024-09-17 00:26:54.262 - 1A 20 07 01 55 00 01 00 0F (自保持开关地址-主卧顶灯, 主卧顶灯只关)
2024-09-17 00:26:54.809 - 1A FF FF FF 56 00 00 01 0F (人体感应地址-内卫, 打开内卫感应)
2024-09-17 00:26:54.823 - BC BC
2024-09-17 00:26:58.407 - 1A 0C 02 08 01 FF 00 01 FF 00 01 FF 00 00 0F (调光器地址-内卫射灯, 内卫感应灯关)
2024-09-17 00:26:59.004 - 1A 0C 02 04 01 FF 00 01 FF 00 01 FF 00 00 0F (调光器地址-主卧筒灯, 主卧筒灯关闭)
2024-09-17 00:26:59.602 - 1A 0C 02 04 03 FF 00 01 FF 00 01 FF 00 00 0F (调光器地址-主卧灯带, 主卧灯带关闭)
2024-09-17 00:27:00.202 - 1A 0C 02 04 04 FF 00 01 FF 00 01 FF 00 00 0F (调光器地址-主卧南阅, 主卧南阅关闭)
2024-09-17 00:27:00.799 - 1A 0C 02 04 05 FF 00 01 FF 00 01 FF 00 00 0F (调光器地址-主卧北阅, 主卧北阅关闭)
2024-09-17 00:27:01.397 - 1A 0C 02 04 02 FF 00 01 FF 00 01 FF 00 00 0F (调光器地址-主卧过道, 主卧过道关闭)
2024-09-17 00:27:01.987 - 09 06 00 0F 02 02 38 20 (提示音咚)
2024-09-17 00:27:02.589 - EE 00 00 B1 00 00 02 FF FC FF FF (情景完成返回主页)
2024-09-17 00:31:58.204 - FF
2024-09-17 00:38:21.110 - FF
2024-09-17 00:45:49.405 - 1A BE B0 DC 04 FC (继电器地址-西阳窗帘)
2024-09-17 00:45:49.538 - FF
2024-09-17 00:46:50.532 - FF FF FF FF 0E (继电器地址-西阳小窗帘)
2024-09-17 00:50:51.613 - 1A BE B0 DC 09 (继电器地址-客厅窗帘)
2024-09-17 00:50:51.748 - FF
2024-09-17 00:53:52.250 - 1A BE B0 DC 02 FD (正反转地址-外卫卷帘)
2024-09-17 00:56:52.442 - 1A BE B0 DC 0A (继电器地址-客厅纱帘)
2024-09-17 00:56:52.578 - FF
2024-09-17 00:56:54.638 - 1A BE B0 DC 01 FD (继电器地址-回水泵点动)
2024-09-17 00:56:54.773 - FF
2024-09-17 00:58:55.418 - 1A BE B0 DC 03 FC (继电器地址-西阳天幕)
2024-09-17 01:09:42.431 - FF FF FF FF 0A (继电器地址-东阳窗帘)
2024-09-17 01:09:42.566 - FE
2024-09-17 01:37:51.248 - 19 08 24 03 CC 01 54 00 01 (调用内卫感应灯开的按键)
2024-09-17 01:37:51.299 - 1A 0C 02 08 01 FF 45 01 FF 45 01 FF 00 00 0F (调光器地址-内卫射灯, 内卫射灯微光)
2024-09-17 01:40:31.563 - 19 08 24 03 CC 01 55 00 01 (调用内卫感应灯关的按键)
2024-09-17 01:40:31.615 - 1A 0C 02 08 01 FF 00 01 FF 00 01 FF 00 00 0F (调光器地址-内卫射灯, 内卫感应灯关)
2024-09-17 01:41:37.192 - 19 08 24 03 CC 01 54 00 01 (调用内卫感应灯开的按键)
2024-09-17 01:41:37.225 - 1A 0C 02 08 01 FF 45 01 FF 45 01 FF 00 00 0F (调光器地址-内卫射灯, 内卫射灯微光)
2024-09-17 01:42:02.742 - 19 08 24 03 CC 01 55 00 01 (调用内卫感应灯关的按键)
2024-09-17 01:42:02.776 - 1A 0C 02 08 01 FF 00 01 FF 00 01 FF 00 00 0F (调光器地址-内卫射灯, 内卫感应灯关)
2024-09-17 01:54:00.907 - FF
2024-09-17 02:03:22.506 - 53 53 48 2D 32 2E 30 2D 4F 70 65 6E 53 53 48 0D 0A
2024-09-17 02:21:30.198 - FF
2024-09-17 02:29:18.604 - 1A FF FF FF 04 (继电器地址-东阳衣架)
2024-09-17 03:00:00.287 - 50 F7 01 (全屋影音全关)
2024-09-17 03:11:20.789 - 19 08 24 03 CC 01 54 00 01 (调用内卫感应灯开的按键)
2024-09-17 03:11:20.841 - 1A 0C 02 08 01 FF 45 01 FF 45 01 FF 00 00 0F (调光器地址-内卫射灯, 内卫射灯微光)
2024-09-17 03:13:31.547 - 19 08 24 03 CC 01 55 00 01 (调用内卫感应灯关的按键)
2024-09-17 03:13:31.600 - 1A 0C 02 08 01 FF 00 01 FF 00 01 FF 00 00 0F (调光器地址-内卫射灯, 内卫感应灯关)
2024-09-17 03:14:36.675 - 19 08 24 03 CC 01 54 00 01 (调用内卫感应灯开的按键)
2024-09-17 03:14:36.709 - 1A 0C 02 08 01 FF 45 01 FF 45 01 FF 00 00 0F (调光器地址-内卫射灯, 内卫射灯微光)
2024-09-17 03:15:02.226 - 19 08 24 03 CC 01 55 00 01 (调用内卫感应灯关的按键)
2024-09-17 03:15:02.258 - 1A 0C 02 08 01 FF 00 01 FF 00 01 FF 00 00 0F (调光器地址-内卫射灯, 内卫感应灯关)
2024-09-17 03:53:55.318 - 19 08 24 03 CC 01 54 00 01 (调用内卫感应灯开的按键)
2024-09-17 03:53:55.353 - 1A 0C 02 08 01 FF 45 01 FF 45 01 FF 00 00 0F (调光器地址-内卫射灯, 内卫射灯微光)
2024-09-17 03:54:20.368 - 19 08 24 03 CC 01 55 00 01 (调用内卫感应灯关的按键)
2024-09-17 03:54:20.402 - 1A 0C 02 08 01 FF 00 01 FF 00 01 FF 00 00 0F (调光器地址-内卫射灯, 内卫感应灯关)
2024-09-17 03:55:03.520 - 19 08 24 03 CC 00 D3 00 01 (调用厨房感应灯开的按键)
2024-09-17 03:55:03.555 - 55 0A 32 00 00 00 01 92 55 0A 32 00 00 00 02 93 (厨房顶灯一开, 厨房顶灯二开)
2024-09-17 03:55:39.088 - 19 08 24 03 CC 00 D4 00 01 (调用厨房感应灯关的按键)
2024-09-17 03:55:39.124 - 55 0A 31 00 00 00 01 91 55 0A 31 00 00 00 02 92 (厨房顶灯一关, 厨房顶灯二关)
2024-09-17 03:55:59.564 - 19 08 24 03 CC 01 54 00 01 (调用内卫感应灯开的按键)
2024-09-17 03:55:59.598 - 1A 0C 02 08 01 FF 45 01 FF 45 01 FF 00 00 0F (调光器地址-内卫射灯, 内卫射灯微光)
2024-09-17 03:56:26.116 - 19 08 24 03 CC 01 55 00 01 (调用内卫感应灯关的按键)
2024-09-17 03:56:26.149 - 1A 0C 02 08 01 FF 00 01 FF 00 01 FF 00 00 0F (调光器地址-内卫射灯, 内卫感应灯关)
2024-09-17 04:05:35.978 - 1A BE B0 DC 04 FC (继电器地址-西阳窗帘)
2024-09-17 04:06:50.520 - FF FF FF FF 0E FC (继电器地址-西阳小窗帘)
2024-09-17 04:06:50.655 - FF
2024-09-17 04:11:11.447 - 1A BE B0 DC 09 (继电器地址-客厅窗帘)
2024-09-17 04:11:11.582 - FF
2024-09-17 04:14:21.204 - 1A BE B0 DC 02 FD (正反转地址-外卫卷帘)
2024-09-17 04:17:26.493 - 1A BE B0 DC 0A (继电器地址-客厅纱帘)
2024-09-17 04:17:26.628 - FF
2024-09-17 04:17:42.867 - 1A BE B0 DC 01 FC (继电器地址-回水泵点动)
2024-09-17 04:17:43.002 - FF
2024-09-17 04:19:48.236 - 1A BE B0 DC 03 (继电器地址-西阳天幕)
2024-09-17 04:19:48.372 - FF
2024-09-17 04:29:52.170 - FF FF FF FF 0A (继电器地址-东阳窗帘)
2024-09-17 04:29:52.304 - FF
2024-09-17 04:50:00.538 - EE 00 00 B1 00 00 00 FF FC FF FF (情景执行提示)
2024-09-17 04:50:01.130 - A5 00 A2 FF 00 AA (餐厅纱帘关)
2024-09-17 04:50:02.228 - A5 00 A6 FF 00 AA (餐厅窗帘关)
2024-09-17 04:50:02.284 - 55 00 A6 01 00 0E 01 74 AA 55 00 A6 01 00 0E 01 F4 (餐厅窗帘电机状态返回)
2024-09-17 04:50:03.353 - A5 00 B7 FF 00 AA 22 0D (书房纱帘关)
2024-09-17 04:50:04.421 - A5 00 D2 FF 00 AA 22 0C (书房窗帘关)
2024-09-17 04:50:04.476 - 55 00 D2 01 00 0D 01 0B AA 55 00 D2 01 00 0D 01 0B AA (书房窗帘电机状态返回)
2024-09-17 04:50:05.520 - EE 00 00 B1 00 00 02 FF FC FF FF (情景完成返回主页)
2024-09-17 04:50:11.090 - 55 00 A6 00 01 66 01 74 AA 55 00 A6 00 01 66 01 74 AA (餐厅窗帘电机状态返回)
2024-09-17 04:50:14.398 - 55 00 D2 00 00 FE 01 0B AA 55 00 D2 00 00 FE 01 0B AA (书房窗帘电机状态返回)
2024-09-17 05:08:28.681 - 19 08 24 03 CC 00 D3 00 01 (调用厨房感应灯开的按键)
2024-09-17 05:08:28.734 - 55 0A 32 00 00 00 01 92 55 0A 32 00 00 00 02 93 (厨房顶灯一开, 厨房顶灯二开)
2024-09-17 05:09:04.252 - 19 08 24 03 CC 00 D4 00 01 (调用厨房感应灯关的按键)
2024-09-17 05:09:04.288 - 55 0A 31 00 00 00 01 91 55 0A 31 00 00 00 02 92 (厨房顶灯一关, 厨房顶灯二关)
2024-09-17 05:29:37.677 - 19 08 24 03 CC 00 D3 00 01 (调用厨房感应灯开的按键)
2024-09-17 05:29:37.711 - 55 0A 32 00 00 00 01 92 55 0A 32 00 00 00 02 93 (厨房顶灯一开, 厨房顶灯二开)
2024-09-17 05:30:13.247 - 19 08 24 03 CC 00 D4 00 01 (调用厨房感应灯关的按键)
2024-09-17 05:30:13.281 - 55 0A 31 00 00 00 01 91 55 0A 31 00 00 00 02 92 (厨房顶灯一关, 厨房顶灯二关)
2024-09-17 05:50:16.586 - 1A FF FF FF 04 FE (继电器地址-东阳衣架)
2024-09-17 05:50:16.721 - FF
2024-09-17 06:10:11.362 - FF
2024-09-17 06:29:48.800 - EE 00 00 B1 00 00 00 FF FC FF FF (情景执行提示)
2024-09-17 06:29:49.498 - 09 06 00 0F 02 01 78 21 (提示音叮)
2024-09-17 06:29:50.194 - 50 F0 04 (开内卫影视)
2024-09-17 06:29:50.945 - 50 F0 04 (开内卫影视)
2024-09-17 06:29:51.647 - 50 F0 05 (开主卧影视)
2024-09-17 06:29:52.347 - 50 F0 05 (开主卧影视)
2024-09-17 06:29:53.104 - FF FF FF FF 09 00 01 00
2024-09-17 06:29:53.803 - FF FF FF FF 08 00 01 00
2024-09-17 06:29:54.505 - FF FF FF FF 08 00 01 00
2024-09-17 06:29:55.257 - 1A 22 33 62 0F 00 02 01 0F (正反转地址-内卫卷帘, 内卫卷帘降)
2024-09-17 06:29:55.957 - 1A FF FF FF 56 0C 00 01 (人体感应地址-内卫)
2024-09-17 06:29:56.188 - 1A FF FF FF 56 00 00 00 0F (人体感应地址-内卫, 关闭内卫感应)
2024-09-17 06:29:56.659 - 1A FF FF FF A5 00 01 02
2024-09-17 06:29:57.414 - 1A AA AA AA 84 FF B0 01 FF 00 00 0F
2024-09-17 06:29:59.117 - 1A AA AA AA 27 FF 00 01 FF 00 00 0F
2024-09-17 06:30:00.818 - 1A AA AA AA 6F FF 27 01 FF 00 00 0F
2024-09-17 06:30:02.522 - 1A AA AA AA 55 FF 45 01 FF 00 00 0F
2024-09-17 06:30:04.249 - 1A AA AA AA 2C FF 00 00 FF 00 01 0F
2024-09-17 06:30:05.977 - 1A AA AA AA 84 FF 00 00 FF B0 01 0F
2024-09-17 06:30:07.679 - 1A AA AA AA 5B FF 00 01 FF 00 00 0F
2024-09-17 06:30:09.381 - 1A AA AA AA 27 FF 00 00 FF 00 01 0F
2024-09-17 06:30:11.133 - 1A AA AA AA 6F FF 00 00 FF 27 01 0F
2024-09-17 06:30:12.836 - 1A AA AA AA 55 FF 00 00 FF 45 01 0F
2024-09-17 06:30:14.538 - 1A AA AA AA 2C FF 00 01 FF 00 00 0F
2024-09-17 06:30:16.241 - 1A AA AA AA 5B FF 00 00 FF 00 01 0F
2024-09-17 06:30:17.934 - 50 F1 25 (主卧—有线2)
2024-09-17 06:30:19.686 - 50 F1 25 (主卧—有线2)
2024-09-17 06:30:21.393 - A1 11 11 11 11 01 (内卫浴霸取暖判断)
2024-09-17 06:30:21.620 - 14 03 00 00 00 02 C6 CE (查询内卫温湿度)
2024-09-17 06:30:21.642 - 14 03 04 02 05 00 FC AF 0A (内卫温湿度返回)
2024-09-17 06:30:22.595 - 1A BE B0 DC 01 00 01 00 (继电器地址-回水泵点动, 回水泵点动)
2024-09-17 06:30:23.796 - 1A BE B0 DC 01 00 01 00 (继电器地址-回水泵点动, 回水泵点动)
2024-09-17 06:30:24.818 - 19 08 24 03 CC 01 CC 00 01 (调用茶吧感应灯开的按键)
2024-09-17 06:30:24.868 - 1A AA AA AA 88 FF B0 01 FF B0 01 0F (调光器地址-茶吧灯带, 茶吧灯带明亮)
2024-09-17 06:30:26.000 - 1A BE B0 DC 01 00 01 00 (继电器地址-回水泵点动, 回水泵点动)
2024-09-17 06:30:27.704 - 1A FF FF FF 60 0B 01 01 0F (红外总线地址-主卧发射设备, 主卧电视电源)
2024-09-17 06:30:28.227 - F0 0B 01 08
2024-09-17 06:30:30.802 - EE 00 00 B1 00 00 02 FF FC FF FF (情景完成返回主页)
2024-09-17 06:30:31.833 - 19 08 24 03 CC 01 CD 00 01 (调用茶吧感应灯关的按键)
2024-09-17 06:30:31.882 - 1A AA AA AA 88 FF 00 01 FF 00 01 0F (调光器地址-茶吧灯带, 茶吧灯带关闭)
2024-09-17 07:02:36.674 - 1A FF FF FF 56 0C 01 01 (人体感应地址-内卫)
2024-09-17 07:02:36.903 - 1A FF FF FF 56 00 00 01 0F (人体感应地址-内卫, 打开内卫感应)
2024-09-17 07:02:37.313 - 19 08 24 03 CC 01 54 00 01 (调用内卫感应灯开的按键)
2024-09-17 07:02:37.347 - 1A 0C 02 08 01 FF 45 01 FF 45 01 FF 00 00 0F (调光器地址-内卫射灯, 内卫射灯微光)
2024-09-17 07:03:36.133 - 19 08 24 03 CC 01 55 00 01 (调用内卫感应灯关的按键)
2024-09-17 07:03:36.168 - 1A 0C 02 08 01 FF 00 01 FF 00 01 FF 00 00 0F (调光器地址-内卫射灯, 内卫感应灯关)
2024-09-17 07:04:45.269 - 19 08 24 03 CC 01 54 00 01 (调用内卫感应灯开的按键)
2024-09-17 07:04:45.304 - 1A 0C 02 08 01 FF 45 01 FF 45 01 FF 00 00 0F (调光器地址-内卫射灯, 内卫射灯微光)
2024-09-17 07:05:10.820 - 19 08 24 03 CC 01 55 00 01 (调用内卫感应灯关的按键)
2024-09-17 07:05:10.853 - 1A 0C 02 08 01 FF 00 01 FF 00 01 FF 00 00 0F (调光器地址-内卫射灯, 内卫感应灯关)
2024-09-17 07:05:20.970 - 19 08 24 03 CC 00 D3 00 01 (调用厨房感应灯开的按键)
2024-09-17 07:05:21.004 - 55 0A 32 00 00 00 01 92 55 0A 32 00 00 00 02 93 (厨房顶灯一开, 厨房顶灯二开)
2024-09-17 07:05:56.037 - 19 08 24 03 CC 00 D4 00 01 (调用厨房感应灯关的按键)
2024-09-17 07:05:56.073 - 55 0A 31 00 00 00 01 91 55 0A 31 00 00 00 02 92 (厨房顶灯一关, 厨房顶灯二关)
2024-09-17 07:24:38.618 - 19 08 24 03 CC 01 54 00 01 (调用内卫感应灯开的按键)
2024-09-17 07:24:38.652 - 1A 0C 02 08 01 FF 45 01 FF 45 01 FF 00 00 0F (调光器地址-内卫射灯, 内卫射灯微光)
2024-09-17 07:25:29.218 - 19 08 24 03 CC 01 55 00 01 (调用内卫感应灯关的按键)
2024-09-17 07:25:29.251 - 1A 0C 02 08 01 FF 00 01 FF 00 01 FF 00 00 0F (调光器地址-内卫射灯, 内卫感应灯关)
2024-09-17 07:26:09.537 - 1A BE B0 DC 04 (继电器地址-西阳窗帘)
2024-09-17 07:27:08.414 - 19 08 24 03 CC 01 54 00 01 (调用内卫感应灯开的按键)
2024-09-17 07:27:08.465 - 1A 0C 02 08 01 FF 45 01 FF 45 01 FF 00 00 0F (调光器地址-内卫射灯, 内卫射灯微光)
2024-09-17 07:27:13.055 - FF FF FF FF 0E FF (继电器地址-西阳小窗帘)
2024-09-17 07:27:13.190 - FF
2024-09-17 07:27:36.469 - 19 08 24 03 CC 01 55 00 01 (调用内卫感应灯关的按键)
2024-09-17 07:27:36.520 - 1A 0C 02 08 01 FF 00 01 FF 00 01 FF 00 00 0F (调光器地址-内卫射灯, 内卫感应灯关)
2024-09-17 07:32:17.869 - 1A BE B0 DC 09 (继电器地址-客厅窗帘)
2024-09-17 07:32:18.005 - FF
2024-09-17 07:35:20.384 - 1A BE B0 DC 02 (正反转地址-外卫卷帘)
2024-09-17 07:38:21.286 - 1A BE B0 DC 0A (继电器地址-客厅纱帘)
2024-09-17 07:38:31.787 - 1A BE B0 DC 01 FC (继电器地址-回水泵点动)
2024-09-17 07:41:27.697 - 1A BE B0 DC 03 (继电器地址-西阳天幕)
2024-09-17 07:41:27.833 - FE
2024-09-17 07:51:56.228 - FF FF FF FF 0A FC (继电器地址-东阳窗帘)
2024-09-17 07:51:56.361 - FF
2024-09-17 07:52:04.481 - 19 08 24 03 CC 00 D3 00 01 (调用厨房感应灯开的按键)
2024-09-17 07:52:04.535 - 55 0A 32 00 00 00 01 92 55 0A 32 00 00 00 02 93 (厨房顶灯一开, 厨房顶灯二开)
2024-09-17 07:52:42.055 - 19 08 24 03 CC 00 D4 00 01 (调用厨房感应灯关的按键)
2024-09-17 07:52:42.109 - 55 0A 31 00 00 00 01 91 55 0A 31 00 00 00 02 92 (厨房顶灯一关, 厨房顶灯二关)
2024-09-17 09:11:28.555 - 1A FF FF FF 04 (继电器地址-东阳衣架)
2024-09-17 09:11:28.691 - FF
2024-09-17 09:19:15.800 - 19 08 24 03 DD 00 4A 00 01 (调用情景-主卧起床)
2024-09-17 09:19:16.364 - EE 00 00 B1 00 00 00 FF FC FF FF (情景执行提示)
2024-09-17 09:19:16.986 - 09 06 00 0F 02 01 78 21 (提示音叮)
2024-09-17 09:19:17.551 - 50 F0 04 (开内卫影视)
2024-09-17 09:19:18.100 - 50 F0 05 (开主卧影视)
2024-09-17 09:19:18.650 - A5 00 53 FE 01 AA (主卧纱帘关)
2024-09-17 09:19:19.199 - A5 00 53 FE 01 AA (主卧纱帘关)
2024-09-17 09:19:19.747 - A5 00 52 FE 01 AA (主卧窗帘开)
2024-09-17 09:19:20.792 - A5 00 52 FE 01 AA (主卧窗帘开)
2024-09-17 09:19:21.841 - 1A 22 33 62 0F 00 02 01 0F (正反转地址-内卫卷帘, 内卫卷帘降)
2024-09-17 09:19:22.889 - 1A FF FF FF 56 00 00 00 0F (人体感应地址-内卫, 关闭内卫感应)
2024-09-17 09:19:22.968 - BC BC
2024-09-17 09:19:23.986 - 1A 20 07 01 55 00 01 00 0F (自保持开关地址-主卧顶灯, 主卧顶灯只关)
2024-09-17 09:19:25.038 - 1A 0C 02 08 01 FF 45 01 FF 45 01 FF 00 00 0F (调光器地址-内卫射灯, 内卫射灯微光)
2024-09-17 09:19:26.135 - 1A 0C 02 04 01 FF 45 01 FF 45 01 FF 00 00 0F (调光器地址-主卧筒灯, 主卧筒灯微光)
2024-09-17 09:19:26.730 - 1A 0C 02 04 03 FF 45 01 FF 45 01 FF 00 00 0F (调光器地址-主卧灯带, 主卧灯带微光)
2024-09-17 09:19:27.328 - 1A 0C 02 04 02 FF 45 01 FF 45 01 FF 00 00 0F (调光器地址-主卧过道, 主卧过道微光)
2024-09-17 09:19:27.915 - 50 F1 25 (主卧—有线2)
2024-09-17 09:19:28.463 - 50 F1 24 (内卫—有线2)
2024-09-17 09:19:29.590 - AF BF CF DF C2 21 (有线2/快捷-凤凰卫视)
2024-09-17 09:19:30.163 - 1A FF FF FF 60 0B 01 01 0F (红外总线地址-主卧发射设备, 主卧电视电源)
2024-09-17 09:19:30.680 - F0 0B 01 08
2024-09-17 09:19:33.138 - 55 20 20 00 00 0F 02 16 AA 55 20 20 00 00 0F 02 16 AA (主卧窗帘电机状态返回)
2024-09-17 09:19:35.197 - 09 06 00 0F 02 02 38 20 (提示音咚)
2024-09-17 09:19:35.748 - EE 00 00 B1 00 00 02 FF FC FF FF (情景完成返回主页)
2024-09-17 09:19:36.341 - A1 11 11 11 11 01 (内卫浴霸取暖判断)
2024-09-17 09:19:36.560 - 14 03 00 00 00 02 C6 CE (查询内卫温湿度)
2024-09-17 09:19:36.580 - 14 03 04 01 F8 00 F6 BE B9 (内卫温湿度返回)
2024-09-17 09:28:24.122 - 19 08 24 03 DD 00 40 00 01 (调用情景-离开主卧)
2024-09-17 09:28:24.657 - EE 00 00 B1 00 00 00 FF FC FF FF (情景执行提示)
2024-09-17 09:28:25.251 - 09 06 00 0F 02 01 78 21 (提示音叮)
2024-09-17 09:28:25.794 - 50 F5 05 (关主卧影视)
2024-09-17 09:28:26.342 - 50 F5 04 (关内卫影视)
2024-09-17 09:28:26.896 - 01 06 07 D6 FF 60 28 9E (主卧空调关)
2024-09-17 09:28:26.926 - 01 06 07 D6 FF 60 28 9E (主卧空调关)
2024-09-17 09:28:27.492 - A5 00 52 FE 01 AA (主卧窗帘开)
2024-09-17 09:28:28.538 - A5 00 52 FE 01 AA (主卧窗帘开)
2024-09-17 09:28:29.584 - A5 00 53 FF 00 AA (主卧纱帘开)
2024-09-17 09:28:29.636 - 55 00 53 01 00 0B 02 30 AA 55 00 53 01 00 0B 02 30 AA (主卧纱帘电机状态返回)
2024-09-17 09:28:30.182 - A5 00 53 FF 00 AA (主卧纱帘开)
2024-09-17 09:28:30.734 - 1A 22 33 62 0F 00 00 01 0F (正反转地址-内卫卷帘, 内卫卷帘升)
2024-09-17 09:28:31.448 - 55 20 20 00 00 0F 02 16 AA 55 20 20 00 00 0F 02 16 AA (主卧窗帘电机状态返回)
2024-09-17 09:28:31.778 - 1A 20 07 01 40 00 01 00 0F (自保持开关地址-内卫顶灯, 内卫顶灯关)
2024-09-17 09:28:32.826 - 1A 20 07 01 55 00 01 00 0F (自保持开关地址-主卧顶灯, 主卧顶灯只关)
2024-09-17 09:28:33.380 - 1A 0C 02 08 01 FF 00 01 FF 00 01 FF 00 00 0F (调光器地址-内卫射灯, 内卫感应灯关)
2024-09-17 09:28:33.972 - 1A FF FF FF 56 00 00 01 0F (人体感应地址-内卫, 打开内卫感应)
2024-09-17 09:28:34.380 - 19 08 24 03 CC 01 54 00 01 (调用内卫感应灯开的按键)
2024-09-17 09:28:34.433 - 1A 0C 02 08 01 FF 45 01 FF 45 01 FF 00 00 0F (调光器地址-内卫射灯, 内卫射灯微光)
2024-09-17 09:28:37.817 - 1A 0C 02 04 FF FF 00 01 FF 00 01 FF 00 00 0F (主卧调光全关)
2024-09-17 09:28:38.905 - 09 06 00 0F 02 02 38 20 (提示音咚)
2024-09-17 09:28:39.508 - EE 00 00 B1 00 00 02 FF FC FF FF (情景完成返回主页)
2024-09-17 09:28:40.459 - 55 00 53 00 02 23 02 30 AA 55 00 53 00 02 23 02 30 AA (主卧纱帘电机状态返回)
2024-09-17 09:28:42.557 - A1 11 11 11 42 (主卧空调自动开)
2024-09-17 09:28:42.781 - 19 08 24 03 F0 BB 78 02 02 00
2024-09-17 09:28:42.831 - 23 AA 56 02 09 1C 2C 18 09 11 02 73 65 6F 6B 65 6E 64
2024-09-17 09:28:43.791 - 01 10 07 D6 00 03 06 70 61 00 02 00 F0 0F 3E (主卧空调冷24度)
2024-09-17 09:28:43.827 - 01 10 07 D6 00 03 06 70 61 00 02 00 F0 0F 3E (主卧空调冷24度)
2024-09-17 09:28:48.363 - 19 08 24 03 DD 00 12 00 01 (调用情景-公共灯光开)
2024-09-17 09:28:48.924 - EE 00 00 B1 00 00 00 FF FC FF FF (情景执行提示)
2024-09-17 09:28:49.518 - 09 06 00 0F 02 01 78 21 (提示音叮)
2024-09-17 09:28:50.074 - 1A 0D 01 01 01 FF 55 01 FF 55 01 FF 00 00 0F (调光器地址-客厅筒灯, 客厅筒灯微光)
2024-09-17 09:28:50.672 - 1A 0D 01 01 03 FF 55 01 FF 55 01 FF 00 00 0F (调光器地址-客厅过道, 客厅过道微光)
2024-09-17 09:28:50.957 - 19 08 24 03 22 00 01 00 01
2024-09-17 09:28:52.840 - EE 00 6E B1 01 00 02 FF FC FF FF
2024-09-17 09:28:53.523 - 19 08 24 03 DD 00 13 00 01 (调用情景-公共区域关)
2024-09-17 09:28:54.056 - EE 00 00 B1 00 00 00 FF FC FF FF (情景执行提示)
2024-09-17 09:28:54.649 - 09 06 00 0F 02 01 78 21 (提示音叮)
2024-09-17 09:28:55.248 - 55 0B 31 00 00 00 01 92 (厨房风扇只关)
2024-09-17 09:28:56.295 - 01 06 07 D3 FF 60 38 9F (餐厅空调关)
2024-09-17 09:28:56.322 - 01 06 07 D3 FF 60 38 9F (餐厅空调关)
2024-09-17 09:28:57.391 - 01 06 07 D0 FF 60 C8 9F (客厅空调关)
2024-09-17 09:28:57.424 - 01 06 07 D0 FF 60 C8 9F (客厅空调关)
2024-09-17 09:29:01.475 - 50 F5 02 (关厨房影视)
2024-09-17 09:29:02.520 - 50 F5 01 (关餐厅影视)
2024-09-17 09:29:03.566 - 50 F5 08 (关客厅影视)
2024-09-17 09:29:04.612 - 50 F5 03 (关外卫影视)
2024-09-17 09:29:05.664 - 55 0A 31 00 00 00 01 91 (厨房顶灯一关)
2024-09-17 09:29:06.711 - 55 0A 31 00 00 00 02 92 (厨房顶灯二关)
2024-09-17 09:29:07.758 - 55 0C 31 00 00 00 01 93 (餐厅顶灯关)
2024-09-17 09:29:08.805 - 1A 18 05 10 31 00 01 00 0F (自保持开关地址-门厅顶灯, 门厅顶灯关)
2024-09-17 09:29:09.851 - 1A 20 07 00 42 00 01 00 0F (自保持开关地址-外卫顶灯, 外卫顶灯关)
2024-09-17 09:29:10.897 - 1A 18 05 21 89 00 01 00 0F (自保持开关地址-客厅顶灯, 客厅顶灯一关)
2024-09-17 09:29:11.944 - 1A 18 05 01 94 00 01 00 0F (自保持开关地址-客厅顶灯, 客厅顶灯二关)
2024-09-17 09:29:12.990 - 1A 20 07 01 30 00 01 00 0F (自保持开关地址-西阳顶灯, 西阳顶灯关)
2024-09-17 09:29:14.041 - 1A FF 01 FF FF FF 00 01 FF 00 01 FF 00 00 0F (调光器地址-公共区域统配地址, 公共区域灯光全关)
2024-09-17 09:29:15.131 - 09 06 00 0F 02 02 38 20 (提示音咚)
2024-09-17 09:29:17.178 - EE 00 00 B1 00 00 02 FF FC FF FF (情景完成返回主页)
2024-09-17 09:29:20.381 - 19 08 24 03 DD 00 10 00 01 (调用情景-客餐厅空调开)
2024-09-17 09:29:20.913 - EE 00 00 B1 00 00 00 FF FC FF FF (情景执行提示)
2024-09-17 09:29:21.508 - 09 06 00 0F 02 01 78 21 (提示音叮)
2024-09-17 09:29:22.054 - A1 11 11 11 40 (客厅空调自动开)
2024-09-17 09:29:22.174 - 05
2024-09-17 09:29:25.178 - 19 08 24 03 CC 01 54 00 01 (调用内卫感应灯开的按键)
2024-09-17 09:29:25.232 - 1A 0C 02 08 01 FF 45 01 FF 45 01 FF 00 00 0F (调光器地址-内卫射灯, 内卫射灯微光)
2024-09-17 09:29:26.089 - A1 11 11 11 41 (餐厅空调自动开)
2024-09-17 09:29:26.317 - 19 08 24 03 F0 BB 78 02 02 00
2024-09-17 09:29:26.349 - 23 AA 56 02 09 1D 1B 18 09 11 02 73 65 6F 6B 65 6E 64
2024-09-17 09:29:27.326 - 01 10 07 D3 00 03 06 70 61 00 02 00 FA 9F 29 (餐厅空调冷25度)
2024-09-17 09:29:27.364 - 01 10 07 D3 00 03 06 70 61 00 02 00 FA 9F 29 (餐厅空调冷25度)
2024-09-17 09:29:30.128 - 09 06 00 0F 02 02 38 20 (提示音咚)
2024-09-17 09:29:30.678 - EE 00 00 B1 00 00 02 FF FC FF FF (情景完成返回主页)
2024-09-17 09:29:38.320 - 19 08 24 03 DD 00 10 00 01 (调用情景-客餐厅空调开)
2024-09-17 09:29:38.850 - EE 00 00 B1 00 00 00 FF FC FF FF (情景执行提示)
2024-09-17 09:29:39.444 - 09 06 00 0F 02 01 78 21 (提示音叮)
2024-09-17 09:29:40.038 - A1 11 11 11 40 (客厅空调自动开)
2024-09-17 09:29:40.266 - 19 08 24 03 F0 BB 78 02 02 00
2024-09-17 09:29:40.318 - 23 AA 56 02 09 1D 29 18 09 11 02 73 65 6F 6B 65 6E 64
2024-09-17 09:29:41.275 - 01 10 07 D0 00 03 06 70 61 00 02 00 FA 6F 26 (客厅空调冷25度)
2024-09-17 09:29:44.075 - A1 11 11 11 41 (餐厅空调自动开)
2024-09-17 09:29:44.298 - 19 08 24 03 F0 BB 78 02 02 00
2024-09-17 09:29:44.348 - 23 AA 56 02 09 1D 2D 18 09 11 02 73 65 6F 6B 65 6E 64
2024-09-17 09:29:45.308 - 01 10 07 D3 00 03 06 70 61 00 02 00 FA 9F 29 (餐厅空调冷25度)
2024-09-17 09:29:45.350 - 01 10 07 D3 00 03 06 70 61 00 02 00 FA 9F 29 (餐厅空调冷25度)
2024-09-17 09:29:48.114 - 09 06 00 0F 02 02 38 20 (提示音咚)
2024-09-17 09:29:48.664 - EE 00 00 B1 00 00 02 FF FC FF FF (情景完成返回主页)
2024-09-17 09:29:50.558 - EE 00 6E B1 01 00 03 FF FC FF FF
2024-09-17 09:29:51.079 - EE 00 6E B1 01 00 08 FF FC FF FF
2024-09-17 09:29:52.060 - 1A BE B0 DC 0A 00 02 00 (继电器地址-客厅纱帘, 客厅纱帘开)
2024-09-17 09:29:53.246 - EE 00 6E B1 01 00 02 FF FC FF FF
2024-09-17 09:29:54.244 - 19 08 24 03 CC 01 55 00 01 (调用内卫感应灯关的按键)
2024-09-17 09:29:54.298 - 1A 0C 02 08 01 FF 00 01 FF 00 01 FF 00 00 0F (调光器地址-内卫射灯, 内卫感应灯关)
2024-09-17 09:30:00.126 - 19 08 24 03 CC 01 CC 00 01 (调用茶吧感应灯开的按键)
2024-09-17 09:30:00.157 - 1A AA AA AA 88 FF B0 01 FF B0 01 0F (调光器地址-茶吧灯带, 茶吧灯带明亮)
2024-09-17 09:30:03.495 - A5 00 A6 FE 01 AA (餐厅窗帘开)
2024-09-17 09:30:03.545 - 55 00 A6 02 01 66 01 74 AA 55 00 A6 02 01 66 01 74 AA (餐厅窗帘电机状态返回)
2024-09-17 09:30:12.448 - 55 00 A6 00 00 0E 01 74 AA 55 00 A6 00 00 0E 01 74 AA (餐厅窗帘电机状态返回)
2024-09-17 09:30:47.150 - 19 08 24 03 CC 00 D3 00 01 (调用厨房感应灯开的按键)
2024-09-17 09:30:47.204 - 55 0A 32 00 00 00 01 92 55 0A 32 00 00 00 02 93 (厨房顶灯一开, 厨房顶灯二开)
2024-09-17 09:30:56.741 - 19 08 24 03 CC 01 CD 00 01 (调用茶吧感应灯关的按键)
2024-09-17 09:30:56.772 - 1A AA AA AA 88 FF 00 01 FF 00 01 0F (调光器地址-茶吧灯带, 茶吧灯带关闭)
2024-09-17 09:31:34.441 - 19 08 24 03 CC 01 54 00 01 (调用内卫感应灯开的按键)
2024-09-17 09:31:34.475 - 1A 0C 02 08 01 FF 45 01 FF 45 01 FF 00 00 0F (调光器地址-内卫射灯, 内卫射灯微光)
2024-09-17 09:31:59.992 - 19 08 24 03 CC 01 55 00 01 (调用内卫感应灯关的按键)
2024-09-17 09:32:00.026 - 1A 0C 02 08 01 FF 00 01 FF 00 01 FF 00 00 0F (调光器地址-内卫射灯, 内卫感应灯关)
2024-09-17 09:33:14.012 - 19 08 24 03 CC 01 CC 00 01 (调用茶吧感应灯开的按键)
2024-09-17 09:33:14.043 - 1A AA AA AA 88 FF B0 01 FF B0 01 0F (调光器地址-茶吧灯带, 茶吧灯带明亮)
2024-09-17 09:33:26.036 - 19 08 24 03 CC 01 CD 00 01 (调用茶吧感应灯关的按键)
2024-09-17 09:33:26.067 - 1A AA AA AA 88 FF 00 01 FF 00 01 0F (调光器地址-茶吧灯带, 茶吧灯带关闭)
2024-09-17 09:33:45.574 - 19 08 24 03 CC 01 CC 00 01 (调用茶吧感应灯开的按键)
2024-09-17 09:33:45.605 - 1A AA AA AA 88 FF B0 01 FF B0 01 0F (调光器地址-茶吧灯带, 茶吧灯带明亮)
2024-09-17 09:33:51.512 - 19 08 24 03 CC 00 D4 00 01 (调用厨房感应灯关的按键)
2024-09-17 09:33:51.548 - 55 0A 31 00 00 00 01 91 55 0A 31 00 00 00 02 92 (厨房顶灯一关, 厨房顶灯二关)
2024-09-17 09:33:57.523 - 19 08 24 03 CC 00 D3 00 01 (调用厨房感应灯开的按键)
2024-09-17 09:33:57.559 - 55 0A 32 00 00 00 01 92 55 0A 32 00 00 00 02 93 (厨房顶灯一开, 厨房顶灯二开)
2024-09-17 09:34:10.123 - 19 08 24 03 CC 01 CD 00 01 (调用茶吧感应灯关的按键)
2024-09-17 09:34:10.153 - 1A AA AA AA 88 FF 00 01 FF 00 01 0F (调光器地址-茶吧灯带, 茶吧灯带关闭)
2024-09-17 09:35:39.799 - 19 08 24 03 CC 01 CC 00 01 (调用茶吧感应灯开的按键)
2024-09-17 09:35:39.831 - 1A AA AA AA 88 FF B0 01 FF B0 01 0F (调光器地址-茶吧灯带, 茶吧灯带明亮)
2024-09-17 09:36:18.802 - 19 08 24 03 CC 00 D4 00 01 (调用厨房感应灯关的按键)
2024-09-17 09:36:18.836 - 55 0A 31 00 00 00 01 91 55 0A 31 00 00 00 02 92 (厨房顶灯一关, 厨房顶灯二关)
2024-09-17 09:36:44.351 - 19 08 24 03 CC 00 D3 00 01 (调用厨房感应灯开的按键)
2024-09-17 09:36:44.397 - 55 0A 32 00 00 00 01 92 55 0A 32 00 00 00 02 93 (厨房顶灯一开, 厨房顶灯二开)
2024-09-17 09:36:57.454 - 19 08 24 03 CC 01 CD 00 01 (调用茶吧感应灯关的按键)
2024-09-17 09:36:57.484 - 1A AA AA AA 88 FF 00 01 FF 00 01 0F (调光器地址-茶吧灯带, 茶吧灯带关闭)
2024-09-17 09:39:44.783 - 19 08 24 03 CC 01 CC 00 01 (调用茶吧感应灯开的按键)
2024-09-17 09:39:44.815 - 1A AA AA AA 88 FF B0 01 FF B0 01 0F (调光器地址-茶吧灯带, 茶吧灯带明亮)
2024-09-17 09:40:30.874 - 19 08 24 03 CC 01 CD 00 01 (调用茶吧感应灯关的按键)
2024-09-17 09:40:30.905 - 1A AA AA AA 88 FF 00 01 FF 00 01 0F (调光器地址-茶吧灯带, 茶吧灯带关闭)
2024-09-17 09:40:39.891 - 19 08 24 03 CC 01 CC 00 01 (调用茶吧感应灯开的按键)
2024-09-17 09:40:39.922 - 1A AA AA AA 88 FF B0 01 FF B0 01 0F (调光器地址-茶吧灯带, 茶吧灯带明亮)
2024-09-17 09:41:18.389 - 19 08 24 03 CC 00 D4 00 01 (调用厨房感应灯关的按键)
2024-09-17 09:41:18.425 - 55 0A 31 00 00 00 01 91 55 0A 31 00 00 00 02 92 (厨房顶灯一关, 厨房顶灯二关)
2024-09-17 09:41:34.923 - 19 08 24 03 CC 00 D3 00 01 (调用厨房感应灯开的按键)
2024-09-17 09:41:34.959 - 55 0A 32 00 00 00 01 92 55 0A 32 00 00 00 02 93 (厨房顶灯一开, 厨房顶灯二开)
2024-09-17 09:41:48.026 - 19 08 24 03 CC 01 CD 00 01 (调用茶吧感应灯关的按键)
2024-09-17 09:41:48.057 - 1A AA AA AA 88 FF 00 01 FF 00 01 0F (调光器地址-茶吧灯带, 茶吧灯带关闭)
2024-09-17 09:47:30.703 - 19 08 24 03 CC 01 CC 00 01 (调用茶吧感应灯开的按键)
2024-09-17 09:47:30.734 - 1A AA AA AA 88 FF B0 01 FF B0 01 0F (调光器地址-茶吧灯带, 茶吧灯带明亮)
2024-09-17 09:48:03.768 - 19 08 24 03 CC 01 CD 00 01 (调用茶吧感应灯关的按键)
2024-09-17 09:48:03.799 - 1A AA AA AA 88 FF 00 01 FF 00 01 0F (调光器地址-茶吧灯带, 茶吧灯带关闭)
2024-09-17 09:48:34.830 - 19 08 24 03 CC 01 CC 00 01 (调用茶吧感应灯开的按键)
2024-09-17 09:48:34.861 - 1A AA AA AA 88 FF B0 01 FF B0 01 0F (调光器地址-茶吧灯带, 茶吧灯带明亮)
2024-09-17 09:48:42.763 - 19 08 24 03 CC 00 D4 00 01 (调用厨房感应灯关的按键)
2024-09-17 09:48:42.799 - 55 0A 31 00 00 00 01 91 55 0A 31 00 00 00 02 92 (厨房顶灯一关, 厨房顶灯二关)
2024-09-17 09:48:47.355 - 19 08 24 03 CC 01 CD 00 01 (调用茶吧感应灯关的按键)
2024-09-17 09:48:47.399 - 1A AA AA AA 88 FF 00 01 FF 00 01 0F (调光器地址-茶吧灯带, 茶吧灯带关闭)
2024-09-17 10:07:35.081 - 19 08 24 03 CC 01 CC 00 01 (调用茶吧感应灯开的按键)
2024-09-17 10:07:35.110 - 1A AA AA AA 88 FF B0 01 FF B0 01 0F (调光器地址-茶吧灯带, 茶吧灯带明亮)
2024-09-17 10:07:37.495 - 19 08 24 03 CC 00 D3 00 01 (调用厨房感应灯开的按键)
2024-09-17 10:07:37.529 - 55 0A 32 00 00 00 01 92 55 0A 32 00 00 00 02 93 (厨房顶灯一开, 厨房顶灯二开)
2024-09-17 10:07:47.605 - 19 08 24 03 CC 01 CD 00 01 (调用茶吧感应灯关的按键)
2024-09-17 10:07:47.636 - 1A AA AA AA 88 FF 00 01 FF 00 01 0F (调光器地址-茶吧灯带, 茶吧灯带关闭)
2024-09-17 10:09:48.846 - 19 08 24 03 CC 01 CC 00 01 (调用茶吧感应灯开的按键)
2024-09-17 10:09:48.876 - 1A AA AA AA 88 FF B0 01 FF B0 01 0F (调光器地址-茶吧灯带, 茶吧灯带明亮)
2024-09-17 10:10:19.405 - 19 08 24 03 CC 01 CD 00 01 (调用茶吧感应灯关的按键)
2024-09-17 10:10:19.436 - 1A AA AA AA 88 FF 00 01 FF 00 01 0F (调光器地址-茶吧灯带, 茶吧灯带关闭)
2024-09-17 10:11:50.084 - 19 08 24 03 CC 01 CC 00 01 (调用茶吧感应灯开的按键)
2024-09-17 10:11:50.130 - 1A AA AA AA 88 FF B0 01 FF B0 01 0F (调光器地址-茶吧灯带, 茶吧灯带明亮)
2024-09-17 10:11:58.507 - 19 08 24 03 CC 00 D4 00 01 (调用厨房感应灯关的按键)
2024-09-17 10:11:58.543 - 55 0A 31 00 00 00 01 91 55 0A 31 00 00 00 02 92 (厨房顶灯一关, 厨房顶灯二关)
2024-09-17 10:12:01.222 - 19 08 24 03 CC 01 54 00 01 (调用内卫感应灯开的按键)
2024-09-17 10:12:01.256 - 1A 0C 02 08 01 FF 45 01 FF 45 01 FF 00 00 0F (调光器地址-内卫射灯, 内卫射灯微光)
2024-09-17 10:12:02.608 - 19 08 24 03 CC 01 CD 00 01 (调用茶吧感应灯关的按键)
2024-09-17 10:12:02.639 - 1A AA AA AA 88 FF 00 01 FF 00 01 0F (调光器地址-茶吧灯带, 茶吧灯带关闭)
2024-09-17 10:15:35.143 - 19 08 24 03 CC 01 55 00 01 (调用内卫感应灯关的按键)
2024-09-17 10:15:35.177 - 1A 0C 02 08 01 FF 00 01 FF 00 01 FF 00 00 0F (调光器地址-内卫射灯, 内卫感应灯关)
