2024-09-21 16:09:48.723 - 19 08 24 03 CC 01 CC 00 01 (调用茶吧感应灯开的按键)
2024-09-21 16:09:48.855 - 1A AA AA AA 88 FF B0 01 FF B0 01 0F (调光器地址-茶吧灯带, 茶吧灯带明亮)
2024-09-21 16:09:53.567 - 19 08 24 03 CC 00 D3 00 01 (调用厨房感应灯开的按键)
2024-09-21 16:09:53.672 - 55 0A 32 00 00 00 01 92 55 0A 32 00 00 00 02 93 (厨房顶灯一开, 厨房顶灯二开)
2024-09-21 16:10:02.750 - 19 08 24 03 CC 01 CD 00 01 (调用茶吧感应灯关的按键)
2024-09-21 16:10:02.793 - 1A AA AA AA 88 FF 00 01 FF 00 01 0F (调光器地址-茶吧灯带, 茶吧灯带关闭)
2024-09-21 16:11:28.922 - 19 08 24 03 CC 01 CC 00 01 (调用茶吧感应灯开的按键)
2024-09-21 16:11:29.005 - 1A AA AA AA 88 FF B0 01 FF B0 01 0F (调光器地址-茶吧灯带, 茶吧灯带明亮)
2024-09-21 16:11:34.786 - 19 08 24 03 DD 00 00 00 01 (调用情景-离家（末）)
2024-09-21 16:11:35.421 - EE 00 00 B1 00 00 00 FF FC FF FF (情景执行提示)
2024-09-21 16:11:36.111 - 09 06 00 0F 02 02 38 20 (提示音咚)
2024-09-21 16:11:36.769 - 50 F7 01 (全屋影音全关)
2024-09-21 16:11:37.461 - 01 06 07 D0 FF 60 C8 9F (客厅空调关)
2024-09-21 16:11:37.487 - 01 06 07 D0 FF 60 C8 9F (客厅空调关)
2024-09-21 16:11:38.189 - 01 06 07 D0 FF 60 C8 9F (客厅空调关)
2024-09-21 16:11:38.224 - 01 06 07 D0 FF 60 C8 9F (客厅空调关)
2024-09-21 16:11:38.910 - 01 06 07 D3 FF 60 38 9F (餐厅空调关)
2024-09-21 16:11:38.940 - 01 06 07 D3 FF 60 38 9F (餐厅空调关)
2024-09-21 16:11:39.621 - 01 06 07 D3 FF 60 38 9F (餐厅空调关)
2024-09-21 16:11:39.648 - 01 06 07 D3 FF 60 38 9F (餐厅空调关)
2024-09-21 16:11:40.331 - 01 06 07 D6 FF 60 28 9E (主卧空调关)
2024-09-21 16:11:40.364 - 01 06 07 D6 FF 60 28 9E (主卧空调关)
2024-09-21 16:11:40.950 - 19 08 24 03 CC 01 CD 00 01 (调用茶吧感应灯关的按键)
2024-09-21 16:11:41.031 - 01 06 07 D6 FF 60 28 9E (主卧空调关)
2024-09-21 16:11:41.222 - 1A AA AA AA 88 FF 00 01 FF 00 01 0F (调光器地址-茶吧灯带, 茶吧灯带关闭)
2024-09-21 16:11:42.143 - 01 06 07 D9 FF 60 18 9D (次卧空调关)
2024-09-21 16:11:42.171 - 01 06 07 D9 FF 60 18 9D (次卧空调关)
2024-09-21 16:11:42.872 - 01 06 07 D9 FF 60 18 9D (次卧空调关)
2024-09-21 16:11:42.910 - 01 06 07 D9 FF 60 18 9D (次卧空调关)
2024-09-21 16:11:43.554 - 01 06 07 DC FF 60 08 9C (书房空调关)
2024-09-21 16:11:43.585 - 01 06 07 DC FF 60 08 9C (书房空调关)
2024-09-21 16:11:44.266 - 01 06 07 DC FF 60 08 9C (书房空调关)
2024-09-21 16:11:44.293 - 01 06 07 DC FF 60 08 9C (书房空调关)
2024-09-21 16:11:44.975 - 09 06 00 0F 02 02 38 20 (提示音咚)
2024-09-21 16:11:45.637 - 1A FF FF FF 56 00 00 00 0F (人体感应地址-内卫, 关闭内卫感应)
2024-09-21 16:11:46.331 - 1A FF FF FF 55 00 00 00 0F (人体感应地址-外卫, 关闭外卫感应)
2024-09-21 16:11:46.426 - BC BC
2024-09-21 16:11:47.100 - 1A FF FF FF 57 00 00 00 0F (人体感应地址-厨房, 关闭厨房感应)
2024-09-21 16:11:47.763 - 1A FF FF FF 58 00 00 00 0F (人体感应地址-茶吧, 关闭茶吧感应)
2024-09-21 16:11:47.814 - BC BC
2024-09-21 16:11:48.403 - 1A 20 07 00 93 00 01 00 0F (自保持开关地址-设备区顶, 设备区顶灯关)
2024-09-21 16:11:49.590 - 1A 20 07 01 40 00 01 00 0F (自保持开关地址-内卫顶灯, 内卫顶灯关)
2024-09-21 16:11:50.776 - 1A 20 07 01 55 00 01 00 0F (自保持开关地址-主卧顶灯, 主卧顶灯只关)
2024-09-21 16:11:51.962 - 1A 20 07 00 42 00 01 00 0F (自保持开关地址-外卫顶灯, 外卫顶灯关)
2024-09-21 16:11:53.148 - 55 0D 31 00 00 00 01 94 (书房顶灯只关)
2024-09-21 16:11:54.331 - 55 0A 31 00 00 00 01 91 (厨房顶灯一关)
2024-09-21 16:11:55.487 - 55 0A 31 00 00 00 02 92 (厨房顶灯二关)
2024-09-21 16:11:56.773 - 55 0B 31 00 00 00 01 92 (厨房风扇只关)
2024-09-21 16:11:57.957 - 55 0C 31 00 00 00 01 93 (餐厅顶灯关)
2024-09-21 16:11:59.143 - 1A 20 07 01 30 00 01 00 0F (自保持开关地址-西阳顶灯, 西阳顶灯关)
2024-09-21 16:12:00.330 - 1A 18 05 21 89 00 01 00 0F (自保持开关地址-客厅顶灯, 客厅顶灯一关)
2024-09-21 16:12:01.516 - 1A 18 05 01 94 00 01 00 0F (自保持开关地址-客厅顶灯, 客厅顶灯二关)
2024-09-21 16:12:02.702 - 1A 20 07 00 70 00 01 00 0F (自保持开关地址-次卧顶灯, 次卧顶灯只关)
2024-09-21 16:12:03.856 - 1A 18 05 10 31 00 01 00 0F (自保持开关地址-门厅顶灯, 门厅顶灯关)
2024-09-21 16:12:05.043 - 1A FF FF FF 04 00 03 02 (继电器地址-东阳衣架, 东阳衣架照明关)
2024-09-21 16:12:05.734 - 09 06 00 0F 02 02 38 20 (提示音咚)
2024-09-21 16:12:06.422 - A5 00 A6 FE 01 AA (餐厅窗帘开)
2024-09-21 16:12:07.155 - FF FF FF FF 0A 00 01 00 (继电器地址-东阳窗帘, 东阳窗帘开)
2024-09-21 16:12:07.846 - 1A BE B0 DC 04 00 01 00 (继电器地址-西阳窗帘, 西阳窗帘开)
2024-09-21 16:12:08.535 - FF FF FF FF 0E 00 01 00 (继电器地址-西阳小窗帘, 西阳小窗帘开)
2024-09-21 16:12:09.199 - 1A 22 33 62 0F 00 00 01 0F (正反转地址-内卫卷帘, 内卫卷帘升)
2024-09-21 16:12:09.888 - A5 00 52 FE 01 AA (主卧窗帘开)
2024-09-21 16:12:10.576 - A5 00 53 FF 00 AA (主卧纱帘开)
2024-09-21 16:12:11.236 - A5 00 76 FE 01 AA (次卧窗帘开)
2024-09-21 16:12:11.965 - A5 00 21 FE 01 AA (次卧纱帘开)
2024-09-21 16:12:12.489 - FF
2024-09-21 16:12:12.655 - A5 00 D2 FE 01 AA 22 0D (书房窗帘开)
2024-09-21 16:12:13.317 - 1A BE B0 DC 09 00 01 00 (继电器地址-客厅窗帘, 客厅窗帘开)
2024-09-21 16:12:14.008 - 1A BE B0 DC 0A 00 02 00 (继电器地址-客厅纱帘, 客厅纱帘开)
2024-09-21 16:12:14.671 - 09 06 00 0F 02 02 38 20 (提示音咚)
2024-09-21 16:12:15.974 - 1A EC A0 DC 02 00 00 00 0F (自保持开关地址-天花12V供电, 天花12V 供电关)
2024-09-21 16:12:16.638 - 1A EC A0 DC 02 00 00 00 0F (自保持开关地址-天花12V供电, 天花12V 供电关)
2024-09-21 16:12:17.329 - 1A EC A0 DC 01 00 00 00 0F (自保持开关地址-电视、设备12V供电, 12V 电视供电关)
2024-09-21 16:12:18.020 - 1A EC A0 DC 01 00 00 00 0F (自保持开关地址-电视、设备12V供电, 12V 电视供电关)
2024-09-21 16:12:18.683 - 1A EC A0 DC 04 00 01 00 0F (自保持开关地址-次卧西阳内外卫供电, 内卫外卫关)
2024-09-21 16:12:19.375 - 1A EC A0 DC 04 00 01 00 0F (自保持开关地址-次卧西阳内外卫供电, 内卫外卫关)
2024-09-21 16:12:21.022 - 1A BB BB BB 01 02 00 (开水器电源关)
2024-09-21 16:12:34.237 - 09 06 00 0F 02 02 38 20 (提示音咚)
2024-09-21 16:12:34.787 - 1A 27 89 12 AA 00 00 00 0F (状态寄存器地址, 无人状态)
2024-09-21 16:12:35.335 - 1A 27 89 12 AA 00 00 00 0F (状态寄存器地址, 无人状态)
2024-09-21 16:12:35.928 - A1 11 11 11 4D (天花供电关闭确认)
2024-09-21 16:12:36.150 - 1A EC A0 DC 02 86 86 86 0F (查询天花供电状态, 自保持开关地址-天花12V供电)
2024-09-21 16:12:36.582 - 1A EC A0 DC 02 00 01 0F (自保持开关地址-天花12V供电)
2024-09-21 16:12:38.968 - A1 11 11 11 4E (卫生供电关闭确认)
2024-09-21 16:12:39.197 - 1A EC A0 DC 04 86 86 86 0F (查询卫生间供电状态, 自保持开关地址-次卧西阳内外卫供电)
2024-09-21 16:12:39.630 - 1A EC A0 DC 04 01 00 0F (自保持开关地址-次卧西阳内外卫供电)
2024-09-21 16:12:42.008 - A1 11 11 11 4F (电视供电关闭确认)
2024-09-21 16:12:42.236 - 1A EC A0 DC 01 86 86 86 0F (查询电视供电状态, 自保持开关地址-电视、设备12V供电)
2024-09-21 16:12:42.669 - 1A EC A0 DC 01 00 01 0F (自保持开关地址-电视、设备12V供电)
2024-09-21 16:12:45.049 - 09 06 00 0F 02 02 38 20 (提示音咚)
2024-09-21 16:12:45.598 - 09 06 00 0F 02 02 38 20 (提示音咚)
2024-09-21 16:12:46.150 - EE 00 00 B1 00 00 02 FF FC FF FF (情景完成返回主页)
2024-09-21 16:12:47.241 - BA BA EE EE BA BA (离家设置信科变量)
2024-09-21 16:12:48.285 - A1 11 11 11 46 (天热离家遮阳)
2024-09-21 16:12:48.512 - 1A 27 89 12 AA 86 86 86 0F (查询寄存器状态, 状态寄存器地址)
2024-09-21 16:12:48.895 - 1A 27 89 12 AA 00 00 00 00 00 00 00 00 00 00 00 00 00 00 00 00 0F (状态寄存器地址)
2024-09-21 17:43:55.175 - 1A BE B0 DC 04 FD (继电器地址-西阳窗帘)
2024-09-21 17:43:55.309 - FC
2024-09-21 17:44:01.711 - FF FF FF FF 0E (继电器地址-西阳小窗帘)
2024-09-21 17:44:01.845 - FF
2024-09-21 17:59:05.271 - 1A FF FF FF 04 FF (继电器地址-东阳衣架)
2024-09-21 17:59:05.406 - FF
2024-09-21 17:59:12.541 - 1A BE B0 DC 02 (正反转地址-外卫卷帘)
2024-09-21 17:59:12.677 - FF
2024-09-21 18:08:22.319 - 1A BE B0 DC 01 (继电器地址-回水泵点动)
2024-09-21 18:08:22.456 - FF
2024-09-21 18:09:07.929 - 1A BE B0 DC 09 (继电器地址-客厅窗帘)
2024-09-21 18:10:28.826 - 1A BE B0 DC 03 (继电器地址-西阳天幕)
2024-09-21 18:10:28.962 - FE
2024-09-21 18:14:17.547 - 1A BE B0 DC 0A FD (继电器地址-客厅纱帘)
2024-09-21 18:14:17.680 - FF
2024-09-21 18:37:39.981 - FF FF FF FF 0A FC (继电器地址-东阳窗帘)
2024-09-21 18:37:40.114 - FF
2024-09-21 19:05:49.843 - 1B 03 00 00 00 02 C6 31 (查询室外光线)
2024-09-21 19:05:49.862 - 1B 03 04 00 00 00 00 41 F2 (室外光线返回)
2024-09-21 19:05:50.641 - 1A EC A0 DC 02 00 00 01 0F (自保持开关地址-天花12V供电, 天花12V 供电开)
2024-09-21 19:05:51.212 - 1A AA AA AA 88 (调光器地址-茶吧灯带)
2024-09-21 19:05:51.347 - 1A FF 01 FF FF FF 60 01 FF 60 01 FF 00 00 0F (调光器地址-公共区域统配地址)
2024-09-21 19:05:52.338 - 19 08 24 03 DD 00 0D 00 01 (调用情景-信科调用进门暗)
2024-09-21 19:05:54.369 - 1A FF 01 FF FF FF 60 01 FF 60 01 FF 00 00 0F (调光器地址-公共区域统配地址)
2024-09-21 19:05:56.455 - 1A EC A0 DC 01 00 00 01 0F (自保持开关地址-电视、设备12V供电, 12V 电视供电开)
2024-09-21 19:05:57.004 - 1A EC A0 DC 01 00 00 01 0F (自保持开关地址-电视、设备12V供电, 12V 电视供电开)
2024-09-21 19:05:57.551 - 1A EC A0 DC 04 00 01 01 0F (自保持开关地址-次卧西阳内外卫供电, 内卫外卫开)
2024-09-21 19:05:58.099 - 1A EC A0 DC 04 00 01 01 0F (自保持开关地址-次卧西阳内外卫供电, 内卫外卫开)
2024-09-21 19:05:58.645 - 1A BB BB BB 01 01 00 (开水器电源开)
2024-09-21 19:06:00.192 - 1A 27 89 12 AA 00 00 01 0F (状态寄存器地址, 有人状态)
2024-09-21 19:06:00.741 - 1A 27 89 12 AA 00 00 01 0F (状态寄存器地址, 有人状态)
2024-09-21 19:06:01.287 - 1A BE B0 DC 01 00 01 00 (继电器地址-回水泵点动, 回水泵点动)
2024-09-21 19:06:01.837 - 1A FF FF FF 56 00 00 01 0F (人体感应地址-内卫, 打开内卫感应)
2024-09-21 19:06:02.384 - 1A FF FF FF 55 00 00 01 0F (人体感应地址-外卫, 打开外卫感应)
2024-09-21 19:06:02.480 - BC BC
2024-09-21 19:06:02.933 - 1A FF FF FF 57 00 00 01 0F (人体感应地址-厨房, 打开厨房感应)
2024-09-21 19:06:03.339 - 19 08 24 03 CC 00 D4 00 01 (调用厨房感应灯关的按键)
2024-09-21 19:06:03.394 - 55 0A 31 00 00 00 01 91 55 0A 31 00 00 00 02 92 (厨房顶灯一关, 厨房顶灯二关)
2024-09-21 19:06:03.794 - 1A FF FF FF 58 00 00 01 0F (人体感应地址-茶吧, 打开茶吧感应)
2024-09-21 19:06:03.843 - BC BC
2024-09-21 19:06:04.426 - 1A BE B0 DC 01 00 01 00 (继电器地址-回水泵点动, 回水泵点动)
2024-09-21 19:06:05.024 - A5 00 B7 FF 00 AA 22 0D (书房纱帘关)
2024-09-21 19:06:05.570 - A5 00 A2 FF 00 AA (餐厅纱帘关)
2024-09-21 19:06:06.120 - 09 06 00 0F 02 01 78 21 (提示音叮)
2024-09-21 19:06:06.668 - 09 06 00 0F 02 01 78 21 (提示音叮)
2024-09-21 19:06:07.219 - EE 00 00 B1 00 00 02 FF FC FF FF (情景完成返回主页)
2024-09-21 19:06:07.811 - A1 11 11 11 50 (天花供电打开确认)
2024-09-21 19:06:08.035 - 1A EC A0 DC 02 86 86 86 0F (查询天花供电状态, 自保持开关地址-天花12V供电)
2024-09-21 19:06:08.470 - 1A EC A0 DC 02 01 01 0F (自保持开关地址-天花12V供电)
2024-09-21 19:06:09.964 - 19 08 24 03 CC 01 54 00 01 (调用内卫感应灯开的按键)
2024-09-21 19:06:10.018 - 1A 0C 02 08 01 FF 45 01 FF 45 01 FF 00 00 0F (调光器地址-内卫射灯, 内卫射灯微光)
2024-09-21 19:06:10.415 - A1 11 11 11 51 (卫生供电打开确认)
2024-09-21 19:06:10.643 - 1A EC A0 DC 04 86 86 86 0F (查询卫生间供电状态, 自保持开关地址-次卧西阳内外卫供电)
2024-09-21 19:06:11.075 - 1A EC A0 DC 04 01 01 0F (自保持开关地址-次卧西阳内外卫供电)
2024-09-21 19:06:12.993 - A1 11 11 11 52 (电视供电打开确认)
2024-09-21 19:06:13.220 - 1A EC A0 DC 01 86 86 86 0F (查询电视供电状态, 自保持开关地址-电视、设备12V供电)
2024-09-21 19:06:13.654 - 1A EC A0 DC 01 01 01 0F (自保持开关地址-电视、设备12V供电)
2024-09-21 19:06:18.026 - A1 11 11 11 47 (天热回家开帘)
2024-09-21 19:06:18.255 - 1A 27 89 12 AA 86 86 86 0F (查询寄存器状态, 状态寄存器地址)
2024-09-21 19:06:18.637 - 1A 27 89 12 AA 01 00 00 00 00 00 00 00 00 00 00 00 00 00 00 00 0F (状态寄存器地址)
2024-09-21 19:06:24.892 - 19 08 24 03 CC 01 CC 00 01 (调用茶吧感应灯开的按键)
2024-09-21 19:06:24.942 - 1A AA AA AA 88 FF B0 01 FF B0 01 0F (调光器地址-茶吧灯带, 茶吧灯带明亮)
2024-09-21 19:06:51.048 - 19 08 24 03 CC 01 55 00 01 (调用内卫感应灯关的按键)
2024-09-21 19:06:51.080 - 1A 0C 02 08 01 FF 00 01 FF 00 01 FF 00 00 0F (调光器地址-内卫射灯, 内卫感应灯关)
2024-09-21 19:07:07.507 - EE 00 6E B1 01 00 03 FF FC FF FF
2024-09-21 19:07:08.356 - EE 00 6E B1 01 00 08 FF FC FF FF
2024-09-21 19:07:08.770 - 1A BE B0 DC 0A 00 01 00 (继电器地址-客厅纱帘, 客厅纱帘关)
2024-09-21 19:07:11.985 - 19 08 24 03 CC 01 CD 00 01 (调用茶吧感应灯关的按键)
2024-09-21 19:07:12.035 - 1A AA AA AA 88 FF 00 01 FF 00 01 0F (调光器地址-茶吧灯带, 茶吧灯带关闭)
2024-09-21 19:07:12.377 - 19 08 24 03 DD 00 42 00 01 (调用情景-主卧电视空调)
2024-09-21 19:07:14.091 - 19 08 24 03 CC 01 54 00 01 (调用内卫感应灯开的按键)
2024-09-21 19:07:14.126 - 1A 0C 02 08 01 FF 45 01 FF 45 01 FF 00 00 0F (调光器地址-内卫射灯, 内卫射灯微光)
2024-09-21 19:07:59.874 - EE 00 00 B1 00 00 00 FF FC FF FF (情景执行提示)
2024-09-21 19:08:00.468 - 09 06 00 0F 02 01 78 21 (提示音叮)
2024-09-21 19:08:01.062 - 50 F0 05 (开主卧影视)
2024-09-21 19:08:02.108 - 50 F0 04 (开内卫影视)
2024-09-21 19:08:02.661 - 1A FF FF FF 56 00 00 00 0F (人体感应地址-内卫, 关闭内卫感应)
2024-09-21 19:08:03.209 - 1A 22 33 62 0F 00 02 01 0F (正反转地址-内卫卷帘, 内卫卷帘降)
2024-09-21 19:08:03.755 - A5 00 53 FE 01 AA (主卧纱帘关)
2024-09-21 19:08:03.808 - 55 00 53 02 02 22 02 2F AA 55 00 53 02 02 22 02 2F AA (主卧纱帘电机状态返回)
2024-09-21 19:08:04.851 - A5 00 52 FF 00 AA (主卧窗帘关)
2024-09-21 19:08:05.908 - 1A 0C 02 04 FF FF 45 01 FF 45 01 FF 00 00 0F (主卧调光微光)
2024-09-21 19:08:09.992 - 1A 0C 02 08 01 FF 45 01 FF 45 01 FF 00 00 0F (调光器地址-内卫射灯, 内卫射灯微光)
2024-09-21 19:08:10.577 - 50 F1 25 (主卧—有线2)
2024-09-21 19:08:11.127 - A1 11 11 11 42 (主卧空调自动开)
2024-09-21 19:08:11.356 - 19 08 24 03 F0 BB 78 02 02 00
2024-09-21 19:08:11.405 - 23 AA 56 02 13 08 27 18 09 15 06 73 65 6F 6B 65 6E 64
2024-09-21 19:08:11.673 - 50 F1 24 (内卫—有线2)
2024-09-21 19:08:12.364 - 01 10 07 D6 00 03 06 70 61 00 02 00 F0 0F 3E (主卧空调冷24度)
2024-09-21 19:08:12.408 - 01 10 07 D6 00 03 06 70 61 00 02 00 F0 0F 3E (主卧空调冷24度)
2024-09-21 19:08:13.719 - AF BF CF DF C2 21 (有线2/快捷-凤凰卫视)
2024-09-21 19:08:14.640 - 55 00 53 00 00 0C 02 2F AA 55 00 53 00 00 0C 02 2F AA (主卧纱帘电机状态返回)
2024-09-21 19:08:15.765 - 1A FF FF FF 60 0B 01 01 0F (红外总线地址-主卧发射设备, 主卧电视电源)
2024-09-21 19:08:15.895 - 94 02 16 AA 55 20 20 00 02 09 02 16 AA (主卧窗帘电机状态返回)
2024-09-21 19:08:16.283 - F0 0B 01 08
2024-09-21 19:08:23.791 - 09 06 00 0F 02 02 38 20 (提示音咚)
2024-09-21 19:08:24.341 - EE 00 00 B1 00 00 02 FF FC FF FF (情景完成返回主页)
2024-09-21 19:26:41.798 - 19 08 24 03 CC 01 CC 00 01 (调用茶吧感应灯开的按键)
2024-09-21 19:26:41.878 - 1A AA AA AA 88 FF B0 01 FF B0 01 0F (调光器地址-茶吧灯带, 茶吧灯带明亮)
2024-09-21 19:26:44.488 - 19 08 24 03 CC 00 D3 00 01 (调用厨房感应灯开的按键)
2024-09-21 19:26:44.522 - 55 0A 32 00 00 00 01 92 55 0A 32 00 00 00 02 93 (厨房顶灯一开, 厨房顶灯二开)
2024-09-21 19:26:54.321 - 19 08 24 03 CC 01 CD 00 01 (调用茶吧感应灯关的按键)
2024-09-21 19:26:54.352 - 1A AA AA AA 88 FF 00 01 FF 00 01 0F (调光器地址-茶吧灯带, 茶吧灯带关闭)
2024-09-21 19:28:08.468 - 19 08 24 03 CC 01 CC 00 01 (调用茶吧感应灯开的按键)
2024-09-21 19:28:08.499 - 1A AA AA AA 88 FF B0 01 FF B0 01 0F (调光器地址-茶吧灯带, 茶吧灯带明亮)
2024-09-21 19:28:26.005 - 19 08 24 03 CC 01 CD 00 01 (调用茶吧感应灯关的按键)
2024-09-21 19:28:26.034 - 1A AA AA AA 88 FF 00 01 FF 00 01 0F (调光器地址-茶吧灯带, 茶吧灯带关闭)
2024-09-21 19:31:46.909 - 53 53 48 2D 32 2E 30 2D 4F 70 65 6E 53 53 48 0D 0A
2024-09-21 19:32:11.448 - 19 08 24 03 CC 01 CC 00 01 (调用茶吧感应灯开的按键)
2024-09-21 19:32:11.498 - 1A AA AA AA 88 FF B0 01 FF B0 01 0F (调光器地址-茶吧灯带, 茶吧灯带明亮)
2024-09-21 19:32:23.472 - 19 08 24 03 CC 01 CD 00 01 (调用茶吧感应灯关的按键)
2024-09-21 19:32:23.503 - 1A AA AA AA 88 FF 00 01 FF 00 01 0F (调光器地址-茶吧灯带, 茶吧灯带关闭)
2024-09-21 19:32:45.515 - 19 08 24 03 CC 01 CC 00 01 (调用茶吧感应灯开的按键)
2024-09-21 19:32:45.546 - 1A AA AA AA 88 FF B0 01 FF B0 01 0F (调光器地址-茶吧灯带, 茶吧灯带明亮)
2024-09-21 19:32:58.040 - 19 08 24 03 CC 01 CD 00 01 (调用茶吧感应灯关的按键)
2024-09-21 19:32:58.070 - 1A AA AA AA 88 FF 00 01 FF 00 01 0F (调光器地址-茶吧灯带, 茶吧灯带关闭)
2024-09-21 19:34:16.695 - 19 08 24 03 CC 01 CC 00 01 (调用茶吧感应灯开的按键)
2024-09-21 19:34:16.726 - 1A AA AA AA 88 FF B0 01 FF B0 01 0F (调光器地址-茶吧灯带, 茶吧灯带明亮)
2024-09-21 19:34:24.392 - 19 08 24 03 CC 00 D4 00 01 (调用厨房感应灯关的按键)
2024-09-21 19:34:24.426 - 55 0A 31 00 00 00 01 91 55 0A 31 00 00 00 02 92 (厨房顶灯一关, 厨房顶灯二关)
2024-09-21 19:34:26.396 - 19 08 24 03 CC 00 D3 00 01 (调用厨房感应灯开的按键)
2024-09-21 19:34:26.431 - 55 0A 32 00 00 00 01 92 55 0A 32 00 00 00 02 93 (厨房顶灯一开, 厨房顶灯二开)
2024-09-21 19:34:38.239 - 19 08 24 03 CC 01 CD 00 01 (调用茶吧感应灯关的按键)
2024-09-21 19:34:38.268 - 1A AA AA AA 88 FF 00 01 FF 00 01 0F (调光器地址-茶吧灯带, 茶吧灯带关闭)
2024-09-21 19:35:11.303 - 19 08 24 03 CC 01 CC 00 01 (调用茶吧感应灯开的按键)
2024-09-21 19:35:11.334 - 1A AA AA AA 88 FF B0 01 FF B0 01 0F (调光器地址-茶吧灯带, 茶吧灯带明亮)
2024-09-21 19:35:41.363 - 19 08 24 03 CC 01 CD 00 01 (调用茶吧感应灯关的按键)
2024-09-21 19:35:41.393 - 1A AA AA AA 88 FF 00 01 FF 00 01 0F (调光器地址-茶吧灯带, 茶吧灯带关闭)
2024-09-21 19:35:59.579 - 19 08 24 03 CC 00 D4 00 01 (调用厨房感应灯关的按键)
2024-09-21 19:35:59.613 - 55 0A 31 00 00 00 01 91 55 0A 31 00 00 00 02 92 (厨房顶灯一关, 厨房顶灯二关)
2024-09-21 19:38:42.902 - 19 08 24 03 CC 01 52 00 01 (调用外卫感应灯开的按键)
2024-09-21 19:38:42.936 - 1A 0D 01 07 01 FF 45 01 FF 45 01 FF 00 00 0F (调光器地址-外卫射灯, 外卫感应灯开)
2024-09-21 19:39:07.451 - 19 08 24 03 CC 01 53 00 01 (调用外卫感应灯关的按键)
2024-09-21 19:39:07.485 - 1A 0D 01 07 01 FF 00 01 FF 00 01 FF 00 00 0F (调光器地址-外卫射灯, 外卫感应灯关)
2024-09-21 19:51:14.994 - FF
2024-09-21 20:05:44.925 - 19 08 24 03 CC 01 CC 00 01 (调用茶吧感应灯开的按键)
2024-09-21 20:05:44.973 - 1A AA AA AA 88 FF B0 01 FF B0 01 0F (调光器地址-茶吧灯带, 茶吧灯带明亮)
2024-09-21 20:05:47.112 - 19 08 24 03 DD 00 4F 00 01 (调用情景-内卫使用完毕)
2024-09-21 20:05:47.656 - EE 00 00 B1 00 00 00 FF FC FF FF (情景执行提示)
2024-09-21 20:05:48.250 - 09 06 00 0F 02 01 78 21 (提示音叮)
2024-09-21 20:05:48.806 - 1A 0C 02 08 01 FF 00 01 FF 00 01 FF 00 00 0F (调光器地址-内卫射灯, 内卫感应灯关)
2024-09-21 20:05:52.880 - 50 F5 04 (关内卫影视)
2024-09-21 20:05:53.434 - 1A 20 07 01 40 00 01 00 0F (自保持开关地址-内卫顶灯, 内卫顶灯关)
2024-09-21 20:05:53.981 - 1A FF FF FF 56 00 00 01 0F (人体感应地址-内卫, 打开内卫感应)
2024-09-21 20:05:54.046 - BC BC
2024-09-21 20:05:56.574 - 09 06 00 0F 02 02 38 20 (提示音咚)
2024-09-21 20:05:57.126 - EE 00 00 B1 00 00 02 FF FC FF FF (情景完成返回主页)
2024-09-21 20:07:03.089 - 19 08 24 03 CC 01 CD 00 01 (调用茶吧感应灯关的按键)
2024-09-21 20:07:03.141 - 1A AA AA AA 88 FF 00 01 FF 00 01 0F (调光器地址-茶吧灯带, 茶吧灯带关闭)
2024-09-21 20:12:38.253 - 19 08 24 03 CC 01 CC 00 01 (调用茶吧感应灯开的按键)
2024-09-21 20:12:38.282 - 1A AA AA AA 88 FF B0 01 FF B0 01 0F (调光器地址-茶吧灯带, 茶吧灯带明亮)
2024-09-21 20:12:40.408 - 19 08 24 03 CC 00 D3 00 01 (调用厨房感应灯开的按键)
2024-09-21 20:12:40.442 - 55 0A 32 00 00 00 01 92 55 0A 32 00 00 00 02 93 (厨房顶灯一开, 厨房顶灯二开)
2024-09-21 20:12:50.276 - 19 08 24 03 CC 01 CD 00 01 (调用茶吧感应灯关的按键)
2024-09-21 20:12:50.307 - 1A AA AA AA 88 FF 00 01 FF 00 01 0F (调光器地址-茶吧灯带, 茶吧灯带关闭)
2024-09-21 20:13:31.356 - 19 08 24 03 CC 01 CC 00 01 (调用茶吧感应灯开的按键)
2024-09-21 20:13:31.387 - 1A AA AA AA 88 FF B0 01 FF B0 01 0F (调光器地址-茶吧灯带, 茶吧灯带明亮)
2024-09-21 20:13:56.907 - 19 08 24 03 CC 01 CD 00 01 (调用茶吧感应灯关的按键)
2024-09-21 20:13:56.938 - 1A AA AA AA 88 FF 00 01 FF 00 01 0F (调光器地址-茶吧灯带, 茶吧灯带关闭)
2024-09-21 20:14:09.583 - 19 08 24 03 CC 00 D4 00 01 (调用厨房感应灯关的按键)
2024-09-21 20:14:09.617 - 55 0A 31 00 00 00 01 91 55 0A 31 00 00 00 02 92 (厨房顶灯一关, 厨房顶灯二关)
2024-09-21 20:15:48.833 - 19 08 24 03 CC 01 52 00 01 (调用外卫感应灯开的按键)
2024-09-21 20:15:48.865 - 1A 0D 01 07 01 FF 45 01 FF 45 01 FF 00 00 0F (调光器地址-外卫射灯, 外卫感应灯开)
2024-09-21 20:16:10.875 - 19 08 24 03 CC 01 53 00 01 (调用外卫感应灯关的按键)
2024-09-21 20:16:10.910 - 1A 0D 01 07 01 FF 00 01 FF 00 01 FF 00 00 0F (调光器地址-外卫射灯, 外卫感应灯关)
2024-09-21 20:22:32.629 - 19 08 24 03 CC 01 52 00 01 (调用外卫感应灯开的按键)
2024-09-21 20:22:32.663 - 1A 0D 01 07 01 FF 45 01 FF 45 01 FF 00 00 0F (调光器地址-外卫射灯, 外卫感应灯开)
2024-09-21 20:23:05.695 - 19 08 24 03 CC 01 53 00 01 (调用外卫感应灯关的按键)
2024-09-21 20:23:05.728 - 1A 0D 01 07 01 FF 00 01 FF 00 01 FF 00 00 0F (调光器地址-外卫射灯, 外卫感应灯关)
2024-09-21 20:27:54.293 - 19 08 24 03 DD 00 4B 00 01 (调用情景-主卧睡觉)
2024-09-21 20:27:54.810 - EE 00 00 B1 00 00 00 FF FC FF FF (情景执行提示)
2024-09-21 20:27:55.405 - 09 06 00 0F 02 01 78 21 (提示音叮)
2024-09-21 20:27:55.947 - 50 F5 04 (关内卫影视)
2024-09-21 20:27:56.581 - A5 00 53 FE 01 AA (主卧纱帘关)
2024-09-21 20:27:57.645 - A5 00 52 FF 00 AA (主卧窗帘关)
2024-09-21 20:27:58.694 - 1A 22 33 62 0F 00 02 01 0F (正反转地址-内卫卷帘, 内卫卷帘降)
2024-09-21 20:27:59.740 - 1A 20 07 01 40 00 01 00 0F (自保持开关地址-内卫顶灯, 内卫顶灯关)
2024-09-21 20:28:00.786 - 1A 20 07 01 55 00 01 00 0F (自保持开关地址-主卧顶灯, 主卧顶灯只关)
2024-09-21 20:28:01.335 - 1A FF FF FF 56 00 00 01 0F (人体感应地址-内卫, 打开内卫感应)
2024-09-21 20:28:01.349 - BC BC
2024-09-21 20:28:04.984 - 1A 0C 02 08 01 FF 00 01 FF 00 01 FF 00 00 0F (调光器地址-内卫射灯, 内卫感应灯关)
2024-09-21 20:28:05.721 - 1A 0C 02 04 01 FF 00 01 FF 00 01 FF 00 00 0F (调光器地址-主卧筒灯, 主卧筒灯关闭)
2024-09-21 20:28:06.422 - 1A 0C 02 04 03 FF 00 01 FF 00 01 FF 00 00 0F (调光器地址-主卧灯带, 主卧灯带关闭)
2024-09-21 20:28:07.093 - 1A 0C 02 04 04 FF 00 01 FF 00 01 FF 00 00 0F (调光器地址-主卧南阅, 主卧南阅关闭)
2024-09-21 20:28:07.723 - 1A 0C 02 04 05 FF 00 01 FF 00 01 FF 00 00 0F (调光器地址-主卧北阅, 主卧北阅关闭)
2024-09-21 20:28:08.393 - 1A 0C 02 04 02 FF 00 01 FF 00 01 FF 00 00 0F (调光器地址-主卧过道, 主卧过道关闭)
2024-09-21 20:28:09.084 - 09 06 00 0F 02 02 38 20 (提示音咚)
2024-09-21 20:28:09.778 - EE 00 00 B1 00 00 02 FF FC FF FF (情景完成返回主页)
2024-09-21 20:28:12.802 - 19 08 24 03 CC 01 52 00 01 (调用外卫感应灯开的按键)
2024-09-21 20:28:12.971 - 1A 0D 01 07 01 FF 45 01 FF 45 01 FF 00 00 0F (调光器地址-外卫射灯, 外卫感应灯开)
2024-09-21 20:29:11.483 - 19 08 24 03 DD 00 13 00 01 (调用情景-公共区域关)
2024-09-21 20:29:12.159 - EE 00 00 B1 00 00 00 FF FC FF FF (情景执行提示)
2024-09-21 20:29:12.821 - 09 06 00 0F 02 01 78 21 (提示音叮)
2024-09-21 20:29:13.513 - 55 0B 31 00 00 00 01 92 (厨房风扇只关)
2024-09-21 20:29:14.698 - 01 06 07 D3 FF 60 38 9F (餐厅空调关)
2024-09-21 20:29:14.730 - 01 06 07 D3 FF 60 38 9F (餐厅空调关)
2024-09-21 20:29:15.925 - 01 06 07 D0 FF 60 C8 9F (客厅空调关)
2024-09-21 20:29:15.952 - 01 06 07 D0 FF 60 C8 9F (客厅空调关)
2024-09-21 20:29:20.105 - 50 F5 02 (关厨房影视)
2024-09-21 20:29:21.152 - 50 F5 01 (关餐厅影视)
2024-09-21 20:29:22.197 - 50 F5 08 (关客厅影视)
2024-09-21 20:29:23.244 - 50 F5 03 (关外卫影视)
2024-09-21 20:29:24.295 - 55 0A 31 00 00 00 01 91 (厨房顶灯一关)
2024-09-21 20:29:25.341 - 55 0A 31 00 00 00 02 92 (厨房顶灯二关)
2024-09-21 20:29:26.388 - 55 0C 31 00 00 00 01 93 (餐厅顶灯关)
2024-09-21 20:29:27.435 - 1A 18 05 10 31 00 01 00 0F (自保持开关地址-门厅顶灯, 门厅顶灯关)
2024-09-21 20:29:28.482 - 1A 20 07 00 42 00 01 00 0F (自保持开关地址-外卫顶灯, 外卫顶灯关)
2024-09-21 20:29:29.527 - 1A 18 05 21 89 00 01 00 0F (自保持开关地址-客厅顶灯, 客厅顶灯一关)
2024-09-21 20:29:30.574 - 1A 18 05 01 94 00 01 00 0F (自保持开关地址-客厅顶灯, 客厅顶灯二关)
2024-09-21 20:29:31.621 - 1A 20 07 01 30 00 01 00 0F (自保持开关地址-西阳顶灯, 西阳顶灯关)
2024-09-21 20:29:32.672 - 1A FF 01 FF FF FF 00 01 FF 00 01 FF 00 00 0F (调光器地址-公共区域统配地址, 公共区域灯光全关)
2024-09-21 20:29:33.761 - 09 06 00 0F 02 02 38 20 (提示音咚)
2024-09-21 20:29:34.469 - 19 08 24 03 CC 01 53 00 01 (调用外卫感应灯关的按键)
2024-09-21 20:29:34.521 - 1A 0D 01 07 01 FF 00 01 FF 00 01 FF 00 00 0F (调光器地址-外卫射灯, 外卫感应灯关)
2024-09-21 20:29:35.858 - EE 00 00 B1 00 00 02 FF FC FF FF (情景完成返回主页)
2024-09-21 20:34:27.281 - FF
2024-09-21 20:35:45.606 - 19 08 24 03 CC 01 55 00 01 (调用内卫感应灯关的按键)
2024-09-21 20:35:45.657 - 1A 0C 02 08 01 FF 00 01 FF 00 01 FF 00 00 0F (调光器地址-内卫射灯, 内卫感应灯关)
2024-09-21 20:38:41.452 - 19 08 24 03 CC 01 54 00 01 (调用内卫感应灯开的按键)
2024-09-21 20:38:41.505 - 1A 0C 02 08 01 FF 45 01 FF 45 01 FF 00 00 0F (调光器地址-内卫射灯, 内卫射灯微光)
2024-09-21 20:39:26.540 - 19 08 24 03 CC 01 55 00 01 (调用内卫感应灯关的按键)
2024-09-21 20:39:26.574 - 1A 0C 02 08 01 FF 00 01 FF 00 01 FF 00 00 0F (调光器地址-内卫射灯, 内卫感应灯关)
2024-09-21 20:41:26.777 - 19 08 24 03 CC 01 54 00 01 (调用内卫感应灯开的按键)
2024-09-21 20:41:26.811 - 1A 0C 02 08 01 FF 45 01 FF 45 01 FF 00 00 0F (调光器地址-内卫射灯, 内卫射灯微光)
2024-09-21 21:00:39.049 - 19 08 24 03 CC 01 55 00 01 (调用内卫感应灯关的按键)
2024-09-21 21:00:39.083 - 1A 0C 02 08 01 FF 00 01 FF 00 01 FF 00 00 0F (调光器地址-内卫射灯, 内卫感应灯关)
2024-09-21 21:00:47.564 - 19 08 24 03 CC 01 54 00 01 (调用内卫感应灯开的按键)
2024-09-21 21:00:47.598 - 1A 0C 02 08 01 FF 45 01 FF 45 01 FF 00 00 0F (调光器地址-内卫射灯, 内卫射灯微光)
2024-09-21 21:06:04.050 - 1A BE B0 DC 04 (继电器地址-西阳窗帘)
2024-09-21 21:06:04.185 - FF
2024-09-21 21:06:06.922 - FF FF FF FF 0E FC (继电器地址-西阳小窗帘)
2024-09-21 21:06:07.056 - FF
2024-09-21 21:10:27.708 - 19 08 24 03 CC 01 55 00 01 (调用内卫感应灯关的按键)
2024-09-21 21:10:27.760 - 1A 0C 02 08 01 FF 00 01 FF 00 01 FF 00 00 0F (调光器地址-内卫射灯, 内卫感应灯关)
2024-09-21 21:11:01.775 - 19 08 24 03 CC 01 54 00 01 (调用内卫感应灯开的按键)
2024-09-21 21:11:01.828 - 1A 0C 02 08 01 FF 45 01 FF 45 01 FF 00 00 0F (调光器地址-内卫射灯, 内卫射灯微光)
2024-09-21 21:14:12.651 - 19 08 24 03 CC 01 55 00 01 (调用内卫感应灯关的按键)
2024-09-21 21:14:12.686 - 1A 0C 02 08 01 FF 00 01 FF 00 01 FF 00 00 0F (调光器地址-内卫射灯, 内卫感应灯关)
2024-09-21 21:14:30.186 - 19 08 24 03 CC 01 54 00 01 (调用内卫感应灯开的按键)
2024-09-21 21:14:30.220 - 1A 0C 02 08 01 FF 45 01 FF 45 01 FF 00 00 0F (调光器地址-内卫射灯, 内卫射灯微光)
2024-09-21 21:20:16.867 - 1A FF FF FF 04 FC (继电器地址-东阳衣架)
2024-09-21 21:20:17.000 - FF
2024-09-21 21:21:09.682 - 1A BE B0 DC 02 (正反转地址-外卫卷帘)
2024-09-21 21:21:09.818 - FF
2024-09-21 21:27:55.271 - 19 08 24 03 CC 01 55 00 01 (调用内卫感应灯关的按键)
2024-09-21 21:27:55.322 - 1A 0C 02 08 01 FF 00 01 FF 00 01 FF 00 00 0F (调光器地址-内卫射灯, 内卫感应灯关)
2024-09-21 21:30:13.509 - 1A BE B0 DC 01 FE (继电器地址-回水泵点动)
2024-09-21 21:30:13.644 - FF
2024-09-21 21:31:05.053 - 1A BE B0 DC 09 (继电器地址-客厅窗帘)
2024-09-21 21:31:05.190 - FF
2024-09-21 21:31:51.736 - 19 08 24 03 CC 01 54 00 01 (调用内卫感应灯开的按键)
2024-09-21 21:31:51.787 - 1A 0C 02 08 01 FF 45 01 FF 45 01 FF 00 00 0F (调光器地址-内卫射灯, 内卫射灯微光)
2024-09-21 21:33:11.988 - FF
2024-09-21 21:33:15.837 - 1A BE B0 DC 03 FE (继电器地址-西阳天幕)
2024-09-21 21:33:15.971 - FE
2024-09-21 21:36:02.231 - FF
2024-09-21 21:36:09.239 - 1A BE B0 DC 0A (继电器地址-客厅纱帘)
2024-09-21 21:36:09.374 - FF
2024-09-21 21:39:29.638 - 19 08 24 03 CC 01 55 00 01 (调用内卫感应灯关的按键)
2024-09-21 21:39:29.689 - 1A 0C 02 08 01 FF 00 01 FF 00 01 FF 00 00 0F (调光器地址-内卫射灯, 内卫感应灯关)
2024-09-21 21:40:43.284 - 19 08 24 03 CC 01 54 00 01 (调用内卫感应灯开的按键)
2024-09-21 21:40:43.335 - 1A 0C 02 08 01 FF 45 01 FF 45 01 FF 00 00 0F (调光器地址-内卫射灯, 内卫射灯微光)
2024-09-21 21:43:17.086 - 19 08 24 03 CC 01 55 00 01 (调用内卫感应灯关的按键)
2024-09-21 21:43:17.119 - 1A 0C 02 08 01 FF 00 01 FF 00 01 FF 00 00 0F (调光器地址-内卫射灯, 内卫感应灯关)
2024-09-21 21:44:42.100 - 03 00 00 2F 2A E0 00 00 00 00 00 43 6F 6F 6B 69 65 3A 20 6D 73 74 73 68 61 73 68 3D 41 64 6D 69
2024-09-21 21:44:42.116 - 6E 69 73 74 72 0D 0A 01 00 08 00 03 00 00 00
2024-09-21 21:46:35.477 - 19 08 24 03 CC 01 54 00 01 (调用内卫感应灯开的按键)
2024-09-21 21:46:35.528 - 1A 0C 02 08 01 FF 45 01 FF 45 01 FF 00 00 0F (调光器地址-内卫射灯, 内卫射灯微光)
2024-09-21 21:53:18.270 - 19 08 24 03 CC 01 55 00 01 (调用内卫感应灯关的按键)
2024-09-21 21:53:18.304 - 1A 0C 02 08 01 FF 00 01 FF 00 01 FF 00 00 0F (调光器地址-内卫射灯, 内卫感应灯关)
2024-09-21 21:53:42.520 - FF
2024-09-21 21:54:26.904 - 19 08 24 03 CC 01 54 00 01 (调用内卫感应灯开的按键)
2024-09-21 21:54:26.956 - 1A 0C 02 08 01 FF 45 01 FF 45 01 FF 00 00 0F (调光器地址-内卫射灯, 内卫射灯微光)
2024-09-21 21:59:39.357 - FF FF FF FF 0A FC (继电器地址-东阳窗帘)
2024-09-21 21:59:39.491 - FF
2024-09-21 22:01:17.730 - FF
2024-09-21 22:02:58.414 - 19 08 24 03 CC 01 55 00 01 (调用内卫感应灯关的按键)
2024-09-21 22:02:58.466 - 1A 0C 02 08 01 FF 00 01 FF 00 01 FF 00 00 0F (调光器地址-内卫射灯, 内卫感应灯关)
2024-09-21 22:05:52.257 - 19 08 24 03 CC 01 54 00 01 (调用内卫感应灯开的按键)
2024-09-21 22:05:52.290 - 1A 0C 02 08 01 FF 45 01 FF 45 01 FF 00 00 0F (调光器地址-内卫射灯, 内卫射灯微光)
2024-09-21 22:16:52.806 - 19 08 24 03 DD 00 1B 00 01 (调用情景-外卫使用)
2024-09-21 22:16:53.317 - EE 00 00 B1 00 00 00 FF FC FF FF (情景执行提示)
2024-09-21 22:16:53.912 - 09 06 00 0F 02 01 78 21 (提示音叮)
2024-09-21 22:16:54.509 - 1A BE B0 DC 02 00 01 00 (正反转地址-外卫卷帘, 外卫卷帘降)
2024-09-21 22:16:55.051 - 50 F0 03 (开外卫影视)
2024-09-21 22:16:55.607 - 1A FF FF FF 55 00 00 00 0F (人体感应地址-外卫, 关闭外卫感应)
2024-09-21 22:16:56.160 - 1A 0D 01 07 01 FF 45 01 FF 45 01 FF 00 00 0F (调光器地址-外卫射灯, 外卫感应灯开)
2024-09-21 22:16:58.246 - 1A BE B0 DC 01 00 01 00 (继电器地址-回水泵点动, 回水泵点动)
2024-09-21 22:16:59.293 - 1A BE B0 DC 01 00 01 00 (继电器地址-回水泵点动, 回水泵点动)
2024-09-21 22:17:00.339 - 1A BE B0 DC 01 00 01 00 (继电器地址-回水泵点动, 回水泵点动)
2024-09-21 22:17:01.380 - 50 F1 43 (外卫—CH4)
2024-09-21 22:17:18.377 - A1 11 11 11 11 05 (外卫使用浴霸判断)
2024-09-21 22:17:18.600 - 13 03 00 00 00 02 C7 79 (查询外卫温湿度)
2024-09-21 22:17:18.620 - 13 03 04 02 45 01 19 18 05 (外卫温湿度返回)
2024-09-21 22:17:20.422 - 09 06 00 0F 02 02 38 20 (提示音咚)
2024-09-21 22:17:22.468 - EE 00 00 B1 00 00 02 FF FC FF FF (情景完成返回主页)
2024-09-21 22:20:49.532 - 19 08 24 03 CC 01 55 00 01 (调用内卫感应灯关的按键)
2024-09-21 22:20:49.586 - 1A 0C 02 08 01 FF 00 01 FF 00 01 FF 00 00 0F (调光器地址-内卫射灯, 内卫感应灯关)
2024-09-21 22:20:56.546 - 19 08 24 03 CC 01 54 00 01 (调用内卫感应灯开的按键)
2024-09-21 22:20:56.581 - 1A 0C 02 08 01 FF 45 01 FF 45 01 FF 00 00 0F (调光器地址-内卫射灯, 内卫射灯微光)
2024-09-21 22:24:08.426 - 19 08 24 03 CC 01 55 00 01 (调用内卫感应灯关的按键)
2024-09-21 22:24:08.460 - 1A 0C 02 08 01 FF 00 01 FF 00 01 FF 00 00 0F (调光器地址-内卫射灯, 内卫感应灯关)
2024-09-21 22:25:23.574 - 19 08 24 03 CC 01 54 00 01 (调用内卫感应灯开的按键)
2024-09-21 22:25:23.608 - 1A 0C 02 08 01 FF 45 01 FF 45 01 FF 00 00 0F (调光器地址-内卫射灯, 内卫射灯微光)
2024-09-21 22:29:53.655 - FF
2024-09-21 22:30:18.149 - FF
2024-09-21 22:30:39.820 - 19 08 24 03 DD 00 1C 00 01 (调用情景-外卫使用完毕)
2024-09-21 22:30:40.380 - EE 00 00 B1 00 00 00 FF FC FF FF (情景执行提示)
2024-09-21 22:30:40.974 - 09 06 00 0F 02 01 78 21 (提示音叮)
2024-09-21 22:30:41.530 - 1A 0D 01 07 01 FF 00 01 FF 00 01 FF 00 00 0F (调光器地址-外卫射灯, 外卫感应灯关)
2024-09-21 22:30:42.115 - 50 F5 03 (关外卫影视)
2024-09-21 22:30:42.719 - 1A 20 07 00 42 00 01 00 0F (自保持开关地址-外卫顶灯, 外卫顶灯关)
2024-09-21 22:30:43.298 - 1A FF FF FF 55 00 00 01 0F (人体感应地址-外卫, 打开外卫感应)
2024-09-21 22:30:43.388 - BC BC
2024-09-21 22:30:43.698 - 19 08 24 03 CC 01 52 00 01 (调用外卫感应灯开的按键)
2024-09-21 22:30:43.751 - 1A 0D 01 07 01 FF 45 01 FF 45 01 FF 00 00 0F (调光器地址-外卫射灯, 外卫感应灯开)
2024-09-21 22:30:46.132 - 09 06 00 0F 02 02 38 20 (提示音咚)
2024-09-21 22:30:46.682 - EE 00 00 B1 00 00 02 FF FC FF FF (情景完成返回主页)
2024-09-21 22:30:53.419 - 19 08 24 03 CC 01 53 00 01 (调用外卫感应灯关的按键)
2024-09-21 22:30:53.454 - 1A 0D 01 07 01 FF 00 01 FF 00 01 FF 00 00 0F (调光器地址-外卫射灯, 外卫感应灯关)
2024-09-21 22:34:27.086 - 19 08 24 03 CC 01 CC 00 01 (调用茶吧感应灯开的按键)
2024-09-21 22:34:27.117 - 1A AA AA AA 88 FF B0 01 FF B0 01 0F (调光器地址-茶吧灯带, 茶吧灯带明亮)
2024-09-21 22:34:31.221 - 19 08 24 03 CC 00 D3 00 01 (调用厨房感应灯开的按键)
2024-09-21 22:34:31.256 - 55 0A 32 00 00 00 01 92 55 0A 32 00 00 00 02 93 (厨房顶灯一开, 厨房顶灯二开)
2024-09-21 22:34:40.111 - 19 08 24 03 CC 01 CD 00 01 (调用茶吧感应灯关的按键)
2024-09-21 22:34:40.143 - 1A AA AA AA 88 FF 00 01 FF 00 01 0F (调光器地址-茶吧灯带, 茶吧灯带关闭)
2024-09-21 22:34:51.134 - 19 08 24 03 CC 01 CC 00 01 (调用茶吧感应灯开的按键)
2024-09-21 22:34:51.165 - 1A AA AA AA 88 FF B0 01 FF B0 01 0F (调光器地址-茶吧灯带, 茶吧灯带明亮)
2024-09-21 22:35:21.194 - 19 08 24 03 CC 01 CD 00 01 (调用茶吧感应灯关的按键)
2024-09-21 22:35:21.225 - 1A AA AA AA 88 FF 00 01 FF 00 01 0F (调光器地址-茶吧灯带, 茶吧灯带关闭)
2024-09-21 22:35:44.364 - 19 08 24 03 CC 00 D4 00 01 (调用厨房感应灯关的按键)
2024-09-21 22:35:44.400 - 55 0A 31 00 00 00 01 91 55 0A 31 00 00 00 02 92 (厨房顶灯一关, 厨房顶灯二关)
2024-09-21 22:39:40.273 - 19 08 24 03 CC 01 55 00 01 (调用内卫感应灯关的按键)
2024-09-21 22:39:40.307 - 1A 0C 02 08 01 FF 00 01 FF 00 01 FF 00 00 0F (调光器地址-内卫射灯, 内卫感应灯关)
2024-09-21 22:39:49.792 - 19 08 24 03 CC 01 54 00 01 (调用内卫感应灯开的按键)
2024-09-21 22:39:49.825 - 1A 0C 02 08 01 FF 45 01 FF 45 01 FF 00 00 0F (调光器地址-内卫射灯, 内卫射灯微光)
2024-09-21 22:45:47.496 - 19 08 24 03 CC 01 55 00 01 (调用内卫感应灯关的按键)
2024-09-21 22:45:47.530 - 1A 0C 02 08 01 FF 00 01 FF 00 01 FF 00 00 0F (调光器地址-内卫射灯, 内卫感应灯关)
2024-09-21 22:46:48.618 - 19 08 24 03 CC 01 54 00 01 (调用内卫感应灯开的按键)
2024-09-21 22:46:48.650 - 1A 0C 02 08 01 FF 45 01 FF 45 01 FF 00 00 0F (调光器地址-内卫射灯, 内卫射灯微光)
2024-09-21 22:58:28.496 - 19 08 24 03 CC 01 55 00 01 (调用内卫感应灯关的按键)
2024-09-21 22:58:28.529 - 1A 0C 02 08 01 FF 00 01 FF 00 01 FF 00 00 0F (调光器地址-内卫射灯, 内卫感应灯关)
2024-09-21 22:58:48.534 - 19 08 24 03 CC 01 54 00 01 (调用内卫感应灯开的按键)
2024-09-21 22:58:48.568 - 1A 0C 02 08 01 FF 45 01 FF 45 01 FF 00 00 0F (调光器地址-内卫射灯, 内卫射灯微光)
2024-09-21 23:03:22.246 - FF
2024-09-21 23:12:24.423 - 19 08 24 03 DD 00 47 00 01 (调用情景-主卧微光)
2024-09-21 23:12:24.956 - EE 00 00 B1 00 00 00 FF FC FF FF (情景执行提示)
2024-09-21 23:12:25.551 - 09 06 00 0F 02 01 78 21 (提示音叮)
2024-09-21 23:12:26.143 - 1A 0C 02 04 02 FF 45 01 FF 45 01 FF 00 00 0F (调光器地址-主卧过道, 主卧过道微光)
2024-09-21 23:12:26.705 - 1A 0C 02 04 03 FF 45 01 FF 45 01 FF 00 00 0F (调光器地址-主卧灯带, 主卧灯带微光)
2024-09-21 23:12:27.302 - 1A 0C 02 04 05 FF 45 01 FF 45 01 FF 00 00 0F (调光器地址-主卧北阅, 主卧北阅微光)
2024-09-21 23:12:27.900 - 1A 0C 02 04 04 FF 45 01 FF 45 01 FF 00 00 0F (调光器地址-主卧南阅, 主卧南阅微光)
2024-09-21 23:12:28.499 - 1A 0C 02 04 01 FF 45 01 FF 45 01 FF 00 00 0F (调光器地址-主卧筒灯, 主卧筒灯微光)
2024-09-21 23:12:29.089 - 09 06 00 0F 02 02 38 20 (提示音咚)
2024-09-21 23:12:29.640 - EE 00 00 B1 00 00 02 FF FC FF FF (情景完成返回主页)
2024-09-21 23:26:44.353 - 19 08 24 03 CC 01 55 00 01 (调用内卫感应灯关的按键)
2024-09-21 23:26:44.404 - 1A 0C 02 08 01 FF 00 01 FF 00 01 FF 00 00 0F (调光器地址-内卫射灯, 内卫感应灯关)
2024-09-21 23:27:54.992 - 19 08 24 03 CC 01 54 00 01 (调用内卫感应灯开的按键)
2024-09-21 23:27:55.024 - 1A 0C 02 08 01 FF 45 01 FF 45 01 FF 00 00 0F (调光器地址-内卫射灯, 内卫射灯微光)
2024-09-21 23:28:38.575 - FF
2024-09-21 23:31:37.931 - 19 08 24 03 CC 01 55 00 01 (调用内卫感应灯关的按键)
2024-09-21 23:31:37.982 - 1A 0C 02 08 01 FF 00 01 FF 00 01 FF 00 00 0F (调光器地址-内卫射灯, 内卫感应灯关)
2024-09-21 23:33:51.694 - 19 08 24 03 CC 01 54 00 01 (调用内卫感应灯开的按键)
2024-09-21 23:33:51.747 - 1A 0C 02 08 01 FF 45 01 FF 45 01 FF 00 00 0F (调光器地址-内卫射灯, 内卫射灯微光)
2024-09-21 23:35:32.393 - 19 08 24 03 CC 01 55 00 01 (调用内卫感应灯关的按键)
2024-09-21 23:35:32.428 - 1A 0C 02 08 01 FF 00 01 FF 00 01 FF 00 00 0F (调光器地址-内卫射灯, 内卫感应灯关)
2024-09-21 23:35:33.395 - 19 08 24 03 CC 01 54 00 01 (调用内卫感应灯开的按键)
2024-09-21 23:35:33.429 - 1A 0C 02 08 01 FF 45 01 FF 45 01 FF 00 00 0F (调光器地址-内卫射灯, 内卫射灯微光)
2024-09-21 23:47:47.341 - 19 08 24 03 CC 01 55 00 01 (调用内卫感应灯关的按键)
2024-09-21 23:47:47.375 - 1A 0C 02 08 01 FF 00 01 FF 00 01 FF 00 00 0F (调光器地址-内卫射灯, 内卫感应灯关)
2024-09-21 23:48:36.438 - 19 08 24 03 CC 01 54 00 01 (调用内卫感应灯开的按键)
2024-09-21 23:48:36.471 - 1A 0C 02 08 01 FF 45 01 FF 45 01 FF 00 00 0F (调光器地址-内卫射灯, 内卫射灯微光)
2024-09-21 23:49:44.071 - 19 08 24 03 CC 01 55 00 01 (调用内卫感应灯关的按键)
2024-09-21 23:49:44.105 - 1A 0C 02 08 01 FF 00 01 FF 00 01 FF 00 00 0F (调光器地址-内卫射灯, 内卫感应灯关)
2024-09-21 23:53:22.000 - 19 08 24 03 CC 01 54 00 01 (调用内卫感应灯开的按键)
2024-09-21 23:53:22.033 - 1A 0C 02 08 01 FF 45 01 FF 45 01 FF 00 00 0F (调光器地址-内卫射灯, 内卫射灯微光)
2024-09-21 23:54:53.180 - 19 08 24 03 CC 01 55 00 01 (调用内卫感应灯关的按键)
2024-09-21 23:54:53.214 - 1A 0C 02 08 01 FF 00 01 FF 00 01 FF 00 00 0F (调光器地址-内卫射灯, 内卫感应灯关)
2024-09-21 23:55:33.258 - 19 08 24 03 CC 01 54 00 01 (调用内卫感应灯开的按键)
2024-09-21 23:55:33.293 - 1A 0C 02 08 01 FF 45 01 FF 45 01 FF 00 00 0F (调光器地址-内卫射灯, 内卫射灯微光)
2024-09-21 23:55:59.810 - 19 08 24 03 CC 01 55 00 01 (调用内卫感应灯关的按键)
2024-09-21 23:55:59.874 - 1A 0C 02 08 01 FF 00 01 FF 00 01 FF 00 00 0F (调光器地址-内卫射灯, 内卫感应灯关)
2024-09-21 23:57:18.966 - 19 08 24 03 CC 01 54 00 01 (调用内卫感应灯开的按键)
2024-09-21 23:57:19.002 - 1A 0C 02 08 01 FF 45 01 FF 45 01 FF 00 00 0F (调光器地址-内卫射灯, 内卫射灯微光)
2024-09-22 00:09:28.906 - 19 08 24 03 CC 01 55 00 01 (调用内卫感应灯关的按键)
2024-09-22 00:09:28.938 - 1A 0C 02 08 01 FF 00 01 FF 00 01 FF 00 00 0F (调光器地址-内卫射灯, 内卫感应灯关)
2024-09-22 00:10:20.507 - 19 08 24 03 CC 01 54 00 01 (调用内卫感应灯开的按键)
2024-09-22 00:10:20.541 - 1A 0C 02 08 01 FF 45 01 FF 45 01 FF 00 00 0F (调光器地址-内卫射灯, 内卫射灯微光)
2024-09-22 00:23:49.979 - FF
2024-09-22 00:25:03.093 - FF
2024-09-22 00:27:28.954 - 1A BE B0 DC 04 FD (继电器地址-西阳窗帘)
2024-09-22 00:27:29.088 - FF
2024-09-22 00:27:37.506 - FF FF FF FF 0E FC (继电器地址-西阳小窗帘)
2024-09-22 00:27:37.640 - FF
2024-09-22 00:30:24.878 - 19 08 24 03 CC 01 55 00 01 (调用内卫感应灯关的按键)
2024-09-22 00:30:24.930 - 1A 0C 02 08 01 FF 00 01 FF 00 01 FF 00 00 0F (调光器地址-内卫射灯, 内卫感应灯关)
2024-09-22 00:31:41.531 - 19 08 24 03 CC 01 54 00 01 (调用内卫感应灯开的按键)
2024-09-22 00:31:41.582 - 1A 0C 02 08 01 FF 45 01 FF 45 01 FF 00 00 0F (调光器地址-内卫射灯, 内卫射灯微光)
2024-09-22 00:34:13.589 - FF
2024-09-22 00:41:34.697 - 19 08 24 03 CC 01 55 00 01 (调用内卫感应灯关的按键)
2024-09-22 00:41:34.750 - 1A 0C 02 08 01 FF 00 01 FF 00 01 FF 00 00 0F (调光器地址-内卫射灯, 内卫感应灯关)
2024-09-22 00:42:10.186 - 1A FF FF FF 04 (继电器地址-东阳衣架)
2024-09-22 00:42:10.322 - FF
2024-09-22 00:42:52.241 - 1A BE B0 DC 02 (正反转地址-外卫卷帘)
2024-09-22 00:43:21.407 - 19 08 24 03 CC 01 54 00 01 (调用内卫感应灯开的按键)
2024-09-22 00:43:21.491 - 1A 0C 02 08 01 FF 45 01 FF 45 01 FF 00 00 0F (调光器地址-内卫射灯, 内卫射灯微光)
2024-09-22 00:47:06.350 - 19 08 24 03 CC 01 55 00 01 (调用内卫感应灯关的按键)
2024-09-22 00:47:06.403 - 1A 0C 02 08 01 FF 00 01 FF 00 01 FF 00 00 0F (调光器地址-内卫射灯, 内卫感应灯关)
2024-09-22 00:48:45.546 - 19 08 24 03 CC 01 54 00 01 (调用内卫感应灯开的按键)
2024-09-22 00:48:45.581 - 1A 0C 02 08 01 FF 45 01 FF 45 01 FF 00 00 0F (调光器地址-内卫射灯, 内卫射灯微光)
2024-09-22 00:50:50.792 - 19 08 24 03 CC 01 55 00 01 (调用内卫感应灯关的按键)
2024-09-22 00:50:50.826 - 1A 0C 02 08 01 FF 00 01 FF 00 01 FF 00 00 0F (调光器地址-内卫射灯, 内卫感应灯关)
2024-09-22 00:51:00.311 - 19 08 24 03 CC 01 54 00 01 (调用内卫感应灯开的按键)
2024-09-22 00:51:00.344 - 1A 0C 02 08 01 FF 45 01 FF 45 01 FF 00 00 0F (调光器地址-内卫射灯, 内卫射灯微光)
2024-09-22 00:52:02.956 - 1A BE B0 DC 01 (继电器地址-回水泵点动)
2024-09-22 00:52:44.097 - 1A BE B0 DC 09 FD (继电器地址-客厅窗帘)
2024-09-22 00:54:55.273 - 19 08 24 03 CC 01 55 00 01 (调用内卫感应灯关的按键)
2024-09-22 00:54:55.324 - 1A 0C 02 08 01 FF 00 01 FF 00 01 FF 00 00 0F (调光器地址-内卫射灯, 内卫感应灯关)
2024-09-22 00:55:08.243 - 1A BE B0 DC 03 (继电器地址-西阳天幕)
2024-09-22 00:57:24.567 - 19 08 24 03 CC 01 54 00 01 (调用内卫感应灯开的按键)
2024-09-22 00:57:24.621 - 1A 0C 02 08 01 FF 45 01 FF 45 01 FF 00 00 0F (调光器地址-内卫射灯, 内卫射灯微光)
2024-09-22 00:57:54.517 - 1A BE B0 DC 0A (继电器地址-客厅纱帘)
2024-09-22 00:57:54.653 - FE
2024-09-22 00:59:00.256 - 19 08 24 03 CC 01 55 00 01 (调用内卫感应灯关的按键)
2024-09-22 00:59:00.307 - 1A 0C 02 08 01 FF 00 01 FF 00 01 FF 00 00 0F (调光器地址-内卫射灯, 内卫感应灯关)
2024-09-22 01:00:39.450 - 19 08 24 03 CC 01 54 00 01 (调用内卫感应灯开的按键)
2024-09-22 01:00:39.503 - 1A 0C 02 08 01 FF 45 01 FF 45 01 FF 00 00 0F (调光器地址-内卫射灯, 内卫射灯微光)
2024-09-22 01:00:55.984 - 19 08 24 03 CC 01 55 00 01 (调用内卫感应灯关的按键)
2024-09-22 01:00:56.017 - 1A 0C 02 08 01 FF 00 01 FF 00 01 FF 00 00 0F (调光器地址-内卫射灯, 内卫感应灯关)
2024-09-22 01:01:50.591 - 19 08 24 03 CC 01 54 00 01 (调用内卫感应灯开的按键)
2024-09-22 01:01:50.625 - 1A 0C 02 08 01 FF 45 01 FF 45 01 FF 00 00 0F (调光器地址-内卫射灯, 内卫射灯微光)
2024-09-22 01:02:19.648 - 19 08 24 03 CC 01 55 00 01 (调用内卫感应灯关的按键)
2024-09-22 01:02:19.682 - 1A 0C 02 08 01 FF 00 01 FF 00 01 FF 00 00 0F (调光器地址-内卫射灯, 内卫感应灯关)
2024-09-22 01:02:55.720 - 19 08 24 03 CC 01 54 00 01 (调用内卫感应灯开的按键)
2024-09-22 01:02:55.752 - 1A 0C 02 08 01 FF 45 01 FF 45 01 FF 00 00 0F (调光器地址-内卫射灯, 内卫射灯微光)
2024-09-22 01:03:19.767 - 19 08 24 03 CC 01 55 00 01 (调用内卫感应灯关的按键)
2024-09-22 01:03:19.801 - 1A 0C 02 08 01 FF 00 01 FF 00 01 FF 00 00 0F (调光器地址-内卫射灯, 内卫感应灯关)
2024-09-22 01:07:59.818 - 19 08 24 03 CC 01 54 00 01 (调用内卫感应灯开的按键)
2024-09-22 01:07:59.852 - 1A 0C 02 08 01 FF 45 01 FF 45 01 FF 00 00 0F (调光器地址-内卫射灯, 内卫射灯微光)
2024-09-22 01:08:22.361 - 19 08 24 03 CC 01 55 00 01 (调用内卫感应灯关的按键)
2024-09-22 01:08:22.396 - 1A 0C 02 08 01 FF 00 01 FF 00 01 FF 00 00 0F (调光器地址-内卫射灯, 内卫感应灯关)
2024-09-22 01:09:13.965 - 19 08 24 03 CC 01 54 00 01 (调用内卫感应灯开的按键)
2024-09-22 01:09:13.998 - 1A 0C 02 08 01 FF 45 01 FF 45 01 FF 00 00 0F (调光器地址-内卫射灯, 内卫射灯微光)
2024-09-22 01:09:35.006 - 19 08 24 03 CC 01 55 00 01 (调用内卫感应灯关的按键)
2024-09-22 01:09:35.038 - 1A 0C 02 08 01 FF 00 01 FF 00 01 FF 00 00 0F (调光器地址-内卫射灯, 内卫感应灯关)
2024-09-22 01:10:09.574 - 19 08 24 03 CC 01 54 00 01 (调用内卫感应灯开的按键)
2024-09-22 01:10:09.608 - 1A 0C 02 08 01 FF 45 01 FF 45 01 FF 00 00 0F (调光器地址-内卫射灯, 内卫射灯微光)
2024-09-22 01:10:27.608 - 19 08 24 03 CC 01 55 00 01 (调用内卫感应灯关的按键)
2024-09-22 01:10:27.643 - 1A 0C 02 08 01 FF 00 01 FF 00 01 FF 00 00 0F (调光器地址-内卫射灯, 内卫感应灯关)
2024-09-22 01:10:39.131 - 19 08 24 03 CC 01 54 00 01 (调用内卫感应灯开的按键)
2024-09-22 01:10:39.166 - 1A 0C 02 08 01 FF 45 01 FF 45 01 FF 00 00 0F (调光器地址-内卫射灯, 内卫射灯微光)
2024-09-22 01:11:17.708 - 19 08 24 03 CC 01 55 00 01 (调用内卫感应灯关的按键)
2024-09-22 01:11:17.742 - 1A 0C 02 08 01 FF 00 01 FF 00 01 FF 00 00 0F (调光器地址-内卫射灯, 内卫感应灯关)
2024-09-22 01:11:18.711 - 19 08 24 03 CC 01 54 00 01 (调用内卫感应灯开的按键)
2024-09-22 01:11:18.744 - 1A 0C 02 08 01 FF 45 01 FF 45 01 FF 00 00 0F (调光器地址-内卫射灯, 内卫射灯微光)
2024-09-22 01:13:58.025 - 19 08 24 03 CC 01 55 00 01 (调用内卫感应灯关的按键)
2024-09-22 01:13:58.057 - 1A 0C 02 08 01 FF 00 01 FF 00 01 FF 00 00 0F (调光器地址-内卫射灯, 内卫感应灯关)
2024-09-22 01:16:08.781 - 19 08 24 03 CC 01 54 00 01 (调用内卫感应灯开的按键)
2024-09-22 01:16:08.815 - 1A 0C 02 08 01 FF 45 01 FF 45 01 FF 00 00 0F (调光器地址-内卫射灯, 内卫射灯微光)
2024-09-22 01:19:09.951 - FF
2024-09-22 01:19:59.736 - 19 08 24 03 CC 01 55 00 01 (调用内卫感应灯关的按键)
2024-09-22 01:19:59.788 - 1A 0C 02 08 01 FF 00 01 FF 00 01 FF 00 00 0F (调光器地址-内卫射灯, 内卫感应灯关)
2024-09-22 01:21:37.429 - 19 08 24 03 CC 01 54 00 01 (调用内卫感应灯开的按键)
2024-09-22 01:21:37.480 - 1A 0C 02 08 01 FF 45 01 FF 45 01 FF 00 00 0F (调光器地址-内卫射灯, 内卫射灯微光)
2024-09-22 01:22:02.478 - 19 08 24 03 CC 01 55 00 01 (调用内卫感应灯关的按键)
2024-09-22 01:22:02.512 - 1A 0C 02 08 01 FF 00 01 FF 00 01 FF 00 00 0F (调光器地址-内卫射灯, 内卫感应灯关)
2024-09-22 01:22:57.855 - FF FF FF FF 0A FD (继电器地址-东阳窗帘)
2024-09-22 01:22:57.988 - FF
2024-09-22 01:24:48.804 - 19 08 24 03 CC 01 54 00 01 (调用内卫感应灯开的按键)
2024-09-22 01:24:48.857 - 1A 0C 02 08 01 FF 45 01 FF 45 01 FF 00 00 0F (调光器地址-内卫射灯, 内卫射灯微光)
2024-09-22 01:26:27.499 - 19 08 24 03 CC 01 55 00 01 (调用内卫感应灯关的按键)
2024-09-22 01:26:27.552 - 1A 0C 02 08 01 FF 00 01 FF 00 01 FF 00 00 0F (调光器地址-内卫射灯, 内卫感应灯关)
2024-09-22 01:30:55.026 - 19 08 24 03 CC 01 54 00 01 (调用内卫感应灯开的按键)
2024-09-22 01:30:55.060 - 1A 0C 02 08 01 FF 45 01 FF 45 01 FF 00 00 0F (调光器地址-内卫射灯, 内卫射灯微光)
2024-09-22 01:35:53.112 - 19 08 24 03 CC 01 55 00 01 (调用内卫感应灯关的按键)
2024-09-22 01:35:53.146 - 1A 0C 02 08 01 FF 00 01 FF 00 01 FF 00 00 0F (调光器地址-内卫射灯, 内卫感应灯关)
2024-09-22 01:41:01.467 - FF
2024-09-22 01:43:44.040 - 19 08 24 03 CC 01 54 00 01 (调用内卫感应灯开的按键)
2024-09-22 01:43:44.092 - 1A 0C 02 08 01 FF 45 01 FF 45 01 FF 00 00 0F (调光器地址-内卫射灯, 内卫射灯微光)
2024-09-22 01:44:51.173 - 19 08 24 03 CC 01 55 00 01 (调用内卫感应灯关的按键)
2024-09-22 01:44:51.224 - 1A 0C 02 08 01 FF 00 01 FF 00 01 FF 00 00 0F (调光器地址-内卫射灯, 内卫感应灯关)
2024-09-22 02:24:57.911 - 19 08 24 03 CC 01 54 00 01 (调用内卫感应灯开的按键)
2024-09-22 02:24:57.945 - 1A 0C 02 08 01 FF 45 01 FF 45 01 FF 00 00 0F (调光器地址-内卫射灯, 内卫射灯微光)
2024-09-22 02:25:23.961 - 19 08 24 03 CC 01 55 00 01 (调用内卫感应灯关的按键)
2024-09-22 02:25:23.998 - 1A 0C 02 08 01 FF 00 01 FF 00 01 FF 00 00 0F (调光器地址-内卫射灯, 内卫感应灯关)
2024-09-22 02:28:03.777 - 19 08 24 03 CC 01 54 00 01 (调用内卫感应灯开的按键)
2024-09-22 02:28:03.811 - 1A 0C 02 08 01 FF 45 01 FF 45 01 FF 00 00 0F (调光器地址-内卫射灯, 内卫射灯微光)
2024-09-22 02:30:08.523 - 19 08 24 03 CC 01 55 00 01 (调用内卫感应灯关的按键)
2024-09-22 02:30:08.555 - 1A 0C 02 08 01 FF 00 01 FF 00 01 FF 00 00 0F (调光器地址-内卫射灯, 内卫感应灯关)
2024-09-22 02:31:59.741 - 19 08 24 03 CC 01 54 00 01 (调用内卫感应灯开的按键)
2024-09-22 02:31:59.776 - 1A 0C 02 08 01 FF 45 01 FF 45 01 FF 00 00 0F (调光器地址-内卫射灯, 内卫射灯微光)
2024-09-22 02:32:42.826 - 19 08 24 03 CC 01 55 00 01 (调用内卫感应灯关的按键)
2024-09-22 02:32:42.860 - 1A 0C 02 08 01 FF 00 01 FF 00 01 FF 00 00 0F (调光器地址-内卫射灯, 内卫感应灯关)
2024-09-22 02:33:32.423 - 19 08 24 03 CC 01 54 00 01 (调用内卫感应灯开的按键)
2024-09-22 02:33:32.488 - 1A 0C 02 08 01 FF 45 01 FF 45 01 FF 00 00 0F (调光器地址-内卫射灯, 内卫射灯微光)
2024-09-22 02:34:27.032 - 19 08 24 03 CC 01 55 00 01 (调用内卫感应灯关的按键)
2024-09-22 02:34:27.064 - 1A 0C 02 08 01 FF 00 01 FF 00 01 FF 00 00 0F (调光器地址-内卫射灯, 内卫感应灯关)
2024-09-22 02:36:18.250 - 19 08 24 03 CC 01 54 00 01 (调用内卫感应灯开的按键)
2024-09-22 02:36:18.284 - 1A 0C 02 08 01 FF 45 01 FF 45 01 FF 00 00 0F (调光器地址-内卫射灯, 内卫射灯微光)
2024-09-22 02:37:24.199 - FF
2024-09-22 02:37:58.789 - FF
2024-09-22 02:38:16.984 - 19 08 24 03 CC 01 55 00 01 (调用内卫感应灯关的按键)
2024-09-22 02:38:17.038 - 1A 0C 02 08 01 FF 00 01 FF 00 01 FF 00 00 0F (调光器地址-内卫射灯, 内卫感应灯关)
2024-09-22 02:40:54.795 - 19 08 24 03 CC 01 54 00 01 (调用内卫感应灯开的按键)
2024-09-22 02:40:54.828 - 1A 0C 02 08 01 FF 45 01 FF 45 01 FF 00 00 0F (调光器地址-内卫射灯, 内卫射灯微光)
2024-09-22 02:41:34.372 - 19 08 24 03 CC 01 55 00 01 (调用内卫感应灯关的按键)
2024-09-22 02:41:34.407 - 1A 0C 02 08 01 FF 00 01 FF 00 01 FF 00 00 0F (调光器地址-内卫射灯, 内卫感应灯关)
2024-09-22 02:55:36.030 - 19 08 24 03 CC 01 54 00 01 (调用内卫感应灯开的按键)
2024-09-22 02:55:36.064 - 1A 0C 02 08 01 FF 45 01 FF 45 01 FF 00 00 0F (调光器地址-内卫射灯, 内卫射灯微光)
2024-09-22 02:56:31.639 - 19 08 24 03 CC 01 55 00 01 (调用内卫感应灯关的按键)
2024-09-22 02:56:31.673 - 1A 0C 02 08 01 FF 00 01 FF 00 01 FF 00 00 0F (调光器地址-内卫射灯, 内卫感应灯关)
2024-09-22 02:59:31.903 - 50 F7 01 (全屋影音全关)
2024-09-22 02:59:43.596 - 19 08 24 03 CC 00 D3 00 01 (调用厨房感应灯开的按键)
2024-09-22 02:59:43.632 - 55 0A 32 00 00 00 01 92 55 0A 32 00 00 00 02 93 (厨房顶灯一开, 厨房顶灯二开)
2024-09-22 03:00:18.666 - 19 08 24 03 CC 00 D4 00 01 (调用厨房感应灯关的按键)
2024-09-22 03:00:18.700 - 55 0A 31 00 00 00 01 91 55 0A 31 00 00 00 02 92 (厨房顶灯一关, 厨房顶灯二关)
2024-09-22 03:08:20.536 - 19 08 24 03 CC 01 54 00 01 (调用内卫感应灯开的按键)
2024-09-22 03:08:20.570 - 1A 0C 02 08 01 FF 45 01 FF 45 01 FF 00 00 0F (调光器地址-内卫射灯, 内卫射灯微光)
2024-09-22 03:09:20.654 - 19 08 24 03 CC 01 55 00 01 (调用内卫感应灯关的按键)
2024-09-22 03:09:20.689 - 1A 0C 02 08 01 FF 00 01 FF 00 01 FF 00 00 0F (调光器地址-内卫射灯, 内卫感应灯关)
2024-09-22 03:11:01.352 - 19 08 24 03 CC 01 54 00 01 (调用内卫感应灯开的按键)
2024-09-22 03:11:01.386 - 1A 0C 02 08 01 FF 45 01 FF 45 01 FF 00 00 0F (调光器地址-内卫射灯, 内卫射灯微光)
2024-09-22 03:11:39.427 - 19 08 24 03 CC 01 55 00 01 (调用内卫感应灯关的按键)
2024-09-22 03:11:39.487 - 1A 0C 02 08 01 FF 00 01 FF 00 01 FF 00 00 0F (调光器地址-内卫射灯, 内卫感应灯关)
2024-09-22 03:17:11.582 - 19 08 24 03 CC 01 54 00 01 (调用内卫感应灯开的按键)
2024-09-22 03:17:11.617 - 1A 0C 02 08 01 FF 45 01 FF 45 01 FF 00 00 0F (调光器地址-内卫射灯, 内卫射灯微光)
2024-09-22 03:18:49.515 - 19 08 24 03 CC 01 52 00 01 (调用外卫感应灯开的按键)
2024-09-22 03:18:49.549 - 1A 0D 01 07 01 FF 45 01 FF 45 01 FF 00 00 0F (调光器地址-外卫射灯, 外卫感应灯开)
2024-09-22 03:19:08.050 - 19 08 24 03 CC 01 53 00 01 (调用外卫感应灯关的按键)
2024-09-22 03:19:08.084 - 1A 0D 01 07 01 FF 00 01 FF 00 01 FF 00 00 0F (调光器地址-外卫射灯, 外卫感应灯关)
2024-09-22 03:19:11.645 - 19 08 24 03 DD 00 4B 00 01 (调用情景-主卧睡觉)
2024-09-22 03:19:12.174 - EE 00 00 B1 00 00 00 FF FC FF FF (情景执行提示)
2024-09-22 03:19:12.769 - 09 06 00 0F 02 01 78 21 (提示音叮)
2024-09-22 03:19:13.311 - 50 F5 04 (关内卫影视)
2024-09-22 03:19:13.862 - A5 00 53 FE 01 AA (主卧纱帘关)
2024-09-22 03:19:14.909 - A5 00 52 FF 00 AA (主卧窗帘关)
2024-09-22 03:19:15.957 - 1A 22 33 62 0F 00 02 01 0F (正反转地址-内卫卷帘, 内卫卷帘降)
2024-09-22 03:19:17.004 - 1A 20 07 01 40 00 01 00 0F (自保持开关地址-内卫顶灯, 内卫顶灯关)
2024-09-22 03:19:18.051 - 1A 20 07 01 55 00 01 00 0F (自保持开关地址-主卧顶灯, 主卧顶灯只关)
2024-09-22 03:19:18.599 - 1A FF FF FF 56 00 00 01 0F (人体感应地址-内卫, 打开内卫感应)
2024-09-22 03:19:18.612 - BC BC
2024-09-22 03:19:22.195 - 1A 0C 02 08 01 FF 00 01 FF 00 01 FF 00 00 0F (调光器地址-内卫射灯, 内卫感应灯关)
2024-09-22 03:19:22.794 - 1A 0C 02 04 01 FF 00 01 FF 00 01 FF 00 00 0F (调光器地址-主卧筒灯, 主卧筒灯关闭)
2024-09-22 03:19:23.393 - 1A 0C 02 04 03 FF 00 01 FF 00 01 FF 00 00 0F (调光器地址-主卧灯带, 主卧灯带关闭)
2024-09-22 03:19:23.990 - 1A 0C 02 04 04 FF 00 01 FF 00 01 FF 00 00 0F (调光器地址-主卧南阅, 主卧南阅关闭)
2024-09-22 03:19:24.587 - 1A 0C 02 04 05 FF 00 01 FF 00 01 FF 00 00 0F (调光器地址-主卧北阅, 主卧北阅关闭)
2024-09-22 03:19:24.853 - 19 08 24 03 CC 01 55 00 01 (调用内卫感应灯关的按键)
2024-09-22 03:19:24.906 - 1A 0C 02 08 01 FF 00 01 FF 00 01 FF 00 00 0F (调光器地址-内卫射灯, 内卫感应灯关)
2024-09-22 03:19:25.313 - 1A 0C 02 04 02 FF 00 01 FF 00 01 FF 00 00 0F (调光器地址-主卧过道, 主卧过道关闭)
2024-09-22 03:19:25.927 - 09 06 00 0F 02 02 38 20 (提示音咚)
2024-09-22 03:19:26.476 - EE 00 00 B1 00 00 02 FF FC FF FF (情景完成返回主页)
2024-09-22 03:19:45.393 - 19 08 24 03 CC 01 54 00 01 (调用内卫感应灯开的按键)
2024-09-22 03:19:45.429 - 1A 0C 02 08 01 FF 45 01 FF 45 01 FF 00 00 0F (调光器地址-内卫射灯, 内卫射灯微光)
2024-09-22 03:20:09.943 - 19 08 24 03 CC 01 55 00 01 (调用内卫感应灯关的按键)
2024-09-22 03:20:09.978 - 1A 0C 02 08 01 FF 00 01 FF 00 01 FF 00 00 0F (调光器地址-内卫射灯, 内卫感应灯关)
2024-09-22 03:20:44.511 - 19 08 24 03 CC 01 54 00 01 (调用内卫感应灯开的按键)
2024-09-22 03:20:44.545 - 1A 0C 02 08 01 FF 45 01 FF 45 01 FF 00 00 0F (调光器地址-内卫射灯, 内卫射灯微光)
2024-09-22 03:21:05.553 - 19 08 24 03 CC 01 55 00 01 (调用内卫感应灯关的按键)
2024-09-22 03:21:05.587 - 1A 0C 02 08 01 FF 00 01 FF 00 01 FF 00 00 0F (调光器地址-内卫射灯, 内卫感应灯关)
2024-09-22 03:21:42.625 - 19 08 24 03 CC 01 54 00 01 (调用内卫感应灯开的按键)
2024-09-22 03:21:42.660 - 1A 0C 02 08 01 FF 45 01 FF 45 01 FF 00 00 0F (调光器地址-内卫射灯, 内卫射灯微光)
2024-09-22 03:22:04.168 - 19 08 24 03 CC 01 55 00 01 (调用内卫感应灯关的按键)
2024-09-22 03:22:04.202 - 1A 0C 02 08 01 FF 00 01 FF 00 01 FF 00 00 0F (调光器地址-内卫射灯, 内卫感应灯关)
2024-09-22 03:23:49.376 - 19 08 24 03 CC 01 54 00 01 (调用内卫感应灯开的按键)
2024-09-22 03:23:49.412 - 1A 0C 02 08 01 FF 45 01 FF 45 01 FF 00 00 0F (调光器地址-内卫射灯, 内卫射灯微光)
2024-09-22 03:24:26.949 - 19 08 24 03 CC 01 55 00 01 (调用内卫感应灯关的按键)
2024-09-22 03:24:26.983 - 1A 0C 02 08 01 FF 00 01 FF 00 01 FF 00 00 0F (调光器地址-内卫射灯, 内卫感应灯关)
2024-09-22 03:26:03.639 - 19 08 24 03 CC 01 54 00 01 (调用内卫感应灯开的按键)
2024-09-22 03:26:03.689 - 1A 0C 02 08 01 FF 45 01 FF 45 01 FF 00 00 0F (调光器地址-内卫射灯, 内卫射灯微光)
2024-09-22 03:27:08.267 - 19 08 24 03 CC 01 55 00 01 (调用内卫感应灯关的按键)
2024-09-22 03:27:08.301 - 1A 0C 02 08 01 FF 00 01 FF 00 01 FF 00 00 0F (调光器地址-内卫射灯, 内卫感应灯关)
2024-09-22 03:27:16.783 - 19 08 24 03 CC 01 54 00 01 (调用内卫感应灯开的按键)
2024-09-22 03:27:16.817 - 1A 0C 02 08 01 FF 45 01 FF 45 01 FF 00 00 0F (调光器地址-内卫射灯, 内卫射灯微光)
2024-09-22 03:28:13.896 - 19 08 24 03 CC 01 55 00 01 (调用内卫感应灯关的按键)
2024-09-22 03:28:13.929 - 1A 0C 02 08 01 FF 00 01 FF 00 01 FF 00 00 0F (调光器地址-内卫射灯, 内卫感应灯关)
2024-09-22 03:30:26.157 - 19 08 24 03 CC 01 54 00 01 (调用内卫感应灯开的按键)
2024-09-22 03:30:26.190 - 1A 0C 02 08 01 FF 45 01 FF 45 01 FF 00 00 0F (调光器地址-内卫射灯, 内卫射灯微光)
2024-09-22 03:31:07.738 - 19 08 24 03 CC 01 55 00 01 (调用内卫感应灯关的按键)
2024-09-22 03:31:07.773 - 1A 0C 02 08 01 FF 00 01 FF 00 01 FF 00 00 0F (调光器地址-内卫射灯, 内卫感应灯关)
2024-09-22 03:37:48.527 - 19 08 24 03 CC 01 54 00 01 (调用内卫感应灯开的按键)
2024-09-22 03:37:48.562 - 1A 0C 02 08 01 FF 45 01 FF 45 01 FF 00 00 0F (调光器地址-内卫射灯, 内卫射灯微光)
2024-09-22 03:39:03.675 - 19 08 24 03 CC 01 55 00 01 (调用内卫感应灯关的按键)
2024-09-22 03:39:03.709 - 1A 0C 02 08 01 FF 00 01 FF 00 01 FF 00 00 0F (调光器地址-内卫射灯, 内卫感应灯关)
2024-09-22 03:43:16.673 - 19 08 24 03 CC 01 54 00 01 (调用内卫感应灯开的按键)
2024-09-22 03:43:16.708 - 1A 0C 02 08 01 FF 45 01 FF 45 01 FF 00 00 0F (调光器地址-内卫射灯, 内卫射灯微光)
2024-09-22 03:43:44.729 - 19 08 24 03 CC 01 55 00 01 (调用内卫感应灯关的按键)
2024-09-22 03:43:44.762 - 1A 0C 02 08 01 FF 00 01 FF 00 01 FF 00 00 0F (调光器地址-内卫射灯, 内卫感应灯关)
2024-09-22 03:48:09.006 - 1A BE B0 DC 04 (继电器地址-西阳窗帘)
2024-09-22 03:48:09.140 - FF
2024-09-22 03:48:11.242 - FF FF FF FF 0E (继电器地址-西阳小窗帘)
2024-09-22 03:48:11.379 - FF
2024-09-22 03:53:41.905 - 19 08 24 03 CC 01 54 00 01 (调用内卫感应灯开的按键)
2024-09-22 03:53:41.956 - 1A 0C 02 08 01 FF 45 01 FF 45 01 FF 00 00 0F (调光器地址-内卫射灯, 内卫射灯微光)
2024-09-22 03:56:17.710 - 19 08 24 03 CC 01 55 00 01 (调用内卫感应灯关的按键)
2024-09-22 03:56:17.764 - 1A 0C 02 08 01 FF 00 01 FF 00 01 FF 00 00 0F (调光器地址-内卫射灯, 内卫感应灯关)
2024-09-22 03:58:33.980 - 19 08 24 03 CC 01 54 00 01 (调用内卫感应灯开的按键)
2024-09-22 03:58:34.014 - 1A 0C 02 08 01 FF 45 01 FF 45 01 FF 00 00 0F (调光器地址-内卫射灯, 内卫射灯微光)
2024-09-22 04:01:41.848 - 19 08 24 03 CC 01 55 00 01 (调用内卫感应灯关的按键)
2024-09-22 04:01:41.883 - 1A 0C 02 08 01 FF 00 01 FF 00 01 FF 00 00 0F (调光器地址-内卫射灯, 内卫感应灯关)
2024-09-22 04:02:14.914 - 19 08 24 03 CC 01 54 00 01 (调用内卫感应灯开的按键)
2024-09-22 04:02:14.949 - 1A 0C 02 08 01 FF 45 01 FF 45 01 FF 00 00 0F (调光器地址-内卫射灯, 内卫射灯微光)
2024-09-22 04:03:05.042 - 1A FF FF FF 04 FD (继电器地址-东阳衣架)
2024-09-22 04:03:05.176 - FF
2024-09-22 04:04:13.065 - 1A BE B0 DC 02 (正反转地址-外卫卷帘)
2024-09-22 04:04:13.201 - FF
2024-09-22 04:04:31.182 - 19 08 24 03 CC 01 55 00 01 (调用内卫感应灯关的按键)
2024-09-22 04:04:31.234 - 1A 0C 02 08 01 FF 00 01 FF 00 01 FF 00 00 0F (调光器地址-内卫射灯, 内卫感应灯关)
2024-09-22 04:05:59.857 - 19 08 24 03 CC 01 54 00 01 (调用内卫感应灯开的按键)
2024-09-22 04:05:59.910 - 1A 0C 02 08 01 FF 45 01 FF 45 01 FF 00 00 0F (调光器地址-内卫射灯, 内卫射灯微光)
2024-09-22 04:06:57.470 - 19 08 24 03 CC 01 55 00 01 (调用内卫感应灯关的按键)
2024-09-22 04:06:57.505 - 1A 0C 02 08 01 FF 00 01 FF 00 01 FF 00 00 0F (调光器地址-内卫射灯, 内卫感应灯关)
2024-09-22 04:11:58.563 - 19 08 24 03 CC 01 54 00 01 (调用内卫感应灯开的按键)
2024-09-22 04:11:58.597 - 1A 0C 02 08 01 FF 45 01 FF 45 01 FF 00 00 0F (调光器地址-内卫射灯, 内卫射灯微光)
2024-09-22 04:13:00.684 - 19 08 24 03 CC 01 55 00 01 (调用内卫感应灯关的按键)
2024-09-22 04:13:00.719 - 1A 0C 02 08 01 FF 00 01 FF 00 01 FF 00 00 0F (调光器地址-内卫射灯, 内卫感应灯关)
2024-09-22 04:13:08.698 - 1A BE B0 DC 09 FC (继电器地址-客厅窗帘)
2024-09-22 04:13:08.832 - FF
2024-09-22 04:13:16.358 - 1A BE B0 DC 01 (继电器地址-回水泵点动)
2024-09-22 04:13:16.495 - FE
2024-09-22 04:16:18.314 - 1A BE B0 DC 03 FC (继电器地址-西阳天幕)
2024-09-22 04:16:18.448 - FF
2024-09-22 04:17:16.690 - 19 08 24 03 CC 01 54 00 01 (调用内卫感应灯开的按键)
2024-09-22 04:17:16.741 - 1A 0C 02 08 01 FF 45 01 FF 45 01 FF 00 00 0F (调光器地址-内卫射灯, 内卫射灯微光)
2024-09-22 04:17:37.730 - 19 08 24 03 CC 01 55 00 01 (调用内卫感应灯关的按键)
2024-09-22 04:17:37.783 - 1A 0C 02 08 01 FF 00 01 FF 00 01 FF 00 00 0F (调光器地址-内卫射灯, 内卫感应灯关)
2024-09-22 04:18:17.810 - 19 08 24 03 CC 01 54 00 01 (调用内卫感应灯开的按键)
2024-09-22 04:18:17.842 - 1A 0C 02 08 01 FF 45 01 FF 45 01 FF 00 00 0F (调光器地址-内卫射灯, 内卫射灯微光)
2024-09-22 04:18:48.870 - 19 08 24 03 CC 01 55 00 01 (调用内卫感应灯关的按键)
2024-09-22 04:18:48.905 - 1A 0C 02 08 01 FF 00 01 FF 00 01 FF 00 00 0F (调光器地址-内卫射灯, 内卫感应灯关)
2024-09-22 04:19:12.521 - 1A BE B0 DC 0A (继电器地址-客厅纱帘)
2024-09-22 04:22:07.762 - 19 08 24 03 CC 01 54 00 01 (调用内卫感应灯开的按键)
2024-09-22 04:22:07.814 - 1A 0C 02 08 01 FF 45 01 FF 45 01 FF 00 00 0F (调光器地址-内卫射灯, 内卫射灯微光)
2024-09-22 04:22:43.332 - 19 08 24 03 CC 01 55 00 01 (调用内卫感应灯关的按键)
2024-09-22 04:22:43.385 - 1A 0C 02 08 01 FF 00 01 FF 00 01 FF 00 00 0F (调光器地址-内卫射灯, 内卫感应灯关)
2024-09-22 04:23:56.475 - 19 08 24 03 CC 01 54 00 01 (调用内卫感应灯开的按键)
2024-09-22 04:23:56.509 - 1A 0C 02 08 01 FF 45 01 FF 45 01 FF 00 00 0F (调光器地址-内卫射灯, 内卫射灯微光)
2024-09-22 04:26:58.334 - 19 08 24 03 CC 01 55 00 01 (调用内卫感应灯关的按键)
2024-09-22 04:26:58.369 - 1A 0C 02 08 01 FF 00 01 FF 00 01 FF 00 00 0F (调光器地址-内卫射灯, 内卫感应灯关)
2024-09-22 04:27:35.406 - 19 08 24 03 CC 01 54 00 01 (调用内卫感应灯开的按键)
2024-09-22 04:27:35.442 - 1A 0C 02 08 01 FF 45 01 FF 45 01 FF 00 00 0F (调光器地址-内卫射灯, 内卫射灯微光)
2024-09-22 04:28:17.489 - 19 08 24 03 CC 01 55 00 01 (调用内卫感应灯关的按键)
2024-09-22 04:28:17.524 - 1A 0C 02 08 01 FF 00 01 FF 00 01 FF 00 00 0F (调光器地址-内卫射灯, 内卫感应灯关)
2024-09-22 04:30:35.763 - 19 08 24 03 CC 01 54 00 01 (调用内卫感应灯开的按键)
2024-09-22 04:30:35.796 - 1A 0C 02 08 01 FF 45 01 FF 45 01 FF 00 00 0F (调光器地址-内卫射灯, 内卫射灯微光)
2024-09-22 04:30:56.303 - 19 08 24 03 CC 01 55 00 01 (调用内卫感应灯关的按键)
2024-09-22 04:30:56.336 - 1A 0C 02 08 01 FF 00 01 FF 00 01 FF 00 00 0F (调光器地址-内卫射灯, 内卫感应灯关)
2024-09-22 04:31:38.385 - 19 08 24 03 CC 01 54 00 01 (调用内卫感应灯开的按键)
2024-09-22 04:31:38.419 - 1A 0C 02 08 01 FF 45 01 FF 45 01 FF 00 00 0F (调光器地址-内卫射灯, 内卫射灯微光)
2024-09-22 04:32:02.433 - 19 08 24 03 CC 01 55 00 01 (调用内卫感应灯关的按键)
2024-09-22 04:32:02.467 - 1A 0C 02 08 01 FF 00 01 FF 00 01 FF 00 00 0F (调光器地址-内卫射灯, 内卫感应灯关)
2024-09-22 04:32:45.517 - 19 08 24 03 CC 01 54 00 01 (调用内卫感应灯开的按键)
2024-09-22 04:32:45.551 - 1A 0C 02 08 01 FF 45 01 FF 45 01 FF 00 00 0F (调光器地址-内卫射灯, 内卫射灯微光)
2024-09-22 04:33:56.657 - 19 08 24 03 CC 01 55 00 01 (调用内卫感应灯关的按键)
2024-09-22 04:33:56.692 - 1A 0C 02 08 01 FF 00 01 FF 00 01 FF 00 00 0F (调光器地址-内卫射灯, 内卫感应灯关)
2024-09-22 04:35:42.367 - 19 08 24 03 CC 01 54 00 01 (调用内卫感应灯开的按键)
2024-09-22 04:35:42.401 - 1A 0C 02 08 01 FF 45 01 FF 45 01 FF 00 00 0F (调光器地址-内卫射灯, 内卫射灯微光)
2024-09-22 04:36:03.911 - 19 08 24 03 CC 01 55 00 01 (调用内卫感应灯关的按键)
2024-09-22 04:36:03.944 - 1A 0C 02 08 01 FF 00 01 FF 00 01 FF 00 00 0F (调光器地址-内卫射灯, 内卫感应灯关)
2024-09-22 04:38:28.194 - 19 08 24 03 CC 01 54 00 01 (调用内卫感应灯开的按键)
2024-09-22 04:38:28.228 - 1A 0C 02 08 01 FF 45 01 FF 45 01 FF 00 00 0F (调光器地址-内卫射灯, 内卫射灯微光)
2024-09-22 04:39:03.764 - 19 08 24 03 CC 01 55 00 01 (调用内卫感应灯关的按键)
2024-09-22 04:39:03.799 - 1A 0C 02 08 01 FF 00 01 FF 00 01 FF 00 00 0F (调光器地址-内卫射灯, 内卫感应灯关)
2024-09-22 04:43:58.132 - FF FF FF FF 0A (继电器地址-东阳窗帘)
2024-09-22 04:43:58.268 - FE
2024-09-22 04:44:19.386 - 19 08 24 03 CC 01 55 00 01 (调用内卫感应灯关的按键)
2024-09-22 04:44:19.438 - 1A 0C 02 08 01 FF 00 01 FF 00 01 FF 00 00 0F (调光器地址-内卫射灯, 内卫感应灯关)
2024-09-22 04:49:09.457 - 19 08 24 03 CC 01 54 00 01 (调用内卫感应灯开的按键)
2024-09-22 04:49:09.510 - 1A 0C 02 08 01 FF 45 01 FF 45 01 FF 00 00 0F (调光器地址-内卫射灯, 内卫射灯微光)
2024-09-22 04:49:32.869 - EE 00 00 B1 00 00 00 FF FC FF FF (情景执行提示)
2024-09-22 04:49:33.490 - A5 00 A2 FF 00 AA (餐厅纱帘关)
2024-09-22 04:49:34.557 - A5 00 A6 FF 00 AA (餐厅窗帘关)
2024-09-22 04:49:34.614 - 55 00 A6 01 00 0E 01 74 AA 55 00 A6 01 00 0E 01 74 AA (餐厅窗帘电机状态返回)
2024-09-22 04:49:35.722 - A5 00 B7 FF 00 AA 22 0D (书房纱帘关)
2024-09-22 04:49:36.803 - A5 00 D2 FF 00 AA 22 0C (书房窗帘关)
2024-09-22 04:49:36.854 - 55 00 D2 01 00 0D 01 0B AA 55 00 D2 01 00 0D 01 0B AA (书房窗帘电机状态返回)
2024-09-22 04:49:37.901 - EE 00 00 B1 00 00 02 FF FC FF FF (情景完成返回主页)
2024-09-22 04:49:43.317 - 55 00 A6 00 01 66 01 74 AA 55 00 A6 00 01 66 01 74 AA (餐厅窗帘电机状态返回)
2024-09-22 04:49:46.653 - 55 00 D2 00 00 FE 01 0B AA 55 00 D2 00 00 FE 01 0B AA (书房窗帘电机状态返回)
2024-09-22 04:49:54.050 - 19 08 24 03 CC 01 55 00 01 (调用内卫感应灯关的按键)
2024-09-22 04:49:54.104 - 1A 0C 02 08 01 FF 00 01 FF 00 01 FF 00 00 0F (调光器地址-内卫射灯, 内卫感应灯关)
2024-09-22 04:52:35.367 - 19 08 24 03 CC 01 54 00 01 (调用内卫感应灯开的按键)
2024-09-22 04:52:35.402 - 1A 0C 02 08 01 FF 45 01 FF 45 01 FF 00 00 0F (调光器地址-内卫射灯, 内卫射灯微光)
2024-09-22 04:53:58.532 - 19 08 24 03 CC 01 55 00 01 (调用内卫感应灯关的按键)
2024-09-22 04:53:58.590 - 1A 0C 02 08 01 FF 00 01 FF 00 01 FF 00 00 0F (调光器地址-内卫射灯, 内卫感应灯关)
2024-09-22 04:54:04.543 - 19 08 24 03 CC 01 54 00 01 (调用内卫感应灯开的按键)
2024-09-22 04:54:04.577 - 1A 0C 02 08 01 FF 45 01 FF 45 01 FF 00 00 0F (调光器地址-内卫射灯, 内卫射灯微光)
2024-09-22 04:55:16.185 - 19 08 24 03 CC 01 55 00 01 (调用内卫感应灯关的按键)
2024-09-22 04:55:16.218 - 1A 0C 02 08 01 FF 00 01 FF 00 01 FF 00 00 0F (调光器地址-内卫射灯, 内卫感应灯关)
2024-09-22 05:00:11.266 - 19 08 24 03 CC 01 54 00 01 (调用内卫感应灯开的按键)
2024-09-22 05:00:11.320 - 1A 0C 02 08 01 FF 45 01 FF 45 01 FF 00 00 0F (调光器地址-内卫射灯, 内卫射灯微光)
2024-09-22 05:00:59.362 - 19 08 24 03 CC 01 55 00 01 (调用内卫感应灯关的按键)
2024-09-22 05:00:59.394 - 1A 0C 02 08 01 FF 00 01 FF 00 01 FF 00 00 0F (调光器地址-内卫射灯, 内卫感应灯关)
2024-09-22 05:01:11.386 - 19 08 24 03 CC 01 54 00 01 (调用内卫感应灯开的按键)
2024-09-22 05:02:20.020 - 19 08 24 03 CC 01 55 00 01 (调用内卫感应灯关的按键)
2024-09-22 05:02:20.073 - 1A 0C 02 08 01 FF 00 01 FF 00 01 FF 00 00 0F (调光器地址-内卫射灯, 内卫感应灯关)
2024-09-22 05:03:37.672 - 19 08 24 03 CC 01 54 00 01 (调用内卫感应灯开的按键)
2024-09-22 05:03:37.708 - 1A 0C 02 08 01 FF 45 01 FF 45 01 FF 00 00 0F (调光器地址-内卫射灯, 内卫射灯微光)
2024-09-22 05:04:00.719 - 19 08 24 03 CC 01 55 00 01 (调用内卫感应灯关的按键)
2024-09-22 05:04:00.751 - 1A 0C 02 08 01 FF 00 01 FF 00 01 FF 00 00 0F (调光器地址-内卫射灯, 内卫感应灯关)
2024-09-22 05:05:50.935 - 19 08 24 03 CC 01 54 00 01 (调用内卫感应灯开的按键)
2024-09-22 05:05:50.969 - 1A 0C 02 08 01 FF 45 01 FF 45 01 FF 00 00 0F (调光器地址-内卫射灯, 内卫射灯微光)
2024-09-22 05:06:09.472 - 19 08 24 03 CC 01 55 00 01 (调用内卫感应灯关的按键)
2024-09-22 05:06:09.505 - 1A 0C 02 08 01 FF 00 01 FF 00 01 FF 00 00 0F (调光器地址-内卫射灯, 内卫感应灯关)
2024-09-22 05:08:55.798 - 19 08 24 03 CC 01 54 00 01 (调用内卫感应灯开的按键)
2024-09-22 05:08:55.832 - 1A 0C 02 08 01 FF 45 01 FF 45 01 FF 00 00 0F (调光器地址-内卫射灯, 内卫射灯微光)
2024-09-22 05:09:15.338 - 19 08 24 03 CC 01 55 00 01 (调用内卫感应灯关的按键)
2024-09-22 05:09:15.373 - 1A 0C 02 08 01 FF 00 01 FF 00 01 FF 00 00 0F (调光器地址-内卫射灯, 内卫感应灯关)
2024-09-22 05:15:18.553 - 19 08 24 03 CC 01 54 00 01 (调用内卫感应灯开的按键)
2024-09-22 05:15:18.587 - 1A 0C 02 08 01 FF 45 01 FF 45 01 FF 00 00 0F (调光器地址-内卫射灯, 内卫射灯微光)
2024-09-22 05:16:24.181 - 19 08 24 03 CC 01 55 00 01 (调用内卫感应灯关的按键)
2024-09-22 05:16:24.216 - 1A 0C 02 08 01 FF 00 01 FF 00 01 FF 00 00 0F (调光器地址-内卫射灯, 内卫感应灯关)
2024-09-22 05:16:38.209 - 19 08 24 03 CC 01 54 00 01 (调用内卫感应灯开的按键)
2024-09-22 05:16:38.243 - 1A 0C 02 08 01 FF 45 01 FF 45 01 FF 00 00 0F (调光器地址-内卫射灯, 内卫射灯微光)
2024-09-22 05:18:20.911 - 19 08 24 03 CC 01 55 00 01 (调用内卫感应灯关的按键)
2024-09-22 05:18:20.945 - 1A 0C 02 08 01 FF 00 01 FF 00 01 FF 00 00 0F (调光器地址-内卫射灯, 内卫感应灯关)
2024-09-22 05:19:24.036 - 19 08 24 03 CC 01 54 00 01 (调用内卫感应灯开的按键)
2024-09-22 05:19:24.070 - 1A 0C 02 08 01 FF 45 01 FF 45 01 FF 00 00 0F (调光器地址-内卫射灯, 内卫射灯微光)
2024-09-22 05:21:04.733 - 19 08 24 03 CC 01 55 00 01 (调用内卫感应灯关的按键)
2024-09-22 05:21:04.769 - 1A 0C 02 08 01 FF 00 01 FF 00 01 FF 00 00 0F (调光器地址-内卫射灯, 内卫感应灯关)
2024-09-22 05:22:08.359 - 19 08 24 03 CC 01 54 00 01 (调用内卫感应灯开的按键)
2024-09-22 05:22:08.394 - 1A 0C 02 08 01 FF 45 01 FF 45 01 FF 00 00 0F (调光器地址-内卫射灯, 内卫射灯微光)
2024-09-22 05:23:48.056 - 19 08 24 03 CC 01 55 00 01 (调用内卫感应灯关的按键)
2024-09-22 05:23:48.090 - 1A 0C 02 08 01 FF 00 01 FF 00 01 FF 00 00 0F (调光器地址-内卫射灯, 内卫感应灯关)
2024-09-22 05:24:05.089 - 19 08 24 03 CC 01 54 00 01 (调用内卫感应灯开的按键)
2024-09-22 05:24:05.124 - 1A 0C 02 08 01 FF 45 01 FF 45 01 FF 00 00 0F (调光器地址-内卫射灯, 内卫射灯微光)
2024-09-22 05:24:27.633 - 19 08 24 03 CC 01 55 00 01 (调用内卫感应灯关的按键)
2024-09-22 05:24:27.667 - 1A 0C 02 08 01 FF 00 01 FF 00 01 FF 00 00 0F (调光器地址-内卫射灯, 内卫感应灯关)
2024-09-22 05:24:40.159 - 19 08 24 03 CC 01 54 00 01 (调用内卫感应灯开的按键)
2024-09-22 05:24:40.192 - 1A 0C 02 08 01 FF 45 01 FF 45 01 FF 00 00 0F (调光器地址-内卫射灯, 内卫射灯微光)
2024-09-22 05:25:57.812 - 19 08 24 03 CC 01 55 00 01 (调用内卫感应灯关的按键)
2024-09-22 05:25:57.845 - 1A 0C 02 08 01 FF 00 01 FF 00 01 FF 00 00 0F (调光器地址-内卫射灯, 内卫感应灯关)
2024-09-22 05:26:36.888 - 19 08 24 03 CC 01 54 00 01 (调用内卫感应灯开的按键)
2024-09-22 05:26:36.922 - 1A 0C 02 08 01 FF 45 01 FF 45 01 FF 00 00 0F (调光器地址-内卫射灯, 内卫射灯微光)
2024-09-22 05:30:45.877 - 19 08 24 03 CC 01 55 00 01 (调用内卫感应灯关的按键)
2024-09-22 05:30:45.911 - 1A 0C 02 08 01 FF 00 01 FF 00 01 FF 00 00 0F (调光器地址-内卫射灯, 内卫感应灯关)
2024-09-22 05:32:29.582 - 19 08 24 03 CC 01 54 00 01 (调用内卫感应灯开的按键)
2024-09-22 05:32:29.616 - 1A 0C 02 08 01 FF 45 01 FF 45 01 FF 00 00 0F (调光器地址-内卫射灯, 内卫射灯微光)
2024-09-22 05:34:49.357 - 19 08 24 03 CC 01 55 00 01 (调用内卫感应灯关的按键)
2024-09-22 05:34:49.391 - 1A 0C 02 08 01 FF 00 01 FF 00 01 FF 00 00 0F (调光器地址-内卫射灯, 内卫感应灯关)
2024-09-22 05:41:32.153 - 19 08 24 03 CC 01 54 00 01 (调用内卫感应灯开的按键)
2024-09-22 05:41:32.185 - 1A 0C 02 08 01 FF 45 01 FF 45 01 FF 00 00 0F (调光器地址-内卫射灯, 内卫射灯微光)
2024-09-22 05:42:14.736 - 19 08 24 03 CC 01 55 00 01 (调用内卫感应灯关的按键)
2024-09-22 05:42:14.770 - 1A 0C 02 08 01 FF 00 01 FF 00 01 FF 00 00 0F (调光器地址-内卫射灯, 内卫感应灯关)
2024-09-22 05:57:28.536 - 19 08 24 03 CC 01 54 00 01 (调用内卫感应灯开的按键)
2024-09-22 05:57:28.568 - 1A 0C 02 08 01 FF 45 01 FF 45 01 FF 00 00 0F (调光器地址-内卫射灯, 内卫射灯微光)
2024-09-22 05:58:05.608 - 19 08 24 03 CC 01 55 00 01 (调用内卫感应灯关的按键)
2024-09-22 05:58:05.642 - 1A 0C 02 08 01 FF 00 01 FF 00 01 FF 00 00 0F (调光器地址-内卫射灯, 内卫感应灯关)
2024-09-22 05:59:40.295 - 19 08 24 03 CC 01 54 00 01 (调用内卫感应灯开的按键)
2024-09-22 05:59:40.327 - 1A 0C 02 08 01 FF 45 01 FF 45 01 FF 00 00 0F (调光器地址-内卫射灯, 内卫射灯微光)
2024-09-22 06:00:03.339 - 19 08 24 03 CC 01 55 00 01 (调用内卫感应灯关的按键)
2024-09-22 06:00:03.373 - 1A 0C 02 08 01 FF 00 01 FF 00 01 FF 00 00 0F (调光器地址-内卫射灯, 内卫感应灯关)
2024-09-22 06:00:13.359 - 19 08 24 03 CC 01 54 00 01 (调用内卫感应灯开的按键)
2024-09-22 06:00:13.395 - 1A 0C 02 08 01 FF 45 01 FF 45 01 FF 00 00 0F (调光器地址-内卫射灯, 内卫射灯微光)
2024-09-22 06:00:46.925 - 19 08 24 03 CC 01 55 00 01 (调用内卫感应灯关的按键)
2024-09-22 06:00:46.960 - 1A 0C 02 08 01 FF 00 01 FF 00 01 FF 00 00 0F (调光器地址-内卫射灯, 内卫感应灯关)
2024-09-22 06:06:51.143 - 19 08 24 03 CC 01 54 00 01 (调用内卫感应灯开的按键)
2024-09-22 06:06:51.177 - 1A 0C 02 08 01 FF 45 01 FF 45 01 FF 00 00 0F (调光器地址-内卫射灯, 内卫射灯微光)
2024-09-22 06:09:00.398 - 19 08 24 03 CC 01 55 00 01 (调用内卫感应灯关的按键)
2024-09-22 06:09:00.430 - 1A 0C 02 08 01 FF 00 01 FF 00 01 FF 00 00 0F (调光器地址-内卫射灯, 内卫感应灯关)
2024-09-22 06:09:29.453 - 19 08 24 03 CC 01 54 00 01 (调用内卫感应灯开的按键)
2024-09-22 06:09:29.488 - 1A 0C 02 08 01 FF 45 01 FF 45 01 FF 00 00 0F (调光器地址-内卫射灯, 内卫射灯微光)
2024-09-22 06:10:37.087 - 19 08 24 03 CC 01 55 00 01 (调用内卫感应灯关的按键)
2024-09-22 06:10:37.130 - 1A 0C 02 08 01 FF 00 01 FF 00 01 FF 00 00 0F (调光器地址-内卫射灯, 内卫感应灯关)
2024-09-22 06:12:51.354 - 19 08 24 03 CC 01 54 00 01 (调用内卫感应灯开的按键)
2024-09-22 06:12:51.386 - 1A 0C 02 08 01 FF 45 01 FF 45 01 FF 00 00 0F (调光器地址-内卫射灯, 内卫射灯微光)
2024-09-22 06:13:11.892 - 19 08 24 03 CC 01 55 00 01 (调用内卫感应灯关的按键)
2024-09-22 06:13:11.927 - 1A 0C 02 08 01 FF 00 01 FF 00 01 FF 00 00 0F (调光器地址-内卫射灯, 内卫感应灯关)
2024-09-22 06:13:58.486 - 19 08 24 03 CC 01 54 00 01 (调用内卫感应灯开的按键)
2024-09-22 06:13:58.519 - 1A 0C 02 08 01 FF 45 01 FF 45 01 FF 00 00 0F (调光器地址-内卫射灯, 内卫射灯微光)
2024-09-22 06:14:29.044 - 19 08 24 03 CC 01 55 00 01 (调用内卫感应灯关的按键)
2024-09-22 06:14:29.078 - 1A 0C 02 08 01 FF 00 01 FF 00 01 FF 00 00 0F (调光器地址-内卫射灯, 内卫感应灯关)
2024-09-22 06:16:57.336 - 19 08 24 03 CC 01 54 00 01 (调用内卫感应灯开的按键)
2024-09-22 06:16:57.370 - 1A 0C 02 08 01 FF 45 01 FF 45 01 FF 00 00 0F (调光器地址-内卫射灯, 内卫射灯微光)
2024-09-22 06:17:20.883 - 19 08 24 03 CC 01 55 00 01 (调用内卫感应灯关的按键)
2024-09-22 06:17:20.918 - 1A 0C 02 08 01 FF 00 01 FF 00 01 FF 00 00 0F (调光器地址-内卫射灯, 内卫感应灯关)
2024-09-22 06:17:28.398 - 19 08 24 03 CC 01 54 00 01 (调用内卫感应灯开的按键)
2024-09-22 06:17:28.433 - 1A 0C 02 08 01 FF 45 01 FF 45 01 FF 00 00 0F (调光器地址-内卫射灯, 内卫射灯微光)
2024-09-22 06:18:13.989 - 19 08 24 03 CC 01 55 00 01 (调用内卫感应灯关的按键)
2024-09-22 06:18:14.022 - 1A 0C 02 08 01 FF 00 01 FF 00 01 FF 00 00 0F (调光器地址-内卫射灯, 内卫感应灯关)
2024-09-22 06:21:48.911 - 19 08 24 03 CC 01 54 00 01 (调用内卫感应灯开的按键)
2024-09-22 06:21:48.945 - 1A 0C 02 08 01 FF 45 01 FF 45 01 FF 00 00 0F (调光器地址-内卫射灯, 内卫射灯微光)
2024-09-22 06:23:43.135 - 19 08 24 03 CC 01 55 00 01 (调用内卫感应灯关的按键)
2024-09-22 06:23:43.170 - 1A 0C 02 08 01 FF 00 01 FF 00 01 FF 00 00 0F (调光器地址-内卫射灯, 内卫感应灯关)
2024-09-22 06:29:53.866 - 19 08 24 03 CC 01 54 00 01 (调用内卫感应灯开的按键)
2024-09-22 06:29:53.901 - 1A 0C 02 08 01 FF 45 01 FF 45 01 FF 00 00 0F (调光器地址-内卫射灯, 内卫射灯微光)
2024-09-22 06:30:49.977 - 19 08 24 03 CC 01 55 00 01 (调用内卫感应灯关的按键)
2024-09-22 06:30:50.010 - 1A 0C 02 08 01 FF 00 01 FF 00 01 FF 00 00 0F (调光器地址-内卫射灯, 内卫感应灯关)
2024-09-22 06:32:58.841 - 19 08 24 03 CC 01 CC 00 01 (调用茶吧感应灯开的按键)
2024-09-22 06:32:58.871 - 1A AA AA AA 88 FF B0 01 FF B0 01 0F (调光器地址-茶吧灯带, 茶吧灯带明亮)
2024-09-22 06:33:05.855 - 19 08 24 03 CC 01 CD 00 01 (调用茶吧感应灯关的按键)
2024-09-22 06:33:05.886 - 1A AA AA AA 88 FF 00 01 FF 00 01 0F (调光器地址-茶吧灯带, 茶吧灯带关闭)
2024-09-22 06:41:13.705 - 19 08 24 03 CC 01 54 00 01 (调用内卫感应灯开的按键)
2024-09-22 06:41:13.737 - 1A 0C 02 08 01 FF 45 01 FF 45 01 FF 00 00 0F (调光器地址-内卫射灯, 内卫射灯微光)
2024-09-22 06:41:39.755 - 19 08 24 03 CC 01 55 00 01 (调用内卫感应灯关的按键)
2024-09-22 06:41:39.827 - 1A 0C 02 08 01 FF 00 01 FF 00 01 FF 00 00 0F (调光器地址-内卫射灯, 内卫感应灯关)
2024-09-22 06:48:11.029 - 19 08 24 03 CC 01 54 00 01 (调用内卫感应灯开的按键)
2024-09-22 06:48:11.062 - 1A 0C 02 08 01 FF 45 01 FF 45 01 FF 00 00 0F (调光器地址-内卫射灯, 内卫射灯微光)
2024-09-22 06:48:37.580 - 19 08 24 03 CC 01 55 00 01 (调用内卫感应灯关的按键)
2024-09-22 06:48:37.614 - 1A 0C 02 08 01 FF 00 01 FF 00 01 FF 00 00 0F (调光器地址-内卫射灯, 内卫感应灯关)
2024-09-22 06:52:48.074 - 19 08 24 03 CC 01 54 00 01 (调用内卫感应灯开的按键)
2024-09-22 06:52:48.126 - 1A 0C 02 08 01 FF 45 01 FF 45 01 FF 00 00 0F (调光器地址-内卫射灯, 内卫射灯微光)
2024-09-22 06:55:54.441 - 19 08 24 03 CC 01 55 00 01 (调用内卫感应灯关的按键)
2024-09-22 06:55:54.475 - 1A 0C 02 08 01 FF 00 01 FF 00 01 FF 00 00 0F (调光器地址-内卫射灯, 内卫感应灯关)
2024-09-22 06:56:43.537 - 19 08 24 03 CC 01 54 00 01 (调用内卫感应灯开的按键)
2024-09-22 06:56:43.571 - 1A 0C 02 08 01 FF 45 01 FF 45 01 FF 00 00 0F (调光器地址-内卫射灯, 内卫射灯微光)
2024-09-22 06:57:35.138 - 19 08 24 03 CC 01 55 00 01 (调用内卫感应灯关的按键)
2024-09-22 06:57:35.172 - 1A 0C 02 08 01 FF 00 01 FF 00 01 FF 00 00 0F (调光器地址-内卫射灯, 内卫感应灯关)
2024-09-22 06:59:31.366 - 19 08 24 03 CC 01 54 00 01 (调用内卫感应灯开的按键)
2024-09-22 06:59:31.400 - 1A 0C 02 08 01 FF 45 01 FF 45 01 FF 00 00 0F (调光器地址-内卫射灯, 内卫射灯微光)
2024-09-22 07:01:26.595 - 19 08 24 03 CC 01 55 00 01 (调用内卫感应灯关的按键)
2024-09-22 07:01:26.628 - 1A 0C 02 08 01 FF 00 01 FF 00 01 FF 00 00 0F (调光器地址-内卫射灯, 内卫感应灯关)
2024-09-22 07:03:55.888 - 19 08 24 03 CC 01 54 00 01 (调用内卫感应灯开的按键)
2024-09-22 07:03:55.922 - 1A 0C 02 08 01 FF 45 01 FF 45 01 FF 00 00 0F (调光器地址-内卫射灯, 内卫射灯微光)
2024-09-22 07:07:06.263 - 19 08 24 03 CC 01 55 00 01 (调用内卫感应灯关的按键)
2024-09-22 07:07:06.297 - 1A 0C 02 08 01 FF 00 01 FF 00 01 FF 00 00 0F (调光器地址-内卫射灯, 内卫感应灯关)
2024-09-22 07:07:39.828 - 19 08 24 03 CC 01 54 00 01 (调用内卫感应灯开的按键)
2024-09-22 07:07:39.863 - 1A 0C 02 08 01 FF 45 01 FF 45 01 FF 00 00 0F (调光器地址-内卫射灯, 内卫射灯微光)
2024-09-22 07:07:50.950 - 1A BE B0 DC 04 (继电器地址-西阳窗帘)
2024-09-22 07:07:51.086 - FF
2024-09-22 07:08:09.943 - FF FF FF FF 0E (继电器地址-西阳小窗帘)
2024-09-22 07:08:11.391 - 19 08 24 03 CC 01 55 00 01 (调用内卫感应灯关的按键)
2024-09-22 07:08:11.443 - 1A 0C 02 08 01 FF 00 01 FF 00 01 FF 00 00 0F (调光器地址-内卫射灯, 内卫感应灯关)
2024-09-22 07:09:12.511 - 19 08 24 03 CC 01 54 00 01 (调用内卫感应灯开的按键)
2024-09-22 07:09:12.565 - 1A 0C 02 08 01 FF 45 01 FF 45 01 FF 00 00 0F (调光器地址-内卫射灯, 内卫射灯微光)
2024-09-22 07:10:20.146 - 19 08 24 03 CC 01 55 00 01 (调用内卫感应灯关的按键)
2024-09-22 07:10:20.179 - 1A 0C 02 08 01 FF 00 01 FF 00 01 FF 00 00 0F (调光器地址-内卫射灯, 内卫感应灯关)
2024-09-22 07:12:15.995 - 19 08 24 03 CC 01 CC 00 01 (调用茶吧感应灯开的按键)
2024-09-22 07:12:16.027 - 1A AA AA AA 88 FF B0 01 FF B0 01 0F (调光器地址-茶吧灯带, 茶吧灯带明亮)
2024-09-22 07:12:23.009 - 19 08 24 03 CC 01 CD 00 01 (调用茶吧感应灯关的按键)
2024-09-22 07:12:23.040 - 1A AA AA AA 88 FF 00 01 FF 00 01 0F (调光器地址-茶吧灯带, 茶吧灯带关闭)
2024-09-22 07:15:06.756 - 03 00 00 2F 2A E0 00 00 00 00 00 43 6F 6F 6B 69 65 3A 20 6D 73 74 73 68 61 73 68 3D 41 64 6D 69
2024-09-22 07:15:06.771 - 6E 69 73 74 72 0D 0A 01 00 08 00 03 00 00 00
2024-09-22 07:19:10.191 - 19 08 24 03 CC 01 54 00 01 (调用内卫感应灯开的按键)
2024-09-22 07:19:10.244 - 1A 0C 02 08 01 FF 45 01 FF 45 01 FF 00 00 0F (调光器地址-内卫射灯, 内卫射灯微光)
2024-09-22 07:19:57.784 - 19 08 24 03 CC 01 55 00 01 (调用内卫感应灯关的按键)
2024-09-22 07:19:57.818 - 1A 0C 02 08 01 FF 00 01 FF 00 01 FF 00 00 0F (调光器地址-内卫射灯, 内卫感应灯关)
2024-09-22 07:23:30.203 - 19 08 24 03 CC 01 54 00 01 (调用内卫感应灯开的按键)
2024-09-22 07:23:30.237 - 1A 0C 02 08 01 FF 45 01 FF 45 01 FF 00 00 0F (调光器地址-内卫射灯, 内卫射灯微光)
2024-09-22 07:23:59.351 - 1A FF FF FF 04 FC (继电器地址-东阳衣架)
2024-09-22 07:23:59.486 - FF
2024-09-22 07:24:40.960 - 1A BE B0 DC 02 (正反转地址-外卫卷帘)
2024-09-22 07:24:41.097 - FF
2024-09-22 07:25:09.899 - 19 08 24 03 CC 01 55 00 01 (调用内卫感应灯关的按键)
2024-09-22 07:25:09.951 - 1A 0C 02 08 01 FF 00 01 FF 00 01 FF 00 00 0F (调光器地址-内卫射灯, 内卫感应灯关)
2024-09-22 07:25:21.924 - 19 08 24 03 CC 01 54 00 01 (调用内卫感应灯开的按键)
2024-09-22 07:25:21.975 - 1A 0C 02 08 01 FF 45 01 FF 45 01 FF 00 00 0F (调光器地址-内卫射灯, 内卫射灯微光)
2024-09-22 07:26:21.541 - 19 08 24 03 CC 01 55 00 01 (调用内卫感应灯关的按键)
2024-09-22 07:26:21.575 - 1A 0C 02 08 01 FF 00 01 FF 00 01 FF 00 00 0F (调光器地址-内卫射灯, 内卫感应灯关)
2024-09-22 07:28:01.236 - 19 08 24 03 CC 01 54 00 01 (调用内卫感应灯开的按键)
2024-09-22 07:28:01.270 - 1A 0C 02 08 01 FF 45 01 FF 45 01 FF 00 00 0F (调光器地址-内卫射灯, 内卫射灯微光)
2024-09-22 07:28:22.780 - 19 08 24 03 CC 01 55 00 01 (调用内卫感应灯关的按键)
2024-09-22 07:28:22.813 - 1A 0C 02 08 01 FF 00 01 FF 00 01 FF 00 00 0F (调光器地址-内卫射灯, 内卫感应灯关)
2024-09-22 07:28:41.315 - 19 08 24 03 CC 01 54 00 01 (调用内卫感应灯开的按键)
2024-09-22 07:28:41.348 - 1A 0C 02 08 01 FF 45 01 FF 45 01 FF 00 00 0F (调光器地址-内卫射灯, 内卫射灯微光)
2024-09-22 07:32:14.234 - 19 08 24 03 CC 01 55 00 01 (调用内卫感应灯关的按键)
2024-09-22 07:32:14.268 - 1A 0C 02 08 01 FF 00 01 FF 00 01 FF 00 00 0F (调光器地址-内卫射灯, 内卫感应灯关)
2024-09-22 07:32:51.308 - 19 08 24 03 CC 01 54 00 01 (调用内卫感应灯开的按键)
2024-09-22 07:32:51.342 - 1A 0C 02 08 01 FF 45 01 FF 45 01 FF 00 00 0F (调光器地址-内卫射灯, 内卫射灯微光)
2024-09-22 07:33:22.369 - 19 08 24 03 CC 01 55 00 01 (调用内卫感应灯关的按键)
2024-09-22 07:33:22.403 - 1A 0C 02 08 01 FF 00 01 FF 00 01 FF 00 00 0F (调光器地址-内卫射灯, 内卫感应灯关)
2024-09-22 07:33:26.011 - 1A BE B0 DC 09 FD (继电器地址-客厅窗帘)
2024-09-22 07:33:26.145 - FF
2024-09-22 07:33:44.913 - 19 08 24 03 CC 01 54 00 01 (调用内卫感应灯开的按键)
2024-09-22 07:33:44.966 - 1A 0C 02 08 01 FF 45 01 FF 45 01 FF 00 00 0F (调光器地址-内卫射灯, 内卫射灯微光)
2024-09-22 07:34:01.688 - 1A BE B0 DC 01 (继电器地址-回水泵点动)
2024-09-22 07:34:01.822 - FE
2024-09-22 07:34:55.554 - 19 08 24 03 CC 01 55 00 01 (调用内卫感应灯关的按键)
2024-09-22 07:34:55.605 - 1A 0C 02 08 01 FF 00 01 FF 00 01 FF 00 00 0F (调光器地址-内卫射灯, 内卫感应灯关)
2024-09-22 07:35:02.644 - 19 08 24 03 CC 00 D3 00 01 (调用厨房感应灯开的按键)
2024-09-22 07:35:02.696 - 55 0A 32 00 00 00 01 92 55 0A 32 00 00 00 02 93 (厨房顶灯一开, 厨房顶灯二开)
2024-09-22 07:35:38.213 - 19 08 24 03 CC 00 D4 00 01 (调用厨房感应灯关的按键)
2024-09-22 07:35:38.247 - 55 0A 31 00 00 00 01 91 55 0A 31 00 00 00 02 92 (厨房顶灯一关, 厨房顶灯二关)
2024-09-22 07:36:32.243 - 19 08 24 03 CC 01 54 00 01 (调用内卫感应灯开的按键)
2024-09-22 07:36:32.278 - 1A 0C 02 08 01 FF 45 01 FF 45 01 FF 00 00 0F (调光器地址-内卫射灯, 内卫射灯微光)
2024-09-22 07:37:10.374 - 1A BE B0 DC 03 FE (继电器地址-西阳天幕)
2024-09-22 07:37:10.507 - FF
2024-09-22 07:37:53.904 - 19 08 24 03 CC 01 55 00 01 (调用内卫感应灯关的按键)
2024-09-22 07:37:53.957 - 1A 0C 02 08 01 FF 00 01 FF 00 01 FF 00 00 0F (调光器地址-内卫射灯, 内卫感应灯关)
2024-09-22 07:39:46.915 - 1A BE B0 DC 0A (继电器地址-客厅纱帘)
2024-09-22 07:43:18.544 - 19 08 24 03 CC 01 54 00 01 (调用内卫感应灯开的按键)
2024-09-22 07:43:18.595 - 1A 0C 02 08 01 FF 45 01 FF 45 01 FF 00 00 0F (调光器地址-内卫射灯, 内卫射灯微光)
2024-09-22 07:46:18.398 - 19 08 24 03 CC 01 55 00 01 (调用内卫感应灯关的按键)
2024-09-22 07:46:18.450 - 1A 0C 02 08 01 FF 00 01 FF 00 01 FF 00 00 0F (调光器地址-内卫射灯, 内卫感应灯关)
2024-09-22 07:47:19.517 - 19 08 24 03 CC 01 54 00 01 (调用内卫感应灯开的按键)
2024-09-22 07:47:19.553 - 1A 0C 02 08 01 FF 45 01 FF 45 01 FF 00 00 0F (调光器地址-内卫射灯, 内卫射灯微光)
2024-09-22 07:47:42.330 - FF
2024-09-22 07:49:31.779 - 19 08 24 03 CC 01 55 00 01 (调用内卫感应灯关的按键)
2024-09-22 07:49:31.831 - 1A 0C 02 08 01 FF 00 01 FF 00 01 FF 00 00 0F (调光器地址-内卫射灯, 内卫感应灯关)
2024-09-22 07:52:04.078 - 19 08 24 03 CC 01 54 00 01 (调用内卫感应灯开的按键)
2024-09-22 07:52:04.131 - 1A 0C 02 08 01 FF 45 01 FF 45 01 FF 00 00 0F (调光器地址-内卫射灯, 内卫射灯微光)
2024-09-22 07:52:22.117 - 19 08 24 03 CC 01 55 00 01 (调用内卫感应灯关的按键)
2024-09-22 07:52:22.189 - 1A 0C 02 08 01 FF 00 01 FF 00 01 FF 00 00 0F (调光器地址-内卫射灯, 内卫感应灯关)
2024-09-22 07:53:00.693 - 19 08 24 03 CC 01 54 00 01 (调用内卫感应灯开的按键)
2024-09-22 07:53:00.727 - 1A 0C 02 08 01 FF 45 01 FF 45 01 FF 00 00 0F (调光器地址-内卫射灯, 内卫射灯微光)
2024-09-22 07:53:48.788 - 19 08 24 03 CC 01 55 00 01 (调用内卫感应灯关的按键)
2024-09-22 07:53:48.822 - 1A 0C 02 08 01 FF 00 01 FF 00 01 FF 00 00 0F (调光器地址-内卫射灯, 内卫感应灯关)
2024-09-22 07:54:54.918 - 19 08 24 03 CC 01 54 00 01 (调用内卫感应灯开的按键)
2024-09-22 07:54:54.952 - 1A 0C 02 08 01 FF 45 01 FF 45 01 FF 00 00 0F (调光器地址-内卫射灯, 内卫射灯微光)
2024-09-22 07:55:33.994 - 19 08 24 03 CC 01 55 00 01 (调用内卫感应灯关的按键)
2024-09-22 07:55:34.030 - 1A 0C 02 08 01 FF 00 01 FF 00 01 FF 00 00 0F (调光器地址-内卫射灯, 内卫感应灯关)
2024-09-22 08:05:15.905 - FF FF FF FF 0A (继电器地址-东阳窗帘)
2024-09-22 08:05:16.039 - FE
2024-09-22 08:06:54.837 - 19 08 24 03 CC 01 54 00 01 (调用内卫感应灯开的按键)
2024-09-22 08:06:54.889 - 1A 0C 02 08 01 FF 45 01 FF 45 01 FF 00 00 0F (调光器地址-内卫射灯, 内卫射灯微光)
2024-09-22 08:07:27.401 - 19 08 24 03 CC 01 55 00 01 (调用内卫感应灯关的按键)
2024-09-22 08:07:27.454 - 1A 0C 02 08 01 FF 00 01 FF 00 01 FF 00 00 0F (调光器地址-内卫射灯, 内卫感应灯关)
2024-09-22 08:12:27.993 - 19 08 24 03 CC 01 54 00 01 (调用内卫感应灯开的按键)
2024-09-22 08:12:28.027 - 1A 0C 02 08 01 FF 45 01 FF 45 01 FF 00 00 0F (调光器地址-内卫射灯, 内卫射灯微光)
2024-09-22 08:13:37.630 - 19 08 24 03 CC 01 55 00 01 (调用内卫感应灯关的按键)
2024-09-22 08:13:37.664 - 1A 0C 02 08 01 FF 00 01 FF 00 01 FF 00 00 0F (调光器地址-内卫射灯, 内卫感应灯关)
2024-09-22 08:27:32.276 - 19 08 24 03 CC 01 54 00 01 (调用内卫感应灯开的按键)
2024-09-22 08:27:32.310 - 1A 0C 02 08 01 FF 45 01 FF 45 01 FF 00 00 0F (调光器地址-内卫射灯, 内卫射灯微光)
2024-09-22 08:28:10.350 - 19 08 24 03 CC 01 55 00 01 (调用内卫感应灯关的按键)
2024-09-22 08:28:10.395 - 1A 0C 02 08 01 FF 00 01 FF 00 01 FF 00 00 0F (调光器地址-内卫射灯, 内卫感应灯关)
2024-09-22 08:30:37.141 - 19 08 24 03 CC 01 54 00 01 (调用内卫感应灯开的按键)
2024-09-22 08:30:37.174 - 1A 0C 02 08 01 FF 45 01 FF 45 01 FF 00 00 0F (调光器地址-内卫射灯, 内卫射灯微光)
2024-09-22 08:31:01.187 - 19 08 24 03 CC 01 55 00 01 (调用内卫感应灯关的按键)
2024-09-22 08:31:01.222 - 1A 0C 02 08 01 FF 00 01 FF 00 01 FF 00 00 0F (调光器地址-内卫射灯, 内卫感应灯关)
2024-09-22 08:40:26.299 - 19 08 24 03 CC 01 54 00 01 (调用内卫感应灯开的按键)
2024-09-22 08:40:26.333 - 1A 0C 02 08 01 FF 45 01 FF 45 01 FF 00 00 0F (调光器地址-内卫射灯, 内卫射灯微光)
2024-09-22 08:40:59.866 - 19 08 24 03 CC 01 55 00 01 (调用内卫感应灯关的按键)
2024-09-22 08:40:59.900 - 1A 0C 02 08 01 FF 00 01 FF 00 01 FF 00 00 0F (调光器地址-内卫射灯, 内卫感应灯关)
2024-09-22 08:49:41.893 - 19 08 24 03 CC 01 54 00 01 (调用内卫感应灯开的按键)
2024-09-22 08:49:41.928 - 1A 0C 02 08 01 FF 45 01 FF 45 01 FF 00 00 0F (调光器地址-内卫射灯, 内卫射灯微光)
2024-09-22 08:51:37.122 - 19 08 24 03 CC 01 55 00 01 (调用内卫感应灯关的按键)
2024-09-22 08:51:37.154 - 1A 0C 02 08 01 FF 00 01 FF 00 01 FF 00 00 0F (调光器地址-内卫射灯, 内卫感应灯关)
2024-09-22 09:10:34.359 - 19 08 24 03 CC 01 54 00 01 (调用内卫感应灯开的按键)
2024-09-22 09:10:34.394 - 1A 0C 02 08 01 FF 45 01 FF 45 01 FF 00 00 0F (调光器地址-内卫射灯, 内卫射灯微光)
2024-09-22 09:11:45.499 - 19 08 24 03 CC 01 55 00 01 (调用内卫感应灯关的按键)
2024-09-22 09:11:45.533 - 1A 0C 02 08 01 FF 00 01 FF 00 01 FF 00 00 0F (调光器地址-内卫射灯, 内卫感应灯关)
2024-09-22 09:37:42.569 - 19 08 24 03 CC 01 54 00 01 (调用内卫感应灯开的按键)
2024-09-22 09:37:42.604 - 1A 0C 02 08 01 FF 45 01 FF 45 01 FF 00 00 0F (调光器地址-内卫射灯, 内卫射灯微光)
2024-09-22 09:38:03.109 - 19 08 24 03 CC 01 55 00 01 (调用内卫感应灯关的按键)
2024-09-22 09:38:03.143 - 1A 0C 02 08 01 FF 00 01 FF 00 01 FF 00 00 0F (调光器地址-内卫射灯, 内卫感应灯关)
2024-09-22 09:41:11.982 - 19 08 24 03 CC 01 54 00 01 (调用内卫感应灯开的按键)
2024-09-22 09:41:12.015 - 1A 0C 02 08 01 FF 45 01 FF 45 01 FF 00 00 0F (调光器地址-内卫射灯, 内卫射灯微光)
2024-09-22 09:42:34.144 - 19 08 24 03 CC 01 55 00 01 (调用内卫感应灯关的按键)
2024-09-22 09:42:34.178 - 1A 0C 02 08 01 FF 00 01 FF 00 01 FF 00 00 0F (调光器地址-内卫射灯, 内卫感应灯关)
2024-09-22 09:43:57.808 - 19 08 24 03 CC 01 54 00 01 (调用内卫感应灯开的按键)
2024-09-22 09:43:57.842 - 1A 0C 02 08 01 FF 45 01 FF 45 01 FF 00 00 0F (调光器地址-内卫射灯, 内卫射灯微光)
2024-09-22 09:44:36.884 - 19 08 24 03 CC 01 55 00 01 (调用内卫感应灯关的按键)
2024-09-22 09:44:36.918 - 1A 0C 02 08 01 FF 00 01 FF 00 01 FF 00 00 0F (调光器地址-内卫射灯, 内卫感应灯关)
2024-09-22 09:53:10.396 - 19 08 24 03 CC 01 54 00 01 (调用内卫感应灯开的按键)
2024-09-22 09:53:10.430 - 1A 0C 02 08 01 FF 45 01 FF 45 01 FF 00 00 0F (调光器地址-内卫射灯, 内卫射灯微光)
2024-09-22 09:54:32.058 - 19 08 24 03 CC 01 55 00 01 (调用内卫感应灯关的按键)
2024-09-22 09:54:32.091 - 1A 0C 02 08 01 FF 00 01 FF 00 01 FF 00 00 0F (调光器地址-内卫射灯, 内卫感应灯关)
2024-09-22 09:57:38.924 - 19 08 24 03 CC 01 54 00 01 (调用内卫感应灯开的按键)
2024-09-22 09:57:38.958 - 1A 0C 02 08 01 FF 45 01 FF 45 01 FF 00 00 0F (调光器地址-内卫射灯, 内卫射灯微光)
2024-09-22 09:57:56.959 - 19 08 24 03 CC 01 55 00 01 (调用内卫感应灯关的按键)
2024-09-22 09:57:56.993 - 1A 0C 02 08 01 FF 00 01 FF 00 01 FF 00 00 0F (调光器地址-内卫射灯, 内卫感应灯关)
2024-09-22 09:58:56.577 - 19 08 24 03 CC 01 54 00 01 (调用内卫感应灯开的按键)
2024-09-22 09:58:56.610 - 1A 0C 02 08 01 FF 45 01 FF 45 01 FF 00 00 0F (调光器地址-内卫射灯, 内卫射灯微光)
2024-09-22 09:59:59.201 - 19 08 24 03 CC 01 55 00 01 (调用内卫感应灯关的按键)
2024-09-22 09:59:59.235 - 1A 0C 02 08 01 FF 00 01 FF 00 01 FF 00 00 0F (调光器地址-内卫射灯, 内卫感应灯关)
2024-09-22 10:04:48.770 - 19 08 24 03 CC 01 54 00 01 (调用内卫感应灯开的按键)
2024-09-22 10:04:48.805 - 1A 0C 02 08 01 FF 45 01 FF 45 01 FF 00 00 0F (调光器地址-内卫射灯, 内卫射灯微光)
2024-09-22 10:06:18.949 - 19 08 24 03 CC 01 55 00 01 (调用内卫感应灯关的按键)
2024-09-22 10:06:18.983 - 1A 0C 02 08 01 FF 00 01 FF 00 01 FF 00 00 0F (调光器地址-内卫射灯, 内卫感应灯关)
2024-09-22 10:08:58.263 - 19 08 24 03 CC 01 54 00 01 (调用内卫感应灯开的按键)
2024-09-22 10:08:58.297 - 1A 0C 02 08 01 FF 45 01 FF 45 01 FF 00 00 0F (调光器地址-内卫射灯, 内卫射灯微光)
2024-09-22 10:10:26.437 - 19 08 24 03 CC 01 55 00 01 (调用内卫感应灯关的按键)
2024-09-22 10:10:26.472 - 1A 0C 02 08 01 FF 00 01 FF 00 01 FF 00 00 0F (调光器地址-内卫射灯, 内卫感应灯关)
2024-09-22 10:13:05.248 - 19 08 24 03 CC 01 54 00 01 (调用内卫感应灯开的按键)
2024-09-22 10:13:05.283 - 1A 0C 02 08 01 FF 45 01 FF 45 01 FF 00 00 0F (调光器地址-内卫射灯, 内卫射灯微光)
2024-09-22 10:14:43.442 - 19 08 24 03 CC 01 55 00 01 (调用内卫感应灯关的按键)
2024-09-22 10:14:43.481 - 1A 0C 02 08 01 FF 00 01 FF 00 01 FF 00 00 0F (调光器地址-内卫射灯, 内卫感应灯关)
2024-09-22 10:15:01.979 - 19 08 24 03 CC 01 54 00 01 (调用内卫感应灯开的按键)
2024-09-22 10:15:02.013 - 1A 0C 02 08 01 FF 45 01 FF 45 01 FF 00 00 0F (调光器地址-内卫射灯, 内卫射灯微光)
2024-09-22 10:15:22.018 - 19 08 24 03 CC 01 55 00 01 (调用内卫感应灯关的按键)
2024-09-22 10:15:22.052 - 1A 0C 02 08 01 FF 00 01 FF 00 01 FF 00 00 0F (调光器地址-内卫射灯, 内卫感应灯关)
2024-09-22 10:15:45.064 - 19 08 24 03 CC 01 54 00 01 (调用内卫感应灯开的按键)
2024-09-22 10:15:45.097 - 1A 0C 02 08 01 FF 45 01 FF 45 01 FF 00 00 0F (调光器地址-内卫射灯, 内卫射灯微光)
2024-09-22 10:16:22.638 - 19 08 24 03 CC 01 55 00 01 (调用内卫感应灯关的按键)
2024-09-22 10:16:22.671 - 1A 0C 02 08 01 FF 00 01 FF 00 01 FF 00 00 0F (调光器地址-内卫射灯, 内卫感应灯关)
2024-09-22 10:25:14.187 - 19 08 24 03 CC 01 54 00 01 (调用内卫感应灯开的按键)
2024-09-22 10:25:14.219 - 1A 0C 02 08 01 FF 45 01 FF 45 01 FF 00 00 0F (调光器地址-内卫射灯, 内卫射灯微光)
2024-09-22 10:26:33.844 - 19 08 24 03 CC 01 55 00 01 (调用内卫感应灯关的按键)
2024-09-22 10:26:33.878 - 1A 0C 02 08 01 FF 00 01 FF 00 01 FF 00 00 0F (调光器地址-内卫射灯, 内卫感应灯关)
2024-09-22 10:27:33.705 - 1A BE B0 DC 04 FC (继电器地址-西阳窗帘)
2024-09-22 10:27:33.838 - FF
2024-09-22 10:28:08.917 - FF FF FF FF 0E (继电器地址-西阳小窗帘)
2024-09-22 10:28:09.053 - FF
2024-09-22 10:30:00.693 - 19 08 24 03 DD 00 4A 00 01 (调用情景-主卧起床)
2024-09-22 10:30:01.227 - EE 00 00 B1 00 00 00 FF FC FF FF (情景执行提示)
2024-09-22 10:30:01.821 - 09 06 00 0F 02 01 78 21 (提示音叮)
2024-09-22 10:30:02.391 - 50 F0 04 (开内卫影视)
2024-09-22 10:30:02.961 - 50 F0 05 (开主卧影视)
2024-09-22 10:30:03.513 - A5 00 53 FE 01 AA (主卧纱帘关)
2024-09-22 10:30:04.060 - A5 00 53 FE 01 AA (主卧纱帘关)
2024-09-22 10:30:04.608 - A5 00 52 FE 01 AA (主卧窗帘开)
2024-09-22 10:30:05.655 - A5 00 52 FE 01 AA (主卧窗帘开)
2024-09-22 10:30:06.704 - 1A 22 33 62 0F 00 02 01 0F (正反转地址-内卫卷帘, 内卫卷帘降)
2024-09-22 10:30:07.750 - 1A FF FF FF 56 00 00 00 0F (人体感应地址-内卫, 关闭内卫感应)
2024-09-22 10:30:07.851 - BC BC
2024-09-22 10:30:08.897 - 1A 20 07 01 55 00 01 00 0F (自保持开关地址-主卧顶灯, 主卧顶灯只关)
2024-09-22 10:30:09.949 - 1A 0C 02 08 01 FF 45 01 FF 45 01 FF 00 00 0F (调光器地址-内卫射灯, 内卫射灯微光)
2024-09-22 10:30:11.046 - 1A 0C 02 04 01 FF 45 01 FF 45 01 FF 00 00 0F (调光器地址-主卧筒灯, 主卧筒灯微光)
2024-09-22 10:30:11.643 - 1A 0C 02 04 03 FF 45 01 FF 45 01 FF 00 00 0F (调光器地址-主卧灯带, 主卧灯带微光)
2024-09-22 10:30:12.241 - 1A 0C 02 04 02 FF 45 01 FF 45 01 FF 00 00 0F (调光器地址-主卧过道, 主卧过道微光)
2024-09-22 10:30:12.855 - 50 F1 25 (主卧—有线2)
2024-09-22 10:30:13.424 - 50 F1 24 (内卫—有线2)
2024-09-22 10:30:14.473 - AF BF CF DF C2 21 (有线2/快捷-凤凰卫视)
2024-09-22 10:30:15.024 - 1A FF FF FF 60 0B 01 01 0F (红外总线地址-主卧发射设备, 主卧电视电源)
2024-09-22 10:30:15.541 - F0 0B 01 08
2024-09-22 10:30:17.876 - 55 20 20 00 00 0F 02 16 AA 55 20 20 00 00 0F 02 16 AA (主卧窗帘电机状态返回)
2024-09-22 10:30:20.059 - 09 06 00 0F 02 02 38 20 (提示音咚)
2024-09-22 10:30:20.610 - EE 00 00 B1 00 00 02 FF FC FF FF (情景完成返回主页)
2024-09-22 10:30:21.202 - A1 11 11 11 11 01 (内卫浴霸取暖判断)
2024-09-22 10:30:21.423 - 14 03 00 00 00 02 C6 CE (查询内卫温湿度)
2024-09-22 10:30:21.444 - 14 03 04 01 F4 00 F4 FF 7B (内卫温湿度返回)
2024-09-22 10:44:54.536 - 1A FF FF FF 04 (继电器地址-东阳衣架)
2024-09-22 10:44:54.671 - FF
2024-09-22 10:45:15.651 - 1A BE B0 DC 02 FC (正反转地址-外卫卷帘)
2024-09-22 10:45:15.785 - FF
2024-09-22 10:48:59.052 - 19 08 24 03 DD 00 10 00 01 (调用情景-客餐厅空调开)
2024-09-22 10:48:59.601 - EE 00 00 B1 00 00 00 FF FC FF FF (情景执行提示)
2024-09-22 10:49:00.195 - 09 06 00 0F 02 01 78 21 (提示音叮)
2024-09-22 10:49:00.740 - A1 11 11 11 40 (客厅空调自动开)
2024-09-22 10:49:00.970 - 19 08 24 03 F0 BB 78 02 02 00
2024-09-22 10:49:01.001 - 23 AA 56 02 0A 31 1F 18 09 16 07 73 65 6F 6B 65 6E 64
2024-09-22 10:49:01.980 - 01 10 07 D0 00 03 06 70 61 00 02 00 FA 6F 26 (客厅空调冷25度)
2024-09-22 10:49:02.018 - 01 10 07 D0 00 03 06 70 61 00 02 00 FA 6F 26 (客厅空调冷25度)
2024-09-22 10:49:04.775 - A1 11 11 11 41 (餐厅空调自动开)
2024-09-22 10:49:05.002 - 19 08 24 03 F0 BB 78 02 02 00
2024-09-22 10:49:05.052 - 23 AA 56 02 0A 31 23 18 09 16 07 73 65 6F 6B 65 6E 64
2024-09-22 10:49:06.011 - 01 10 07 D3 00 03 06 70 61 00 02 00 FA 9F 29 (餐厅空调冷25度)
2024-09-22 10:49:06.048 - 01 10 07 D3 00 03 06 70 61 00 02 00 FA 9F 29 (餐厅空调冷25度)
2024-09-22 10:49:06.730 - 19 08 24 03 CC 01 CC 00 01 (调用茶吧感应灯开的按键)
2024-09-22 10:49:06.780 - 1A AA AA AA 88 FF B0 01 FF B0 01 0F (调光器地址-茶吧灯带, 茶吧灯带明亮)
2024-09-22 10:49:08.815 - 09 06 00 0F 02 02 38 20 (提示音咚)
2024-09-22 10:49:09.367 - EE 00 00 B1 00 00 02 FF FC FF FF (情景完成返回主页)
2024-09-22 10:49:16.594 - 19 08 24 03 CC 00 D3 00 01 (调用厨房感应灯开的按键)
2024-09-22 10:49:16.644 - 55 0A 32 00 00 00 01 92 55 0A 32 00 00 00 02 93 (厨房顶灯一开, 厨房顶灯二开)
2024-09-22 10:49:26.268 - 19 08 24 03 CC 01 CD 00 01 (调用茶吧感应灯关的按键)
2024-09-22 10:49:26.299 - 1A AA AA AA 88 FF 00 01 FF 00 01 0F (调光器地址-茶吧灯带, 茶吧灯带关闭)
2024-09-22 10:49:32.781 - 19 08 24 03 CC 01 CC 00 01 (调用茶吧感应灯开的按键)
2024-09-22 10:49:32.812 - 1A AA AA AA 88 FF B0 01 FF B0 01 0F (调光器地址-茶吧灯带, 茶吧灯带明亮)
2024-09-22 10:49:51.319 - 19 08 24 03 CC 01 CD 00 01 (调用茶吧感应灯关的按键)
2024-09-22 10:49:51.349 - 1A AA AA AA 88 FF 00 01 FF 00 01 0F (调光器地址-茶吧灯带, 茶吧灯带关闭)
2024-09-22 10:51:01.458 - 19 08 24 03 CC 01 CC 00 01 (调用茶吧感应灯开的按键)
2024-09-22 10:51:01.488 - 1A AA AA AA 88 FF B0 01 FF B0 01 0F (调光器地址-茶吧灯带, 茶吧灯带明亮)
2024-09-22 10:52:01.577 - 19 08 24 03 CC 01 CD 00 01 (调用茶吧感应灯关的按键)
2024-09-22 10:52:01.607 - 1A AA AA AA 88 FF 00 01 FF 00 01 0F (调光器地址-茶吧灯带, 茶吧灯带关闭)
2024-09-22 10:54:13.102 - 1A BE B0 DC 09 FC (继电器地址-客厅窗帘)
2024-09-22 10:54:13.236 - FF
2024-09-22 10:55:16.154 - 1A BE B0 DC 01 FF (继电器地址-回水泵点动)
2024-09-22 10:55:16.287 - FF
2024-09-22 10:55:40.009 - 19 08 24 03 CC 01 CC 00 01 (调用茶吧感应灯开的按键)
2024-09-22 10:55:40.057 - 1A AA AA AA 88 FF B0 01 FF B0 01 0F (调光器地址-茶吧灯带, 茶吧灯带明亮)
2024-09-22 10:55:58.045 - 19 08 24 03 CC 01 CD 00 01 (调用茶吧感应灯关的按键)
2024-09-22 10:55:58.094 - 1A AA AA AA 88 FF 00 01 FF 00 01 0F (调光器地址-茶吧灯带, 茶吧灯带关闭)
2024-09-22 10:56:50.647 - 19 08 24 03 CC 01 CC 00 01 (调用茶吧感应灯开的按键)
2024-09-22 10:56:50.678 - 1A AA AA AA 88 FF B0 01 FF B0 01 0F (调光器地址-茶吧灯带, 茶吧灯带明亮)
2024-09-22 10:56:56.386 - A5 00 A6 FE 01 AA (餐厅窗帘开)
2024-09-22 10:56:56.438 - 55 00 A6 02 01 66 01 74 AA 55 00 A6 02 01 66 01 74 AA (餐厅窗帘电机状态返回)
2024-09-22 10:57:05.505 - 55 00 A6 00 00 0E 01 74 AA 55 00 A6 00 00 0E 01 74 AA (餐厅窗帘电机状态返回)
2024-09-22 10:57:11.188 - 19 08 24 03 CC 01 CD 00 01 (调用茶吧感应灯关的按键)
2024-09-22 10:57:11.237 - 1A AA AA AA 88 FF 00 01 FF 00 01 0F (调光器地址-茶吧灯带, 茶吧灯带关闭)
2024-09-22 10:58:17.077 - 1A BE B0 DC 03 (继电器地址-西阳天幕)
2024-09-22 10:58:17.211 - FF
2024-09-22 11:01:10.662 - 19 08 24 03 CC 01 CC 00 01 (调用茶吧感应灯开的按键)
2024-09-22 11:01:10.710 - 1A AA AA AA 88 FF B0 01 FF B0 01 0F (调光器地址-茶吧灯带, 茶吧灯带明亮)
2024-09-22 11:01:13.870 - 1A BE B0 DC 0A (继电器地址-客厅纱帘)
2024-09-22 11:01:29.198 - 19 08 24 03 CC 01 CD 00 01 (调用茶吧感应灯关的按键)
2024-09-22 11:01:29.248 - 1A AA AA AA 88 FF 00 01 FF 00 01 0F (调光器地址-茶吧灯带, 茶吧灯带关闭)
2024-09-22 11:01:33.207 - 19 08 24 03 CC 01 CC 00 01 (调用茶吧感应灯开的按键)
2024-09-22 11:01:33.256 - 1A AA AA AA 88 FF B0 01 FF B0 01 0F (调光器地址-茶吧灯带, 茶吧灯带明亮)
2024-09-22 11:01:51.242 - 19 08 24 03 CC 01 CD 00 01 (调用茶吧感应灯关的按键)
2024-09-22 11:01:51.273 - 1A AA AA AA 88 FF 00 01 FF 00 01 0F (调光器地址-茶吧灯带, 茶吧灯带关闭)
2024-09-22 11:03:47.972 - 19 08 24 03 CC 01 CC 00 01 (调用茶吧感应灯开的按键)
2024-09-22 11:03:48.002 - 1A AA AA AA 88 FF B0 01 FF B0 01 0F (调光器地址-茶吧灯带, 茶吧灯带明亮)
2024-09-22 11:03:55.832 - 19 08 24 03 CC 00 D4 00 01 (调用厨房感应灯关的按键)
2024-09-22 11:03:55.867 - 55 0A 31 00 00 00 01 91 55 0A 31 00 00 00 02 92 (厨房顶灯一关, 厨房顶灯二关)
2024-09-22 11:04:05.506 - 19 08 24 03 CC 01 CD 00 01 (调用茶吧感应灯关的按键)
2024-09-22 11:04:05.539 - 1A AA AA AA 88 FF 00 01 FF 00 01 0F (调光器地址-茶吧灯带, 茶吧灯带关闭)
2024-09-22 11:17:26.087 - 19 08 24 03 CC 01 CC 00 01 (调用茶吧感应灯开的按键)
2024-09-22 11:17:26.118 - 1A AA AA AA 88 FF B0 01 FF B0 01 0F (调光器地址-茶吧灯带, 茶吧灯带明亮)
2024-09-22 11:17:28.429 - 19 08 24 03 CC 00 D3 00 01 (调用厨房感应灯开的按键)
2024-09-22 11:17:28.463 - 55 0A 32 00 00 00 01 92 55 0A 32 00 00 00 02 93 (厨房顶灯一开, 厨房顶灯二开)
2024-09-22 11:17:38.112 - 19 08 24 03 CC 01 CD 00 01 (调用茶吧感应灯关的按键)
2024-09-22 11:17:38.143 - 1A AA AA AA 88 FF 00 01 FF 00 01 0F (调光器地址-茶吧灯带, 茶吧灯带关闭)
2024-09-22 11:20:31.453 - 19 08 24 03 CC 01 CC 00 01 (调用茶吧感应灯开的按键)
2024-09-22 11:20:31.484 - 1A AA AA AA 88 FF B0 01 FF B0 01 0F (调光器地址-茶吧灯带, 茶吧灯带明亮)
2024-09-22 11:20:53.997 - 19 08 24 03 CC 01 CD 00 01 (调用茶吧感应灯关的按键)
2024-09-22 11:20:54.028 - 1A AA AA AA 88 FF 00 01 FF 00 01 0F (调光器地址-茶吧灯带, 茶吧灯带关闭)
2024-09-22 11:21:11.031 - 19 08 24 03 CC 01 CC 00 01 (调用茶吧感应灯开的按键)
2024-09-22 11:21:11.062 - 1A AA AA AA 88 FF B0 01 FF B0 01 0F (调光器地址-茶吧灯带, 茶吧灯带明亮)
2024-09-22 11:21:19.384 - 19 08 24 03 CC 00 D4 00 01 (调用厨房感应灯关的按键)
2024-09-22 11:21:19.418 - 55 0A 31 00 00 00 01 91 55 0A 31 00 00 00 02 92 (厨房顶灯一关, 厨房顶灯二关)
2024-09-22 11:22:33.694 - 19 08 24 03 CC 01 CD 00 01 (调用茶吧感应灯关的按键)
2024-09-22 11:22:33.725 - 1A AA AA AA 88 FF 00 01 FF 00 01 0F (调光器地址-茶吧灯带, 茶吧灯带关闭)
2024-09-22 11:29:57.341 - EE 00 6E B1 01 00 03 FF FC FF FF
2024-09-22 11:29:57.952 - EE 00 6E B1 01 00 08 FF FC FF FF
2024-09-22 11:29:58.516 - 1A BE B0 DC 0A 00 02 00 (继电器地址-客厅纱帘, 客厅纱帘开)
2024-09-22 11:30:05.086 - 19 08 24 03 CC 01 CC 00 01 (调用茶吧感应灯开的按键)
2024-09-22 11:30:05.135 - 1A AA AA AA 88 FF B0 01 FF B0 01 0F (调光器地址-茶吧灯带, 茶吧灯带明亮)
2024-09-22 11:30:19.444 - 19 08 24 03 CC 00 D3 00 01 (调用厨房感应灯开的按键)
2024-09-22 11:30:19.480 - 55 0A 32 00 00 00 01 92 55 0A 32 00 00 00 02 93 (厨房顶灯一开, 厨房顶灯二开)
2024-09-22 11:30:59.525 - 19 08 24 03 CC 00 D4 00 01 (调用厨房感应灯关的按键)
2024-09-22 11:30:59.559 - 55 0A 31 00 00 00 01 91 55 0A 31 00 00 00 02 92 (厨房顶灯一关, 厨房顶灯二关)
2024-09-22 11:31:48.791 - 19 08 24 03 CC 01 CD 00 01 (调用茶吧感应灯关的按键)
2024-09-22 11:31:48.823 - 1A AA AA AA 88 FF 00 01 FF 00 01 0F (调光器地址-茶吧灯带, 茶吧灯带关闭)
2024-09-22 11:32:33.881 - FF FF FF FF 0A (继电器地址-东阳窗帘)
2024-09-22 12:15:36.979 - 19 08 24 03 CC 01 CC 00 01 (调用茶吧感应灯开的按键)
2024-09-22 12:15:37.029 - 1A AA AA AA 88 FF B0 01 FF B0 01 0F (调光器地址-茶吧灯带, 茶吧灯带明亮)
2024-09-22 12:15:39.295 - 19 08 24 03 CC 00 D3 00 01 (调用厨房感应灯开的按键)
2024-09-22 12:15:39.348 - 55 0A 32 00 00 00 01 92 55 0A 32 00 00 00 02 93 (厨房顶灯一开, 厨房顶灯二开)
2024-09-22 12:15:49.504 - 19 08 24 03 CC 01 CD 00 01 (调用茶吧感应灯关的按键)
2024-09-22 12:15:49.535 - 1A AA AA AA 88 FF 00 01 FF 00 01 0F (调光器地址-茶吧灯带, 茶吧灯带关闭)
2024-09-22 12:15:53.512 - 19 08 24 03 CC 01 CC 00 01 (调用茶吧感应灯开的按键)
2024-09-22 12:15:53.543 - 1A AA AA AA 88 FF B0 01 FF B0 01 0F (调光器地址-茶吧灯带, 茶吧灯带明亮)
2024-09-22 12:16:21.067 - 19 08 24 03 CC 01 CD 00 01 (调用茶吧感应灯关的按键)
2024-09-22 12:16:21.098 - 1A AA AA AA 88 FF 00 01 FF 00 01 0F (调光器地址-茶吧灯带, 茶吧灯带关闭)
2024-09-22 12:16:32.899 - 19 08 24 03 CC 00 D4 00 01 (调用厨房感应灯关的按键)
2024-09-22 12:16:32.935 - 55 0A 31 00 00 00 01 91 55 0A 31 00 00 00 02 92 (厨房顶灯一关, 厨房顶灯二关)
2024-09-22 12:28:25.532 - 19 08 24 03 DD 00 40 00 01 (调用情景-离开主卧)
2024-09-22 12:28:26.069 - EE 00 00 B1 00 00 00 FF FC FF FF (情景执行提示)
2024-09-22 12:28:26.693 - 09 06 00 0F 02 01 78 21 (提示音叮)
2024-09-22 12:28:27.257 - 50 F5 05 (关主卧影视)
2024-09-22 12:28:27.805 - 50 F5 04 (关内卫影视)
2024-09-22 12:28:28.358 - 01 06 07 D6 FF 60 28 9E (主卧空调关)
2024-09-22 12:28:28.393 - 01 06 07 D6 FF 60 28 9E (主卧空调关)
2024-09-22 12:28:28.953 - A5 00 52 FE 01 AA (主卧窗帘开)
2024-09-22 12:28:30.049 - A5 00 52 FE 01 AA (主卧窗帘开)
2024-09-22 12:28:31.146 - A5 00 53 FF 00 AA (主卧纱帘开)
2024-09-22 12:28:31.199 - 55 00 53 01 00 0C 02 2F AA 55 00 53 01 00 0C 02 2F AA (主卧纱帘电机状态返回)
2024-09-22 12:28:31.745 - A5 00 53 FF 00 AA (主卧纱帘开)
2024-09-22 12:28:32.295 - 1A 22 33 62 0F 00 00 01 0F (正反转地址-内卫卷帘, 内卫卷帘升)
2024-09-22 12:28:33.342 - 1A 20 07 01 40 00 01 00 0F (自保持开关地址-内卫顶灯, 内卫顶灯关)
2024-09-22 12:28:33.809 - 55 20 20 00 00 0F 02 16 AA 55 20 20 00 00 0F 02 16 AA (主卧窗帘电机状态返回)
2024-09-22 12:28:34.388 - 1A 20 07 01 55 00 01 00 0F (自保持开关地址-主卧顶灯, 主卧顶灯只关)
2024-09-22 12:28:34.942 - 1A 0C 02 08 01 FF 00 01 FF 00 01 FF 00 00 0F (调光器地址-内卫射灯, 内卫感应灯关)
2024-09-22 12:28:35.534 - 1A FF FF FF 56 00 00 01 0F (人体感应地址-内卫, 打开内卫感应)
2024-09-22 12:28:35.944 - 19 08 24 03 CC 01 54 00 01 (调用内卫感应灯开的按键)
2024-09-22 12:28:35.997 - 1A 0C 02 08 01 FF 45 01 FF 45 01 FF 00 00 0F (调光器地址-内卫射灯, 内卫射灯微光)
2024-09-22 12:28:39.379 - 1A 0C 02 04 FF FF 00 01 FF 00 01 FF 00 00 0F (主卧调光全关)
2024-09-22 12:28:40.468 - 09 06 00 0F 02 02 38 20 (提示音咚)
2024-09-22 12:28:41.069 - EE 00 00 B1 00 00 02 FF FC FF FF (情景完成返回主页)
2024-09-22 12:28:41.911 - 55 00 53 00 02 22 02 2F AA 55 00 53 00 02 22 02 2F AA (主卧纱帘电机状态返回)
2024-09-22 12:29:14.221 - 19 08 24 03 CC 01 55 00 01 (调用内卫感应灯关的按键)
2024-09-22 12:29:14.274 - 1A 0C 02 08 01 FF 00 01 FF 00 01 FF 00 00 0F (调光器地址-内卫射灯, 内卫感应灯关)
2024-09-22 12:29:15.094 - 19 08 24 03 CC 01 CC 00 01 (调用茶吧感应灯开的按键)
2024-09-22 12:29:15.124 - 1A AA AA AA 88 FF B0 01 FF B0 01 0F (调光器地址-茶吧灯带, 茶吧灯带明亮)
2024-09-22 12:30:01.730 - 19 08 24 03 CC 00 F7 00 01
2024-09-22 12:30:01.757 - A5 00 D2 FE 01 AA 22 0D (书房窗帘开)
2024-09-22 12:30:03.838 - 1A 27 89 12 AA 86 86 86 0F (查询寄存器状态, 状态寄存器地址)
2024-09-22 12:30:04.220 - 1A 27 89 12 AA 01 00 00 00 00 00 00 00 00 00 00 00 00 00 00 00 0F (状态寄存器地址)
2024-09-22 12:30:04.521 - 1A EC A0 DC 02 86 86 86 0F (查询天花供电状态, 自保持开关地址-天花12V供电)
2024-09-22 12:30:04.953 - 1A EC A0 DC 02 01 01 0F (自保持开关地址-天花12V供电)
2024-09-22 12:30:05.136 - 1A EC A0 DC 01 86 86 86 0F (查询电视供电状态, 自保持开关地址-电视、设备12V供电)
2024-09-22 12:30:05.570 - 1A EC A0 DC 01 01 01 0F (自保持开关地址-电视、设备12V供电)
2024-09-22 12:30:05.751 - 1A EC A0 DC 03 86 86 86 0F (自保持开关地址-书房餐厅厨房供电)
2024-09-22 12:30:06.180 - 1A EC A0 DC 03 01 01 0F (自保持开关地址-书房餐厅厨房供电)
2024-09-22 12:30:06.377 - 1A EC A0 DC 04 86 86 86 0F (查询卫生间供电状态, 自保持开关地址-次卧西阳内外卫供电)
2024-09-22 12:30:06.810 - 1A EC A0 DC 04 01 01 0F (自保持开关地址-次卧西阳内外卫供电)
2024-09-22 12:30:08.199 - 19 08 24 03 CC 01 CD 00 01 (调用茶吧感应灯关的按键)
2024-09-22 12:30:08.249 - 1A AA AA AA 88 FF 00 01 FF 00 01 0F (调光器地址-茶吧灯带, 茶吧灯带关闭)
2024-09-22 12:30:10.128 - 55 00 D2 00 00 0D 01 0B AA 55 00 D2 00 00 0D 01 0B AA (书房窗帘电机状态返回)
2024-09-22 12:30:15.054 - 1A 27 89 12 AA 00 0B 02 0F (状态寄存器地址)
2024-09-22 12:30:15.341 - 19 08 24 03 CC 01 54 00 01 (调用内卫感应灯开的按键)
2024-09-22 12:30:15.394 - 1A 0C 02 08 01 FF 45 01 FF 45 01 FF 00 00 0F (调光器地址-内卫射灯, 内卫射灯微光)
2024-09-22 12:30:16.058 - 1A 27 89 12 AA 86 86 86 0F (查询寄存器状态, 状态寄存器地址)
2024-09-22 12:30:16.442 - 1A 27 89 12 AA 01 00 00 00 00 00 00 00 00 00 00 01 00 00 00 00 0F (状态寄存器地址)
2024-09-22 12:30:20.331 - 1A 27 89 12 AA 00 0B 02 0F (状态寄存器地址)
2024-09-22 12:30:21.329 - 1A 27 89 12 AA 86 86 86 0F (查询寄存器状态, 状态寄存器地址)
2024-09-22 12:30:21.651 - 1A 27 89 12 AA 01 00 00 00 00 00 00 00 00 00 00 00 00 00 00 00 0F (状态寄存器地址)
2024-09-22 12:30:23.258 - 1A 27 89 12 AA 86 86 86 0F (查询寄存器状态, 状态寄存器地址)
2024-09-22 12:30:23.578 - 1A 27 89 12 AA 01 00 00 00 00 00 00 00 00 00 00 00 00 00 00 00 0F (状态寄存器地址)
2024-09-22 12:30:23.774 - 1A EC A0 DC 02 86 86 86 0F (查询天花供电状态, 自保持开关地址-天花12V供电)
2024-09-22 12:30:24.209 - 1A EC A0 DC 02 01 01 0F (自保持开关地址-天花12V供电)
2024-09-22 12:30:24.387 - 1A EC A0 DC 01 86 86 86 0F (查询电视供电状态, 自保持开关地址-电视、设备12V供电)
2024-09-22 12:30:24.820 - 1A EC A0 DC 01 01 01 0F (自保持开关地址-电视、设备12V供电)
2024-09-22 12:30:25.000 - 1A EC A0 DC 03 86 86 86 0F (自保持开关地址-书房餐厅厨房供电)
2024-09-22 12:30:25.432 - 1A EC A0 DC 03 01 01 0F (自保持开关地址-书房餐厅厨房供电)
2024-09-22 12:30:25.616 - 1A EC A0 DC 04 86 86 86 0F (查询卫生间供电状态, 自保持开关地址-次卧西阳内外卫供电)
2024-09-22 12:30:26.049 - 1A EC A0 DC 04 01 01 0F (自保持开关地址-次卧西阳内外卫供电)
2024-09-22 12:30:32.876 - 19 08 24 03 CC 01 55 00 01 (调用内卫感应灯关的按键)
2024-09-22 12:30:32.930 - 1A 0C 02 08 01 FF 00 01 FF 00 01 FF 00 00 0F (调光器地址-内卫射灯, 内卫感应灯关)
2024-09-22 12:31:05.940 - 19 08 24 03 CC 01 52 00 01 (调用外卫感应灯开的按键)
2024-09-22 12:31:05.974 - 1A 0D 01 07 01 FF 45 01 FF 45 01 FF 00 00 0F (调光器地址-外卫射灯, 外卫感应灯开)
2024-09-22 12:32:13.072 - 19 08 24 03 CC 01 53 00 01 (调用外卫感应灯关的按键)
2024-09-22 12:32:13.106 - 1A 0D 01 07 01 FF 00 01 FF 00 01 FF 00 00 0F (调光器地址-外卫射灯, 外卫感应灯关)
2024-09-22 12:33:37.368 - 30 50 FA 05 0A 01 0E
2024-09-22 12:33:37.572 - 50
2024-09-22 12:33:37.573 - FB
2024-09-22 12:33:37.575 - 05
2024-09-22 12:33:37.577 - 00
2024-09-22 12:33:37.581 - 00
2024-09-22 12:33:37.581 - 05
2024-09-22 12:33:40.975 - 50
2024-09-22 12:33:40.977 - FC
2024-09-22 12:33:40.978 - 01
2024-09-22 12:33:40.982 - 00
2024-09-22 12:33:40.983 - 00
2024-09-22 12:33:40.985 - 01
2024-09-22 12:33:46.309 - 30 50 FA 05 0A 01 0E
2024-09-22 12:33:46.345 - 50
2024-09-22 12:33:46.347 - FB
2024-09-22 12:33:46.349 - 05
2024-09-22 12:33:46.351 - 00
2024-09-22 12:33:46.355 - 00
2024-09-22 12:33:46.356 - 05
2024-09-22 12:33:50.415 - 50
2024-09-22 12:33:50.417 - FC
2024-09-22 12:33:50.420 - 01
2024-09-22 12:33:50.422 - 00
2024-09-22 12:33:50.424 - 00
2024-09-22 12:33:50.426 - 01
2024-09-22 12:34:06.860 - 30 50 FA 05 0B 01 0F
2024-09-22 12:34:06.905 - 50
2024-09-22 12:34:06.906 - FB
2024-09-22 12:34:06.908 - 05
2024-09-22 12:34:06.910 - 00
2024-09-22 12:34:06.913 - 00
2024-09-22 12:34:06.915 - 05
2024-09-22 12:34:10.656 - 50
2024-09-22 12:34:10.658 - FC
2024-09-22 12:34:10.660 - 01
2024-09-22 12:34:10.661 - 00
2024-09-22 12:34:10.663 - 00
2024-09-22 12:34:10.666 - 01
2024-09-22 12:34:19.760 - 30 50 FA 05 0C 01 08
2024-09-22 12:34:19.798 - 50
2024-09-22 12:34:19.799 - FB
2024-09-22 12:34:19.801 - 05
2024-09-22 12:34:19.803 - 00
2024-09-22 12:34:19.806 - 00
2024-09-22 12:34:19.806 - 05
2024-09-22 12:34:23.296 - 50
2024-09-22 12:34:23.298 - FC
2024-09-22 12:34:23.301 - 01
2024-09-22 12:34:23.303 - 00
2024-09-22 12:34:23.305 - 00
2024-09-22 12:34:23.308 - 01
2024-09-22 12:34:25.925 - 30 50 FA 05 0C 01 08
2024-09-22 12:34:25.962 - 50
2024-09-22 12:34:25.964 - FB
2024-09-22 12:34:25.967 - 05
2024-09-22 12:34:25.969 - 00
2024-09-22 12:34:25.970 - 00
2024-09-22 12:34:25.972 - 05
2024-09-22 12:34:29.138 - 50
2024-09-22 12:34:29.140 - FC
2024-09-22 12:34:29.142 - 01
2024-09-22 12:34:29.143 - 00
2024-09-22 12:34:29.149 - 00
2024-09-22 12:34:29.149 - 01
2024-09-22 12:34:40.925 - 30 50 FA 05 0D 01 09
2024-09-22 12:34:41.087 - 50
2024-09-22 12:34:41.089 - FB
2024-09-22 12:34:41.092 - 05
2024-09-22 12:34:41.092 - 00
2024-09-22 12:34:41.096 - 00
2024-09-22 12:34:41.097 - 05
2024-09-22 12:34:44.578 - 50
2024-09-22 12:34:44.581 - FC
2024-09-22 12:34:44.582 - 01
2024-09-22 12:34:44.584 - 00
2024-09-22 12:34:44.587 - 00
2024-09-22 12:34:44.587 - 01
2024-09-22 12:34:54.276 - 30 50 FA 05 0E 01 0A
2024-09-22 12:34:54.312 - 50
2024-09-22 12:34:54.314 - FB
2024-09-22 12:34:54.315 - 05
2024-09-22 12:34:54.316 - 00
2024-09-22 12:34:54.320 - 00
2024-09-22 12:34:54.322 - 05
2024-09-22 12:34:57.619 - 50
2024-09-22 12:34:57.621 - FC
2024-09-22 12:34:57.623 - 01
2024-09-22 12:34:57.625 - 00
2024-09-22 12:34:57.626 - 00
2024-09-22 12:34:57.629 - 01
2024-09-22 12:35:06.542 - 30 50 FA 05 0F 01 0B
2024-09-22 12:35:06.580 - 50
2024-09-22 12:35:06.582 - FB
2024-09-22 12:35:06.585 - 05
2024-09-22 12:35:06.585 - 00
2024-09-22 12:35:06.589 - 00
2024-09-22 12:35:06.591 - 05
2024-09-22 12:35:10.060 - 50
2024-09-22 12:35:10.061 - FC
2024-09-22 12:35:10.065 - 01
2024-09-22 12:35:10.066 - 00
2024-09-22 12:35:10.069 - 00
2024-09-22 12:35:10.070 - 01
2024-09-22 12:35:15.506 - 30 50 FA 05 0F 01 0B
2024-09-22 12:35:15.625 - 50
2024-09-22 12:35:15.627 - FB
2024-09-22 12:35:15.629 - 05
2024-09-22 12:35:15.631 - 00
2024-09-22 12:35:15.634 - 00
2024-09-22 12:35:15.636 - 05
2024-09-22 12:35:19.502 - 50
2024-09-22 12:35:19.503 - FC
2024-09-22 12:35:19.505 - 01
2024-09-22 12:35:19.507 - 00
2024-09-22 12:35:19.510 - 00
2024-09-22 12:35:19.510 - 01
2024-09-22 12:35:30.341 - 30 50 FA 05 10 01 14
2024-09-22 12:35:33.941 - 50
2024-09-22 12:35:33.943 - FC
2024-09-22 12:35:33.946 - 01
2024-09-22 12:35:33.946 - 00
2024-09-22 12:35:33.950 - 00
2024-09-22 12:35:33.952 - 01
2024-09-22 12:35:45.091 - 30 50 FA 05 11 01 15
2024-09-22 12:35:45.235 - 50
2024-09-22 12:35:45.236 - FB
2024-09-22 12:35:45.239 - 05
2024-09-22 12:35:45.241 - 00
2024-09-22 12:35:45.242 - 00
2024-09-22 12:35:45.244 - 05
2024-09-22 12:35:48.582 - 50
2024-09-22 12:35:48.585 - FC
2024-09-22 12:35:48.587 - 01
2024-09-22 12:35:48.589 - 00
2024-09-22 12:35:48.589 - 00
2024-09-22 12:35:48.594 - 01
2024-09-22 12:35:58.590 - 30 50 FA 05 12 01 16
2024-09-22 12:35:58.708 - 00
2024-09-22 12:35:58.711 - 00
2024-09-22 12:35:58.713 - 05
2024-09-22 12:36:01.823 - 50
2024-09-22 12:36:01.824 - FC
2024-09-22 12:36:01.826 - 01
2024-09-22 12:36:01.828 - 00
2024-09-22 12:36:01.831 - 00
2024-09-22 12:36:01.833 - 01
2024-09-22 12:36:13.723 - 30 50 FA 05 13 01 17
2024-09-22 12:36:13.842 - FE 05
2024-09-22 12:36:17.464 - 50
2024-09-22 12:36:17.465 - FC
2024-09-22 12:36:17.467 - 01
2024-09-22 12:36:17.469 - 00
2024-09-22 12:36:17.471 - 00
2024-09-22 12:36:17.474 - 01
2024-09-22 12:36:26.039 - 30 50 FA 05 14 01 10
2024-09-22 12:36:26.075 - 50
2024-09-22 12:36:26.077 - FB
2024-09-22 12:36:26.081 - 05
2024-09-22 12:36:26.082 - 00
2024-09-22 12:36:26.084 - 00
2024-09-22 12:36:26.086 - 05
2024-09-22 12:36:29.388 - 50
2024-09-22 12:36:29.389 - FC
2024-09-22 12:36:29.393 - 01
2024-09-22 12:36:29.393 - 00
2024-09-22 12:36:29.396 - 00
2024-09-22 12:36:29.399 - 01
2024-09-22 12:36:45.770 - 30 50 FA 05 15 01 11
2024-09-22 12:36:45.966 - 50
2024-09-22 12:36:45.968 - FB
2024-09-22 12:36:45.969 - 05
2024-09-22 12:36:45.973 - 00
2024-09-22 12:36:45.973 - 00
2024-09-22 12:36:45.978 - 05
2024-09-22 12:36:50.317 - 50
2024-09-22 12:36:50.320 - FC
2024-09-22 12:36:50.322 - 01
2024-09-22 12:36:50.324 - 00
2024-09-22 12:36:50.325 - 00
2024-09-22 12:36:50.329 - 01
2024-09-22 12:36:58.754 - 30 50 FA 05 16 01 12
2024-09-22 12:36:58.894 - 50
2024-09-22 12:36:58.897 - FB
2024-09-22 12:36:58.899 - 05
2024-09-22 12:36:58.901 - 00
2024-09-22 12:36:58.903 - 00
2024-09-22 12:36:58.906 - 05
2024-09-22 12:37:02.647 - 50
2024-09-22 12:37:02.648 - FC
2024-09-22 12:37:02.651 - 01
2024-09-22 12:37:02.653 - 00
2024-09-22 12:37:02.655 - 00
2024-09-22 12:37:02.658 - 01
2024-09-22 12:37:11.553 - 30 50 FA 05 17 01 13
2024-09-22 12:37:11.592 - 50
2024-09-22 12:37:11.593 - FB
2024-09-22 12:37:11.595 - 05
2024-09-22 12:37:11.598 - 00
2024-09-22 12:37:11.601 - 00
2024-09-22 12:37:11.603 - 05
2024-09-22 12:37:14.975 - 50
2024-09-22 12:37:14.977 - FC
2024-09-22 12:37:14.978 - 01
2024-09-22 12:37:14.982 - 00
2024-09-22 12:37:14.984 - 00
2024-09-22 12:37:14.985 - 01
2024-09-22 12:37:25.970 - 30 50 FA 05 18 01 1C
2024-09-22 12:37:26.111 - 50
2024-09-22 12:37:26.115 - FB
2024-09-22 12:37:26.116 - 05
2024-09-22 12:37:26.118 - 00
2024-09-22 12:37:26.122 - 00
2024-09-22 12:37:26.122 - 05
2024-09-22 12:37:29.703 - 50
2024-09-22 12:37:29.705 - FC
2024-09-22 12:37:29.708 - 01
2024-09-22 12:37:29.710 - 00
2024-09-22 12:37:29.712 - 00
2024-09-22 12:37:29.715 - 01
2024-09-22 12:37:38.919 - 30 50 FA 05 19 01 1D
2024-09-22 12:37:38.956 - 50
2024-09-22 12:37:38.958 - FB
2024-09-22 12:37:38.962 - 05
2024-09-22 12:37:38.963 - 00
2024-09-22 12:37:38.965 - 00
2024-09-22 12:37:38.967 - 05
2024-09-22 12:37:41.433 - 50
2024-09-22 12:37:41.434 - FC
2024-09-22 12:37:41.436 - 01
2024-09-22 12:37:41.438 - 00
2024-09-22 12:37:41.441 - 00
2024-09-22 12:37:41.443 - 01
2024-09-22 12:37:50.519 - 30 50 FA 05 1A 01 1E
2024-09-22 12:37:50.651 - 50
2024-09-22 12:37:50.652 - FB
2024-09-22 12:37:50.653 - 05
2024-09-22 12:37:50.655 - 00
2024-09-22 12:37:50.657 - 00
2024-09-22 12:37:50.660 - 05
2024-09-22 12:37:53.162 - 50
2024-09-22 12:37:53.163 - FC
2024-09-22 12:37:53.165 - 01
2024-09-22 12:37:53.167 - 00
2024-09-22 12:37:53.169 - 00
2024-09-22 12:37:53.172 - 01
2024-09-22 12:38:35.701 - 19 08 24 03 CC 01 CC 00 01 (调用茶吧感应灯开的按键)
2024-09-22 12:38:35.750 - 1A AA AA AA 88 FF B0 01 FF B0 01 0F (调光器地址-茶吧灯带, 茶吧灯带明亮)
2024-09-22 12:38:38.010 - 19 08 24 03 CC 00 D3 00 01 (调用厨房感应灯开的按键)
2024-09-22 12:38:38.045 - 55 0A 32 00 00 00 01 92 55 0A 32 00 00 00 02 93 (厨房顶灯一开, 厨房顶灯二开)
2024-09-22 12:38:55.741 - 19 08 24 03 CC 01 CD 00 01 (调用茶吧感应灯关的按键)
2024-09-22 12:38:55.771 - 1A AA AA AA 88 FF 00 01 FF 00 01 0F (调光器地址-茶吧灯带, 茶吧灯带关闭)
