2024-08-31 06:49:24.781 - 19 08 24 03 CC 01 52 00 01 (调用外卫感应灯开的按键)
2024-08-31 06:49:24.844 - 1A 0D 01 07 01 FF 45 01 FF 45 01 FF 00 00 0F (调光器地址-外卫射灯, 外卫感应灯开)
2024-08-31 06:50:18.397 - 19 08 24 03 CC 01 53 00 01 (调用外卫感应灯关的按键)
2024-08-31 06:50:18.431 - 1A 0D 01 07 01 FF 00 01 FF 00 01 FF 00 00 0F (调光器地址-外卫射灯, 外卫感应灯关)
2024-08-31 06:50:36.835 - 19 08 24 03 CC 01 CC 00 01 (调用茶吧感应灯开的按键)
2024-08-31 06:50:36.868 - 1A AA AA AA 88 FF B0 01 FF B0 01 0F (调光器地址-茶吧灯带, 茶吧灯带明亮)
2024-08-31 06:51:00.887 - 19 08 24 03 CC 01 CD 00 01 (调用茶吧感应灯关的按键)
2024-08-31 06:51:00.920 - 1A AA AA AA 88 FF 00 01 FF 00 01 0F (调光器地址-茶吧灯带, 茶吧灯带关闭)
2024-08-31 06:54:39.275 - 19 08 24 03 DD 00 40 00 01 (调用情景-离开主卧)
2024-08-31 06:54:39.785 - EE 00 00 B1 00 00 00 FF FC FF FF (情景执行提示)
2024-08-31 06:54:40.381 - 09 06 00 0F 02 01 78 21 (提示音叮)
2024-08-31 06:54:40.966 - 50 F5 05 (关主卧影视)
2024-08-31 06:54:41.519 - 50 F5 04 (关内卫影视)
2024-08-31 06:54:42.064 - 01 06 07 D6 FF 60 28 9E (主卧空调关)
2024-08-31 06:54:42.097 - 01 06 07 D6 FF 60 28 9E (主卧空调关)
2024-08-31 06:54:42.670 - A5 00 52 FE 01 AA (主卧窗帘开)
2024-08-31 06:54:43.713 - A5 00 52 FE 01 AA (主卧窗帘开)
2024-08-31 06:54:44.760 - A5 00 53 FF 00 AA (主卧纱帘开)
2024-08-31 06:54:44.808 - 55 00 53 01 00 0C 02 30 AA 55 00 53 01 00 0C 02 30 AA (主卧纱帘电机状态返回)
2024-08-31 06:54:45.351 - A5 00 53 FF 00 AA (主卧纱帘开)
2024-08-31 06:54:45.910 - 1A 22 33 62 0F 00 00 01 0F (正反转地址-内卫卷帘, 内卫卷帘升)
2024-08-31 06:54:46.627 - 55 20 20 00 00 0F 02 16 AA 55 20 20 00 00 0F 02 16 AA (主卧窗帘电机状态返回)
2024-08-31 06:54:46.947 - 1A 20 07 01 40 00 01 00 0F (自保持开关地址-内卫顶灯, 内卫顶灯关)
2024-08-31 06:54:47.998 - 1A 20 07 01 55 00 01 00 0F (自保持开关地址-主卧顶灯, 主卧顶灯只关)
2024-08-31 06:54:48.559 - 1A 0C 02 08 01 FF 00 01 FF 00 01 FF 00 00 0F (调光器地址-内卫射灯, 内卫感应灯关)
2024-08-31 06:54:49.146 - 1A FF FF FF 56 00 00 01 0F (人体感应地址-内卫, 打开内卫感应)
2024-08-31 06:54:49.562 - 19 08 24 03 CC 01 54 00 01 (调用内卫感应灯开的按键)
2024-08-31 06:54:49.613 - 1A 0C 02 08 01 FF 45 01 FF 45 01 FF 00 00 0F (调光器地址-内卫射灯, 内卫射灯微光)
2024-08-31 06:54:51.349 - 19 08 24 03 CC 01 CC 00 01 (调用茶吧感应灯开的按键)
2024-08-31 06:54:51.380 - 1A AA AA AA 88 FF B0 01 FF B0 01 0F (调光器地址-茶吧灯带, 茶吧灯带明亮)
2024-08-31 06:54:53.039 - 1A 0C 02 04 FF FF 00 01 FF 00 01 FF 00 00 0F (主卧调光全关)
2024-08-31 06:54:54.138 - 09 06 00 0F 02 02 38 20 (提示音咚)
2024-08-31 06:54:54.733 - EE 00 00 B1 00 00 02 FF FC FF FF (情景完成返回主页)
2024-08-31 06:54:55.448 - 55 00 53 00 02 22 02 30 AA 55 00 53 00 02 22 02 30 AA (主卧纱帘电机状态返回)
2024-08-31 06:55:36.358 - 19 08 24 03 CC 01 55 00 01 (调用内卫感应灯关的按键)
2024-08-31 06:55:36.414 - 1A 0C 02 08 01 FF 00 01 FF 00 01 FF 00 00 0F (调光器地址-内卫射灯, 内卫感应灯关)
2024-08-31 06:55:38.941 - 19 08 24 03 CC 01 CD 00 01 (调用茶吧感应灯关的按键)
2024-08-31 06:55:38.973 - 1A AA AA AA 88 FF 00 01 FF 00 01 0F (调光器地址-茶吧灯带, 茶吧灯带关闭)
2024-08-31 06:57:32.288 - 19 08 24 03 DD 00 00 00 01 (调用情景-离家（末）)
2024-08-31 06:57:32.808 - EE 00 00 B1 00 00 00 FF FC FF FF (情景执行提示)
2024-08-31 06:57:33.404 - 09 06 00 0F 02 02 38 20 (提示音咚)
2024-08-31 06:57:33.999 - 50 F7 01 (全屋影音全关)
2024-08-31 06:57:34.552 - 01 06 07 D0 FF 60 C8 9F (客厅空调关)
2024-08-31 06:57:34.577 - 01 06 07 D0 FF 60 C8 9F (客厅空调关)
2024-08-31 06:57:35.143 - 01 06 07 D0 FF 60 C8 9F (客厅空调关)
2024-08-31 06:57:35.174 - 01 06 07 D0 FF 60 C8 9F (客厅空调关)
2024-08-31 06:57:35.748 - 01 06 07 D3 FF 60 38 9F (餐厅空调关)
2024-08-31 06:57:35.784 - 01 06 07 D3 FF 60 38 9F (餐厅空调关)
2024-08-31 06:57:36.346 - 01 06 07 D3 FF 60 38 9F (餐厅空调关)
2024-08-31 06:57:36.380 - 01 06 07 D3 FF 60 38 9F (餐厅空调关)
2024-08-31 06:57:36.944 - 01 06 07 D6 FF 60 28 9E (主卧空调关)
2024-08-31 06:57:36.975 - 01 06 07 D6 FF 60 28 9E (主卧空调关)
2024-08-31 06:57:37.537 - 01 06 07 D6 FF 60 28 9E (主卧空调关)
2024-08-31 06:57:37.571 - 01 06 07 D6 FF 60 28 9E (主卧空调关)
2024-08-31 06:57:38.140 - 01 06 07 D9 FF 60 18 9D (次卧空调关)
2024-08-31 06:57:38.172 - 01 06 07 D9 FF 60 18 9D (次卧空调关)
2024-08-31 06:57:38.730 - 01 06 07 D9 FF 60 18 9D (次卧空调关)
2024-08-31 06:57:38.762 - 01 06 07 D9 FF 60 18 9D (次卧空调关)
2024-08-31 06:57:39.335 - 01 06 07 DC FF 60 08 9C (书房空调关)
2024-08-31 06:57:39.367 - 01 06 07 DC FF 60 08 9C (书房空调关)
2024-08-31 06:57:39.934 - 01 06 07 DC FF 60 08 9C (书房空调关)
2024-08-31 06:57:39.957 - 01 06 07 DC FF 60 08 9C (书房空调关)
2024-08-31 06:57:40.531 - 09 06 00 0F 02 02 38 20 (提示音咚)
2024-08-31 06:57:41.073 - 1A FF FF FF 56 00 00 00 0F (人体感应地址-内卫, 关闭内卫感应)
2024-08-31 06:57:41.618 - 1A FF FF FF 55 00 00 00 0F (人体感应地址-外卫, 关闭外卫感应)
2024-08-31 06:57:41.720 - BC BC
2024-08-31 06:57:42.179 - 1A FF FF FF 57 00 00 00 0F (人体感应地址-厨房, 关闭厨房感应)
2024-08-31 06:57:42.189 - BC BC
2024-08-31 06:57:42.774 - 1A FF FF FF 58 00 00 00 0F (人体感应地址-茶吧, 关闭茶吧感应)
2024-08-31 06:57:42.825 - BC BC
2024-08-31 06:57:43.370 - 1A 20 07 00 93 00 01 00 0F (自保持开关地址-设备区顶, 设备区顶灯关)
2024-08-31 06:57:44.408 - 1A 20 07 01 40 00 01 00 0F (自保持开关地址-内卫顶灯, 内卫顶灯关)
2024-08-31 06:57:45.465 - 1A 20 07 01 55 00 01 00 0F (自保持开关地址-主卧顶灯, 主卧顶灯只关)
2024-08-31 06:57:46.514 - 1A 20 07 00 42 00 01 00 0F (自保持开关地址-外卫顶灯, 外卫顶灯关)
2024-08-31 06:57:47.552 - 55 0D 31 00 00 00 01 94 (书房顶灯只关)
2024-08-31 06:57:48.607 - 55 0A 31 00 00 00 01 91 (厨房顶灯一关)
2024-08-31 06:57:49.653 - 55 0A 31 00 00 00 02 92 (厨房顶灯二关)
2024-08-31 06:57:50.698 - 55 0B 31 00 00 00 01 92 (厨房风扇只关)
2024-08-31 06:57:51.744 - 55 0C 31 00 00 00 01 93 (餐厅顶灯关)
2024-08-31 06:57:52.790 - 1A 20 07 01 30 00 01 00 0F (自保持开关地址-西阳顶灯, 西阳顶灯关)
2024-08-31 06:57:53.834 - 1A 18 05 21 89 00 01 00 0F (自保持开关地址-客厅顶灯, 客厅顶灯一关)
2024-08-31 06:57:54.887 - 1A 18 05 01 94 00 01 00 0F (自保持开关地址-客厅顶灯, 客厅顶灯二关)
2024-08-31 06:57:55.925 - 1A 20 07 00 70 00 01 00 0F (自保持开关地址-次卧顶灯, 次卧顶灯只关)
2024-08-31 06:57:56.978 - 1A 18 05 10 31 00 01 00 0F (自保持开关地址-门厅顶灯, 门厅顶灯关)
2024-08-31 06:57:58.013 - 1A FF FF FF 04 00 03 02 (继电器地址-东阳衣架, 东阳衣架照明关)
2024-08-31 06:57:58.571 - 09 06 00 0F 02 02 38 20 (提示音咚)
2024-08-31 06:57:59.167 - A5 00 A6 FE 01 AA (餐厅窗帘开)
2024-08-31 06:57:59.224 - 55 00 A6 02 01 67 01 75 AA 55 00 A6 02 01 67 01 75 AA (餐厅窗帘电机状态返回)
2024-08-31 06:57:59.766 - FF FF FF FF 0A 00 01 00 (继电器地址-东阳窗帘, 东阳窗帘开)
2024-08-31 06:58:00.308 - 1A BE B0 DC 04 00 01 00 (继电器地址-西阳窗帘, 西阳窗帘开)
2024-08-31 06:58:00.866 - FF FF FF FF 0E 00 01 00 (继电器地址-西阳小窗帘, 西阳小窗帘开)
2024-08-31 06:58:01.411 - 1A 22 33 62 0F 00 00 01 0F (正反转地址-内卫卷帘, 内卫卷帘升)
2024-08-31 06:58:01.956 - A5 00 52 FE 01 AA (主卧窗帘开)
2024-08-31 06:58:02.500 - A5 00 53 FF 00 AA (主卧纱帘开)
2024-08-31 06:58:03.052 - A5 00 76 FE 01 AA (次卧窗帘开)
2024-08-31 06:58:03.594 - A5 00 21 FE 01 AA (次卧纱帘开)
2024-08-31 06:58:04.152 - A5 00 D2 FE 01 AA 22 0D (书房窗帘开)
2024-08-31 06:58:04.201 - 55 00 D2 02 00 E5 00 F2 AA 55 00 D2 02 00 E5 00 F2 FE (书房窗帘电机状态返回)
2024-08-31 06:58:04.745 - 1A BE B0 DC 09 00 01 00 (继电器地址-客厅窗帘, 客厅窗帘开)
2024-08-31 06:58:05.300 - 1A BE B0 DC 0A 00 02 00 (继电器地址-客厅纱帘, 客厅纱帘开)
2024-08-31 06:58:05.842 - 09 06 00 0F 02 02 38 20 (提示音咚)
2024-08-31 06:58:06.895 - 1A EC A0 DC 02 00 00 00 0F (自保持开关地址-天花12V供电, 天花12V 供电关)
2024-08-31 06:58:07.438 - 1A EC A0 DC 02 00 00 00 0F (自保持开关地址-天花12V供电, 天花12V 供电关)
2024-08-31 06:58:07.980 - 1A EC A0 DC 01 00 00 00 0F (自保持开关地址-电视、设备12V供电, 12V 电视供电关)
2024-08-31 06:58:08.220 - 55 00 A6 00 00 0E 01 75 AA 55 00 A6 00 00 0E 01 75 AA (餐厅窗帘电机状态返回)
2024-08-31 06:58:08.590 - 1A EC A0 DC 01 00 00 00 0F (自保持开关地址-电视、设备12V供电, 12V 电视供电关)
2024-08-31 06:58:09.168 - 1A EC A0 DC 04 00 01 00 0F (自保持开关地址-次卧西阳内外卫供电, 内卫外卫关)
2024-08-31 06:58:09.735 - 1A EC A0 DC 04 00 01 00 0F (自保持开关地址-次卧西阳内外卫供电, 内卫外卫关)
2024-08-31 06:58:11.667 - 55 00 D2 00 00 0E 00 F2 AA 55 00 D2 00 00 0E 00 F2 AA (书房窗帘电机状态返回)
2024-08-31 06:58:27.727 - 09 06 00 0F 02 02 38 20 (提示音咚)
2024-08-31 06:58:28.269 - 1A 27 89 12 AA 00 00 00 0F (状态寄存器地址, 无人状态)
2024-08-31 06:58:28.812 - 1A 27 89 12 AA 00 00 00 0F (状态寄存器地址, 无人状态)
2024-08-31 06:58:29.368 - A1 11 11 11 4D (天花供电关闭确认)
2024-08-31 06:58:29.577 - 1A EC A0 DC 02 86 86 86 0F (查询天花供电状态, 自保持开关地址-天花12V供电)
2024-08-31 06:58:30.019 - 1A EC A0 DC 02 00 01 0F (自保持开关地址-天花12V供电)
2024-08-31 06:58:32.402 - A1 11 11 11 4E (卫生供电关闭确认)
2024-08-31 06:58:32.625 - 1A EC A0 DC 04 86 86 86 0F (查询卫生间供电状态, 自保持开关地址-次卧西阳内外卫供电)
2024-08-31 06:58:33.064 - 1A EC A0 DC 04 01 00 0F (自保持开关地址-次卧西阳内外卫供电)
2024-08-31 06:58:35.448 - A1 11 11 11 4F (电视供电关闭确认)
2024-08-31 06:58:35.672 - 1A EC A0 DC 01 86 86 86 0F (查询电视供电状态, 自保持开关地址-电视、设备12V供电)
2024-08-31 06:58:36.102 - 1A EC A0 DC 01 00 01 0F (自保持开关地址-电视、设备12V供电)
2024-08-31 06:58:38.489 - 09 06 00 0F 02 02 38 20 (提示音咚)
2024-08-31 06:58:39.085 - 09 06 00 0F 02 02 38 20 (提示音咚)
2024-08-31 06:58:39.628 - EE 00 00 B1 00 00 02 FF FC FF FF (情景完成返回主页)
2024-08-31 06:58:40.724 - BA BA EE EE BA BA (离家设置信科变量)
2024-08-31 06:58:41.771 - A1 11 11 11 46 (天热离家遮阳)
2024-08-31 06:58:41.992 - 1A 27 89 12 AA 86 86 86 0F (查询寄存器状态, 状态寄存器地址)
2024-08-31 06:58:42.383 - 1A 27 89 12 AA 00 00 00 00 00 00 00 00 00 00 00 01 00 00 00 00 0F (状态寄存器地址)
2024-08-31 06:58:42.996 - 19 08 24 03 DD 00 05 00 01 (调用情景-天热遮阳关帘)
2024-08-31 06:58:43.523 - EE 00 00 B1 00 00 00 FF FC FF FF (情景执行提示)
2024-08-31 06:58:44.122 - 09 06 00 0F 02 01 78 21 (提示音叮)
2024-08-31 06:58:44.665 - A5 00 A2 FF 00 AA (餐厅纱帘关)
2024-08-31 06:58:45.703 - A5 00 A6 FF 00 AA (餐厅窗帘关)
2024-08-31 06:58:45.767 - 55 00 A6 01 00 0E 01 75 AA 55 00 A6 01 00 0E 01 75 AA (餐厅窗帘电机状态返回)
2024-08-31 06:58:46.804 - A5 00 53 FE 01 AA (主卧纱帘关)
2024-08-31 06:58:46.862 - 55 00 53 02 02 22 02 30 AA 55 00 53 02 02 22 02 30 AA (主卧纱帘电机状态返回)
2024-08-31 06:58:47.899 - A5 00 52 FF 00 AA (主卧窗帘关)
2024-08-31 06:58:49.000 - A5 00 21 FF 00 AA (次卧纱帘关)
2024-08-31 06:58:49.048 - 55 00 21 01 00 0D 01 34 AA 55 00 21 01 00 0D 01 34 AA (次卧纱帘电机状态返回)
2024-08-31 06:58:50.118 - A5 00 76 FF 00 AA (次卧窗帘关)
2024-08-31 06:58:50.179 - 55 00 76 01 00 0E 01 1B AA 55 00 76 01 00 0E 01 (次卧窗帘电机状态返回)
2024-08-31 06:58:51.189 - A5 00 B7 FF 00 AA 22 0D (书房纱帘关)
2024-08-31 06:58:52.243 - A5 00 D2 FF 00 AA 22 0C (书房窗帘关)
2024-08-31 06:58:52.294 - 55 00 D2 01 00 0E 00 F2 AA 55 00 D2 01 00 0E 00 F2 AA (书房窗帘电机状态返回)
2024-08-31 06:58:53.832 - 1A 22 33 62 5E 00 02 01 0F (正反转地址-厨房卷帘三, 厨房卷帘一降)
2024-08-31 06:58:54.251 - 55 00 A6 00 01 67 01 75 AA 55 00 A6 00 01 67 01 75 AA (餐厅窗帘电机状态返回)
2024-08-31 06:58:54.885 - 1A 22 33 62 56 00 02 01 0F (正反转地址-厨房卷帘二, 厨房卷帘二降)
2024-08-31 06:58:55.922 - 1A 22 33 62 4F 00 00 01 0F (正反转地址-厨房卷帘一, 厨房卷帘三降)
2024-08-31 06:58:56.360 - 55 00 21 00 01 27 01 34 AA 55 00 21 00 01 27 01 34 AA (次卧纱帘电机状态返回)
2024-08-31 06:58:56.976 - 1A BE B0 DC 04 00 02 00 (继电器地址-西阳窗帘, 西阳窗帘关)
2024-08-31 06:58:58.013 - FF FF FF FF 0E 00 02 00 (继电器地址-西阳小窗帘, 西阳小窗帘关)
2024-08-31 06:58:58.236 - 55 00 53 00 00 0C 02 30 AA 55 00 53 00 00 0C 02 30 AA (主卧纱帘电机状态返回)
2024-08-31 06:58:59.065 - 1A BE B0 DC 03 00 03 00 (继电器地址-西阳天幕, 西阳天幕关)
2024-08-31 06:58:59.544 - 55 20 20 00 02 09 02 16 AA 55 20 20 00 02 09 02 16 AA (主卧窗帘电机状态返回)
2024-08-31 06:59:00.118 - 1A BE B0 DC 03 00 03 00 (继电器地址-西阳天幕, 西阳天幕关)
2024-08-31 06:59:00.168 - 55 00 D2 00 00 E5 00 F2 AA 55 00 D2 80 (书房窗帘电机状态返回)
2024-08-31 06:59:01.205 - 09 06 00 0F 02 02 38 20 (提示音咚)
2024-08-31 06:59:01.761 - EE 00 00 B1 00 00 02 FF FC FF FF (情景完成返回主页)
2024-08-31 07:07:24.934 - 1A FF FF FF 04 (继电器地址-东阳衣架)
2024-08-31 07:07:25.067 - 03
2024-08-31 07:43:08.700 - 1A BE B0 DC 04 (继电器地址-西阳窗帘)
2024-08-31 07:43:10.066 - FF FF FF FF 0E (继电器地址-西阳小窗帘)
2024-08-31 07:43:16.863 - 1A BE B0 DC 02 (正反转地址-外卫卷帘)
2024-08-31 07:43:18.223 - 1A BE B0 DC 09 FC (继电器地址-客厅窗帘)
2024-08-31 07:43:18.361 - FE
2024-08-31 07:43:21.091 - 1A BE B0 DC 0A FE (继电器地址-客厅纱帘)
2024-08-31 07:43:21.218 - FF
2024-08-31 07:43:32.957 - FF FF FF FF 0A FE (继电器地址-东阳窗帘)
2024-08-31 07:44:22.004 - 1A BE B0 DC 01 (继电器地址-回水泵点动)
2024-08-31 07:44:22.387 - 1A BE B0 DC 03 (继电器地址-西阳天幕)
2024-08-31 08:26:45.911 - FF
2024-08-31 10:13:24.127 - 1A FF FF FF 60 (红外总线地址-主卧发射设备)
2024-08-31 10:28:28.127 - 1A FF FF FF 04 (继电器地址-东阳衣架)
2024-08-31 10:28:28.263 - 00
2024-08-31 11:03:03.660 - 1A BE B0 DC 04 (继电器地址-西阳窗帘)
2024-08-31 11:03:11.219 - FF FF FF FF 0E (继电器地址-西阳小窗帘)
2024-08-31 11:03:11.348 - FF
2024-08-31 11:03:41.945 - 1A BE B0 DC 09 FC (继电器地址-客厅窗帘)
2024-08-31 11:03:42.088 - FF
2024-08-31 11:03:48.899 - 1A BE B0 DC 02 FD (正反转地址-外卫卷帘)
2024-08-31 11:03:49.042 - FE
2024-08-31 11:03:54.001 - 1A BE B0 DC 0A (继电器地址-客厅纱帘)
2024-08-31 11:03:54.129 - FF
2024-08-31 11:04:37.730 - FF FF FF FF 0A FC (继电器地址-东阳窗帘)
2024-08-31 11:05:15.772 - 1A BE B0 DC 01 FC (继电器地址-回水泵点动)
2024-08-31 11:05:18.516 - 1A BE B0 DC 03 (继电器地址-西阳天幕)
2024-08-31 11:05:18.660 - FF
2024-08-31 12:14:28.588 - EE 00 00 B1 00 00 00 FF FC FF FF (情景执行提示)
2024-08-31 12:14:29.184 - 09 06 00 0F 02 01 78 21 (提示音叮)
2024-08-31 12:14:29.729 - A1 11 11 11 40 (客厅空调自动开)
2024-08-31 12:14:29.952 - 19 08 24 03 F0 BB 78 02 02 00
2024-08-31 12:14:30.000 - 23 AA 56 02 0C 0F 02 18 08 1F 06 73 65 6F 6B 65 6E 64
2024-08-31 12:14:30.968 - 01 10 07 D0 00 03 06 70 61 00 02 00 FA 6F 26 (客厅空调冷25度)
2024-08-31 12:14:31.004 - 01 10 07 D0 00 03 06 70 61 00 02 00 FA 6F 26 (客厅空调冷25度)
2024-08-31 12:14:33.765 - A1 11 11 11 41 (餐厅空调自动开)
2024-08-31 12:14:33.989 - 19 08 24 03 F0 BB 78 02 02 00
2024-08-31 12:14:34.036 - 23 AA 56 02 0C 0F 06 18 08 1F 06 73 65 6F 6B 65 6E 64
2024-08-31 12:14:34.999 - 01 10 07 D3 00 03 06 70 61 00 02 00 FA 9F 29 (餐厅空调冷25度)
2024-08-31 12:14:35.033 - 01 10 07 D3 00 03 06 70 61 00 02 00 FA 9F 29 (餐厅空调冷25度)
2024-08-31 12:14:37.802 - A1 11 11 11 42 (主卧空调自动开)
2024-08-31 12:14:38.010 - 19 08 24 03 F0 BB 78 02 02 00
2024-08-31 12:14:38.073 - 23 AA 56 02 0C 0F 0A 18 08 1F 06 73 65 6F 6B 65 6E 64
2024-08-31 12:14:39.030 - 01 10 07 D6 00 03 06 70 61 00 02 00 F0 0F 3E (主卧空调冷24度)
2024-08-31 12:14:39.064 - 01 10 07 D6 00 03 06 70 61 00 02 00 F0 0F 3E (主卧空调冷24度)
2024-08-31 12:14:39.846 - 09 06 00 0F 02 02 38 20 (提示音咚)
2024-08-31 12:14:40.401 - EE 00 00 B1 00 00 02 FF FC FF FF (情景完成返回主页)
2024-08-31 12:32:24.172 - 1B 03 00 00 00 02 C6 31 (查询室外光线)
2024-08-31 12:32:24.192 - 1B 03 04 00 00 06 CA C2 05 (室外光线返回)
2024-08-31 12:32:24.506 - 1A EC A0 DC 02 00 00 01 0F (自保持开关地址-天花12V供电, 天花12V 供电开)
2024-08-31 12:32:24.810 - 19 08 24 03 DD 00 0C 00 01 (调用情景-信科调用进门亮)
2024-08-31 12:32:25.025 - 1A AA AA AA 88 (调光器地址-茶吧灯带)
2024-08-31 12:32:25.330 - EE 00 00 B1 00 00 00 FF FC FF FF (情景执行提示)
2024-08-31 12:32:25.943 - 09 06 00 0F 02 01 78 21 (提示音叮)
2024-08-31 12:32:26.521 - 1A EC A0 DC 02 00 00 01 0F (自保持开关地址-天花12V供电, 天花12V 供电开)
2024-08-31 12:32:27.066 - 1A EC A0 DC 04 00 01 01 0F (自保持开关地址-次卧西阳内外卫供电, 内卫外卫开)
2024-08-31 12:32:27.616 - 1A EC A0 DC 04 00 01 01 0F (自保持开关地址-次卧西阳内外卫供电, 内卫外卫开)
2024-08-31 12:32:28.159 - 1A EC A0 DC 01 00 00 01 0F (自保持开关地址-电视、设备12V供电, 12V 电视供电开)
2024-08-31 12:32:29.500 - FF
2024-08-31 12:32:33.204 - 1A 27 89 12 AA 00 00 01 0F (状态寄存器地址, 有人状态)
2024-08-31 12:32:33.757 - 1A 27 89 12 AA 00 00 01 0F (状态寄存器地址, 有人状态)
2024-08-31 12:32:34.310 - 1A 0C 02 08 01 FF 45 01 FF 45 01 FF 00 00 0F (调光器地址-内卫射灯, 内卫射灯微光)
2024-08-31 12:32:34.905 - 1A 0D 01 07 01 FF 45 01 FF 45 01 FF 00 00 0F (调光器地址-外卫射灯, 外卫感应灯开)
2024-08-31 12:32:35.501 - 1A FF FF FF 57 00 00 01 0F (人体感应地址-厨房, 打开厨房感应)
2024-08-31 12:32:36.078 - 1A FF FF FF 58 00 00 01 0F (人体感应地址-茶吧, 打开茶吧感应)
2024-08-31 12:32:36.134 - BC BC
2024-08-31 12:32:36.644 - 1A BE B0 DC 01 00 01 00 (继电器地址-回水泵点动, 回水泵点动)
2024-08-31 12:32:37.187 - 1A BE B0 DC 01 00 01 00 (继电器地址-回水泵点动, 回水泵点动)
2024-08-31 12:32:37.728 - 09 06 00 0F 02 01 78 21 (提示音叮)
2024-08-31 12:32:38.290 - 09 06 00 0F 02 01 78 21 (提示音叮)
2024-08-31 12:32:38.834 - EE 00 00 B1 00 00 02 FF FC FF FF (情景完成返回主页)
2024-08-31 12:32:39.435 - A1 11 11 11 50 (天花供电打开确认)
2024-08-31 12:32:39.658 - 1A EC A0 DC 02 86 86 86 0F (查询天花供电状态, 自保持开关地址-天花12V供电)
2024-08-31 12:32:40.093 - 1A EC A0 DC 02 01 01 0F (自保持开关地址-天花12V供电)
2024-08-31 12:32:41.972 - A1 11 11 11 51 (卫生供电打开确认)
2024-08-31 12:32:42.195 - 1A EC A0 DC 04 86 86 86 0F (查询卫生间供电状态, 自保持开关地址-次卧西阳内外卫供电)
2024-08-31 12:32:42.627 - 1A EC A0 DC 04 01 01 0F (自保持开关地址-次卧西阳内外卫供电)
2024-08-31 12:32:44.515 - A1 11 11 11 52 (电视供电打开确认)
2024-08-31 12:32:44.736 - 1A EC A0 DC 01 86 86 86 0F (查询电视供电状态, 自保持开关地址-电视、设备12V供电)
2024-08-31 12:32:45.163 - 1A EC A0 DC 01 01 01 0F (自保持开关地址-电视、设备12V供电)
2024-08-31 12:32:49.551 - A1 11 11 11 47 (天热回家开帘)
2024-08-31 12:32:49.773 - 1A 27 89 12 AA 86 86 86 0F (查询寄存器状态, 状态寄存器地址)
2024-08-31 12:32:50.158 - 1A 27 89 12 AA 01 00 00 00 00 00 00 00 00 00 00 01 00 00 00 00 0F (状态寄存器地址)
2024-08-31 12:32:50.781 - 19 08 24 03 DD 00 06 00 01 (调用情景-天热遮阳开帘)
2024-08-31 12:32:51.337 - EE 00 00 B1 00 00 00 FF FC FF FF (情景执行提示)
2024-08-31 12:32:51.942 - 09 06 00 0F 02 01 78 21 (提示音叮)
2024-08-31 12:32:52.485 - A5 00 A6 FE 01 AA (餐厅窗帘开)
2024-08-31 12:32:52.549 - 55 00 A6 02 01 67 01 75 AA 55 00 A6 02 01 67 01 75 EA (餐厅窗帘电机状态返回)
2024-08-31 12:32:53.586 - A5 00 52 FE 01 AA (主卧窗帘开)
2024-08-31 12:32:54.624 - A5 00 53 FF 00 AA (主卧纱帘开)
2024-08-31 12:32:54.672 - 55 00 53 01 00 0C 02 30 AA 55 00 53 01 00 0C 02 30 AA (主卧纱帘电机状态返回)
2024-08-31 12:32:55.726 - A5 00 76 FE 01 AA (次卧窗帘开)
2024-08-31 12:32:55.777 - 55 00 76 02 01 0E 01 1B AA 55 00 76 02 01 0E 01 1B AA (次卧窗帘电机状态返回)
2024-08-31 12:32:56.827 - A5 00 21 FE 01 AA (次卧纱帘开)
2024-08-31 12:32:56.877 - 55 00 21 02 01 27 01 34 AA 55 00 21 02 01 27 01 34 AA (次卧纱帘电机状态返回)
2024-08-31 12:32:57.926 - 1A BE B0 DC 04 00 01 00 (继电器地址-西阳窗帘, 西阳窗帘开)
2024-08-31 12:32:58.961 - FF FF FF FF 0E 00 01 00 (继电器地址-西阳小窗帘, 西阳小窗帘开)
2024-08-31 12:33:00.020 - A5 00 D2 FE 01 AA 22 0D (书房窗帘开)
2024-08-31 12:33:00.064 - 55 00 D2 02 00 E5 00 F2 AA 55 00 D2 02 00 E5 00 FE (书房窗帘电机状态返回)
2024-08-31 12:33:01.114 - 09 06 00 0F 02 02 38 20 (提示音咚)
2024-08-31 12:33:01.401 - 55 00 A6 00 00 0E 01 75 AA 55 00 A6 00 00 0E 01 75 AA (餐厅窗帘电机状态返回)
2024-08-31 12:33:01.713 - EE 00 00 B1 00 00 02 FF FC FF FF (情景完成返回主页)
2024-08-31 12:33:02.700 - 55 00 76 00 00 0E 01 1B AA 55 00 76 00 00 0E 01 1B AA (次卧窗帘电机状态返回)
2024-08-31 12:33:04.162 - 55 00 21 00 00 0D 01 34 AA 55 00 21 00 00 0D 01 34 AA (次卧纱帘电机状态返回)
2024-08-31 12:33:05.727 - 55 20 20 00 00 0E 02 16 AA 55 20 20 00 00 0E 02 16 AA (主卧窗帘电机状态返回)
2024-08-31 12:33:05.982 - 55 00 53 00 02 22 02 30 AA 55 00 53 00 02 22 02 30 AA (主卧纱帘电机状态返回)
2024-08-31 12:33:07.393 - 55 00 D2 00 00 0E 00 F2 AA 55 00 D2 00 00 0E 00 F2 AA (书房窗帘电机状态返回)
2024-08-31 12:33:33.760 - 19 08 24 03 CC 01 CC 00 01 (调用茶吧感应灯开的按键)
2024-08-31 12:33:33.808 - 1A AA AA AA 88 FF B0 01 FF B0 01 0F (调光器地址-茶吧灯带, 茶吧灯带明亮)
2024-08-31 12:34:20.859 - 19 08 24 03 CC 01 CD 00 01 (调用茶吧感应灯关的按键)
2024-08-31 12:34:20.890 - 1A AA AA AA 88 FF 00 01 FF 00 01 0F (调光器地址-茶吧灯带, 茶吧灯带关闭)
2024-08-31 12:34:33.268 - A5 00 76 FF 00 AA (次卧窗帘关)
2024-08-31 12:34:33.327 - 55 00 76 01 00 0E 01 1B AA 55 00 76 01 00 0E 01 1B AA (次卧窗帘电机状态返回)
2024-08-31 12:34:33.820 - A5 00 21 FF 00 AA (次卧纱帘关)
2024-08-31 12:34:33.875 - 55 00 21 01 00 0D 01 34 AA 55 00 21 01 00 0D 01 34 AA (次卧纱帘电机状态返回)
2024-08-31 12:34:39.918 - 55 00 76 00 01 0D 01 1B AA 55 00 76 00 01 0D 01 1B AA (次卧窗帘电机状态返回)
2024-08-31 12:34:41.259 - 55 00 21 00 01 27 01 34 AA 55 00 21 00 01 27 01 34 AA (次卧纱帘电机状态返回)
2024-08-31 12:38:01.256 - 19 08 24 03 CC 00 D3 00 01 (调用厨房感应灯开的按键)
2024-08-31 12:38:01.309 - 55 0A 32 00 00 00 01 92 55 0A 32 00 00 00 02 93 (厨房顶灯一开, 厨房顶灯二开)
2024-08-31 12:38:36.322 - 19 08 24 03 CC 00 D4 00 01 (调用厨房感应灯关的按键)
2024-08-31 12:38:36.356 - 55 0A 31 00 00 00 01 91 55 0A 31 00 00 00 02 92 (厨房顶灯一关, 厨房顶灯二关)
2024-08-31 12:44:05.467 - 19 08 24 03 CC 00 D3 00 01 (调用厨房感应灯开的按键)
2024-08-31 12:44:05.501 - 55 0A 32 00 00 00 01 92 55 0A 32 00 00 00 02 93 (厨房顶灯一开, 厨房顶灯二开)
2024-08-31 12:44:41.541 - 19 08 24 03 CC 00 D4 00 01 (调用厨房感应灯关的按键)
2024-08-31 12:44:41.577 - 55 0A 31 00 00 00 01 91 55 0A 31 00 00 00 02 92 (厨房顶灯一关, 厨房顶灯二关)
2024-08-31 12:51:20.324 - 19 08 24 03 CC 00 D3 00 01 (调用厨房感应灯开的按键)
2024-08-31 12:51:20.356 - 55 0A 32 00 00 00 01 92 55 0A 32 00 00 00 02 93 (厨房顶灯一开, 厨房顶灯二开)
2024-08-31 12:51:21.594 - FF
2024-08-31 12:51:47.995 - 03 00 00 2F 2A E0 00 00 00 00 00 43 6F 6F 6B 69 65 3A 20 6D 73 74 73 68 61 73 68 3D 41 64 6D 69
2024-08-31 12:51:48.011 - 6E 69 73 74 72 0D 0A 01 00 08 00 03 00 00 00
2024-08-31 12:51:59.895 - 19 08 24 03 CC 00 D4 00 01 (调用厨房感应灯关的按键)
2024-08-31 12:51:59.958 - 55 0A 31 00 00 00 01 91 55 0A 31 00 00 00 02 92 (厨房顶灯一关, 厨房顶灯二关)
2024-08-31 13:02:02.087 - 19 08 24 03 CC 00 D3 00 01 (调用厨房感应灯开的按键)
2024-08-31 13:02:02.140 - 55 0A 32 00 00 00 01 92 55 0A 32 00 00 00 02 93 (厨房顶灯一开, 厨房顶灯二开)
2024-08-31 13:02:56.690 - 19 08 24 03 CC 00 D4 00 01 (调用厨房感应灯关的按键)
2024-08-31 13:02:56.730 - 55 0A 31 00 00 00 01 91 55 0A 31 00 00 00 02 92 (厨房顶灯一关, 厨房顶灯二关)
2024-08-31 13:24:07.187 - 19 08 24 03 CC 00 D3 00 01 (调用厨房感应灯开的按键)
2024-08-31 13:24:07.219 - 55 0A 32 00 00 00 01 92 55 0A 32 00 00 00 02 93 (厨房顶灯一开, 厨房顶灯二开)
2024-08-31 13:24:42.261 - 19 08 24 03 CC 00 D4 00 01 (调用厨房感应灯关的按键)
2024-08-31 13:24:42.293 - 55 0A 31 00 00 00 01 91 55 0A 31 00 00 00 02 92 (厨房顶灯一关, 厨房顶灯二关)
2024-08-31 13:37:07.221 - 19 08 24 03 CC 00 D3 00 01 (调用厨房感应灯开的按键)
2024-08-31 13:37:07.253 - 55 0A 32 00 00 00 01 92 55 0A 32 00 00 00 02 93 (厨房顶灯一开, 厨房顶灯二开)
2024-08-31 13:37:42.296 - 19 08 24 03 CC 00 D4 00 01 (调用厨房感应灯关的按键)
2024-08-31 13:37:42.327 - 55 0A 31 00 00 00 01 91 55 0A 31 00 00 00 02 92 (厨房顶灯一关, 厨房顶灯二关)
2024-08-31 13:46:12.796 - 19 08 24 03 CC 00 D3 00 01 (调用厨房感应灯开的按键)
2024-08-31 13:46:12.833 - 55 0A 32 00 00 00 01 92 55 0A 32 00 00 00 02 93 (厨房顶灯一开, 厨房顶灯二开)
2024-08-31 13:48:23.048 - 19 08 24 03 CC 00 D4 00 01 (调用厨房感应灯关的按键)
2024-08-31 13:48:23.089 - 55 0A 31 00 00 00 01 91 55 0A 31 00 00 00 02 92 (厨房顶灯一关, 厨房顶灯二关)
2024-08-31 13:50:36.936 - 1A FF FF FF 04 (继电器地址-东阳衣架)
2024-08-31 13:50:37.075 - 03
2024-08-31 14:02:54.261 - 19 08 24 03 CC 00 D3 00 01 (调用厨房感应灯开的按键)
2024-08-31 14:02:54.312 - 55 0A 32 00 00 00 01 92 55 0A 32 00 00 00 02 93 (厨房顶灯一开, 厨房顶灯二开)
2024-08-31 14:03:29.832 - 19 08 24 03 CC 00 D4 00 01 (调用厨房感应灯关的按键)
2024-08-31 14:03:29.881 - 55 0A 31 00 00 00 01 91 55 0A 31 00 00 00 02 92 (厨房顶灯一关, 厨房顶灯二关)
2024-08-31 14:07:44.332 - 19 08 24 03 CC 00 D3 00 01 (调用厨房感应灯开的按键)
2024-08-31 14:07:44.366 - 55 0A 32 00 00 00 01 92 55 0A 32 00 00 00 02 93 (厨房顶灯一开, 厨房顶灯二开)
2024-08-31 14:08:19.398 - 19 08 24 03 CC 00 D4 00 01 (调用厨房感应灯关的按键)
2024-08-31 14:08:19.432 - 55 0A 31 00 00 00 01 91 55 0A 31 00 00 00 02 92 (厨房顶灯一关, 厨房顶灯二关)
2024-08-31 14:09:16.006 - 19 08 24 03 CC 00 D3 00 01 (调用厨房感应灯开的按键)
2024-08-31 14:09:16.051 - 55 0A 32 00 00 00 01 92 55 0A 32 00 00 00 02 93 (厨房顶灯一开, 厨房顶灯二开)
2024-08-31 14:09:51.075 - 19 08 24 03 CC 00 D4 00 01 (调用厨房感应灯关的按键)
2024-08-31 14:09:51.122 - 55 0A 31 00 00 00 01 91 55 0A 31 00 00 00 02 92 (厨房顶灯一关, 厨房顶灯二关)
2024-08-31 14:18:26.598 - 19 08 24 03 CC 00 D3 00 01 (调用厨房感应灯开的按键)
2024-08-31 14:18:26.632 - 55 0A 32 00 00 00 01 92 55 0A 32 00 00 00 02 93 (厨房顶灯一开, 厨房顶灯二开)
2024-08-31 14:19:01.668 - 19 08 24 03 CC 00 D4 00 01 (调用厨房感应灯关的按键)
2024-08-31 14:19:01.702 - 55 0A 31 00 00 00 01 91 55 0A 31 00 00 00 02 92 (厨房顶灯一关, 厨房顶灯二关)
2024-08-31 14:23:59.106 - FF FF FF FF 0E FC (继电器地址-西阳小窗帘)
2024-08-31 14:23:59.926 - 1A BE B0 DC 04 FC (继电器地址-西阳窗帘)
2024-08-31 14:24:00.069 - FE
2024-08-31 14:24:07.267 - 19 08 24 03 CC 00 D3 00 01 (调用厨房感应灯开的按键)
2024-08-31 14:24:07.318 - 55 0A 32 00 00 00 01 92 55 0A 32 00 00 00 02 93 (厨房顶灯一开, 厨房顶灯二开)
2024-08-31 14:24:11.076 - 1A BE B0 DC 09 (继电器地址-客厅窗帘)
2024-08-31 14:24:42.835 - 19 08 24 03 CC 00 D4 00 01 (调用厨房感应灯关的按键)
2024-08-31 14:24:42.884 - 55 0A 31 00 00 00 01 91 55 0A 31 00 00 00 02 92 (厨房顶灯一关, 厨房顶灯二关)
2024-08-31 14:25:08.340 - FF FF FF FF 0A FC (继电器地址-东阳窗帘)
2024-08-31 14:25:08.482 - FF
2024-08-31 14:25:15.130 - 1A BE B0 DC 02 (正反转地址-外卫卷帘)
2024-08-31 14:25:15.263 - FF
2024-08-31 14:25:16.693 - 1A BE B0 DC 0A (继电器地址-客厅纱帘)
2024-08-31 14:25:16.828 - FE
2024-08-31 14:26:15.020 - 19 08 24 03 CC 00 D3 00 01 (调用厨房感应灯开的按键)
2024-08-31 14:26:15.068 - 55 0A 32 00 00 00 01 92 55 0A 32 00 00 00 02 93 (厨房顶灯一开, 厨房顶灯二开)
2024-08-31 14:26:28.897 - 1A BE B0 DC 01 (继电器地址-回水泵点动)
2024-08-31 14:26:29.025 - FE
2024-08-31 14:26:30.079 - 1A BE B0 DC 03 (继电器地址-西阳天幕)
2024-08-31 14:26:50.590 - 19 08 24 03 CC 00 D4 00 01 (调用厨房感应灯关的按键)
2024-08-31 14:26:50.642 - 55 0A 31 00 00 00 01 91 55 0A 31 00 00 00 02 92 (厨房顶灯一关, 厨房顶灯二关)
2024-08-31 14:35:47.268 - 19 08 24 03 CC 01 CC 00 01 (调用茶吧感应灯开的按键)
2024-08-31 14:35:47.316 - 1A AA AA AA 88 FF B0 01 FF B0 01 0F (调光器地址-茶吧灯带, 茶吧灯带明亮)
2024-08-31 14:35:52.147 - 19 08 24 03 CC 00 D3 00 01 (调用厨房感应灯开的按键)
2024-08-31 14:35:52.180 - 55 0A 32 00 00 00 01 92 55 0A 32 00 00 00 02 93 (厨房顶灯一开, 厨房顶灯二开)
2024-08-31 14:36:11.319 - 19 08 24 03 CC 01 CD 00 01 (调用茶吧感应灯关的按键)
2024-08-31 14:36:11.351 - 1A AA AA AA 88 FF 00 01 FF 00 01 0F (调光器地址-茶吧灯带, 茶吧灯带关闭)
2024-08-31 14:36:42.249 - 19 08 24 03 CC 00 D4 00 01 (调用厨房感应灯关的按键)
2024-08-31 14:36:42.281 - 55 0A 31 00 00 00 01 91 55 0A 31 00 00 00 02 92 (厨房顶灯一关, 厨房顶灯二关)
2024-08-31 14:44:11.468 - FF
2024-08-31 14:44:11.580 - EE 00 78 07 FF FC FF FF
2024-08-31 14:44:13.019 - FF
2024-08-31 14:44:13.222 - FF
2024-08-31 14:44:14.435 - FF
2024-08-31 14:44:14.549 - FF
2024-08-31 14:44:15.696 - FF
2024-08-31 14:44:15.808 - FF
2024-08-31 14:44:16.782 - FF
2024-08-31 14:44:16.863 - EE 00 79 07 FF FC FF FF
2024-08-31 14:44:16.909 - EE 00 78 07 FF FC FF FF
2024-08-31 14:44:47.612 - 10
2024-08-31 14:44:47.612 - 00
2024-08-31 14:44:47.612 - 00
2024-08-31 14:44:47.627 - 00 00 00
2024-08-31 14:44:47.627 - 00 00
2024-08-31 14:44:47.644 - 00
2024-08-31 14:44:47.644 - 00
2024-08-31 14:44:47.644 - 00
2024-08-31 14:44:47.659 - 00
2024-08-31 14:44:47.675 - 04 FF
2024-08-31 14:45:22.266 - 19 08 24 03 CC 00 D3 00 01 (调用厨房感应灯开的按键)
2024-08-31 14:45:22.330 - 55 0A 32 00 00 00 01 92 55 0A 32 00 00 00 02 93 (厨房顶灯一开, 厨房顶灯二开)
2024-08-31 14:45:57.341 - 19 08 24 03 CC 00 D4 00 01 (调用厨房感应灯关的按键)
2024-08-31 14:45:57.373 - 55 0A 31 00 00 00 01 91 55 0A 31 00 00 00 02 92 (厨房顶灯一关, 厨房顶灯二关)
2024-08-31 14:46:11.869 - 19 08 24 03 CC 00 D3 00 01 (调用厨房感应灯开的按键)
2024-08-31 14:46:11.908 - 55 0A 32 00 00 00 01 92 55 0A 32 00 00 00 02 93 (厨房顶灯一开, 厨房顶灯二开)
2024-08-31 14:46:46.940 - 19 08 24 03 CC 00 D4 00 01 (调用厨房感应灯关的按键)
2024-08-31 14:46:46.977 - 55 0A 31 00 00 00 01 91 55 0A 31 00 00 00 02 92 (厨房顶灯一关, 厨房顶灯二关)
2024-08-31 14:50:00.321 - 19 08 24 03 CC 00 D3 00 01 (调用厨房感应灯开的按键)
2024-08-31 14:50:00.356 - 55 0A 32 00 00 00 01 92 55 0A 32 00 00 00 02 93 (厨房顶灯一开, 厨房顶灯二开)
2024-08-31 14:50:35.380 - 19 08 24 03 CC 00 D4 00 01 (调用厨房感应灯关的按键)
2024-08-31 14:50:35.425 - 55 0A 31 00 00 00 01 91 55 0A 31 00 00 00 02 92 (厨房顶灯一关, 厨房顶灯二关)
2024-08-31 14:51:23.481 - 19 08 24 03 CC 00 D3 00 01 (调用厨房感应灯开的按键)
2024-08-31 14:51:23.512 - 55 0A 32 00 00 00 01 92 55 0A 32 00 00 00 02 93 (厨房顶灯一开, 厨房顶灯二开)
2024-08-31 14:53:11.696 - 19 08 24 03 CC 00 D4 00 01 (调用厨房感应灯关的按键)
2024-08-31 14:53:11.728 - 55 0A 31 00 00 00 01 91 55 0A 31 00 00 00 02 92 (厨房顶灯一关, 厨房顶灯二关)
2024-08-31 15:00:21.038 - 19 08 24 03 CC 00 D3 00 01 (调用厨房感应灯开的按键)
2024-08-31 15:00:21.070 - 55 0A 32 00 00 00 01 92 55 0A 32 00 00 00 02 93 (厨房顶灯一开, 厨房顶灯二开)
2024-08-31 15:02:30.784 - 19 08 24 03 CC 00 D4 00 01 (调用厨房感应灯关的按键)
2024-08-31 15:02:30.832 - 55 0A 31 00 00 00 01 91 55 0A 31 00 00 00 02 92 (厨房顶灯一关, 厨房顶灯二关)
2024-08-31 15:03:41.924 - 19 08 24 03 CC 00 D3 00 01 (调用厨房感应灯开的按键)
2024-08-31 15:03:41.970 - 55 0A 32 00 00 00 01 92 55 0A 32 00 00 00 02 93 (厨房顶灯一开, 厨房顶灯二开)
2024-08-31 15:05:05.594 - 19 08 24 03 CC 00 D4 00 01 (调用厨房感应灯关的按键)
2024-08-31 15:05:05.628 - 55 0A 31 00 00 00 01 91 55 0A 31 00 00 00 02 92 (厨房顶灯一关, 厨房顶灯二关)
2024-08-31 15:05:52.689 - 19 08 24 03 CC 00 D3 00 01 (调用厨房感应灯开的按键)
2024-08-31 15:05:52.723 - 55 0A 32 00 00 00 01 92 55 0A 32 00 00 00 02 93 (厨房顶灯一开, 厨房顶灯二开)
2024-08-31 15:06:30.767 - 19 08 24 03 CC 00 D4 00 01 (调用厨房感应灯关的按键)
2024-08-31 15:06:30.802 - 55 0A 31 00 00 00 01 91 55 0A 31 00 00 00 02 92 (厨房顶灯一关, 厨房顶灯二关)
2024-08-31 15:10:02.686 - 19 08 24 03 CC 00 D3 00 01 (调用厨房感应灯开的按键)
2024-08-31 15:10:02.737 - 55 0A 32 00 00 00 01 92 55 0A 32 00 00 00 02 93 (厨房顶灯一开, 厨房顶灯二开)
2024-08-31 15:10:03.477 - 19 08 24 03 CC 00 B8 00 01
2024-08-31 15:10:03.524 - 1A 20 07 01 40 00 01 01 0F (自保持开关地址-内卫顶灯, 内卫顶灯开)
2024-08-31 15:10:04.641 - 19 08 24 03 CC 00 B9 00 01
2024-08-31 15:10:04.672 - 1A 20 07 01 40 00 01 00 0F (自保持开关地址-内卫顶灯, 内卫顶灯关)
2024-08-31 15:10:08.417 - 19 08 24 03 CC 00 B8 00 01
2024-08-31 15:10:08.437 - 1A 20 07 01 40 00 01 01 0F (自保持开关地址-内卫顶灯, 内卫顶灯开)
2024-08-31 15:10:09.441 - 19 08 24 03 CC 00 B9 00 01
2024-08-31 15:10:09.473 - 1A 20 07 01 40 00 01 00 0F (自保持开关地址-内卫顶灯, 内卫顶灯关)
2024-08-31 15:10:58.292 - 19 08 24 03 CC 00 D4 00 01 (调用厨房感应灯关的按键)
2024-08-31 15:10:58.323 - 55 0A 31 00 00 00 01 91 55 0A 31 00 00 00 02 92 (厨房顶灯一关, 厨房顶灯二关)
2024-08-31 15:11:09.911 - EE 00 77 07 FF FC FF FF
2024-08-31 15:11:15.326 - 19 08 24 03 CC 00 D3 00 01 (调用厨房感应灯开的按键)
2024-08-31 15:11:15.358 - 55 0A 32 00 00 00 01 92 55 0A 32 00 00 00 02 93 (厨房顶灯一开, 厨房顶灯二开)
2024-08-31 15:11:17.552 - 19 08 24 03 CC 00 B8 00 01
2024-08-31 15:11:17.586 - 1A 20 07 01 40 00 01 01 0F (自保持开关地址-内卫顶灯, 内卫顶灯开)
2024-08-31 15:11:18.470 - 19 08 24 03 CC 00 B9 00 01
2024-08-31 15:11:18.504 - 1A 20 07 01 40 00 01 00 0F (自保持开关地址-内卫顶灯, 内卫顶灯关)
2024-08-31 15:11:50.890 - 19 08 24 03 CC 00 D4 00 01 (调用厨房感应灯关的按键)
2024-08-31 15:11:50.934 - 55 0A 31 00 00 00 01 91 55 0A 31 00 00 00 02 92 (厨房顶灯一关, 厨房顶灯二关)
2024-08-31 15:15:05.519 - 19 08 24 03 CC 00 B8 00 01
2024-08-31 15:15:05.551 - 1A 20 07 01 40 00 01 01 0F (自保持开关地址-内卫顶灯, 内卫顶灯开)
2024-08-31 15:15:06.843 - 19 08 24 03 CC 00 B9 00 01
2024-08-31 15:15:06.875 - 1A 20 07 01 40 00 01 00 0F (自保持开关地址-内卫顶灯, 内卫顶灯关)
2024-08-31 15:16:18.921 - 19 08 24 03 CC 00 D3 00 01 (调用厨房感应灯开的按键)
2024-08-31 15:16:18.953 - 55 0A 32 00 00 00 01 92 55 0A 32 00 00 00 02 93 (厨房顶灯一开, 厨房顶灯二开)
2024-08-31 15:17:22.049 - 19 08 24 03 CC 00 D4 00 01 (调用厨房感应灯关的按键)
2024-08-31 15:17:22.081 - 55 0A 31 00 00 00 01 91 55 0A 31 00 00 00 02 92 (厨房顶灯一关, 厨房顶灯二关)
2024-08-31 15:17:41.588 - 19 08 24 03 CC 00 D3 00 01 (调用厨房感应灯开的按键)
2024-08-31 15:17:41.620 - 55 0A 32 00 00 00 01 92 55 0A 32 00 00 00 02 93 (厨房顶灯一开, 厨房顶灯二开)
2024-08-31 15:18:59.728 - 19 08 24 03 CC 00 D4 00 01 (调用厨房感应灯关的按键)
2024-08-31 15:18:59.776 - 55 0A 31 00 00 00 01 91 55 0A 31 00 00 00 02 92 (厨房顶灯一关, 厨房顶灯二关)
2024-08-31 15:19:00.239 - 19 08 24 03 CC 00 D3 00 01 (调用厨房感应灯开的按键)
2024-08-31 15:19:00.271 - 55 0A 32 00 00 00 01 92 55 0A 32 00 00 00 02 93 (厨房顶灯一开, 厨房顶灯二开)
2024-08-31 15:19:36.803 - 19 08 24 03 CC 00 D4 00 01 (调用厨房感应灯关的按键)
2024-08-31 15:19:36.854 - 55 0A 31 00 00 00 01 91 55 0A 31 00 00 00 02 92 (厨房顶灯一关, 厨房顶灯二关)
2024-08-31 15:19:37.313 - 19 08 24 03 CC 00 D3 00 01 (调用厨房感应灯开的按键)
2024-08-31 15:19:37.347 - 55 0A 32 00 00 00 01 92 55 0A 32 00 00 00 02 93 (厨房顶灯一开, 厨房顶灯二开)
2024-08-31 15:20:15.392 - 19 08 24 03 CC 00 D4 00 01 (调用厨房感应灯关的按键)
2024-08-31 15:20:15.424 - 55 0A 31 00 00 00 01 91 55 0A 31 00 00 00 02 92 (厨房顶灯一关, 厨房顶灯二关)
2024-08-31 15:23:27.258 - 19 08 24 03 CC 00 D3 00 01 (调用厨房感应灯开的按键)
2024-08-31 15:23:27.300 - 55 0A 32 00 00 00 01 92 55 0A 32 00 00 00 02 93 (厨房顶灯一开, 厨房顶灯二开)
2024-08-31 15:24:06.343 - 19 08 24 03 CC 00 D4 00 01 (调用厨房感应灯关的按键)
2024-08-31 15:24:06.377 - 55 0A 31 00 00 00 01 91 55 0A 31 00 00 00 02 92 (厨房顶灯一关, 厨房顶灯二关)
2024-08-31 15:24:26.884 - 19 08 24 03 CC 00 D3 00 01 (调用厨房感应灯开的按键)
2024-08-31 15:24:26.918 - 55 0A 32 00 00 00 01 92 55 0A 32 00 00 00 02 93 (厨房顶灯一开, 厨房顶灯二开)
2024-08-31 15:24:45.062 - 19 08 24 03 CC 01 CC 00 01 (调用茶吧感应灯开的按键)
2024-08-31 15:24:45.096 - 1A AA AA AA 88 FF B0 01 FF B0 01 0F (调光器地址-茶吧灯带, 茶吧灯带明亮)
2024-08-31 15:24:52.086 - 19 08 24 03 CC 01 CD 00 01 (调用茶吧感应灯关的按键)
2024-08-31 15:24:52.120 - 1A AA AA AA 88 FF 00 01 FF 00 01 0F (调光器地址-茶吧灯带, 茶吧灯带关闭)
2024-08-31 15:25:31.508 - 19 08 24 03 CC 00 D4 00 01 (调用厨房感应灯关的按键)
2024-08-31 15:25:31.542 - 55 0A 31 00 00 00 01 91 55 0A 31 00 00 00 02 92 (厨房顶灯一关, 厨房顶灯二关)
2024-08-31 15:27:07.192 - 19 08 24 03 CC 00 D3 00 01 (调用厨房感应灯开的按键)
2024-08-31 15:27:07.240 - 55 0A 32 00 00 00 01 92 55 0A 32 00 00 00 02 93 (厨房顶灯一开, 厨房顶灯二开)
2024-08-31 15:29:31.482 - 19 08 24 03 CC 00 D4 00 01 (调用厨房感应灯关的按键)
2024-08-31 15:29:31.515 - 55 0A 31 00 00 00 01 91 55 0A 31 00 00 00 02 92 (厨房顶灯一关, 厨房顶灯二关)
2024-08-31 15:31:21.351 - 19 08 24 03 CC 01 CC 00 01 (调用茶吧感应灯开的按键)
2024-08-31 15:31:21.387 - 1A AA AA AA 88 FF B0 01 FF B0 01 0F (调光器地址-茶吧灯带, 茶吧灯带明亮)
2024-08-31 15:31:28.860 - 19 08 24 03 CC 01 CD 00 01 (调用茶吧感应灯关的按键)
2024-08-31 15:31:28.894 - 1A AA AA AA 88 FF 00 01 FF 00 01 0F (调光器地址-茶吧灯带, 茶吧灯带关闭)
2024-08-31 15:33:22.936 - 19 08 24 03 CC 00 D3 00 01 (调用厨房感应灯开的按键)
2024-08-31 15:33:22.968 - 55 0A 32 00 00 00 01 92 55 0A 32 00 00 00 02 93 (厨房顶灯一开, 厨房顶灯二开)
2024-08-31 15:34:03.512 - 19 08 24 03 CC 00 D4 00 01 (调用厨房感应灯关的按键)
2024-08-31 15:34:03.544 - 55 0A 31 00 00 00 01 91 55 0A 31 00 00 00 02 92 (厨房顶灯一关, 厨房顶灯二关)
2024-08-31 15:35:02.241 - FE
2024-08-31 15:35:03.405 - FF
2024-08-31 15:37:22.537 - FF
2024-08-31 15:47:53.650 - 19 08 24 03 CC 00 D3 00 01 (调用厨房感应灯开的按键)
2024-08-31 15:47:53.698 - 55 0A 32 00 00 00 01 92 55 0A 32 00 00 00 02 93 (厨房顶灯一开, 厨房顶灯二开)
2024-08-31 15:48:34.223 - 19 08 24 03 CC 00 D4 00 01 (调用厨房感应灯关的按键)
2024-08-31 15:48:34.283 - 55 0A 31 00 00 00 01 91 55 0A 31 00 00 00 02 92 (厨房顶灯一关, 厨房顶灯二关)
2024-08-31 15:58:32.442 - FF
2024-08-31 16:00:06.492 - FF FE
2024-08-31 16:00:12.049 - FF
2024-08-31 16:00:18.790 - FE
2024-08-31 16:00:52.252 - 1A AA AA AA 66 00 00 02 0F (调光器地址-东阳筒灯, 东阳筒灯开关)
2024-08-31 16:00:54.493 - 1A AA AA AA 66 00 00 02 0F (调光器地址-东阳筒灯, 东阳筒灯开关)
2024-08-31 16:00:58.527 - 1A AA AA AA 66 00 64 01 00 64 01 0F (调光器地址-东阳筒灯)
2024-08-31 16:00:59.198 - 1A AA AA AA 66 00 00 02 0F (调光器地址-东阳筒灯, 东阳筒灯开关)
2024-08-31 16:00:59.453 - 1A AA AA AA 66 01 0F (调光器地址-东阳筒灯)
2024-08-31 16:01:03.634 - 1A AA AA AA 66 00 00 02 0F (调光器地址-东阳筒灯, 东阳筒灯开关)
2024-08-31 16:01:08.131 - 1A AA AA AA 66 00 00 02 0F (调光器地址-东阳筒灯, 东阳筒灯开关)
2024-08-31 16:01:09.464 - 1A FF FF FF 04 00 03 03 (继电器地址-东阳衣架, 东阳衣架照明开关)
2024-08-31 16:01:09.890 - 1A AA AA AA 66 00 64 00 00 64 00 0F (调光器地址-东阳筒灯)
2024-08-31 16:01:10.713 - 1A FF FF FF 04 00 03 03 (继电器地址-东阳衣架, 东阳衣架照明开关)
2024-08-31 16:01:12.100 - 1A FF FF FF 04 00 01 03 (继电器地址-东阳衣架, 东阳衣架负离开关)
2024-08-31 16:01:12.961 - 1A FF FF FF 04 00 01 03 (继电器地址-东阳衣架, 东阳衣架负离开关)
2024-08-31 16:01:13.665 - 1A FF FF FF 04 00 02 03 (继电器地址-东阳衣架, 东阳衣架消毒开关)
2024-08-31 16:01:14.908 - FF
2024-08-31 16:01:16.506 - 1A FF FF FF 04 00 02 03 (继电器地址-东阳衣架, 东阳衣架消毒开关)
2024-08-31 16:01:19.741 - 1A 22 33 62 25 00 02 01 0F (正反转地址-东阳衣架, 东阳衣架升)
2024-08-31 16:01:20.112 - 1A 22 33 62 25 00 01 01 0F (正反转地址-东阳衣架, 东阳衣架停)
2024-08-31 16:01:23.089 - 1A 22 33 62 25 00 00 01 0F (正反转地址-东阳衣架, 东阳衣架降)
2024-08-31 16:01:23.430 - 1A 22 33 62 25 00 01 01 0F (正反转地址-东阳衣架, 东阳衣架停)
2024-08-31 16:02:45.401 - 19 08 24 03 CC 00 D3 00 01 (调用厨房感应灯开的按键)
2024-08-31 16:02:45.437 - 55 0A 32 00 00 00 01 92 55 0A 32 00 00 00 02 93 (厨房顶灯一开, 厨房顶灯二开)
2024-08-31 16:04:39.116 - 19 08 24 03 CC 00 D4 00 01 (调用厨房感应灯关的按键)
2024-08-31 16:04:39.148 - 55 0A 31 00 00 00 01 91 55 0A 31 00 00 00 02 92 (厨房顶灯一关, 厨房顶灯二关)
2024-08-31 16:09:23.180 - 19 08 24 03 CC 00 D3 00 01 (调用厨房感应灯开的按键)
2024-08-31 16:09:23.220 - 55 0A 32 00 00 00 01 92 55 0A 32 00 00 00 02 93 (厨房顶灯一开, 厨房顶灯二开)
2024-08-31 16:10:06.772 - 19 08 24 03 CC 00 D4 00 01 (调用厨房感应灯关的按键)
2024-08-31 16:10:06.804 - 55 0A 31 00 00 00 01 91 55 0A 31 00 00 00 02 92 (厨房顶灯一关, 厨房顶灯二关)
2024-08-31 16:15:12.372 - 19 08 24 03 CC 00 D3 00 01 (调用厨房感应灯开的按键)
2024-08-31 16:15:12.406 - 55 0A 32 00 00 00 01 92 55 0A 32 00 00 00 02 93 (厨房顶灯一开, 厨房顶灯二开)
2024-08-31 16:15:53.952 - 19 08 24 03 CC 00 D4 00 01 (调用厨房感应灯关的按键)
2024-08-31 16:15:53.986 - 55 0A 31 00 00 00 01 91 55 0A 31 00 00 00 02 92 (厨房顶灯一关, 厨房顶灯二关)
2024-08-31 16:18:35.271 - 19 08 24 03 CC 00 D3 00 01 (调用厨房感应灯开的按键)
2024-08-31 16:18:35.305 - 55 0A 32 00 00 00 01 92 55 0A 32 00 00 00 02 93 (厨房顶灯一开, 厨房顶灯二开)
2024-08-31 16:23:26.331 - 19 08 24 03 CC 00 D4 00 01 (调用厨房感应灯关的按键)
2024-08-31 16:23:26.379 - 55 0A 31 00 00 00 01 91 55 0A 31 00 00 00 02 92 (厨房顶灯一关, 厨房顶灯二关)
2024-08-31 16:26:35.713 - 19 08 24 03 CC 00 D3 00 01 (调用厨房感应灯开的按键)
2024-08-31 16:26:35.747 - 55 0A 32 00 00 00 01 92 55 0A 32 00 00 00 02 93 (厨房顶灯一开, 厨房顶灯二开)
2024-08-31 16:29:09.007 - 19 08 24 03 CC 00 D4 00 01 (调用厨房感应灯关的按键)
2024-08-31 16:29:09.052 - 55 0A 31 00 00 00 01 91 55 0A 31 00 00 00 02 92 (厨房顶灯一关, 厨房顶灯二关)
2024-08-31 16:29:12.020 - 19 08 24 03 CC 00 D3 00 01 (调用厨房感应灯开的按键)
2024-08-31 16:29:12.053 - 55 0A 32 00 00 00 01 92 55 0A 32 00 00 00 02 93 (厨房顶灯一开, 厨房顶灯二开)
2024-08-31 16:29:52.600 - 19 08 24 03 CC 00 D4 00 01 (调用厨房感应灯关的按键)
2024-08-31 16:29:52.632 - 55 0A 31 00 00 00 01 91 55 0A 31 00 00 00 02 92 (厨房顶灯一关, 厨房顶灯二关)
2024-08-31 16:31:37.804 - 19 08 24 03 CC 00 D3 00 01 (调用厨房感应灯开的按键)
2024-08-31 16:31:37.846 - 55 0A 32 00 00 00 01 92 55 0A 32 00 00 00 02 93 (厨房顶灯一开, 厨房顶灯二开)
2024-08-31 16:32:21.895 - 19 08 24 03 CC 00 D4 00 01 (调用厨房感应灯关的按键)
2024-08-31 16:32:21.929 - 55 0A 31 00 00 00 01 91 55 0A 31 00 00 00 02 92 (厨房顶灯一关, 厨房顶灯二关)
2024-08-31 16:36:47.418 - 19 08 24 03 CC 00 D3 00 01 (调用厨房感应灯开的按键)
2024-08-31 16:36:47.452 - 55 0A 32 00 00 00 01 92 55 0A 32 00 00 00 02 93 (厨房顶灯一开, 厨房顶灯二开)
2024-08-31 16:37:32.505 - 19 08 24 03 CC 00 D4 00 01 (调用厨房感应灯关的按键)
2024-08-31 16:37:32.539 - 55 0A 31 00 00 00 01 91 55 0A 31 00 00 00 02 92 (厨房顶灯一关, 厨房顶灯二关)
2024-08-31 16:38:37.632 - 19 08 24 03 CC 00 D3 00 01 (调用厨房感应灯开的按键)
2024-08-31 16:38:37.666 - 55 0A 32 00 00 00 01 92 55 0A 32 00 00 00 02 93 (厨房顶灯一开, 厨房顶灯二开)
2024-08-31 16:40:06.224 - FF
2024-08-31 16:41:17.947 - 19 08 24 03 CC 00 D4 00 01 (调用厨房感应灯关的按键)
2024-08-31 16:41:17.997 - 55 0A 31 00 00 00 01 91 55 0A 31 00 00 00 02 92 (厨房顶灯一关, 厨房顶灯二关)
2024-08-31 16:42:06.042 - 19 08 24 03 CC 00 D3 00 01 (调用厨房感应灯开的按键)
2024-08-31 16:42:06.096 - 55 0A 32 00 00 00 01 92 55 0A 32 00 00 00 02 93 (厨房顶灯一开, 厨房顶灯二开)
2024-08-31 16:42:07.335 - FF
2024-08-31 16:43:00.345 - 19 08 24 03 CC 01 CC 00 01 (调用茶吧感应灯开的按键)
2024-08-31 16:43:00.392 - 1A AA AA AA 88 FF B0 01 FF B0 01 0F (调光器地址-茶吧灯带, 茶吧灯带明亮)
2024-08-31 16:43:40.925 - 19 08 24 03 CC 01 CD 00 01 (调用茶吧感应灯关的按键)
2024-08-31 16:43:40.976 - 1A AA AA AA 88 FF 00 01 FF 00 01 0F (调光器地址-茶吧灯带, 茶吧灯带关闭)
2024-08-31 16:44:47.351 - 19 08 24 03 CC 00 D4 00 01 (调用厨房感应灯关的按键)
2024-08-31 16:44:47.397 - 55 0A 31 00 00 00 01 91 55 0A 31 00 00 00 02 92 (厨房顶灯一关, 厨房顶灯二关)
2024-08-31 16:45:37.952 - 19 08 24 03 CC 00 D3 00 01 (调用厨房感应灯开的按键)
2024-08-31 16:45:37.996 - 55 0A 32 00 00 00 01 92 55 0A 32 00 00 00 02 93 (厨房顶灯一开, 厨房顶灯二开)
2024-08-31 16:45:41.664 - 19 08 24 03 CC 01 CC 00 01 (调用茶吧感应灯开的按键)
2024-08-31 16:45:41.696 - 1A AA AA AA 88 FF B0 01 FF B0 01 0F (调光器地址-茶吧灯带, 茶吧灯带明亮)
2024-08-31 16:45:59.194 - 19 08 24 03 CC 01 CD 00 01 (调用茶吧感应灯关的按键)
2024-08-31 16:45:59.228 - 1A AA AA AA 88 FF 00 01 FF 00 01 0F (调光器地址-茶吧灯带, 茶吧灯带关闭)
2024-08-31 16:46:50.101 - 19 08 24 03 CC 00 D4 00 01 (调用厨房感应灯关的按键)
2024-08-31 16:46:50.134 - 55 0A 31 00 00 00 01 91 55 0A 31 00 00 00 02 92 (厨房顶灯一关, 厨房顶灯二关)
2024-08-31 16:46:52.255 - 19 08 24 03 DD 00 40 00 01 (调用情景-离开主卧)
2024-08-31 16:46:52.766 - EE 00 00 B1 00 00 00 FF FC FF FF (情景执行提示)
2024-08-31 16:46:53.370 - 09 06 00 0F 02 01 78 21 (提示音叮)
2024-08-31 16:46:53.912 - 50 F5 05 (关主卧影视)
2024-08-31 16:46:54.455 - 50 F5 04 (关内卫影视)
2024-08-31 16:46:55.013 - 01 06 07 D6 FF 60 28 9E (主卧空调关)
2024-08-31 16:46:55.045 - 01 06 07 D6 FF 60 28 9E (主卧空调关)
2024-08-31 16:46:55.606 - A5 00 52 FE 01 AA (主卧窗帘开)
2024-08-31 16:46:56.660 - A5 00 52 FE 01 AA (主卧窗帘开)
2024-08-31 16:46:57.699 - A5 00 53 FF 00 AA (主卧纱帘开)
2024-08-31 16:46:58.251 - A5 00 53 FF 00 AA (主卧纱帘开)
2024-08-31 16:46:58.804 - 1A 22 33 62 0F 00 00 01 0F (正反转地址-内卫卷帘, 内卫卷帘升)
2024-08-31 16:46:59.846 - 1A 20 07 01 40 00 01 00 0F (自保持开关地址-内卫顶灯, 内卫顶灯关)
2024-08-31 16:47:00.899 - 1A 20 07 01 55 00 01 00 0F (自保持开关地址-主卧顶灯, 主卧顶灯只关)
2024-08-31 16:47:01.441 - 1A 0C 02 08 01 FF 00 01 FF 00 01 FF 00 00 0F (调光器地址-内卫射灯, 内卫感应灯关)
2024-08-31 16:47:02.036 - 1A FF FF FF 56 00 00 01 0F (人体感应地址-内卫, 打开内卫感应)
2024-08-31 16:47:05.589 - 1A 0C 02 04 FF FF 00 01 FF 00 01 FF 00 00 0F (主卧调光全关)
2024-08-31 16:47:06.677 - 09 06 00 0F 02 02 38 20 (提示音咚)
2024-08-31 16:47:07.230 - EE 00 00 B1 00 00 02 FF FC FF FF (情景完成返回主页)
2024-08-31 16:47:12.350 - 19 08 24 03 CC 01 CC 00 01 (调用茶吧感应灯开的按键)
2024-08-31 16:47:12.398 - 1A AA AA AA 88 FF B0 01 FF B0 01 0F (调光器地址-茶吧灯带, 茶吧灯带明亮)
2024-08-31 16:47:13.649 - 19 08 24 03 CC 00 D3 00 01 (调用厨房感应灯开的按键)
2024-08-31 16:47:13.683 - 55 0A 32 00 00 00 01 92 55 0A 32 00 00 00 02 93 (厨房顶灯一开, 厨房顶灯二开)
2024-08-31 16:47:40.408 - 19 08 24 03 CC 01 CD 00 01 (调用茶吧感应灯关的按键)
2024-08-31 16:47:40.440 - 1A AA AA AA 88 FF 00 01 FF 00 01 0F (调光器地址-茶吧灯带, 茶吧灯带关闭)
2024-08-31 16:47:57.731 - 19 08 24 03 CC 00 D4 00 01 (调用厨房感应灯关的按键)
2024-08-31 16:47:57.765 - 55 0A 31 00 00 00 01 91 55 0A 31 00 00 00 02 92 (厨房顶灯一关, 厨房顶灯二关)
2024-08-31 16:48:10.315 - 19 08 24 03 CC 01 54 00 01 (调用内卫感应灯开的按键)
2024-08-31 16:48:10.344 - 1A 0C 02 08 01 FF 45 01 FF 45 01 FF 00 00 0F (调光器地址-内卫射灯, 内卫射灯微光)
2024-08-31 16:48:25.996 - 19 08 24 03 CC 01 CC 00 01 (调用茶吧感应灯开的按键)
2024-08-31 16:48:26.025 - 1A AA AA AA 88 FF B0 01 FF B0 01 0F (调光器地址-茶吧灯带, 茶吧灯带明亮)
2024-08-31 16:48:36.357 - 19 08 24 03 CC 01 55 00 01 (调用内卫感应灯关的按键)
2024-08-31 16:48:36.389 - 1A 0C 02 08 01 FF 00 01 FF 00 01 FF 00 00 0F (调光器地址-内卫射灯, 内卫感应灯关)
2024-08-31 16:48:48.191 - 19 08 24 03 DD 00 00 00 01 (调用情景-离家（末）)
2024-08-31 16:48:48.541 - 19 08 24 03 CC 01 CD 00 01 (调用茶吧感应灯关的按键)
2024-08-31 16:48:48.573 - 1A AA AA AA 88 FF 00 01 FF 00 01 0F (调光器地址-茶吧灯带, 茶吧灯带关闭)
2024-08-31 16:48:48.972 - EE 00 00 B1 00 00 00 FF FC FF FF (情景执行提示)
2024-08-31 16:48:49.549 - 09 06 00 0F 02 02 38 20 (提示音咚)
2024-08-31 16:48:50.088 - 50 F7 01 (全屋影音全关)
2024-08-31 16:48:50.645 - 01 06 07 D0 FF 60 C8 9F (客厅空调关)
2024-08-31 16:48:50.672 - 01 06 07 D0 FF 60 C8 9F (客厅空调关)
2024-08-31 16:48:51.236 - 01 06 07 D0 FF 60 C8 9F (客厅空调关)
2024-08-31 16:48:51.269 - 01 06 07 D0 FF 60 C8 9F (客厅空调关)
2024-08-31 16:48:51.842 - 01 06 07 D3 FF 60 38 9F (餐厅空调关)
2024-08-31 16:48:51.874 - 01 06 07 D3 FF 60 38 9F (餐厅空调关)
2024-08-31 16:48:52.433 - 01 06 07 D3 FF 60 38 9F (餐厅空调关)
2024-08-31 16:48:52.465 - 01 06 07 D3 FF 60 38 9F (餐厅空调关)
2024-08-31 16:48:53.038 - 01 06 07 D6 FF 60 28 9E (主卧空调关)
2024-08-31 16:48:53.055 - 01 06 07 D6 FF 60 28 9E (主卧空调关)
2024-08-31 16:48:53.665 - 01 06 07 D6 FF 60 28 9E (主卧空调关)
2024-08-31 16:48:53.692 - 01 06 07 D6 FF 60 28 9E (主卧空调关)
2024-08-31 16:48:54.234 - 01 06 07 D9 FF 60 18 9D (次卧空调关)
2024-08-31 16:48:54.283 - 01 06 07 D9 FF 60 18 FD
2024-08-31 16:48:54.824 - 01 06 07 D9 FF 60 18 9D (次卧空调关)
2024-08-31 16:48:54.856 - 01 06 07 D9 FF 60 18 9D (次卧空调关)
2024-08-31 16:48:55.430 - 01 06 07 DC FF 60 08 9C (书房空调关)
2024-08-31 16:48:55.451 - 01 06 07 DC FF 60 08 9C (书房空调关)
2024-08-31 16:48:56.029 - 01 06 07 DC FF 60 08 9C (书房空调关)
2024-08-31 16:48:56.052 - 01 06 07 DC FF 60 08 9C (书房空调关)
2024-08-31 16:48:56.627 - 09 06 00 0F 02 02 38 20 (提示音咚)
2024-08-31 16:48:57.170 - 1A FF FF FF 56 00 00 00 0F (人体感应地址-内卫, 关闭内卫感应)
2024-08-31 16:48:57.712 - 1A FF FF FF 55 00 00 00 0F (人体感应地址-外卫, 关闭外卫感应)
2024-08-31 16:48:57.729 - BC BC
2024-08-31 16:48:58.317 - 1A FF FF FF 57 00 00 00 0F (人体感应地址-厨房, 关闭厨房感应)
2024-08-31 16:48:58.892 - 1A FF FF FF 58 00 00 00 0F (人体感应地址-茶吧, 关闭茶吧感应)
2024-08-31 16:48:58.940 - BC BC
2024-08-31 16:48:59.466 - 1A 20 07 00 93 00 01 00 0F (自保持开关地址-设备区顶, 设备区顶灯关)
2024-08-31 16:49:00.503 - 1A 20 07 01 40 00 01 00 0F (自保持开关地址-内卫顶灯, 内卫顶灯关)
2024-08-31 16:49:01.556 - 1A 20 07 01 55 00 01 00 0F (自保持开关地址-主卧顶灯, 主卧顶灯只关)
2024-08-31 16:49:02.609 - 1A 20 07 00 42 00 01 00 0F (自保持开关地址-外卫顶灯, 外卫顶灯关)
2024-08-31 16:49:03.648 - 55 0D 31 00 00 00 01 94 (书房顶灯只关)
2024-08-31 16:49:04.699 - 55 0A 31 00 00 00 01 91 (厨房顶灯一关)
2024-08-31 16:49:05.741 - 55 0A 31 00 00 00 02 92 (厨房顶灯二关)
2024-08-31 16:49:06.789 - 55 0B 31 00 00 00 01 92 (厨房风扇只关)
2024-08-31 16:49:07.833 - 55 0C 31 00 00 00 01 93 (餐厅顶灯关)
2024-08-31 16:49:08.888 - 1A 20 07 01 30 00 01 00 0F (自保持开关地址-西阳顶灯, 西阳顶灯关)
2024-08-31 16:49:09.932 - 1A 18 05 21 89 00 01 00 0F (自保持开关地址-客厅顶灯, 客厅顶灯一关)
2024-08-31 16:49:10.979 - 1A 18 05 01 94 00 01 00 0F (自保持开关地址-客厅顶灯, 客厅顶灯二关)
2024-08-31 16:49:12.019 - 1A 20 07 00 70 00 01 00 0F (自保持开关地址-次卧顶灯, 次卧顶灯只关)
2024-08-31 16:49:13.072 - 1A 18 05 10 31 00 01 00 0F (自保持开关地址-门厅顶灯, 门厅顶灯关)
2024-08-31 16:49:14.108 - 1A FF FF FF 04 00 03 02 (继电器地址-东阳衣架, 东阳衣架照明关)
2024-08-31 16:49:14.669 - 09 06 00 0F 02 02 38 20 (提示音咚)
2024-08-31 16:49:15.213 - A5 00 A6 FE 01 AA (餐厅窗帘开)
2024-08-31 16:49:15.766 - FF FF FF FF 0A 00 01 00 (继电器地址-东阳窗帘, 东阳窗帘开)
2024-08-31 16:49:16.309 - 1A BE B0 DC 04 00 01 00 (继电器地址-西阳窗帘, 西阳窗帘开)
2024-08-31 16:49:16.853 - FF FF FF FF 0E 00 01 00 (继电器地址-西阳小窗帘, 西阳小窗帘开)
2024-08-31 16:49:17.410 - 1A 22 33 62 0F 00 00 01 0F (正反转地址-内卫卷帘, 内卫卷帘升)
2024-08-31 16:49:17.953 - A5 00 52 FE 01 AA (主卧窗帘开)
2024-08-31 16:49:18.496 - A5 00 53 FF 00 AA (主卧纱帘开)
2024-08-31 16:49:19.052 - A5 00 76 FE 01 AA (次卧窗帘开)
2024-08-31 16:49:19.107 - 55 00 76 02 01 0D 01 1B AA 55 00 76 02 01 0D C1 (次卧窗帘电机状态返回)
2024-08-31 16:49:19.643 - A5 00 21 FE 01 AA (次卧纱帘开)
2024-08-31 16:49:19.707 - 55 00 21 02 01 27 01 34 AA 55 00 21 02 01 27 C1 (次卧纱帘电机状态返回)
2024-08-31 16:49:20.250 - A5 00 D2 FE 01 AA 22 0D (书房窗帘开)
2024-08-31 16:49:20.792 - 1A BE B0 DC 09 00 01 00 (继电器地址-客厅窗帘, 客厅窗帘开)
2024-08-31 16:49:21.386 - 1A BE B0 DC 0A 00 02 00 (继电器地址-客厅纱帘, 客厅纱帘开)
2024-08-31 16:49:21.941 - 09 06 00 0F 02 02 38 20 (提示音咚)
2024-08-31 16:49:22.985 - 1A EC A0 DC 02 00 00 00 0F (自保持开关地址-天花12V供电, 天花12V 供电关)
2024-08-31 16:49:23.536 - 1A EC A0 DC 02 00 00 00 0F (自保持开关地址-天花12V供电, 天花12V 供电关)
2024-08-31 16:49:24.089 - 1A EC A0 DC 01 00 00 00 0F (自保持开关地址-电视、设备12V供电, 12V 电视供电关)
2024-08-31 16:49:24.635 - 1A EC A0 DC 01 00 00 00 0F (自保持开关地址-电视、设备12V供电, 12V 电视供电关)
2024-08-31 16:49:25.177 - 1A EC A0 DC 04 00 01 00 0F (自保持开关地址-次卧西阳内外卫供电, 内卫外卫关)
2024-08-31 16:49:25.607 - 55 00 76 00 00 0E 01 1B AA 55 00 76 00 00 0E 01 1B AA (次卧窗帘电机状态返回)
2024-08-31 16:49:25.721 - 1A EC A0 DC 04 00 01 00 0F (自保持开关地址-次卧西阳内外卫供电, 内卫外卫关)
2024-08-31 16:49:26.437 - 55 00 21 00 00 0D 01 34 AA 55 00 21 00 00 0D 01 34 AA (次卧纱帘电机状态返回)
2024-08-31 16:49:43.715 - 09 06 00 0F 02 02 38 20 (提示音咚)
2024-08-31 16:49:44.271 - 1A 27 89 12 AA 00 00 00 0F (状态寄存器地址, 无人状态)
2024-08-31 16:49:44.820 - 1A 27 89 12 AA 00 00 00 0F (状态寄存器地址, 无人状态)
2024-08-31 16:49:45.365 - A1 11 11 11 4D (天花供电关闭确认)
2024-08-31 16:49:45.586 - 1A EC A0 DC 02 86 86 86 0F (查询天花供电状态, 自保持开关地址-天花12V供电)
2024-08-31 16:49:46.012 - 1A EC A0 DC 02 00 01 0F (自保持开关地址-天花12V供电)
2024-08-31 16:49:48.402 - A1 11 11 11 4E (卫生供电关闭确认)
2024-08-31 16:49:48.624 - 1A EC A0 DC 04 86 86 86 0F (查询卫生间供电状态, 自保持开关地址-次卧西阳内外卫供电)
2024-08-31 16:49:49.055 - 1A EC A0 DC 04 01 00 0F (自保持开关地址-次卧西阳内外卫供电)
2024-08-31 16:49:51.437 - A1 11 11 11 4F (电视供电关闭确认)
2024-08-31 16:49:51.675 - 1A EC A0 DC 01 86 86 86 0F (查询电视供电状态, 自保持开关地址-电视、设备12V供电)
2024-08-31 16:49:52.103 - 1A EC A0 DC 01 00 01 0F (自保持开关地址-电视、设备12V供电)
2024-08-31 16:49:54.481 - 09 06 00 0F 02 02 38 20 (提示音咚)
2024-08-31 16:49:55.037 - 09 06 00 0F 02 02 38 20 (提示音咚)
2024-08-31 16:49:55.586 - EE 00 00 B1 00 00 02 FF FC FF FF (情景完成返回主页)
2024-08-31 16:49:56.674 - BA BA EE EE BA BA (离家设置信科变量)
2024-08-31 16:49:57.718 - A1 11 11 11 46 (天热离家遮阳)
2024-08-31 16:49:57.950 - 1A 27 89 12 AA 86 86 86 0F (查询寄存器状态, 状态寄存器地址)
2024-08-31 16:49:58.325 - 1A 27 89 12 AA 00 00 00 00 00 00 00 00 00 00 00 01 00 00 00 00 0F (状态寄存器地址)
2024-08-31 16:49:58.953 - 19 08 24 03 DD 00 05 00 01 (调用情景-天热遮阳关帘)
2024-08-31 16:49:59.472 - EE 00 00 B1 00 00 00 FF FC FF FF (情景执行提示)
2024-08-31 16:50:00.063 - 09 06 00 0F 02 01 78 21 (提示音叮)
2024-08-31 16:50:00.604 - A5 00 A2 FF 00 AA (餐厅纱帘关)
2024-08-31 16:50:01.656 - A5 00 A6 FF 00 AA (餐厅窗帘关)
2024-08-31 16:50:01.720 - 55 00 A6 01 00 0E 01 75 AA 55 00 A6 01 00 0E 01 75 EA (餐厅窗帘电机状态返回)
2024-08-31 16:50:02.757 - A5 00 53 FE 01 AA (主卧纱帘关)
2024-08-31 16:50:02.812 - 55 00 53 02 02 22 02 30 AA 55 00 53 02 02 22 02 (主卧纱帘电机状态返回)
2024-08-31 16:50:03.850 - A5 00 52 FF 00 AA (主卧窗帘关)
2024-08-31 16:50:04.975 - A5 00 21 FF 00 AA (次卧纱帘关)
2024-08-31 16:50:05.024 - 55 00 21 01 00 0D 01 34 AA 55 00 21 01 00 0D 01 34 AA (次卧纱帘电机状态返回)
2024-08-31 16:50:06.044 - A5 00 76 FF 00 AA (次卧窗帘关)
2024-08-31 16:50:06.095 - 55 00 76 01 00 0E 01 1B AA 55 00 76 01 00 0E 01 1B AA (次卧窗帘电机状态返回)
2024-08-31 16:50:07.144 - A5 00 B7 FF 00 AA 22 0D (书房纱帘关)
2024-08-31 16:50:08.188 - A5 00 D2 FF 00 AA 22 0C (书房窗帘关)
2024-08-31 16:50:08.239 - 55 00 D2 01 00 0E 00 F2 AA 55 00 D2 01 00 0E 00 F2 AA (书房窗帘电机状态返回)
2024-08-31 16:50:09.786 - 1A 22 33 62 5E 00 02 01 0F (正反转地址-厨房卷帘三, 厨房卷帘一降)
2024-08-31 16:50:10.333 - 55 00 A6 00 01 67 01 75 AA 55 00 A6 00 01 67 01 75 AA (餐厅窗帘电机状态返回)
2024-08-31 16:50:10.828 - 1A 22 33 62 56 00 02 01 0F (正反转地址-厨房卷帘二, 厨房卷帘二降)
2024-08-31 16:50:11.880 - 1A 22 33 62 4F 00 00 01 0F (正反转地址-厨房卷帘一, 厨房卷帘三降)
2024-08-31 16:50:12.023 - 55 00 21 00 01 27 01 34 AA 55 00 21 00 01 27 01 34 AA (次卧纱帘电机状态返回)
2024-08-31 16:50:12.729 - 55 00 76 00 01 0E 01 1B AA 55 00 76 00 01 0E 01 1B AA (次卧窗帘电机状态返回)
2024-08-31 16:50:12.916 - 1A BE B0 DC 04 00 02 00 (继电器地址-西阳窗帘, 西阳窗帘关)
2024-08-31 16:50:13.570 - 55 00 53 00 00 0C 02 30 AA 55 00 53 00 00 0C 02 30 AA (主卧纱帘电机状态返回)
2024-08-31 16:50:13.971 - FF FF FF FF 0E 00 02 00 (继电器地址-西阳小窗帘, 西阳小窗帘关)
2024-08-31 16:50:15.021 - 1A BE B0 DC 03 00 03 00 (继电器地址-西阳天幕, 西阳天幕关)
2024-08-31 16:50:15.596 - 55 20 20 00 02 09 02 16 AA 55 20 20 00 02 09 02 16 AA (主卧窗帘电机状态返回)
2024-08-31 16:50:16.063 - 1A BE B0 DC 03 00 03 00 (继电器地址-西阳天幕, 西阳天幕关)
2024-08-31 16:50:16.089 - 55 00 D2 00 00 E5 00 F2 AA 55 00 D2 00 00 E5 00 F2 AA (书房窗帘电机状态返回)
2024-08-31 16:50:17.158 - 09 06 00 0F 02 02 38 20 (提示音咚)
2024-08-31 16:50:17.713 - EE 00 00 B1 00 00 02 FF FC FF FF (情景完成返回主页)
2024-08-31 17:12:43.995 - 1A FF FF FF 04 (继电器地址-东阳衣架)
2024-08-31 17:12:44.137 - 00
2024-08-31 17:45:23.712 - FF FF FF FF 0E FF (继电器地址-西阳小窗帘)
2024-08-31 17:45:24.289 - 1A BE B0 DC 04 (继电器地址-西阳窗帘)
2024-08-31 17:45:31.797 - 1A BE B0 DC 09 (继电器地址-客厅窗帘)
2024-08-31 17:46:30.952 - 1A BE B0 DC 02 (正反转地址-外卫卷帘)
2024-08-31 17:46:31.088 - FF
2024-08-31 17:46:35.376 - 1A BE B0 DC 0A (继电器地址-客厅纱帘)
2024-08-31 17:46:35.510 - FC
2024-08-31 17:48:38.168 - 1A BE B0 DC 01 (继电器地址-回水泵点动)
2024-08-31 17:48:39.018 - 1A BE B0 DC 03 (继电器地址-西阳天幕)
2024-08-31 17:48:39.155 - FF
2024-08-31 17:49:17.910 - FF FF FF FF 0A FE (继电器地址-东阳窗帘)
2024-08-31 17:49:18.045 - FF
2024-08-31 18:03:31.503 - EE 00 00 B1 00 00 00 FF FC FF FF (情景执行提示)
2024-08-31 18:03:32.062 - 09 06 00 0F 02 01 78 21 (提示音叮)
2024-08-31 18:03:32.618 - A1 11 11 11 40 (客厅空调自动开)
2024-08-31 18:03:32.845 - 19 08 24 03 F0 BB 78 02 02 00
2024-08-31 18:03:32.896 - 23 AA 56 02 12 04 06 18 08 1F 06 73 65 6F 6B 65 6E 64
2024-08-31 18:03:33.848 - 01 10 07 D0 00 03 06 70 61 00 02 00 FA 6F 26 (客厅空调冷25度)
2024-08-31 18:03:33.894 - 01 10 07 D0 00 03 06 70 61 00 02 00 FA 6F 26 (客厅空调冷25度)
2024-08-31 18:03:36.654 - A1 11 11 11 41 (餐厅空调自动开)
2024-08-31 18:03:36.877 - 19 08 24 03 F0 BB 78 02 02 00
2024-08-31 18:03:36.926 - 23 AA 56 02 12 04 0A 18 08 1F 06 73 65 6F 6B 65 6E 64
2024-08-31 18:03:37.883 - 01 10 07 D3 00 03 06 70 61 00 02 00 FA 9F 29 (餐厅空调冷25度)
2024-08-31 18:03:37.914 - 01 10 07 D3 00 03 06 70 61 00 02 00 FA 9F 29 (餐厅空调冷25度)
2024-08-31 18:03:40.738 - A1 11 11 11 42 (主卧空调自动开)
2024-08-31 18:03:40.961 - 19 08 24 03 F0 BB 78 02 02 00
2024-08-31 18:03:41.009 - 23 AA 56 02 12 04 0E 18 08 1F 06 73 65 6F 6B 65 6E 64
2024-08-31 18:03:41.983 - 01 10 07 D6 00 03 06 70 61 00 02 00 F0 0F 3E (主卧空调冷24度)
2024-08-31 18:03:42.015 - 01 10 07 D6 00 03 06 70 61 00 02 00 F0 0F 3E (主卧空调冷24度)
2024-08-31 18:03:42.780 - 09 06 00 0F 02 02 38 20 (提示音咚)
2024-08-31 18:03:43.339 - EE 00 00 B1 00 00 02 FF FC FF FF (情景完成返回主页)
2024-08-31 18:03:58.813 - 1A 27 89 12 AA 86 86 86 0F (查询寄存器状态, 状态寄存器地址)
2024-08-31 18:03:59.193 - 1A 27 89 12 AA 00 00 00 00 00 00 00 00 00 00 00 01 00 00 00 00 0F (状态寄存器地址)
2024-08-31 18:03:59.357 - 1A EC A0 DC 02 86 86 86 0F (查询天花供电状态, 自保持开关地址-天花12V供电)
2024-08-31 18:03:59.782 - 1A EC A0 DC 02 00 01 0F (自保持开关地址-天花12V供电)
2024-08-31 18:03:59.951 - 1A EC A0 DC 01 86 86 86 0F (查询电视供电状态, 自保持开关地址-电视、设备12V供电)
2024-08-31 18:04:00.377 - 1A EC A0 DC 01 00 01 0F (自保持开关地址-电视、设备12V供电)
2024-08-31 18:04:05.810 - 1A FF 03 00 00 86 86 86 0F (调用查询模块-主卧空调开关查询, 主卧空调虚拟地址)
2024-08-31 18:04:06.032 - 01 04 07 DC 00 01 F1 44 (查询主卧空调开关状态)
2024-08-31 18:04:06.048 - 01 04 02 70 01 5D 30
2024-08-31 18:04:07.037 - 1A FF 03 00 00 01 00 0F (主卧空调虚拟地址)
2024-08-31 18:04:07.518 - 1A FF 04 00 00 86 86 86 0F (调用查询模块-次卧空调开关查询, 次卧空调虚拟地址)
2024-08-31 18:04:07.739 - 01 04 07 E2 00 01 90 88 (查询次卧空调开关状态)
2024-08-31 18:04:07.756 - 01 04 02 70 00 9C F0
2024-08-31 18:04:08.745 - 1A FF 04 00 00 00 00 0F (次卧空调虚拟地址)
2024-08-31 18:04:08.903 - 1A FF 05 00 00 86 86 86 0F (调用查询模块-书房空调开关查询, 书房空调虚拟地址)
2024-08-31 18:04:09.126 - 01 04 07 E8 00 01 B0 8A (查询书房空调开关状态)
2024-08-31 18:04:09.151 - 01 04 02 70 00 9C F0
2024-08-31 18:04:10.133 - 1A FF 05 00 00 00 00 0F (书房空调虚拟地址)
2024-08-31 18:04:10.343 - 1A FF 02 00 00 86 86 86 0F (调用查询模块-餐厅空调开关查询, 餐厅空调虚拟地址)
2024-08-31 18:04:10.564 - 01 04 07 D6 00 01 D1 46 (查询餐厅空调开关状态)
2024-08-31 18:04:10.596 - 01 04 02 70 01 5D 30
2024-08-31 18:04:11.569 - 1A FF 02 00 00 01 00 0F (餐厅空调虚拟地址)
2024-08-31 18:04:11.856 - 1A FF 01 00 00 86 86 86 0F (调用查询模块-客厅空调开关查询, 客厅空调虚拟地址)
2024-08-31 18:04:12.079 - 01 04 07 D0 00 01 31 47 (查询客厅空调开关状态)
2024-08-31 18:04:12.111 - 01 04 02 70 01 5D 30
2024-08-31 18:04:13.084 - 1A FF 01 00 00 01 00 0F (客厅空调虚拟地址)
2024-08-31 18:04:13.250 - 1A 10 00 00 00 86 86 86 0F (调用查询模块-主卧测温转换, 主卧温湿度虚拟地址)
2024-08-31 18:04:13.471 - 1D 03 00 00 00 02 C6 57 (查询主卧温湿度)
2024-08-31 18:04:13.488 - 1D 03 04 02 4F 01 16 97 C3 (主卧温湿度返回)
2024-08-31 18:04:14.492 - 1A 10 00 00 00 00 00 01 00 00 01 00 00 01 01 16 01 02 4F 01 00 00 01 00 00 01 0F (主卧温湿度虚拟地址)
2024-08-31 18:04:14.662 - 1A 11 00 00 00 86 86 86 0F (调用查询模块-次卧测温转换, 次卧温湿度虚拟地址)
2024-08-31 18:04:14.886 - 11 03 00 00 00 02 C6 9B (查询次卧温湿度)
2024-08-31 18:04:14.917 - 11 03 04 02 39 01 25 FA 0C (次卧温湿度返回)
2024-08-31 18:04:15.922 - 1A 11 00 00 00 00 00 01 00 00 01 00 00 01 01 25 01 02 39 01 00 00 01 00 00 01 0F (次卧温湿度虚拟地址)
2024-08-31 18:04:16.161 - 1A 12 00 00 00 86 86 86 0F (调用查询模块-书房测温转换, 书房温湿度虚拟地址)
2024-08-31 18:04:16.384 - 12 03 00 00 00 02 C6 A8 (查询书房温湿度)
2024-08-31 18:04:16.414 - 12 03 04 02 45 01 2B 89 10 (书房温湿度返回)
2024-08-31 18:04:17.405 - 1A 12 00 00 00 00 00 01 00 00 01 00 00 01 01 2B 01 02 45 01 00 00 01 00 00 01 0F (书房温湿度虚拟地址)
2024-08-31 18:04:17.580 - 1A 13 00 00 00 86 86 86 0F (调用查询模块-外卫测温转换, 外卫温湿度虚拟地址)
2024-08-31 18:04:17.803 - 13 03 00 00 00 02 C7 79 (查询外卫温湿度)
2024-08-31 18:04:17.826 - 13 03 04 02 50 01 1D 08 02 (外卫温湿度返回)
2024-08-31 18:04:18.829 - 1A 13 00 00 00 00 00 01 00 00 01 00 00 01 01 1D 01 02 50 01 00 00 01 00 00 01 0F (外卫温湿度虚拟地址)
2024-08-31 18:04:18.984 - 1A 14 00 00 00 86 86 86 0F (调用查询模块-内卫测温转换, 内卫温湿度虚拟地址)
2024-08-31 18:04:19.207 - 14 03 00 00 00 02 C6 CE (查询内卫温湿度)
2024-08-31 18:04:19.239 - 14 03 04 02 5B 01 1E 4F 01 (内卫温湿度返回)
2024-08-31 18:04:20.243 - 1A 14 00 00 00 00 00 01 00 00 01 00 00 01 01 1E 01 02 5B 01 00 00 01 00 00 01 0F (内卫温湿度虚拟地址)
2024-08-31 18:04:20.402 - 1A 15 00 00 00 86 86 86 0F (调用查询模块-客厅测温转换, 客厅温湿度虚拟地址)
2024-08-31 18:04:20.615 - 15 03 00 00 00 02 C7 1F (查询客厅温湿度)
2024-08-31 18:04:20.642 - 15 03 04 02 7B 01 15 1F CC (客厅温湿度返回)
2024-08-31 18:04:21.647 - 1A 15 00 00 00 00 00 01 00 00 01 00 00 01 01 15 01 02 7B 01 00 00 01 00 00 01 0F (客厅温湿度虚拟地址)
2024-08-31 18:04:21.839 - 1A 16 00 00 00 86 86 86 0F (调用查询模块-机柜测温转换, 机柜温湿度虚拟地址)
2024-08-31 18:04:22.077 - 16 03 00 00 00 02 C7 2C (查询机柜温湿度)
2024-08-31 18:04:22.094 - 16 03 04 02 02 01 4C 3D 2F (机柜温湿度返回)
2024-08-31 18:04:23.097 - 1A 16 00 00 00 00 00 01 00 00 01 00 00 01 01 4C 01 02 02 01 00 00 01 00 00 01 0F (机柜温湿度虚拟地址)
2024-08-31 18:04:23.512 - 1A 0E 00 00 00 86 86 86 0F (调用查询模块-厨房测温转换, 厨房温湿度虚拟地址)
2024-08-31 18:04:23.726 - 0E 03 00 00 00 02 C4 F4 (查询厨房温湿度)
2024-08-31 18:04:23.751 - 0E 03 04 02 20 01 33 44 C4 (厨房温湿度返回)
2024-08-31 18:04:24.756 - 1A 0E 00 00 00 00 00 01 00 00 01 00 00 01 01 33 01 02 20 01 00 00 01 00 00 01 0F (厨房温湿度虚拟地址)
2024-08-31 18:04:24.916 - 1A 0F 00 00 00 86 86 86 0F (调用查询模块-餐厅测温转换, 餐厅温湿度虚拟地址)
2024-08-31 18:04:25.140 - 1C 03 00 00 00 02 C7 86 (查询餐厅温湿度)
2024-08-31 18:04:25.156 - 1C 03 04 02 4F 01 29 C7 13 (餐厅温湿度返回)
2024-08-31 18:04:26.161 - 1A 0F 00 00 00 00 00 01 00 00 01 00 00 01 01 29 01 02 4F 01 00 00 01 00 00 01 0F (餐厅温湿度虚拟地址)
2024-08-31 18:04:26.321 - 1A 20 00 00 00 86 86 86 0F (调用查询模块-阳台测温湿气压转换, 阳台温湿气压虚拟地址)
2024-08-31 18:04:26.534 - 20 03 00 00 00 03 03 7A (查询阳台温湿度气压)
2024-08-31 18:04:26.560 - 20 03 06 01 6A 01 85 26 F9 66 CB (阳台温湿度返回)
2024-08-31 18:04:27.061 - 1A 20 00 00 00 00 00 01 00 00 01 00 00 01 01 6A 01 01 85 01 26 F9 01 00 00 01 0F (阳台温湿气压虚拟地址)
2024-08-31 18:04:27.423 - 1A 21 00 00 00 86 86 86 0F (调用查询模块-储藏室测温湿气压转换, 储藏室温湿气压虚拟地址)
2024-08-31 18:04:27.646 - 21 03 00 00 00 03 02 AB (查询储藏室温湿度气压)
2024-08-31 18:04:28.173 - 1A 21 00 00 00 00 00 01 00 00 01 00 00 01 00 00 01 86 86 01 86 0F 01 00 00 01 0F (储藏室温湿气压虚拟地址)
2024-08-31 18:04:28.319 - 1A 22 00 00 00 86 86 86 0F (调用查询模块-室外测温湿气压转换, 室外温湿气压虚拟地址)
2024-08-31 18:04:28.541 - 22 03 00 00 00 03 02 98 (查询室外温湿度气压)
2024-08-31 18:04:28.558 - 22 03 06 01 4B 02 74 26 F9 92 1B (阳台温湿度返回)
2024-08-31 18:04:29.068 - 1A 22 00 00 00 00 00 01 00 00 01 00 00 01 01 4B 01 02 74 01 26 F9 01 00 00 01 0F (室外温湿气压虚拟地址)
2024-08-31 18:23:42.584 - 1B 03 00 00 00 02 C6 31 (查询室外光线)
2024-08-31 18:23:42.601 - 1B 03 04 00 00 00 13 00 3F (室外光线返回)
2024-08-31 18:23:42.924 - 1A EC A0 DC 02 00 00 01 0F (自保持开关地址-天花12V供电, 天花12V 供电开)
2024-08-31 18:23:43.446 - 1A AA AA AA 88 (调光器地址-茶吧灯带)
2024-08-31 18:23:44.131 - 1A FF 01 FF FF FF 60 01 FF 60 01 FF 00 00 0F (调光器地址-公共区域统配地址)
2024-08-31 18:23:46.109 - 19 08 24 03 DD 00 0D 00 01 (调用情景-信科调用进门暗)
2024-08-31 18:23:48.148 - 1A EC A0 DC 01 00 00 01 0F (自保持开关地址-电视、设备12V供电, 12V 电视供电开)
2024-08-31 18:23:48.705 - 1A EC A0 DC 01 00 00 01 0F (自保持开关地址-电视、设备12V供电, 12V 电视供电开)
2024-08-31 18:23:49.249 - 1A EC A0 DC 04 00 01 01 0F (自保持开关地址-次卧西阳内外卫供电, 内卫外卫开)
2024-08-31 18:23:49.805 - 1A EC A0 DC 04 00 01 01 0F (自保持开关地址-次卧西阳内外卫供电, 内卫外卫开)
2024-08-31 18:23:54.845 - 1A 27 89 12 AA 00 00 01 0F (状态寄存器地址, 有人状态)
2024-08-31 18:23:55.387 - 1A 27 89 12 AA 00 00 01 0F (状态寄存器地址, 有人状态)
2024-08-31 18:23:55.982 - 1A BE B0 DC 01 00 01 00 (继电器地址-回水泵点动, 回水泵点动)
2024-08-31 18:23:56.536 - 1A FF FF FF 56 00 00 01 0F (人体感应地址-内卫, 打开内卫感应)
2024-08-31 18:23:57.078 - 1A FF FF FF 55 00 00 01 0F (人体感应地址-外卫, 打开外卫感应)
2024-08-31 18:23:57.173 - BC BC
2024-08-31 18:23:57.635 - 1A FF FF FF 57 00 00 01 0F (人体感应地址-厨房, 打开厨房感应)
2024-08-31 18:23:58.178 - 1A FF FF FF 58 00 00 01 0F (人体感应地址-茶吧, 打开茶吧感应)
2024-08-31 18:23:58.228 - BC BC
2024-08-31 18:23:58.773 - 1A BE B0 DC 01 00 01 00 (继电器地址-回水泵点动, 回水泵点动)
2024-08-31 18:23:59.328 - A5 00 B7 FF 00 AA 22 0D (书房纱帘关)
2024-08-31 18:23:59.869 - A5 00 A2 FF 00 AA (餐厅纱帘关)
2024-08-31 18:24:00.422 - 09 06 00 0F 02 01 78 21 (提示音叮)
2024-08-31 18:24:00.969 - 09 06 00 0F 02 01 78 21 (提示音叮)
2024-08-31 18:24:01.513 - EE 00 00 B1 00 00 02 FF FC FF FF (情景完成返回主页)
2024-08-31 18:24:02.106 - A1 11 11 11 50 (天花供电打开确认)
2024-08-31 18:24:02.157 - 19 08 24 03 CC 01 54 00 01 (调用内卫感应灯开的按键)
2024-08-31 18:24:02.246 - 1A 0C 02 08 01 FF 45 01 FF 45 01 FF 00 00 0F (调光器地址-内卫射灯, 内卫射灯微光)
2024-08-31 18:24:04.701 - A1 11 11 11 51 (卫生供电打开确认)
2024-08-31 18:24:04.924 - 1A EC A0 DC 04 86 86 86 0F (查询卫生间供电状态, 自保持开关地址-次卧西阳内外卫供电)
2024-08-31 18:24:05.355 - 1A EC A0 DC 04 01 01 0F (自保持开关地址-次卧西阳内外卫供电)
2024-08-31 18:24:07.243 - A1 11 11 11 52 (电视供电打开确认)
2024-08-31 18:24:07.464 - 1A EC A0 DC 01 86 86 86 0F (查询电视供电状态, 自保持开关地址-电视、设备12V供电)
2024-08-31 18:24:07.906 - 1A EC A0 DC 01 01 01 0F (自保持开关地址-电视、设备12V供电)
2024-08-31 18:24:12.279 - A1 11 11 11 47 (天热回家开帘)
2024-08-31 18:24:12.503 - 1A 27 89 12 AA 86 86 86 0F (查询寄存器状态, 状态寄存器地址)
2024-08-31 18:24:12.889 - 1A 27 89 12 AA 01 00 00 00 00 00 00 00 00 00 00 01 00 00 00 00 0F (状态寄存器地址)
2024-08-31 18:24:13.507 - 19 08 24 03 DD 00 06 00 01 (调用情景-天热遮阳开帘)
2024-08-31 18:24:14.082 - EE 00 00 B1 00 00 00 FF FC FF FF (情景执行提示)
2024-08-31 18:24:14.676 - 09 06 00 0F 02 01 78 21 (提示音叮)
2024-08-31 18:24:15.220 - A5 00 A6 FE 01 AA (餐厅窗帘开)
2024-08-31 18:24:15.277 - 55 00 A6 02 01 67 01 75 AA 55 00 A6 02 01 67 FD (餐厅窗帘电机状态返回)
2024-08-31 18:24:16.314 - A5 00 52 FE 01 AA (主卧窗帘开)
2024-08-31 18:24:17.445 - A5 00 53 FF 00 AA (主卧纱帘开)
2024-08-31 18:24:17.498 - 55 00 53 01 00 0C 02 30 AA 55 00 53 01 00 0C 02 (主卧纱帘电机状态返回)
2024-08-31 18:24:18.502 - A5 00 76 FE 01 AA (次卧窗帘开)
2024-08-31 18:24:18.562 - 55 00 76 02 01 0E 01 1B AA 55 00 76 02 01 0E 01 1B AA (次卧窗帘电机状态返回)
2024-08-31 18:24:18.807 - 19 08 24 03 CC 00 D3 00 01 (调用厨房感应灯开的按键)
2024-08-31 18:24:18.865 - 55 0A 32 00 00 00 01 92 55 0A 32 00 00 00 02 93 (厨房顶灯一开, 厨房顶灯二开)
2024-08-31 18:24:19.607 - A5 00 21 FE 01 AA (次卧纱帘开)
2024-08-31 18:24:19.663 - 55 00 21 02 01 27 01 34 AA 55 00 21 02 01 27 FF (次卧纱帘电机状态返回)
2024-08-31 18:24:20.701 - 1A BE B0 DC 04 00 01 00 (继电器地址-西阳窗帘, 西阳窗帘开)
2024-08-31 18:24:21.751 - FF FF FF FF 0E 00 01 00 (继电器地址-西阳小窗帘, 西阳小窗帘开)
2024-08-31 18:24:22.792 - A5 00 D2 FE 01 AA 22 0D (书房窗帘开)
2024-08-31 18:24:22.839 - 55 00 D2 02 00 E5 00 F2 AA 55 00 D2 02 00 E5 00 F2 AA (书房窗帘电机状态返回)
2024-08-31 18:24:23.893 - 09 06 00 0F 02 02 38 20 (提示音咚)
2024-08-31 18:24:24.200 - 55 00 A6 00 00 0E 01 75 AA 55 00 A6 00 00 0E 01 75 AA (餐厅窗帘电机状态返回)
2024-08-31 18:24:24.438 - EE 00 00 B1 00 00 02 FF FC FF FF (情景完成返回主页)
2024-08-31 18:24:25.441 - 55 00 76 00 00 0E 01 1B AA 55 00 76 00 00 0E 01 1B AA (次卧窗帘电机状态返回)
2024-08-31 18:24:26.988 - 55 00 21 00 00 0D 01 34 AA 55 00 21 00 00 0D 01 34 AA (次卧纱帘电机状态返回)
2024-08-31 18:24:28.421 - 55 20 20 00 00 0F 02 16 AA 55 20 20 00 00 0F 02 16 AA (主卧窗帘电机状态返回)
2024-08-31 18:24:28.580 - 55 00 53 00 02 22 02 30 AA 55 00 53 00 02 22 02 30 AA (主卧纱帘电机状态返回)
2024-08-31 18:24:30.307 - 55 00 D2 00 00 0E 00 F2 AA 55 00 D2 00 00 0E 00 F2 AA (书房窗帘电机状态返回)
2024-08-31 18:24:40.245 - 19 08 24 03 CC 01 55 00 01 (调用内卫感应灯关的按键)
2024-08-31 18:24:40.292 - 1A 0C 02 08 01 FF 00 01 FF 00 01 FF 00 00 0F (调光器地址-内卫射灯, 内卫感应灯关)
2024-08-31 18:26:02.089 - 19 08 24 03 DD 00 12 00 01 (调用情景-公共灯光开)
2024-08-31 18:26:02.600 - EE 00 00 B1 00 00 00 FF FC FF FF (情景执行提示)
2024-08-31 18:26:03.205 - 09 06 00 0F 02 01 78 21 (提示音叮)
2024-08-31 18:26:03.764 - 1A 0D 01 01 01 FF 55 01 FF 55 01 FF 00 00 0F (调光器地址-客厅筒灯, 客厅筒灯微光)
2024-08-31 18:26:04.354 - 1A 0D 01 01 03 FF 55 01 FF 55 01 FF 00 00 0F (调光器地址-客厅过道, 客厅过道微光)
2024-08-31 18:26:04.960 - 1A 0D 01 01 02 FF 55 01 FF 55 01 FF 00 00 0F (调光器地址-客厅灯带, 客厅灯带微光)
2024-08-31 18:26:05.559 - 1A 0B 01 02 02 FF 45 01 FF 45 01 FF 00 00 0F (调光器地址-门厅射灯, 门厅背景微光)
2024-08-31 18:26:06.154 - 1A 0B 01 02 01 FF 45 01 FF 45 01 FF 00 00 0F (调光器地址-门厅灯带, 门厅灯带微光)
2024-08-31 18:26:06.750 - 1A 0B 01 03 01 FF 45 01 FF 45 01 FF 00 00 0F (调光器地址-餐厅筒灯, 餐厅筒灯微光)
2024-08-31 18:26:07.346 - 1A 0B 01 03 02 FF 45 01 FF 45 01 FF 00 00 0F (调光器地址-餐桌筒灯, 餐桌筒灯微光)
2024-08-31 18:26:07.944 - 1A 0B 01 03 03 FF 45 01 FF 45 01 FF 00 00 0F (调光器地址-餐厅灯带, 餐厅灯带微光)
2024-08-31 18:26:08.536 - 55 0A 32 00 00 00 01 92 (厨房顶灯一开)
2024-08-31 18:26:09.080 - 55 0A 32 00 00 00 02 93 (厨房顶灯二开)
2024-08-31 18:26:09.633 - 09 06 00 0F 02 02 38 20 (提示音咚)
2024-08-31 18:26:10.235 - EE 00 00 B1 00 00 02 FF FC FF FF (情景完成返回主页)
2024-08-31 18:27:57.187 - 1A 22 33 62 30 00 00 01 0F (正反转地址-投影仪升降, 投影仪降)
2024-08-31 18:29:15.890 - 19 08 24 03 CC 01 CC 00 01 (调用茶吧感应灯开的按键)
2024-08-31 18:29:15.922 - 1A AA AA AA 88 FF B0 01 FF B0 01 0F (调光器地址-茶吧灯带, 茶吧灯带明亮)
2024-08-31 18:29:34.931 - 19 08 24 03 CC 01 CD 00 01 (调用茶吧感应灯关的按键)
2024-08-31 18:29:34.965 - 1A AA AA AA 88 FF 00 01 FF 00 01 0F (调光器地址-茶吧灯带, 茶吧灯带关闭)
2024-08-31 18:30:00.483 - 19 08 24 03 CC 01 CC 00 01 (调用茶吧感应灯开的按键)
2024-08-31 18:30:00.514 - 1A AA AA AA 88 FF B0 01 FF B0 01 0F (调光器地址-茶吧灯带, 茶吧灯带明亮)
2024-08-31 18:31:01.605 - 19 08 24 03 CC 01 CD 00 01 (调用茶吧感应灯关的按键)
2024-08-31 18:31:01.626 - 1A AA AA AA 88 FF 00 01 FF 00 01 0F (调光器地址-茶吧灯带, 茶吧灯带关闭)
2024-08-31 18:31:39.668 - 19 08 24 03 CC 00 D4 00 01 (调用厨房感应灯关的按键)
2024-08-31 18:31:39.715 - 55 0A 31 00 00 00 01 91 55 0A 31 00 00 00 02 92 (厨房顶灯一关, 厨房顶灯二关)
2024-08-31 18:31:53.096 - 19 08 24 03 CC 01 54 00 01 (调用内卫感应灯开的按键)
2024-08-31 18:31:53.128 - 1A 0C 02 08 01 FF 45 01 FF 45 01 FF 00 00 0F (调光器地址-内卫射灯, 内卫射灯微光)
2024-08-31 18:31:56.945 - 1A 20 07 00 93 00 01 02 0F (自保持开关地址-设备区顶, 设备区顶灯开关)
2024-08-31 18:32:41.183 - 19 08 24 03 CC 01 55 00 01 (调用内卫感应灯关的按键)
2024-08-31 18:32:41.217 - 1A 0C 02 08 01 FF 00 01 FF 00 01 FF 00 00 0F (调光器地址-内卫射灯, 内卫感应灯关)
2024-08-31 18:33:13.255 - 19 08 24 03 CC 01 54 00 01 (调用内卫感应灯开的按键)
2024-08-31 18:33:13.286 - 1A 0C 02 08 01 FF 45 01 FF 45 01 FF 00 00 0F (调光器地址-内卫射灯, 内卫射灯微光)
2024-08-31 18:33:48.317 - 19 08 24 03 CC 01 55 00 01 (调用内卫感应灯关的按键)
2024-08-31 18:33:48.348 - 1A 0C 02 08 01 FF 00 01 FF 00 01 FF 00 00 0F (调光器地址-内卫射灯, 内卫感应灯关)
2024-08-31 18:34:00.848 - 19 08 24 03 CC 01 54 00 01 (调用内卫感应灯开的按键)
2024-08-31 18:34:00.883 - 1A 0C 02 08 01 FF 45 01 FF 45 01 FF 00 00 0F (调光器地址-内卫射灯, 内卫射灯微光)
2024-08-31 18:34:24.895 - 19 08 24 03 CC 01 55 00 01 (调用内卫感应灯关的按键)
2024-08-31 18:34:24.927 - 1A 0C 02 08 01 FF 00 01 FF 00 01 FF 00 00 0F (调光器地址-内卫射灯, 内卫感应灯关)
2024-08-31 18:35:01.469 - 19 08 24 03 CC 01 54 00 01 (调用内卫感应灯开的按键)
2024-08-31 18:35:01.501 - 1A 0C 02 08 01 FF 45 01 FF 45 01 FF 00 00 0F (调光器地址-内卫射灯, 内卫射灯微光)
2024-08-31 18:35:53.673 - 19 08 24 03 CC 00 D3 00 01 (调用厨房感应灯开的按键)
2024-08-31 18:35:53.705 - 55 0A 32 00 00 00 01 92 55 0A 32 00 00 00 02 93 (厨房顶灯一开, 厨房顶灯二开)
2024-08-31 18:36:31.145 - 19 08 24 03 CC 01 55 00 01 (调用内卫感应灯关的按键)
2024-08-31 18:36:31.177 - 1A 0C 02 08 01 FF 00 01 FF 00 01 FF 00 00 0F (调光器地址-内卫射灯, 内卫感应灯关)
2024-08-31 18:36:40.155 - 19 08 24 03 CC 01 54 00 01 (调用内卫感应灯开的按键)
2024-08-31 18:36:40.187 - 1A 0C 02 08 01 FF 45 01 FF 45 01 FF 00 00 0F (调光器地址-内卫射灯, 内卫射灯微光)
2024-08-31 18:37:15.326 - 19 08 24 03 CC 00 D4 00 01 (调用厨房感应灯关的按键)
2024-08-31 18:37:15.376 - 55 0A 31 00 00 00 01 91 55 0A 31 00 00 00 02 92 (厨房顶灯一关, 厨房顶灯二关)
2024-08-31 18:37:43.784 - 19 08 24 03 CC 01 55 00 01 (调用内卫感应灯关的按键)
2024-08-31 18:37:43.815 - 1A 0C 02 08 01 FF 00 01 FF 00 01 FF 00 00 0F (调光器地址-内卫射灯, 内卫感应灯关)
2024-08-31 18:37:44.789 - 19 08 24 03 CC 01 54 00 01 (调用内卫感应灯开的按键)
2024-08-31 18:37:44.819 - 1A 0C 02 08 01 FF 45 01 FF 45 01 FF 00 00 0F (调光器地址-内卫射灯, 内卫射灯微光)
2024-08-31 18:38:11.842 - 19 08 24 03 CC 01 55 00 01 (调用内卫感应灯关的按键)
2024-08-31 18:38:11.875 - 1A 0C 02 08 01 FF 00 01 FF 00 01 FF 00 00 0F (调光器地址-内卫射灯, 内卫感应灯关)
2024-08-31 18:38:16.340 - 19 08 24 03 CC 01 54 00 01 (调用内卫感应灯开的按键)
2024-08-31 18:38:16.372 - 1A 0C 02 08 01 FF 45 01 FF 45 01 FF 00 00 0F (调光器地址-内卫射灯, 内卫射灯微光)
2024-08-31 18:38:33.377 - 19 08 24 03 CC 01 55 00 01 (调用内卫感应灯关的按键)
2024-08-31 18:38:33.411 - 1A 0C 02 08 01 FF 00 01 FF 00 01 FF 00 00 0F (调光器地址-内卫射灯, 内卫感应灯关)
2024-08-31 18:39:11.450 - 19 08 24 03 CC 01 54 00 01 (调用内卫感应灯开的按键)
2024-08-31 18:39:11.501 - 1A 0C 02 08 01 FF 45 01 FF 45 01 FF 00 00 0F (调光器地址-内卫射灯, 内卫射灯微光)
2024-08-31 18:40:05.673 - 19 08 24 03 CC 00 D3 00 01 (调用厨房感应灯开的按键)
2024-08-31 18:40:05.707 - 55 0A 32 00 00 00 01 92 55 0A 32 00 00 00 02 93 (厨房顶灯一开, 厨房顶灯二开)
2024-08-31 18:40:50.763 - 19 08 24 03 CC 00 D4 00 01 (调用厨房感应灯关的按键)
2024-08-31 18:40:50.795 - 55 0A 31 00 00 00 01 91 55 0A 31 00 00 00 02 92 (厨房顶灯一关, 厨房顶灯二关)
2024-08-31 18:42:27.343 - 19 08 24 03 CC 01 55 00 01 (调用内卫感应灯关的按键)
2024-08-31 18:42:27.375 - 1A 0C 02 08 01 FF 00 01 FF 00 01 FF 00 00 0F (调光器地址-内卫射灯, 内卫感应灯关)
2024-08-31 18:43:22.874 - 19 08 24 03 DD 00 3B 00 01 (调用情景-书房照明关帘)
2024-08-31 18:43:23.389 - EE 00 00 B1 00 00 00 FF FC FF FF (情景执行提示)
2024-08-31 18:43:23.990 - 09 06 00 0F 02 01 78 21 (提示音叮)
2024-08-31 18:43:24.548 - 1A 0A 04 06 01 FF F0 01 FF F0 01 FF 00 00 0F (调光器地址-书房射灯, 书房射灯明亮)
2024-08-31 18:43:28.627 - A5 00 B7 FF 00 AA 22 0D (书房纱帘关)
2024-08-31 18:43:29.667 - A5 00 D2 FF 00 AA 22 0C (书房窗帘关)
2024-08-31 18:43:29.716 - 55 00 D2 01 00 0E 00 F2 AA 55 00 D2 01 00 0E 00 F2 AA (书房窗帘电机状态返回)
2024-08-31 18:43:30.770 - 09 06 00 0F 02 02 38 20 (提示音咚)
2024-08-31 18:43:31.315 - EE 00 00 B1 00 00 02 FF FC FF FF (情景完成返回主页)
2024-08-31 18:43:37.565 - 55 00 D2 00 00 E5 00 F2 AA 55 00 D2 00 00 E5 00 F2 AA (书房窗帘电机状态返回)
2024-08-31 18:44:06.039 - 19 08 24 03 CC 01 54 00 01 (调用内卫感应灯开的按键)
2024-08-31 18:44:06.087 - 1A 0C 02 08 01 FF 45 01 FF 45 01 FF 00 00 0F (调光器地址-内卫射灯, 内卫射灯微光)
2024-08-31 18:44:31.591 - 19 08 24 03 CC 01 55 00 01 (调用内卫感应灯关的按键)
2024-08-31 18:44:31.623 - 1A 0C 02 08 01 FF 00 01 FF 00 01 FF 00 00 0F (调光器地址-内卫射灯, 内卫感应灯关)
2024-08-31 18:47:28.544 - 19 08 24 03 CC 00 D3 00 01 (调用厨房感应灯开的按键)
2024-08-31 18:47:28.581 - 55 0A 32 00 00 00 01 92 55 0A 32 00 00 00 02 93 (厨房顶灯一开, 厨房顶灯二开)
2024-08-31 18:48:48.199 - 19 08 24 03 CC 00 D4 00 01 (调用厨房感应灯关的按键)
2024-08-31 18:48:48.233 - 55 0A 31 00 00 00 01 91 55 0A 31 00 00 00 02 92 (厨房顶灯一关, 厨房顶灯二关)
2024-08-31 18:51:15.494 - 19 08 24 03 CC 00 D3 00 01 (调用厨房感应灯开的按键)
2024-08-31 18:51:15.553 - 55 0A 32 00 00 00 01 92 55 0A 32 00 00 00 02 93 (厨房顶灯一开, 厨房顶灯二开)
2024-08-31 18:52:25.126 - 19 08 24 03 CC 00 D4 00 01 (调用厨房感应灯关的按键)
2024-08-31 18:52:25.158 - 55 0A 31 00 00 00 01 91 55 0A 31 00 00 00 02 92 (厨房顶灯一关, 厨房顶灯二关)
2024-08-31 18:53:03.202 - 19 08 24 03 CC 00 D3 00 01 (调用厨房感应灯开的按键)
2024-08-31 18:53:03.236 - 55 0A 32 00 00 00 01 92 55 0A 32 00 00 00 02 93 (厨房顶灯一开, 厨房顶灯二开)
2024-08-31 18:55:22.978 - 19 08 24 03 CC 00 D4 00 01 (调用厨房感应灯关的按键)
2024-08-31 18:55:23.012 - 55 0A 31 00 00 00 01 91 55 0A 31 00 00 00 02 92 (厨房顶灯一关, 厨房顶灯二关)
2024-08-31 19:05:26.166 - 19 08 24 03 CC 00 D3 00 01 (调用厨房感应灯开的按键)
2024-08-31 19:05:26.200 - 55 0A 32 00 00 00 01 92 55 0A 32 00 00 00 02 93 (厨房顶灯一开, 厨房顶灯二开)
2024-08-31 19:05:37.085 - 19 08 24 03 CC 01 54 00 01 (调用内卫感应灯开的按键)
2024-08-31 19:05:37.146 - 1A 0C 02 08 01 FF 45 01 FF 45 01 FF 00 00 0F (调光器地址-内卫射灯, 内卫射灯微光)
2024-08-31 19:05:40.010 - 1A 20 07 00 93 00 01 02 0F (自保持开关地址-设备区顶, 设备区顶灯开关)
2024-08-31 19:06:27.175 - 19 08 24 03 CC 01 55 00 01 (调用内卫感应灯关的按键)
2024-08-31 19:06:27.217 - 1A 0C 02 08 01 FF 00 01 FF 00 01 FF 00 00 0F (调光器地址-内卫射灯, 内卫感应灯关)
2024-08-31 19:06:47.319 - 19 08 24 03 CC 00 D4 00 01 (调用厨房感应灯关的按键)
2024-08-31 19:06:47.350 - 55 0A 31 00 00 00 01 91 55 0A 31 00 00 00 02 92 (厨房顶灯一关, 厨房顶灯二关)
2024-08-31 19:07:22.286 - 19 08 24 03 CC 01 54 00 01 (调用内卫感应灯开的按键)
2024-08-31 19:07:22.334 - 1A 0C 02 08 01 FF 45 01 FF 45 01 FF 00 00 0F (调光器地址-内卫射灯, 内卫射灯微光)
2024-08-31 19:08:49.564 - 19 08 24 03 CC 00 D3 00 01 (调用厨房感应灯开的按键)
2024-08-31 19:08:49.588 - 55 0A 32 00 00 00 01 92 55 0A 32 00 00 00 02 93 (厨房顶灯一开, 厨房顶灯二开)
2024-08-31 19:10:05.701 - 19 08 24 03 CC 00 D4 00 01 (调用厨房感应灯关的按键)
2024-08-31 19:10:05.750 - 55 0A 31 00 00 00 01 91 55 0A 31 00 00 00 02 92 (厨房顶灯一关, 厨房顶灯二关)
2024-08-31 19:10:20.242 - 19 08 24 03 CC 00 D3 00 01 (调用厨房感应灯开的按键)
2024-08-31 19:10:20.276 - 55 0A 32 00 00 00 01 92 55 0A 32 00 00 00 02 93 (厨房顶灯一开, 厨房顶灯二开)
2024-08-31 19:11:21.863 - 19 08 24 03 CC 00 D4 00 01 (调用厨房感应灯关的按键)
2024-08-31 19:11:21.897 - 55 0A 31 00 00 00 01 91 55 0A 31 00 00 00 02 92 (厨房顶灯一关, 厨房顶灯二关)
2024-08-31 19:23:42.719 - 19 08 24 03 CC 01 55 00 01 (调用内卫感应灯关的按键)
2024-08-31 19:23:42.753 - 1A 0C 02 08 01 FF 00 01 FF 00 01 FF 00 00 0F (调光器地址-内卫射灯, 内卫感应灯关)
2024-08-31 19:24:53.358 - 19 08 24 03 CC 01 54 00 01 (调用内卫感应灯开的按键)
2024-08-31 19:24:53.407 - 1A 0C 02 08 01 FF 45 01 FF 45 01 FF 00 00 0F (调光器地址-内卫射灯, 内卫射灯微光)
2024-08-31 19:25:18.904 - 19 08 24 03 CC 01 55 00 01 (调用内卫感应灯关的按键)
2024-08-31 19:25:18.938 - 1A 0C 02 08 01 FF 00 01 FF 00 01 FF 00 00 0F (调光器地址-内卫射灯, 内卫感应灯关)
2024-08-31 19:27:30.168 - EE 00 6E B1 01 00 03 FF FC FF FF
2024-08-31 19:27:31.077 - EE 00 6E B1 01 00 08 FF FC FF FF
2024-08-31 19:27:31.487 - 1A BE B0 DC 0A 00 01 00 (继电器地址-客厅纱帘, 客厅纱帘关)
2024-08-31 19:27:33.935 - EE 00 6E B1 01 00 03 FF FC FF FF
2024-08-31 19:27:34.586 - 1A 18 05 21 89 00 01 02 0F (自保持开关地址-客厅顶灯, 客厅顶灯一开关)
2024-08-31 19:27:35.510 - 1A 18 05 01 94 00 01 02 0F (自保持开关地址-客厅顶灯, 客厅顶灯二开关)
2024-08-31 19:28:41.310 - 19 08 24 03 CC 01 54 00 01 (调用内卫感应灯开的按键)
2024-08-31 19:28:41.342 - 1A 0C 02 08 01 FF 45 01 FF 45 01 FF 00 00 0F (调光器地址-内卫射灯, 内卫射灯微光)
2024-08-31 19:28:43.215 - 1A 20 07 00 93 00 01 02 0F (自保持开关地址-设备区顶, 设备区顶灯开关)
2024-08-31 19:29:11.861 - 19 08 24 03 CC 01 55 00 01 (调用内卫感应灯关的按键)
2024-08-31 19:29:11.895 - 1A 0C 02 08 01 FF 00 01 FF 00 01 FF 00 00 0F (调光器地址-内卫射灯, 内卫感应灯关)
2024-08-31 19:29:17.874 - 19 08 24 03 CC 01 54 00 01 (调用内卫感应灯开的按键)
2024-08-31 19:29:17.907 - 1A 0C 02 08 01 FF 45 01 FF 45 01 FF 00 00 0F (调光器地址-内卫射灯, 内卫射灯微光)
2024-08-31 19:29:34.908 - 19 08 24 03 CC 01 55 00 01 (调用内卫感应灯关的按键)
2024-08-31 19:29:34.942 - 1A 0C 02 08 01 FF 00 01 FF 00 01 FF 00 00 0F (调光器地址-内卫射灯, 内卫感应灯关)
2024-08-31 19:30:48.556 - 19 08 24 03 CC 01 54 00 01 (调用内卫感应灯开的按键)
2024-08-31 19:30:48.590 - 1A 0C 02 08 01 FF 45 01 FF 45 01 FF 00 00 0F (调光器地址-内卫射灯, 内卫射灯微光)
2024-08-31 19:31:14.106 - 19 08 24 03 CC 01 55 00 01 (调用内卫感应灯关的按键)
2024-08-31 19:31:14.138 - 1A 0C 02 08 01 FF 00 01 FF 00 01 FF 00 00 0F (调光器地址-内卫射灯, 内卫感应灯关)
2024-08-31 19:32:14.226 - 19 08 24 03 CC 01 54 00 01 (调用内卫感应灯开的按键)
2024-08-31 19:32:14.260 - 1A 0C 02 08 01 FF 45 01 FF 45 01 FF 00 00 0F (调光器地址-内卫射灯, 内卫射灯微光)
2024-08-31 19:33:15.342 - 19 08 24 03 CC 01 55 00 01 (调用内卫感应灯关的按键)
2024-08-31 19:33:15.374 - 1A 0C 02 08 01 FF 00 01 FF 00 01 FF 00 00 0F (调光器地址-内卫射灯, 内卫感应灯关)
2024-08-31 19:33:22.855 - 19 08 24 03 CC 01 54 00 01 (调用内卫感应灯开的按键)
2024-08-31 19:33:22.889 - 1A 0C 02 08 01 FF 45 01 FF 45 01 FF 00 00 0F (调光器地址-内卫射灯, 内卫射灯微光)
2024-08-31 19:33:59.629 - 1A 20 07 00 93 00 01 02 0F (自保持开关地址-设备区顶, 设备区顶灯开关)
2024-08-31 19:34:23.940 - EE 00 6E B1 01 00 09 FF FC FF FF
2024-08-31 19:34:23.972 - 19 08 24 03 CC 01 55 00 01 (调用内卫感应灯关的按键)
2024-08-31 19:34:24.067 - 1A 0C 02 08 01 FF 00 01 FF 00 01 FF 00 00 0F (调光器地址-内卫射灯, 内卫感应灯关)
2024-08-31 19:34:25.184 - EE 00 6E B1 01 00 0A FF FC FF FF
2024-08-31 19:34:26.081 - 1A 22 33 62 5F 00 02 01 0F (投影仪升降机控制更换前地址)
2024-08-31 19:34:26.302 - 1A 22 33 62 30 00 02 01 0F (正反转地址-投影仪升降, 投影仪升)
2024-08-31 19:35:50.233 - 1A 22 33 62 5F 00 00 01 0F (投影仪升降机控制更换前地址)
2024-08-31 19:35:50.456 - 1A 22 33 62 30 00 00 01 0F (正反转地址-投影仪升降, 投影仪降)
2024-08-31 19:36:03.167 - 19 08 24 03 CC 01 54 00 01 (调用内卫感应灯开的按键)
2024-08-31 19:36:03.214 - 1A 0C 02 08 01 FF 45 01 FF 45 01 FF 00 00 0F (调光器地址-内卫射灯, 内卫射灯微光)
2024-08-31 19:36:28.725 - 19 08 24 03 CC 01 55 00 01 (调用内卫感应灯关的按键)
2024-08-31 19:36:28.757 - 1A 0C 02 08 01 FF 00 01 FF 00 01 FF 00 00 0F (调光器地址-内卫射灯, 内卫感应灯关)
2024-08-31 19:38:39.591 - 19 08 24 03 CC 00 D3 00 01 (调用厨房感应灯开的按键)
2024-08-31 19:38:39.623 - 55 0A 32 00 00 00 01 92 55 0A 32 00 00 00 02 93 (厨房顶灯一开, 厨房顶灯二开)
2024-08-31 19:39:14.652 - 19 08 24 03 CC 00 D4 00 01 (调用厨房感应灯关的按键)
2024-08-31 19:39:14.684 - 55 0A 31 00 00 00 01 91 55 0A 31 00 00 00 02 92 (厨房顶灯一关, 厨房顶灯二关)
2024-08-31 19:44:15.249 - 19 08 24 03 CC 00 D3 00 01 (调用厨房感应灯开的按键)
2024-08-31 19:44:15.281 - 55 0A 32 00 00 00 01 92 55 0A 32 00 00 00 02 93 (厨房顶灯一开, 厨房顶灯二开)
2024-08-31 19:45:26.391 - 19 08 24 03 CC 00 D4 00 01 (调用厨房感应灯关的按键)
2024-08-31 19:45:26.425 - 55 0A 31 00 00 00 01 91 55 0A 31 00 00 00 02 92 (厨房顶灯一关, 厨房顶灯二关)
2024-08-31 19:46:18.995 - 19 08 24 03 CC 00 D3 00 01 (调用厨房感应灯开的按键)
2024-08-31 19:46:19.026 - 55 0A 32 00 00 00 01 92 55 0A 32 00 00 00 02 93 (厨房顶灯一开, 厨房顶灯二开)
2024-08-31 19:46:21.566 - 19 08 24 03 CC 01 CC 00 01 (调用茶吧感应灯开的按键)
2024-08-31 19:46:21.593 - 1A AA AA AA 88 FF B0 01 FF B0 01 0F (调光器地址-茶吧灯带, 茶吧灯带明亮)
2024-08-31 19:46:44.611 - 19 08 24 03 CC 01 CD 00 01 (调用茶吧感应灯关的按键)
2024-08-31 19:46:44.635 - 1A AA AA AA 88 FF 00 01 FF 00 01 0F (调光器地址-茶吧灯带, 茶吧灯带关闭)
2024-08-31 19:47:52.666 - 19 08 24 03 CC 00 D4 00 01 (调用厨房感应灯关的按键)
2024-08-31 19:47:52.713 - 55 0A 31 00 00 00 01 91 55 0A 31 00 00 00 02 92 (厨房顶灯一关, 厨房顶灯二关)
2024-08-31 19:48:43.346 - 19 08 24 03 CC 01 CC 00 01 (调用茶吧感应灯开的按键)
2024-08-31 19:48:43.377 - 1A AA AA AA 88 FF B0 01 FF B0 01 0F (调光器地址-茶吧灯带, 茶吧灯带明亮)
2024-08-31 19:48:56.303 - 19 08 24 03 CC 01 52 00 01 (调用外卫感应灯开的按键)
2024-08-31 19:48:56.338 - 1A 0D 01 07 01 FF 45 01 FF 45 01 FF 00 00 0F (调光器地址-外卫射灯, 外卫感应灯开)
2024-08-31 19:49:02.877 - 19 08 24 03 CC 01 CD 00 01 (调用茶吧感应灯关的按键)
2024-08-31 19:49:02.909 - 1A AA AA AA 88 FF 00 01 FF 00 01 0F (调光器地址-茶吧灯带, 茶吧灯带关闭)
2024-08-31 19:49:43.255 - EE 00 6E B1 01 00 02 FF FC FF FF
2024-08-31 19:49:44.498 - EE 00 6E B1 01 00 03 FF FC FF FF
2024-08-31 19:49:44.961 - 1A 18 05 21 89 00 01 02 0F (自保持开关地址-客厅顶灯, 客厅顶灯一开关)
2024-08-31 19:49:45.279 - 1A 18 05 01 94 00 01 02 0F (自保持开关地址-客厅顶灯, 客厅顶灯二开关)
2024-08-31 19:49:51.917 - 19 08 24 03 CC 01 53 00 01 (调用外卫感应灯关的按键)
2024-08-31 19:49:51.948 - 1A 0D 01 07 01 FF 00 01 FF 00 01 FF 00 00 0F (调光器地址-外卫射灯, 外卫感应灯关)
2024-08-31 19:50:36.074 - 19 08 24 03 DD 00 3A 00 01 (调用情景-离开书房)
2024-08-31 19:50:36.584 - EE 00 00 B1 00 00 00 FF FC FF FF (情景执行提示)
2024-08-31 19:50:37.180 - 09 06 00 0F 02 01 78 21 (提示音叮)
2024-08-31 19:50:37.724 - 01 06 07 DC FF 60 08 9C (书房空调关)
2024-08-31 19:50:37.758 - 01 06 07 DC FF 60 08 9C (书房空调关)
2024-08-31 19:50:38.319 - 50 F5 07 (关书房影视)
2024-08-31 19:50:38.865 - A5 00 D2 FE 01 AA 22 0D (书房窗帘开)
2024-08-31 19:50:38.914 - 55 00 D2 02 00 E5 00 F2 AA 55 00 D2 02 00 E5 00 F2 AA (书房窗帘电机状态返回)
2024-08-31 19:50:39.968 - A5 00 B7 FF 00 AA 22 0D (书房纱帘关)
2024-08-31 19:50:40.571 - 19 08 24 03 CC 01 CC 00 01 (调用茶吧感应灯开的按键)
2024-08-31 19:50:40.619 - 1A AA AA AA 88 FF B0 01 FF B0 01 0F (调光器地址-茶吧灯带, 茶吧灯带明亮)
2024-08-31 19:50:41.024 - 55 0D 31 00 00 00 01 94 (书房顶灯只关)
2024-08-31 19:50:42.119 - 1A 0A 04 06 01 FF 00 01 FF 00 01 FF 00 00 0F (调光器地址-书房射灯, 书房射灯关闭)
2024-08-31 19:50:45.803 - 55 00 D2 00 00 0E 00 F2 AA 55 00 D2 00 00 0E 00 F2 AA (书房窗帘电机状态返回)
2024-08-31 19:50:46.194 - 09 06 00 0F 02 02 38 20 (提示音咚)
2024-08-31 19:50:46.745 - EE 00 00 B1 00 00 02 FF FC FF FF (情景完成返回主页)
2024-08-31 19:50:56.299 - 19 08 24 03 DD 00 1B 00 01 (调用情景-外卫使用)
2024-08-31 19:50:56.858 - EE 00 00 B1 00 00 00 FF FC FF FF (情景执行提示)
2024-08-31 19:50:57.463 - 09 06 00 0F 02 01 78 21 (提示音叮)
2024-08-31 19:50:58.037 - 1A BE B0 DC 02 00 01 00 (正反转地址-外卫卷帘, 外卫卷帘降)
2024-08-31 19:50:58.595 - 50 F0 03 (开外卫影视)
2024-08-31 19:50:59.154 - 1A FF FF FF 55 00 00 00 0F (人体感应地址-外卫, 关闭外卫感应)
2024-08-31 19:50:59.711 - 1A 0D 01 07 01 FF 45 01 FF 45 01 FF 00 00 0F (调光器地址-外卫射灯, 外卫感应灯开)
2024-08-31 19:51:00.127 - 19 08 24 03 CC 01 CD 00 01 (调用茶吧感应灯关的按键)
2024-08-31 19:51:00.158 - 1A AA AA AA 88 FF 00 01 FF 00 01 0F (调光器地址-茶吧灯带, 茶吧灯带关闭)
2024-08-31 19:51:01.791 - 1A BE B0 DC 01 00 01 00 (继电器地址-回水泵点动, 回水泵点动)
2024-08-31 19:51:02.846 - 1A BE B0 DC 01 00 01 00 (继电器地址-回水泵点动, 回水泵点动)
2024-08-31 19:51:03.893 - 1A BE B0 DC 01 00 01 00 (继电器地址-回水泵点动, 回水泵点动)
2024-08-31 19:51:04.930 - 50 F1 43 (外卫—CH4)
2024-08-31 19:51:21.934 - A1 11 11 11 11 05 (外卫使用浴霸判断)
2024-08-31 19:51:22.157 - 13 03 00 00 00 02 C7 79 (查询外卫温湿度)
2024-08-31 19:51:22.173 - 13 03 04 01 B3 01 07 78 7B (外卫温湿度返回)
2024-08-31 19:51:24.023 - 09 06 00 0F 02 02 38 20 (提示音咚)
2024-08-31 19:51:26.127 - EE 00 00 B1 00 00 02 FF FC FF FF (情景完成返回主页)
2024-08-31 19:55:22.597 - FF
2024-08-31 19:58:15.392 - 19 08 24 03 CC 00 D3 00 01 (调用厨房感应灯开的按键)
2024-08-31 19:58:15.456 - 55 0A 32 00 00 00 01 92 55 0A 32 00 00 00 02 93 (厨房顶灯一开, 厨房顶灯二开)
2024-08-31 19:59:19.527 - 19 08 24 03 CC 00 D4 00 01 (调用厨房感应灯关的按键)
2024-08-31 19:59:19.575 - 55 0A 31 00 00 00 01 91 55 0A 31 00 00 00 02 92 (厨房顶灯一关, 厨房顶灯二关)
2024-08-31 20:03:18.204 - 19 08 24 03 DD 00 1C 00 01 (调用情景-外卫使用完毕)
2024-08-31 20:03:18.746 - EE 00 00 B1 00 00 00 FF FC FF FF (情景执行提示)
2024-08-31 20:03:19.337 - 09 06 00 0F 02 01 78 21 (提示音叮)
2024-08-31 20:03:19.898 - 1A 0D 01 07 01 FF 00 01 FF 00 01 FF 00 00 0F (调光器地址-外卫射灯, 外卫感应灯关)
2024-08-31 20:03:20.476 - 50 F5 03 (关外卫影视)
2024-08-31 20:03:21.037 - 1A 20 07 00 42 00 01 00 0F (自保持开关地址-外卫顶灯, 外卫顶灯关)
2024-08-31 20:03:21.585 - 1A FF FF FF 55 00 00 01 0F (人体感应地址-外卫, 打开外卫感应)
2024-08-31 20:03:21.667 - BC BC
2024-08-31 20:03:21.986 - 19 08 24 03 CC 01 52 00 01 (调用外卫感应灯开的按键)
2024-08-31 20:03:22.033 - 1A 0D 01 07 01 FF 45 01 FF 45 01 FF 00 00 0F (调光器地址-外卫射灯, 外卫感应灯开)
2024-08-31 20:03:24.427 - 09 06 00 0F 02 02 38 20 (提示音咚)
2024-08-31 20:03:24.971 - EE 00 00 B1 00 00 02 FF FC FF FF (情景完成返回主页)
2024-08-31 20:03:25.103 - 19 08 24 03 CC 01 CC 00 01 (调用茶吧感应灯开的按键)
2024-08-31 20:03:25.137 - 1A AA AA AA 88 FF B0 01 FF B0 01 0F (调光器地址-茶吧灯带, 茶吧灯带明亮)
2024-08-31 20:03:30.698 - 19 08 24 03 CC 01 53 00 01 (调用外卫感应灯关的按键)
2024-08-31 20:03:30.732 - 1A 0D 01 07 01 FF 00 01 FF 00 01 FF 00 00 0F (调光器地址-外卫射灯, 外卫感应灯关)
2024-08-31 20:03:37.125 - 19 08 24 03 CC 01 CD 00 01 (调用茶吧感应灯关的按键)
2024-08-31 20:03:37.159 - 1A AA AA AA 88 FF 00 01 FF 00 01 0F (调光器地址-茶吧灯带, 茶吧灯带关闭)
2024-08-31 20:03:56.171 - 19 08 24 03 CC 01 CC 00 01 (调用茶吧感应灯开的按键)
2024-08-31 20:03:56.198 - 1A AA AA AA 88 FF B0 01 FF B0 01 0F (调光器地址-茶吧灯带, 茶吧灯带明亮)
2024-08-31 20:04:08.688 - 19 08 24 03 CC 01 CD 00 01 (调用茶吧感应灯关的按键)
2024-08-31 20:04:08.722 - 1A AA AA AA 88 FF 00 01 FF 00 01 0F (调光器地址-茶吧灯带, 茶吧灯带关闭)
2024-08-31 20:06:43.902 - 19 08 24 03 CC 00 D4 00 01 (调用厨房感应灯关的按键)
2024-08-31 20:06:43.938 - 55 0A 31 00 00 00 01 91 55 0A 31 00 00 00 02 92 (厨房顶灯一关, 厨房顶灯二关)
