2025-09-22 21:52:57.755 - 02 AF 06 17 03 CF FF (查询门锁状态)
2025-09-22 21:54:21.015 - 02 AF 06 17 02 CE FF (门锁关锁指令)
2025-09-22 21:55:09.577 - 02 AF 06 17 02 CE FF (门锁关锁指令)
2025-09-22 21:55:33.275 - 02 AF 06 17 03 CF FF (查询门锁状态)
2025-09-22 21:57:32.659 - 1A BE B0 DC 02 (正反转地址-外卫卷帘)
2025-09-22 21:57:32.792 - FF
2025-09-22 21:57:37.572 - 01 04 07 D0 00 06 70 85
2025-09-22 21:57:37.608 - 01 04 0C 70 01 42 02 00 FA 00 00 00 FA 00 00 10 74
2025-09-22 21:57:37.734 - 01 04 07 D6 00 06 90 84
2025-09-22 21:57:37.770 - 01 04 0C 70 01 42 02 00 FA 00 00 01 0E 00 00 50 7A
2025-09-22 21:57:37.894 - 01 04 07 DC 00 06 B0 86
2025-09-22 21:57:37.931 - 01 04 0C 50 01 42 02 00 DC 00 00 01 04 00 00 B6 05
2025-09-22 21:57:38.051 - 01 04 07 E2 00 06 D1 4A
2025-09-22 21:57:38.083 - 01 04 0C 70 00 42 02 00 FA 00 00 01 04 00 00 74 84
2025-09-22 21:57:38.210 - 01 04 07 E8 00 06 F1 48
2025-09-22 21:57:38.243 - 01 04 0C 70 00 42 02 00 FA 00 00 01 0E 00 00 54 86
2025-09-22 21:57:50.327 - 1A 0C 02 04 01 86 86 86 0F (调光器地址-主卧筒灯)
2025-09-22 21:57:50.370 - 1A 0C 02 04 01 00 1A 01 00 1A 01 00 (调光器地址-主卧筒灯)
2025-09-22 21:57:50.374 - 0D 00 0F
2025-09-22 21:57:52.324 - 1A 0C 02 04 02 86 86 86 0F (调光器地址-主卧过道)
2025-09-22 21:57:52.354 - 1A 0C 02 04 02 00 (调光器地址-主卧过道)
2025-09-22 21:57:52.358 - 1A 01 00
2025-09-22 21:57:52.366 - 1A 01 00 06 00 0F
2025-09-22 21:57:54.531 - 1A 0C 02 04 03 86 86 86 0F (调光器地址-主卧灯带)
2025-09-22 21:57:54.567 - 1A 0C 02 04 03 00 (调光器地址-主卧灯带)
2025-09-22 21:57:54.571 - 1A 01 00
2025-09-22 21:57:54.577 - 1A 01 00 3F 00 0F
2025-09-22 21:57:56.898 - 1A 0C 02 04 04 86 86 86 0F (调光器地址-主卧南阅)
2025-09-22 21:57:56.937 - 1A 0C 02 04 04 00 1A 01 00 (调光器地址-主卧南阅)
2025-09-22 21:57:56.941 - 1A 01 00
2025-09-22 21:57:56.945 - 0D 00 0F
2025-09-22 21:58:00.152 - 1A 0C 02 04 05 86 86 86 0F (调光器地址-主卧北阅)
2025-09-22 21:58:00.197 - 1A 0C 02 04 05 00 1A 01 00 1A 01 00 3F 00 0F (调光器地址-主卧北阅)
2025-09-22 21:58:03.195 - 1A 0A 04 06 01 86 86 86 0F (调光器地址-书房射灯)
2025-09-22 21:58:03.220 - 1A 0A 04 06 01 00 4C 00 00 4C 00 00 (调光器地址-书房射灯)
2025-09-22 21:58:03.222 - 0D 00 0F
2025-09-22 21:58:06.643 - 1A 0C 02 08 01 86 86 86 0F (调光器地址-内卫射灯)
2025-09-22 21:58:06.656 - 1A 0C 02 08 01 00 (调光器地址-内卫射灯)
2025-09-22 21:58:06.668 - 1A 01 00 1A 01 00 5E 00 0F
2025-09-22 21:58:09.339 - 1A 0D 01 07 01 86 86 86 0F (调光器地址-外卫射灯)
2025-09-22 21:58:09.382 - 1A 0D 01 07 01 00 4C 00 00 4C 00 00 (调光器地址-外卫射灯)
2025-09-22 21:58:09.388 - 0D 00 0F
2025-09-22 21:58:13.051 - 1A 0D 01 01 01 86 86 86 0F (调光器地址-客厅筒灯)
2025-09-22 21:58:13.098 - 1A 0D 01 01 01 00 25 01 00 25 01 00 0D 00 0F (调光器地址-客厅筒灯)
2025-09-22 21:58:13.439 - EE 00 6E B1 12 00 06 00 02 00 04 00 00 00 58 00 04 00 04 00 00 00 58 FF FC FF FF
2025-09-22 21:58:15.319 - 1A 0D 01 01 02 86 86 86 0F (调光器地址-客厅灯带)
2025-09-22 21:58:15.353 - 1A 0D 01 01 02 00 (调光器地址-客厅灯带)
2025-09-22 21:58:15.365 - 25 01 00 25 01 00 06 00 0F
2025-09-22 21:58:15.703 - EE 00 6E B1 12 00 05 00 02 00 04 00 00 00 58 00 04 00 04 00 00 00 58 FF FC FF FF
2025-09-22 21:58:16.009 - EE 00 6E B1 12 00 04 00 02 00 04 00 00 00 58 00 04 00 04 00 00 00 58 FF FC FF FF
2025-09-22 21:58:17.641 - 1A 0D 01 01 03 86 86 86 0F (调光器地址-客厅过道)
2025-09-22 21:58:17.675 - 1A 0D 01 01 03 00 (调光器地址-客厅过道)
2025-09-22 21:58:17.687 - 25 01 00 25 01 00 3F 00 0F
2025-09-22 21:58:18.026 - EE 00 6E B1 12 00 07 00 02 00 04 00 00 00 58 00 04 00 04 00 00 00 58 FF FC FF FF
2025-09-22 21:58:20.152 - 1A 0E 03 05 01 86 86 86 0F (调光器地址-次卧射灯)
2025-09-22 21:58:20.196 - 1A 0E 03 05 01 00 4C 00 00 4C 00 00 (调光器地址-次卧射灯)
2025-09-22 21:58:20.198 - 0D 01 0F
2025-09-22 21:58:23.076 - 1A 0E 03 05 02 86 86 86 0F (调光器地址-次卧灯带)
2025-09-22 21:58:23.122 - 1A 0E 03 05 02 00 4C 00 00 4C 00 00 50 00 0F (调光器地址-次卧灯带)
2025-09-22 21:58:25.306 - 1A 0E 03 05 03 86 86 86 0F (调光器地址-次卧阅读灯)
2025-09-22 21:58:25.351 - 1A 0E 03 05 03 00 4C 00 00 4C 00 00 3F 00 0F (调光器地址-次卧阅读灯)
2025-09-22 21:58:28.278 - 1A 0E 03 05 04 86 86 86 0F (调光器地址-次卧北筒灯)
2025-09-22 21:58:28.322 - 1A 0E 03 05 04 00 4C 00 00 4C 00 00 (调光器地址-次卧北筒灯)
2025-09-22 21:58:28.324 - 0D 00 0F
2025-09-22 21:58:30.187 - 1A 0E 03 05 05 86 86 86 0F (调光器地址-次卧南筒灯)
2025-09-22 21:58:30.232 - 1A 0E 03 05 05 00 4C 00 00 4C 00 00 3F 00 0F (调光器地址-次卧南筒灯)
2025-09-22 21:58:32.429 - 1A 0B 01 02 01 86 86 86 0F (调光器地址-门厅灯带)
2025-09-22 21:58:32.456 - 1A 0B 01 02 01 00 25 01 00 25 01 00 0D 00 0F (调光器地址-门厅灯带)
2025-09-22 21:58:32.803 - EE 00 6F B1 12 00 05 00 02 00 04 00 00 00 58 00 04 00 04 00 00 00 58 FF FC FF FF
2025-09-22 21:58:33.098 - EE 00 71 B1 12 00 05 00 02 00 04 00 00 00 58 00 04 00 04 00 00 00 58 FF FC FF FF
2025-09-22 21:58:34.574 - 1A 0B 01 02 02 86 86 86 0F (调光器地址-门厅射灯)
2025-09-22 21:58:34.611 - 1A 0B 01 02 02 00 (调光器地址-门厅射灯)
2025-09-22 21:58:34.618 - 25 01 00 25 01 00 0D
2025-09-22 21:58:34.626 - 00 0F
2025-09-22 21:58:34.962 - EE 00 6F B1 12 00 06 00 02 00 04 00 00 00 58 00 04 00 04 00 00 00 58 FF FC FF FF
2025-09-22 21:58:35.263 - EE 00 71 B1 12 00 06 00 02 00 04 00 00 00 58 00 04 00 04 00 00 00 58 FF FC FF FF
2025-09-22 21:58:36.757 - 1A 0D 01 02 03 86 86 86 0F (调光器地址-机柜射灯)
2025-09-22 21:58:36.798 - 1A 0D 01 02 03 00 25 01 00 25 01 00 50 00 0F (调光器地址-机柜射灯)
2025-09-22 21:58:37.138 - EE 00 6F B1 12 00 07 00 02 00 04 00 00 00 58 00 04 00 04 00 00 00 58 FF FC FF FF
2025-09-22 21:58:38.946 - 1A 0A 01 03 01 86 86 86 0F (调光器地址-茶吧筒灯)
2025-09-22 21:58:38.982 - 1A 0A 01 03 01 00 (调光器地址-茶吧筒灯)
2025-09-22 21:58:38.989 - 25 01 00 25 01 00
2025-09-22 21:58:38.991 - 0D 00 0F
2025-09-22 21:58:39.333 - EE 00 71 B1 12 00 0A 00 02 00 04 00 00 00 58 00 04 00 04 00 00 00 58 FF FC FF FF
2025-09-22 21:58:40.921 - 1A 0B 01 03 01 86 86 86 0F (调光器地址-餐厅筒灯)
2025-09-22 21:58:40.955 - 1A 0B 01 03 01 00 (调光器地址-餐厅筒灯)
2025-09-22 21:58:40.962 - 25 01 00 25 01 00
2025-09-22 21:58:40.966 - 0D 00 0F
2025-09-22 21:58:41.308 - EE 00 71 B1 12 00 08 00 02 00 04 00 00 00 58 00 04 00 04 00 00 00 58 FF FC FF FF
2025-09-22 21:58:42.769 - 1A 0B 01 03 02 86 86 86 0F (调光器地址-餐桌筒灯)
2025-09-22 21:58:42.809 - 1A 0B 01 03 02 00 25 01 00 (调光器地址-餐桌筒灯)
2025-09-22 21:58:42.815 - 25 01 00
2025-09-22 21:58:42.817 - 0D 00 0F
2025-09-22 21:58:43.164 - EE 00 71 B1 12 00 07 00 02 00 04 00 00 00 58 00 04 00 04 00 00 00 58 FF FC FF FF
2025-09-22 21:58:45.356 - 1A 0B 01 03 03 86 86 86 0F (调光器地址-餐厅灯带)
2025-09-22 21:58:45.401 - 1A 0B 01 03 03 00 25 01 00 25 01 00 0D 00 0F (调光器地址-餐厅灯带)
2025-09-22 21:58:45.747 - EE 00 71 B1 12 00 09 00 02 00 04 00 00 00 58 00 04 00 04 00 00 00 58 FF FC FF FF
2025-09-22 21:58:46.047 - EE 00 71 B1 12 00 04 00 02 00 04 00 00 00 58 00 04 00 04 00 00 00 58 FF FC FF FF
2025-09-22 21:58:54.977 - 1A FF 01 FF FF FF FF 01 FF FF 01 FF 00 00 0F (调光器地址-公共区域统配地址)
2025-09-22 21:58:58.923 - 1A 0A 01 03 01 86 86 86 0F (调光器地址-茶吧筒灯)
2025-09-22 21:58:58.966 - 1A 0A 01 03 01 00 63 01 00 63 01 00 (调光器地址-茶吧筒灯)
2025-09-22 21:58:58.970 - 0D 00 0F
2025-09-22 21:58:59.312 - EE 00 71 B1 12 00 0A 00 02 00 04 00 00 00 ED 00 04 00 04 00 00 00 ED FF FC FF FF
2025-09-22 21:59:00.673 - 1A 0B 01 03 01 86 86 86 0F (调光器地址-餐厅筒灯)
2025-09-22 21:59:00.714 - 1A 0B 01 03 01 00 63 01 00 63 01 00 (调光器地址-餐厅筒灯)
2025-09-22 21:59:00.720 - 0D 00 0F
2025-09-22 21:59:01.063 - EE 00 71 B1 12 00 08 00 02 00 04 00 00 00 ED 00 04 00 04 00 00 00 ED FF FC FF FF
2025-09-22 21:59:02.426 - 1A 0B 01 03 02 86 86 86 0F (调光器地址-餐桌筒灯)
2025-09-22 21:59:02.470 - 1A 0B 01 03 02 00 63 01 00 63 01 00 0D 00 0F (调光器地址-餐桌筒灯)
2025-09-22 21:59:02.814 - EE 00 71 B1 12 00 07 00 02 00 04 00 00 00 ED 00 04 00 04 00 00 00 ED FF FC FF FF
2025-09-22 21:59:04.161 - 1A 0B 01 03 03 86 86 86 0F (调光器地址-餐厅灯带)
2025-09-22 21:59:04.208 - 1A 0B 01 03 03 00 63 01 00 63 01 00 0D 00 0F (调光器地址-餐厅灯带)
2025-09-22 21:59:04.548 - EE 00 71 B1 12 00 09 00 02 00 04 00 00 00 ED 00 04 00 04 00 00 00 ED FF FC FF FF
2025-09-22 21:59:04.848 - EE 00 71 B1 12 00 04 00 02 00 04 00 00 00 ED 00 04 00 04 00 00 00 ED FF FC FF FF
2025-09-22 21:59:05.896 - 1A 0D 01 01 01 86 86 86 0F (调光器地址-客厅筒灯)
2025-09-22 21:59:05.939 - 1A 0D 01 01 01 00 63 01 00 63 01 00 (调光器地址-客厅筒灯)
2025-09-22 21:59:05.941 - 0D 00 0F
2025-09-22 21:59:06.286 - EE 00 6E B1 12 00 06 00 02 00 04 00 00 00 ED 00 04 00 04 00 00 00 ED FF FC FF FF
2025-09-22 21:59:07.662 - 1A 0D 01 01 02 86 86 86 0F (调光器地址-客厅灯带)
2025-09-22 21:59:07.710 - 1A 0D 01 01 02 00 63 01 00 63 01 00 06 00 0F (调光器地址-客厅灯带)
2025-09-22 21:59:08.050 - EE 00 6E B1 12 00 05 00 02 00 04 00 00 00 ED 00 04 00 04 00 00 00 ED FF FC FF FF
2025-09-22 21:59:08.350 - EE 00 6E B1 12 00 04 00 02 00 04 00 00 00 ED 00 04 00 04 00 00 00 ED FF FC FF FF
2025-09-22 21:59:09.400 - 1A 0D 01 01 03 86 86 86 0F (调光器地址-客厅过道)
2025-09-22 21:59:09.445 - 1A 0D 01 01 03 00 63 01 00 63 01 00 3F 00 0F (调光器地址-客厅过道)
2025-09-22 21:59:09.786 - EE 00 6E B1 12 00 07 00 02 00 04 00 00 00 ED 00 04 00 04 00 00 00 ED FF FC FF FF
2025-09-22 21:59:11.132 - 1A 0B 01 02 01 86 86 86 0F (调光器地址-门厅灯带)
2025-09-22 21:59:11.175 - 1A 0B 01 02 01 00 63 01 00 63 01 00 (调光器地址-门厅灯带)
2025-09-22 21:59:11.179 - 0D 00 0F
2025-09-22 21:59:11.521 - EE 00 6F B1 12 00 05 00 02 00 04 00 00 00 ED 00 04 00 04 00 00 00 ED FF FC FF FF
2025-09-22 21:59:11.822 - EE 00 71 B1 12 00 05 00 02 00 04 00 00 00 ED 00 04 00 04 00 00 00 ED FF FC FF FF
2025-09-22 21:59:12.879 - 1A 0B 01 02 02 86 86 86 0F (调光器地址-门厅射灯)
2025-09-22 21:59:12.922 - 1A 0B 01 02 02 00 63 01 00 63 01 00 (调光器地址-门厅射灯)
2025-09-22 21:59:12.924 - 0D 00 0F
2025-09-22 21:59:13.267 - EE 00 6F B1 12 00 06 00 02 00 04 00 00 00 ED 00 04 00 04 00 00 00 ED FF FC FF FF
2025-09-22 21:59:13.567 - EE 00 71 B1 12 00 06 00 02 00 04 00 00 00 ED 00 04 00 04 00 00 00 ED FF FC FF FF
2025-09-22 21:59:14.618 - 1A 0D 01 02 03 86 86 86 0F (调光器地址-机柜射灯)
2025-09-22 21:59:14.663 - 1A 0D 01 02 03 00 63 01 00 63 01 00 50 00 0F (调光器地址-机柜射灯)
2025-09-22 21:59:15.003 - EE 00 6F B1 12 00 07 00 02 00 04 00 00 00 ED 00 04 00 04 00 00 00 ED FF FC FF FF
2025-09-22 21:59:16.365 - 1A 0D 01 07 01 86 86 86 0F (调光器地址-外卫射灯)
2025-09-22 21:59:16.412 - 1A 0D 01 07 01 00 63 01 00 63 01 00 0D 00 0F (调光器地址-外卫射灯)
2025-09-22 21:59:25.441 - 1A 0A 04 06 01 86 86 86 0F (调光器地址-书房射灯)
2025-09-22 21:59:25.468 - 1A 0A 04 06 01 00 63 01 00 4C 00 00 0D 00 0F (调光器地址-书房射灯)
2025-09-22 21:59:29.947 - 1A 0A 04 06 01 FF 00 01 FF 00 01 FF 00 00 0F (调光器地址-书房射灯, 书房射灯关闭)
2025-09-22 21:59:34.444 - 1A 0A 04 06 01 86 86 86 0F (调光器地址-书房射灯)
2025-09-22 21:59:34.487 - 1A 0A 04 06 01 00 4C 00 00 4C 00 00 (调光器地址-书房射灯)
2025-09-22 21:59:34.491 - 0D 00 0F
2025-09-22 21:59:36.385 - 1A 0A 04 06 01 86 86 86 0F (调光器地址-书房射灯)
2025-09-22 21:59:36.409 - 1A 0A 04 06 01 00 4C 00 00 4C 00 00 (调光器地址-书房射灯)
2025-09-22 21:59:36.413 - 0D 00 0F
2025-09-22 21:59:37.447 - 1A FF 01 FF FF FF 00 01 FF 00 01 FF 00 00 0F (调光器地址-公共区域统配地址, 公共区域灯光全关)
2025-09-22 21:59:41.314 - 1A 0A 01 03 01 86 86 86 0F (调光器地址-茶吧筒灯)
2025-09-22 21:59:41.361 - 1A 0A 01 03 01 00 4C 00 00 4C 00 00 0D 00 0F (调光器地址-茶吧筒灯)
2025-09-22 21:59:41.706 - EE 00 71 B1 12 00 0A 00 02 00 04 00 00 00 00 00 04 00 04 00 00 00 00 FF FC FF FF
2025-09-22 21:59:43.065 - 1A 0B 01 03 01 86 86 86 0F (调光器地址-餐厅筒灯)
2025-09-22 21:59:43.108 - 1A 0B 01 03 01 00 4C 00 00 4C 00 00 (调光器地址-餐厅筒灯)
2025-09-22 21:59:43.112 - 0D 00 0F
2025-09-22 21:59:43.451 - EE 00 71 B1 12 00 08 00 02 00 04 00 00 00 00 00 04 00 04 00 00 00 00 FF FC FF FF
2025-09-22 21:59:44.803 - 1A 0B 01 03 02 86 86 86 0F (调光器地址-餐桌筒灯)
2025-09-22 21:59:44.849 - 1A 0B 01 03 02 00 4C 00 00 4C 00 00 0D 00 0F (调光器地址-餐桌筒灯)
2025-09-22 21:59:45.197 - EE 00 71 B1 12 00 07 00 02 00 04 00 00 00 00 00 04 00 04 00 00 00 00 FF FC FF FF
2025-09-22 21:59:46.535 - 1A 0B 01 03 03 86 86 86 0F (调光器地址-餐厅灯带)
2025-09-22 21:59:46.577 - 1A 0B 01 03 03 00 4C 00 00 4C 00 00 (调光器地址-餐厅灯带)
2025-09-22 21:59:46.581 - 0D 00 0F
2025-09-22 21:59:46.923 - EE 00 71 B1 12 00 09 00 02 00 04 00 00 00 00 00 04 00 04 00 00 00 00 FF FC FF FF
2025-09-22 21:59:47.222 - EE 00 71 B1 12 00 04 00 02 00 04 00 00 00 00 00 04 00 04 00 00 00 00 FF FC FF FF
2025-09-22 21:59:48.277 - 1A 0D 01 01 01 86 86 86 0F (调光器地址-客厅筒灯)
2025-09-22 21:59:48.320 - 1A 0D 01 01 01 00 4C 00 00 4C 00 00 (调光器地址-客厅筒灯)
2025-09-22 21:59:48.324 - 0D 00 0F
2025-09-22 21:59:48.670 - EE 00 6E B1 12 00 06 00 02 00 04 00 00 00 00 00 04 00 04 00 00 00 00 FF FC FF FF
2025-09-22 21:59:50.012 - 1A 0D 01 01 02 86 86 86 0F (调光器地址-客厅灯带)
2025-09-22 21:59:50.058 - 1A 0D 01 01 02 00 4C 00 00 4C 00 00 06 00 0F (调光器地址-客厅灯带)
2025-09-22 21:59:50.403 - EE 00 6E B1 12 00 05 00 02 00 04 00 00 00 00 00 04 00 04 00 00 00 00 FF FC FF FF
2025-09-22 21:59:50.705 - EE 00 6E B1 12 00 04 00 02 00 04 00 00 00 00 00 04 00 04 00 00 00 00 FF FC FF FF
2025-09-22 21:59:51.749 - 1A 0D 01 01 03 86 86 86 0F (调光器地址-客厅过道)
2025-09-22 21:59:51.794 - 1A 0D 01 01 03 00 4C 00 00 4C 00 00 3F 00 0F (调光器地址-客厅过道)
2025-09-22 21:59:52.140 - EE 00 6E B1 12 00 07 00 02 00 04 00 00 00 00 00 04 00 04 00 00 00 00 FF FC FF FF
2025-09-22 21:59:53.486 - 1A 0B 01 02 01 86 86 86 0F (调光器地址-门厅灯带)
2025-09-22 21:59:53.527 - 1A 0B 01 02 01 00 4C 00 00 4C 00 00 (调光器地址-门厅灯带)
2025-09-22 21:59:53.531 - 0D 00 0F
2025-09-22 21:59:53.876 - EE 00 6F B1 12 00 05 00 02 00 04 00 00 00 00 00 04 00 04 00 00 00 00 FF FC FF FF
2025-09-22 21:59:54.177 - EE 00 71 B1 12 00 05 00 02 00 04 00 00 00 00 00 04 00 04 00 00 00 00 FF FC FF FF
2025-09-22 21:59:55.222 - 1A 0B 01 02 02 86 86 86 0F (调光器地址-门厅射灯)
2025-09-22 21:59:55.265 - 1A 0B 01 02 02 00 4C 00 00 4C 00 00 (调光器地址-门厅射灯)
2025-09-22 21:59:55.268 - 0D 00 0F
2025-09-22 21:59:55.611 - EE 00 6F B1 12 00 06 00 02 00 04 00 00 00 00 00 04 00 04 00 00 00 00 FF FC FF FF
2025-09-22 21:59:55.912 - EE 00 71 B1 12 00 06 00 02 00 04 00 00 00 00 00 04 00 04 00 00 00 00 FF FC FF FF
2025-09-22 21:59:56.977 - 1A 0D 01 02 03 86 86 86 0F (调光器地址-机柜射灯)
2025-09-22 21:59:57.023 - 1A 0D 01 02 03 00 4C 00 00 4C 00 00 50 00 0F (调光器地址-机柜射灯)
2025-09-22 21:59:57.368 - EE 00 6F B1 12 00 07 00 02 00 04 00 00 00 00 00 04 00 04 00 00 00 00 FF FC FF FF
2025-09-22 21:59:58.711 - 1A 0D 01 07 01 86 86 86 0F (调光器地址-外卫射灯)
2025-09-22 21:59:58.754 - 1A 0D 01 07 01 00 4C 00 00 4C 00 00 (调光器地址-外卫射灯)
2025-09-22 21:59:58.758 - 0D 00 0F
2025-09-22 22:00:23.712 - 1A FF 01 FF FF FF 87 01 FF 82 01 FF 00 00 0F (调光器地址-公共区域统配地址)
2025-09-22 22:00:27.603 - 1A 0A 01 03 01 86 86 86 0F (调光器地址-茶吧筒灯)
2025-09-22 22:00:27.650 - 1A 0A 01 03 01 00 34 01 00 32 01 00 0D 00 0F (调光器地址-茶吧筒灯)
2025-09-22 22:00:27.990 - EE 00 71 B1 12 00 0A 00 02 00 04 00 00 00 7C 00 04 00 04 00 00 00 78 FF FC FF FF
2025-09-22 22:00:29.368 - 1A 0B 01 03 01 86 86 86 0F (调光器地址-餐厅筒灯)
2025-09-22 22:00:29.415 - 1A 0B 01 03 01 00 34 01 00 32 01 00 0D 00 0F (调光器地址-餐厅筒灯)
2025-09-22 22:00:29.757 - EE 00 71 B1 12 00 08 00 02 00 04 00 00 00 7C 00 04 00 04 00 00 00 78 FF FC FF FF
2025-09-22 22:00:31.103 - 1A 0B 01 03 02 86 86 86 0F (调光器地址-餐桌筒灯)
2025-09-22 22:00:31.145 - 1A 0B 01 03 02 00 34 01 00 32 01 00 (调光器地址-餐桌筒灯)
2025-09-22 22:00:31.149 - 0D 00 0F
2025-09-22 22:00:31.493 - EE 00 71 B1 12 00 07 00 02 00 04 00 00 00 7C 00 04 00 04 00 00 00 78 FF FC FF FF
2025-09-22 22:00:32.837 - 1A 0B 01 03 03 86 86 86 0F (调光器地址-餐厅灯带)
2025-09-22 22:00:32.884 - 1A 0B 01 03 03 00 34 01 00 32 01 00 0D 00 0F (调光器地址-餐厅灯带)
2025-09-22 22:00:33.228 - EE 00 71 B1 12 00 09 00 02 00 04 00 00 00 7C 00 04 00 04 00 00 00 78 FF FC FF FF
2025-09-22 22:00:33.527 - EE 00 71 B1 12 00 04 00 02 00 04 00 00 00 7C 00 04 00 04 00 00 00 78 FF FC FF FF
2025-09-22 22:00:34.585 - 1A 0D 01 01 01 86 86 86 0F (调光器地址-客厅筒灯)
2025-09-22 22:00:34.632 - 1A 0D 01 01 01 00 34 01 00 32 01 00 0D 00 0F (调光器地址-客厅筒灯)
2025-09-22 22:00:34.974 - EE 00 6E B1 12 00 06 00 02 00 04 00 00 00 7C 00 04 00 04 00 00 00 78 FF FC FF FF
2025-09-22 22:00:36.339 - 1A 0D 01 01 02 86 86 86 0F (调光器地址-客厅灯带)
2025-09-22 22:00:36.384 - 1A 0D 01 01 02 00 34 01 00 32 01 00 06 00 0F (调光器地址-客厅灯带)
2025-09-22 22:00:36.728 - EE 00 6E B1 12 00 05 00 02 00 04 00 00 00 7C 00 04 00 04 00 00 00 78 FF FC FF FF
2025-09-22 22:00:37.029 - EE 00 6E B1 12 00 04 00 02 00 04 00 00 00 7C 00 04 00 04 00 00 00 78 FF FC FF FF
2025-09-22 22:00:38.076 - 1A 0D 01 01 03 86 86 86 0F (调光器地址-客厅过道)
2025-09-22 22:00:38.126 - 1A 0D 01 01 03 00 34 01 00 32 01 00 3F 00 0F (调光器地址-客厅过道)
2025-09-22 22:00:38.466 - EE 00 6E B1 12 00 07 00 02 00 04 00 00 00 7C 00 04 00 04 00 00 00 78 FF FC FF FF
2025-09-22 22:00:39.830 - 1A 0B 01 02 01 86 86 86 0F (调光器地址-门厅灯带)
2025-09-22 22:00:39.872 - 1A 0B 01 02 01 00 34 01 00 32 01 00 (调光器地址-门厅灯带)
2025-09-22 22:00:39.876 - 0D 00 0F
2025-09-22 22:00:40.220 - EE 00 6F B1 12 00 05 00 02 00 04 00 00 00 7C 00 04 00 04 00 00 00 78 FF FC FF FF
2025-09-22 22:00:40.521 - EE 00 71 B1 12 00 05 00 02 00 04 00 00 00 7C 00 04 00 04 00 00 00 78 FF FC FF FF
2025-09-22 22:00:41.579 - 1A 0B 01 02 02 86 86 86 0F (调光器地址-门厅射灯)
2025-09-22 22:00:41.622 - 1A 0B 01 02 02 00 34 01 00 32 01 00 (调光器地址-门厅射灯)
2025-09-22 22:00:41.628 - 0D 00 0F
2025-09-22 22:00:41.966 - EE 00 6F B1 12 00 06 00 02 00 04 00 00 00 7C 00 04 00 04 00 00 00 78 FF FC FF FF
2025-09-22 22:00:42.266 - EE 00 71 B1 12 00 06 00 02 00 04 00 00 00 7C 00 04 00 04 00 00 00 78 FF FC FF FF
2025-09-22 22:00:43.314 - 1A 0D 01 02 03 86 86 86 0F (调光器地址-机柜射灯)
2025-09-22 22:00:43.361 - 1A 0D 01 02 03 00 34 01 00 32 01 00 50 00 0F (调光器地址-机柜射灯)
2025-09-22 22:00:43.703 - EE 00 6F B1 12 00 07 00 02 00 04 00 00 00 7C 00 04 00 04 00 00 00 78 FF FC FF FF
2025-09-22 22:00:45.068 - 1A 0D 01 07 01 86 86 86 0F (调光器地址-外卫射灯)
2025-09-22 22:00:45.112 - 1A 0D 01 07 01 00 34 01 00 32 01 00 (调光器地址-外卫射灯)
2025-09-22 22:00:45.114 - 0D 00 0F
2025-09-22 22:01:28.826 - 1A 0D 01 01 02 FF FF 01 FF FF 01 FF 00 00 0F (调光器地址-客厅灯带)
2025-09-22 22:01:33.324 - 1A 0D 01 01 02 86 86 86 0F (调光器地址-客厅灯带)
2025-09-22 22:01:33.368 - 1A 0D 01 01 02 00 63 01 00 63 01 00 06 00 0F (调光器地址-客厅灯带)
2025-09-22 22:01:33.709 - EE 00 6E B1 12 00 05 00 02 00 04 00 00 00 ED 00 04 00 04 00 00 00 ED FF FC FF FF
2025-09-22 22:01:34.009 - EE 00 6E B1 12 00 04 00 02 00 04 00 00 00 ED 00 04 00 04 00 00 00 ED FF FC FF FF
2025-09-22 22:01:34.715 - 1A 0D 01 01 02 FF 75 01 FF 75 01 FF 00 00 0F (调光器地址-客厅灯带)
2025-09-22 22:01:39.227 - 1A 0D 01 01 02 86 86 86 0F (调光器地址-客厅灯带)
2025-09-22 22:01:39.263 - 1A 0D 01 01 02 00 (调光器地址-客厅灯带)
2025-09-22 22:01:39.271 - 2D 01 00 2D 01 00
2025-09-22 22:01:39.273 - 06 00 0F
2025-09-22 22:01:39.614 - EE 00 6E B1 12 00 05 00 02 00 04 00 00 00 6C 00 04 00 04 00 00 00 6C FF FC FF FF
2025-09-22 22:01:39.841 - 1A 0D 01 01 02 86 86 86 0F (调光器地址-客厅灯带)
2025-09-22 22:01:39.888 - 1A 0D 01 01 02 00 2D 01 00 2D 01 00 06 00 0F (调光器地址-客厅灯带)
2025-09-22 22:01:39.923 - EE 00 6E B1 12 00 04 00 02 00 04 00 00 00 6C 00 04 00 04 00 00 00 6C FF FC FF FF
2025-09-22 22:01:40.233 - EE 00 6E B1 12 00 05 00 02 00 04 00 00 00 6C 00 04 00 04 00 00 00 6C FF FC FF FF
2025-09-22 22:01:40.533 - EE 00 6E B1 12 00 04 00 02 00 04 00 00 00 6C 00 04 00 04 00 00 00 6C FF FC FF FF
2025-09-22 22:01:41.276 - 1A 0D 01 01 02 86 86 86 0F (调光器地址-客厅灯带)
2025-09-22 22:01:41.314 - 1A 0D 01 01 02 00 (调光器地址-客厅灯带)
2025-09-22 22:01:41.320 - 2D 01 00 2D 01 00
2025-09-22 22:01:41.324 - 06 00 0F
2025-09-22 22:01:41.670 - EE 00 6E B1 12 00 05 00 02 00 04 00 00 00 6C 00 04 00 04 00 00 00 6C FF FC FF FF
2025-09-22 22:01:41.970 - EE 00 6E B1 12 00 04 00 02 00 04 00 00 00 6C 00 04 00 04 00 00 00 6C FF FC FF FF
2025-09-22 22:02:27.319 - 1A 0D 01 07 01 FF 00 01 FF 00 01 FF 00 00 0F (调光器地址-外卫射灯, 外卫感应灯关)
2025-09-22 22:02:31.099 - FF FF FF FF 0E (继电器地址-西阳小窗帘)
2025-09-22 22:02:31.825 - 1A 0D 01 07 01 86 86 86 0F (调光器地址-外卫射灯)
2025-09-22 22:02:31.868 - 1A 0D 01 07 01 00 4C 00 00 4C 00 00 0D 00 0F (调光器地址-外卫射灯)
2025-09-22 22:02:33.778 - 1A 0D 01 07 01 86 86 86 0F (调光器地址-外卫射灯)
2025-09-22 22:02:33.806 - 1A 0D 01 07 01 00 4C 00 00 4C 00 00 0D 00 0F (调光器地址-外卫射灯)
2025-09-22 22:06:30.975 - 1A BE B0 DC 09 (继电器地址-客厅窗帘)
2025-09-22 22:06:31.107 - FF
2025-09-22 22:10:44.517 - 19 08 24 03 CC 00 D3 00 01 (调用厨房感应灯开的按键)
2025-09-22 22:10:44.572 - 55 0A 32 00 00 00 01 92 55 0A 32 00 00 00 02 93 (厨房顶灯一开, 厨房顶灯二开)
2025-09-22 22:12:53.271 - 19 08 24 03 CC 00 D4 00 01 (调用厨房感应灯关的按键)
2025-09-22 22:12:53.325 - 55 0A 31 00 00 00 01 91 55 0A 31 00 00 00 02 92 (厨房顶灯一关, 厨房顶灯二关)
2025-09-22 22:12:55.277 - 19 08 24 03 CC 00 D3 00 01 (调用厨房感应灯开的按键)
2025-09-22 22:12:55.311 - 55 0A 32 00 00 00 01 92 55 0A 32 00 00 00 02 93 (厨房顶灯一开, 厨房顶灯二开)
2025-09-22 22:16:15.172 - 19 08 24 03 CC 00 D4 00 01 (调用厨房感应灯关的按键)
2025-09-22 22:16:15.204 - 55 0A 31 00 00 00 01 91 55 0A 31 00 00 00 02 92 (厨房顶灯一关, 厨房顶灯二关)
2025-09-22 22:16:52.743 - 19 08 24 03 CC 00 D3 00 01 (调用厨房感应灯开的按键)
2025-09-22 22:16:52.780 - 55 0A 32 00 00 00 01 92 55 0A 32 00 00 00 02 93 (厨房顶灯一开, 厨房顶灯二开)
2025-09-22 22:17:36.832 - 19 08 24 03 CC 00 D4 00 01 (调用厨房感应灯关的按键)
2025-09-22 22:17:36.864 - 55 0A 31 00 00 00 01 91 55 0A 31 00 00 00 02 92 (厨房顶灯一关, 厨房顶灯二关)
2025-09-22 22:18:31.438 - 19 08 24 03 CC 00 D3 00 01 (调用厨房感应灯开的按键)
2025-09-22 22:18:31.473 - 55 0A 32 00 00 00 01 92 55 0A 32 00 00 00 02 93 (厨房顶灯一开, 厨房顶灯二开)
2025-09-22 22:21:54.336 - 19 08 24 03 CC 00 D4 00 01 (调用厨房感应灯关的按键)
2025-09-22 22:21:54.372 - 55 0A 31 00 00 00 01 91 55 0A 31 00 00 00 02 92 (厨房顶灯一关, 厨房顶灯二关)
2025-09-22 22:21:57.895 - 19 08 24 03 DD 00 13 00 01 (调用情景-公共区域关)
2025-09-22 22:21:58.442 - EE 00 00 B1 00 00 00 FF FC FF FF (情景执行提示)
2025-09-22 22:21:59.037 - 09 06 00 0F 02 01 78 21 (提示音叮)
2025-09-22 22:21:59.418 - 19 08 24 03 CC 01 CC 00 01 (调用茶吧感应灯开的按键)
2025-09-22 22:21:59.448 - 1A AA AA AA 88 FF B0 01 FF B0 01 0F (调光器地址-茶吧灯带, 茶吧灯带明亮)
2025-09-22 22:21:59.847 - 55 0B 31 00 00 00 01 92 (厨房风扇只关)
2025-09-22 22:22:00.930 - 01 06 07 D3 FF 60 38 9F (餐厅空调关)
2025-09-22 22:22:00.965 - 01 06 07 D3 FF 60 38 9F (餐厅空调关)
2025-09-22 22:22:02.077 - 01 06 07 D0 FF 60 C8 9F (客厅空调关)
2025-09-22 22:22:02.105 - 01 06 07 D0 FF 60 C8 9F (客厅空调关)
2025-09-22 22:22:06.210 - 50 F5 02 (关厨房影视)
2025-09-22 22:22:07.306 - 50 F5 01 (关餐厅影视)
2025-09-22 22:22:08.432 - 50 F5 08 (关客厅影视)
2025-09-22 22:22:09.497 - 50 F5 03 (关外卫影视)
2025-09-22 22:22:10.551 - 55 0A 31 00 00 00 01 91 (厨房顶灯一关)
2025-09-22 22:22:11.596 - 55 0A 31 00 00 00 02 92 (厨房顶灯二关)
2025-09-22 22:22:12.644 - 55 0C 31 00 00 00 01 93 (餐厅顶灯关)
2025-09-22 22:22:13.691 - 1A 18 05 10 31 00 01 00 0F (自保持开关地址-门厅顶灯, 门厅顶灯关)
2025-09-22 22:22:14.737 - 1A 20 07 00 42 00 01 00 0F (自保持开关地址-外卫顶灯, 外卫顶灯关)
2025-09-22 22:22:15.782 - 1A 18 05 21 89 00 01 00 0F (自保持开关地址-客厅顶灯, 客厅顶灯一关)
2025-09-22 22:22:16.832 - 1A 18 05 01 94 00 01 00 0F (自保持开关地址-客厅顶灯, 客厅顶灯二关)
2025-09-22 22:22:17.876 - 1A 20 07 01 30 00 01 00 0F (自保持开关地址-西阳顶灯, 西阳顶灯关)
2025-09-22 22:22:18.928 - 1A FF 01 FF FF FF 00 01 FF 00 01 FF 00 00 0F (调光器地址-公共区域统配地址, 公共区域灯光全关)
2025-09-22 22:22:20.019 - 09 06 00 0F 02 02 38 20 (提示音咚)
2025-09-22 22:22:22.065 - EE 00 00 B1 00 00 02 FF FC FF FF (情景完成返回主页)
2025-09-22 22:22:55.026 - 19 08 24 03 CC 01 CD 00 01 (调用茶吧感应灯关的按键)
2025-09-22 22:22:55.078 - 1A AA AA AA 88 FF 00 01 FF 00 01 0F (调光器地址-茶吧灯带, 茶吧灯带关闭)
2025-09-22 22:23:23.371 - 19 08 24 03 CC 00 8F 00 01
2025-09-22 22:23:23.404 - 1A 0E 03 05 01 FF 00 01 FF 00 01 FF 00 00 0F (调光器地址-次卧射灯, 次卧射灯关闭)
2025-09-22 22:24:33.163 - 19 08 24 03 CC 00 D3 00 01 (调用厨房感应灯开的按键)
2025-09-22 22:24:33.194 - 55 0A 32 00 00 00 01 92 55 0A 32 00 00 00 02 93 (厨房顶灯一开, 厨房顶灯二开)
2025-09-22 22:25:16.245 - 19 08 24 03 CC 00 D4 00 01 (调用厨房感应灯关的按键)
2025-09-22 22:25:16.280 - 55 0A 31 00 00 00 01 91 55 0A 31 00 00 00 02 92 (厨房顶灯一关, 厨房顶灯二关)
2025-09-22 22:28:03.859 - 1A FF FF FF 04 FC (继电器地址-东阳衣架)
2025-09-22 22:28:32.759 - 19 08 24 03 DD 00 4F 00 01 (调用情景-内卫使用完毕)
2025-09-22 22:28:33.306 - EE 00 00 B1 00 00 00 FF FC FF FF (情景执行提示)
2025-09-22 22:28:33.901 - 09 06 00 0F 02 01 78 21 (提示音叮)
2025-09-22 22:28:34.455 - 1A 0C 02 08 01 FF 00 01 FF 00 01 FF 00 00 0F (调光器地址-内卫射灯, 内卫感应灯关)
2025-09-22 22:28:38.529 - 50 F5 04 (关内卫影视)
2025-09-22 22:28:39.082 - 1A 20 07 01 40 00 01 00 0F (自保持开关地址-内卫顶灯, 内卫顶灯关)
2025-09-22 22:28:39.633 - 1A FF FF FF 56 00 00 01 0F (人体感应地址-内卫, 打开内卫感应)
2025-09-22 22:28:39.742 - BC BC
2025-09-22 22:28:40.049 - 19 08 24 03 CC 01 54 00 01 (调用内卫感应灯开的按键)
2025-09-22 22:28:40.102 - 1A 0C 02 08 01 FF 45 01 FF 45 01 FF 00 00 0F (调光器地址-内卫射灯, 内卫射灯微光)
2025-09-22 22:28:42.474 - 09 06 00 0F 02 02 38 20 (提示音咚)
2025-09-22 22:28:43.027 - EE 00 00 B1 00 00 02 FF FC FF FF (情景完成返回主页)
2025-09-22 22:29:02.803 - 19 08 24 03 CC 01 55 00 01 (调用内卫感应灯关的按键)
2025-09-22 22:29:02.833 - 1A 0C 02 08 01 FF 00 01 FF 00 01 FF 00 00 0F (调光器地址-内卫射灯, 内卫感应灯关)
2025-09-22 22:30:39.488 - 19 08 24 03 CC 01 54 00 01 (调用内卫感应灯开的按键)
2025-09-22 22:30:39.524 - 1A 0C 02 08 01 FF 45 01 FF 45 01 FF 00 00 0F (调光器地址-内卫射灯, 内卫射灯微光)
2025-09-22 22:31:00.030 - 19 08 24 03 CC 01 55 00 01 (调用内卫感应灯关的按键)
2025-09-22 22:31:00.063 - 1A 0C 02 08 01 FF 00 01 FF 00 01 FF 00 00 0F (调光器地址-内卫射灯, 内卫感应灯关)
2025-09-22 22:43:39.742 - 1A BE B0 DC 0A (继电器地址-客厅纱帘)
2025-09-22 22:43:39.878 - FF
2025-09-22 23:37:12.011 - 19 08 24 03 DD 00 4B 00 01 (调用情景-主卧睡觉)
2025-09-22 23:37:12.532 - EE 00 00 B1 00 00 00 FF FC FF FF (情景执行提示)
2025-09-22 23:37:13.125 - 09 06 00 0F 02 01 78 21 (提示音叮)
2025-09-22 23:37:13.671 - 50 F5 04 (关内卫影视)
2025-09-22 23:37:14.222 - 55 11 1D 03 01 7C 06 (主卧纱帘关)
2025-09-22 23:37:14.263 - 55 11 1D 03 01 7C 06 (主卧纱帘关)
2025-09-22 23:37:15.318 - 55 12 12 03 02 0C 40 (主卧窗帘关)
2025-09-22 23:37:15.357 - 55 12 12 03 02 0C 40 (主卧窗帘关)
2025-09-22 23:37:16.447 - 1A 22 33 62 0F 00 02 01 0F (正反转地址-内卫卷帘, 内卫卷帘降)
2025-09-22 23:37:17.512 - 1A 20 07 01 40 00 01 00 0F (自保持开关地址-内卫顶灯, 内卫顶灯关)
2025-09-22 23:37:18.557 - 1A 20 07 01 55 00 01 00 0F (自保持开关地址-主卧顶灯, 主卧顶灯只关)
2025-09-22 23:37:19.106 - 1A FF FF FF 56 00 00 01 0F (人体感应地址-内卫, 打开内卫感应)
2025-09-22 23:37:19.120 - BC BC
2025-09-22 23:37:22.704 - 1A 0C 02 08 01 FF 00 01 FF 00 01 FF 00 00 0F (调光器地址-内卫射灯, 内卫感应灯关)
2025-09-22 23:37:23.300 - 1A 0C 02 04 01 FF 00 01 FF 00 01 FF 00 00 0F (调光器地址-主卧筒灯, 主卧筒灯关闭)
2025-09-22 23:37:23.898 - 1A 0C 02 04 03 FF 00 01 FF 00 01 FF 00 00 0F (调光器地址-主卧灯带, 主卧灯带关闭)
2025-09-22 23:37:24.496 - 1A 0C 02 04 04 FF 00 01 FF 00 01 FF 00 00 0F (调光器地址-主卧南阅, 主卧南阅关闭)
2025-09-22 23:37:25.094 - 1A 0C 02 04 05 FF 00 01 FF 00 01 FF 00 00 0F (调光器地址-主卧北阅, 主卧北阅关闭)
2025-09-22 23:37:25.694 - 1A 0C 02 04 02 FF 00 01 FF 00 01 FF 00 00 0F (调光器地址-主卧过道, 主卧过道关闭)
2025-09-22 23:37:26.283 - 09 06 00 0F 02 02 38 20 (提示音咚)
2025-09-22 23:37:26.837 - EE 00 00 B1 00 00 02 FF FC FF FF (情景完成返回主页)
2025-09-22 23:39:19.988 - 1A BE B0 DC 04 FC (继电器地址-西阳窗帘)
2025-09-22 23:39:20.123 - FF
2025-09-22 23:41:19.656 - FF FF FF FF 0A (继电器地址-东阳窗帘)
2025-09-22 23:41:19.792 - FF
2025-09-23 01:02:17.186 - 1A BE B0 DC 03 (继电器地址-西阳天幕)
2025-09-23 01:02:17.321 - FF
2025-09-23 01:14:15.417 - 1A BE B0 DC 01 (继电器地址-回水泵点动)
2025-09-23 01:14:15.549 - FF
2025-09-23 01:20:03.445 - 1A BE B0 DC 02 FC (正反转地址-外卫卷帘)
2025-09-23 01:20:03.578 - FF
2025-09-23 01:24:47.804 - FF FF FF FF 0E FC (继电器地址-西阳小窗帘)
2025-09-23 01:24:47.937 - FF
2025-09-23 01:28:56.826 - 1A BE B0 DC 09 (继电器地址-客厅窗帘)
2025-09-23 01:28:56.961 - FF
2025-09-23 01:50:13.990 - 1A FF FF FF 04 FC (继电器地址-东阳衣架)
2025-09-23 01:50:14.125 - FE
2025-09-23 02:05:02.285 - 1A BE B0 DC 0A FD (继电器地址-客厅纱帘)
2025-09-23 02:05:02.419 - FF
2025-09-23 02:59:01.728 - 1A BE B0 DC 04 (继电器地址-西阳窗帘)
2025-09-23 02:59:46.997 - 50 F7 01 (全屋影音全关)
2025-09-23 03:01:26.547 - FF FF FF FF 0A (继电器地址-东阳窗帘)
2025-09-23 03:01:26.685 - FF
2025-09-23 04:23:09.145 - 1A BE B0 DC 03 (继电器地址-西阳天幕)
2025-09-23 04:29:46.806 - EE 00 00 B1 00 00 00 FF FC FF FF (情景执行提示)
2025-09-23 04:29:47.429 - A5 00 A2 FF 00 AA (餐厅纱帘关)
2025-09-23 04:29:48.497 - A5 00 A6 FF 00 AA (餐厅窗帘关)
2025-09-23 04:29:48.553 - 55 00 A6 01 00 0E 01 74 AA 55 00 A6 01 00 0E 01 74 FF (餐厅窗帘电机状态返回)
2025-09-23 04:29:49.595 - A5 00 B7 FF 00 AA 22 0D (书房纱帘关)
2025-09-23 04:29:50.641 - A5 00 D2 FF 00 AA 22 0C (书房窗帘关)
2025-09-23 04:29:50.694 - 55 00 D2 01 00 0D 01 0B AA 55 00 D2 01 00 0D 01 0B AA (书房窗帘电机状态返回)
2025-09-23 04:29:51.740 - EE 00 00 B1 00 00 02 FF FC FF FF (情景完成返回主页)
2025-09-23 04:29:57.287 - 55 00 A6 00 01 66 01 74 AA 55 00 A6 00 01 66 01 74 AA (餐厅窗帘电机状态返回)
2025-09-23 04:30:00.809 - 55 00 D2 00 00 FD 01 0B AA 55 00 D2 00 00 FD 01 0B AA (书房窗帘电机状态返回)
2025-09-23 04:35:04.356 - 1A BE B0 DC 01 FC (继电器地址-回水泵点动)
2025-09-23 04:35:04.490 - FF
2025-09-23 04:40:29.091 - 1A BE B0 DC 02 FC (正反转地址-外卫卷帘)
2025-09-23 04:40:29.225 - FE
2025-09-23 04:44:47.285 - FF FF FF FF 0E (继电器地址-西阳小窗帘)
2025-09-23 04:44:47.419 - FE
2025-09-23 04:49:14.144 - 1A BE B0 DC 09 (继电器地址-客厅窗帘)
2025-09-23 04:49:14.278 - FF
2025-09-23 05:03:12.737 - 19 08 24 03 CC 00 D3 00 01 (调用厨房感应灯开的按键)
2025-09-23 05:03:12.790 - 55 0A 32 00 00 00 01 92 55 0A 32 00 00 00 02 93 (厨房顶灯一开, 厨房顶灯二开)
2025-09-23 05:03:48.307 - 19 08 24 03 CC 00 D4 00 01 (调用厨房感应灯关的按键)
2025-09-23 05:03:48.360 - 55 0A 31 00 00 00 01 91 55 0A 31 00 00 00 02 92 (厨房顶灯一关, 厨房顶灯二关)
2025-09-23 05:11:04.420 - 1A FF FF FF 04 FE (继电器地址-东阳衣架)
2025-09-23 05:14:10.287 - 19 08 24 03 CC 01 CC 00 01 (调用茶吧感应灯开的按键)
2025-09-23 05:14:10.337 - 1A AA AA AA 88 FF B0 01 FF B0 01 0F (调光器地址-茶吧灯带, 茶吧灯带明亮)
2025-09-23 05:14:17.302 - 19 08 24 03 CC 01 CD 00 01 (调用茶吧感应灯关的按键)
2025-09-23 05:14:17.350 - 1A AA AA AA 88 FF 00 01 FF 00 01 0F (调光器地址-茶吧灯带, 茶吧灯带关闭)
2025-09-23 05:25:36.733 - 1A BE B0 DC 0A FF (继电器地址-客厅纱帘)
2025-09-23 05:25:36.868 - FC
2025-09-23 05:37:27.964 - 19 08 24 03 CC 01 54 00 01 (调用内卫感应灯开的按键)
2025-09-23 05:37:28.039 - 1A 0C 02 08 01 FF 45 01 FF 45 01 FF 00 00 0F (调光器地址-内卫射灯, 内卫射灯微光)
2025-09-23 05:40:12.287 - 19 08 24 03 CC 01 55 00 01 (调用内卫感应灯关的按键)
2025-09-23 05:40:12.340 - 1A 0C 02 08 01 FF 00 01 FF 00 01 FF 00 00 0F (调光器地址-内卫射灯, 内卫感应灯关)
2025-09-23 05:41:52.986 - 19 08 24 03 CC 01 54 00 01 (调用内卫感应灯开的按键)
2025-09-23 05:41:53.019 - 1A 0C 02 08 01 FF 45 01 FF 45 01 FF 00 00 0F (调光器地址-内卫射灯, 内卫射灯微光)
2025-09-23 05:42:13.525 - 19 08 24 03 CC 01 55 00 01 (调用内卫感应灯关的按键)
2025-09-23 05:42:13.560 - 1A 0C 02 08 01 FF 00 01 FF 00 01 FF 00 00 0F (调光器地址-内卫射灯, 内卫感应灯关)
2025-09-23 06:18:42.771 - 1A BE B0 DC 04 (继电器地址-西阳窗帘)
2025-09-23 06:18:42.903 - FF
2025-09-23 06:21:32.980 - FF FF FF FF 0A FD (继电器地址-东阳窗帘)
2025-09-23 06:21:33.114 - FF
2025-09-23 06:36:40.772 - 19 08 24 03 CC 00 D3 00 01 (调用厨房感应灯开的按键)
2025-09-23 06:36:40.825 - 55 0A 32 00 00 00 01 92 55 0A 32 00 00 00 02 93 (厨房顶灯一开, 厨房顶灯二开)
2025-09-23 06:38:39.004 - 19 08 24 03 CC 00 D4 00 01 (调用厨房感应灯关的按键)
2025-09-23 06:38:39.057 - 55 0A 31 00 00 00 01 91 55 0A 31 00 00 00 02 92 (厨房顶灯一关, 厨房顶灯二关)
2025-09-23 06:39:39.123 - 19 08 24 03 CC 00 D3 00 01 (调用厨房感应灯开的按键)
2025-09-23 06:39:39.158 - 55 0A 32 00 00 00 01 92 55 0A 32 00 00 00 02 93 (厨房顶灯一开, 厨房顶灯二开)
2025-09-23 06:40:40.743 - 19 08 24 03 CC 00 D4 00 01 (调用厨房感应灯关的按键)
2025-09-23 06:40:40.778 - 55 0A 31 00 00 00 01 91 55 0A 31 00 00 00 02 92 (厨房顶灯一关, 厨房顶灯二关)
2025-09-23 06:43:10.037 - 19 08 24 03 CC 00 D3 00 01 (调用厨房感应灯开的按键)
2025-09-23 06:43:10.073 - 55 0A 32 00 00 00 01 92 55 0A 32 00 00 00 02 93 (厨房顶灯一开, 厨房顶灯二开)
2025-09-23 06:43:58.132 - 19 08 24 03 CC 00 D4 00 01 (调用厨房感应灯关的按键)
2025-09-23 06:43:58.167 - 55 0A 31 00 00 00 01 91 55 0A 31 00 00 00 02 92 (厨房顶灯一关, 厨房顶灯二关)
2025-09-23 06:44:21.680 - 19 08 24 03 CC 00 D3 00 01 (调用厨房感应灯开的按键)
2025-09-23 06:44:21.714 - 55 0A 32 00 00 00 01 92 55 0A 32 00 00 00 02 93 (厨房顶灯一开, 厨房顶灯二开)
2025-09-23 06:44:47.740 - EE 00 00 B1 00 00 00 FF FC FF FF (情景执行提示)
2025-09-23 06:44:48.364 - 09 06 00 0F 02 01 78 21 (提示音叮)
2025-09-23 06:44:48.928 - 50 F0 04 (开内卫影视)
2025-09-23 06:44:49.477 - 50 F0 05 (开主卧影视)
2025-09-23 06:44:50.029 - 55 11 1D 03 01 7C 06 (主卧纱帘关)
2025-09-23 06:44:50.067 - 55 11 1D 03 01 7C 06 (主卧纱帘关)
2025-09-23 06:44:50.626 - 55 11 1D 03 01 7C 06 (主卧纱帘关)
2025-09-23 06:44:50.668 - 55 11 1D 03 01 7C 06 (主卧纱帘关)
2025-09-23 06:44:51.224 - 55 12 12 03 01 4C 41 (主卧窗帘开)
2025-09-23 06:44:51.268 - 55 12 12 03 01 4C 41 (主卧窗帘开)
2025-09-23 06:44:52.321 - 55 12 12 03 01 4C 41 (主卧窗帘开)
2025-09-23 06:44:52.364 - 55 12 12 03 01 4C 41 (主卧窗帘开)
2025-09-23 06:44:53.419 - 1A 22 33 62 0F 00 02 01 0F (正反转地址-内卫卷帘, 内卫卷帘降)
2025-09-23 06:44:53.968 - 1A FF FF FF 56 00 00 00 0F (人体感应地址-内卫, 关闭内卫感应)
2025-09-23 06:44:54.082 - BC BC
2025-09-23 06:44:54.514 - 1A 20 07 01 55 00 01 00 0F (自保持开关地址-主卧顶灯, 主卧顶灯只关)
2025-09-23 06:44:55.567 - 1A 0C 02 08 01 FF F0 01 FF F0 01 FF 00 00 0F (调光器地址-内卫射灯, 内卫射灯明亮)
2025-09-23 06:44:56.165 - 1A 0C 02 04 01 FF 00 01 FF 00 01 FF 00 00 0F (调光器地址-主卧筒灯, 主卧筒灯关闭)
2025-09-23 06:44:56.764 - 1A 0C 02 04 03 FF 45 01 FF 45 01 FF 00 00 0F (调光器地址-主卧灯带, 主卧灯带微光)
2025-09-23 06:44:57.361 - 1A 0C 02 04 02 FF F0 01 FF 00 01 FF 00 00 0F (调光器地址-主卧过道, 主卧过道暖光)
2025-09-23 06:44:57.958 - 1A 0C 02 04 05 FF 00 01 FF 00 01 FF 00 00 0F (调光器地址-主卧北阅, 主卧北阅关闭)
2025-09-23 06:44:58.557 - 1A 0C 02 04 04 FF 00 01 FF 00 01 FF 00 00 0F (调光器地址-主卧南阅, 主卧南阅关闭)
2025-09-23 06:44:59.641 - 50 F1 24 (内卫—有线2)
2025-09-23 06:45:00.687 - 50 F1 25 (主卧—有线2)
2025-09-23 06:45:01.737 - AF BF CF DF C2 21 (有线2/快捷-凤凰卫视)
2025-09-23 06:45:02.288 - 1A FF FF FF 60 0B 01 01 0F (红外总线地址-主卧发射设备, 主卧电视电源)
2025-09-23 06:45:02.808 - F0 0B 01 08
2025-09-23 06:45:03.334 - 1A BE B0 DC 01 00 01 00 (继电器地址-回水泵点动, 回水泵点动)
2025-09-23 06:45:07.371 - 09 06 00 0F 02 02 38 20 (提示音咚)
2025-09-23 06:45:07.924 - EE 00 00 B1 00 00 02 FF FC FF FF (情景完成返回主页)
2025-09-23 06:45:09.015 - A1 11 11 11 11 01 (内卫浴霸取暖判断)
2025-09-23 06:45:09.239 - 14 03 00 00 00 02 C6 CE (查询内卫温湿度)
2025-09-23 06:45:09.254 - 14 03 04 02 A9 01 03 2E FB (内卫温湿度返回)
2025-09-23 06:45:24.809 - 19 08 24 03 CC 00 D4 00 01 (调用厨房感应灯关的按键)
2025-09-23 06:45:24.863 - 55 0A 31 00 00 00 01 91 55 0A 31 00 00 00 02 92 (厨房顶灯一关, 厨房顶灯二关)
2025-09-23 06:46:00.378 - 19 08 24 03 CC 00 D3 00 01 (调用厨房感应灯开的按键)
2025-09-23 06:46:00.414 - 55 0A 32 00 00 00 01 92 55 0A 32 00 00 00 02 93 (厨房顶灯一开, 厨房顶灯二开)
2025-09-23 06:47:41.579 - 19 08 24 03 CC 00 D4 00 01 (调用厨房感应灯关的按键)
2025-09-23 06:47:41.614 - 55 0A 31 00 00 00 01 91 55 0A 31 00 00 00 02 92 (厨房顶灯一关, 厨房顶灯二关)
2025-09-23 06:47:56.607 - 19 08 24 03 CC 00 D3 00 01 (调用厨房感应灯开的按键)
2025-09-23 06:47:56.643 - 55 0A 32 00 00 00 01 92 55 0A 32 00 00 00 02 93 (厨房顶灯一开, 厨房顶灯二开)
2025-09-23 06:49:22.276 - 19 08 24 03 CC 00 D4 00 01 (调用厨房感应灯关的按键)
2025-09-23 06:49:22.312 - 55 0A 31 00 00 00 01 91 55 0A 31 00 00 00 02 92 (厨房顶灯一关, 厨房顶灯二关)
2025-09-23 06:50:03.358 - 19 08 24 03 CC 00 D3 00 01 (调用厨房感应灯开的按键)
2025-09-23 06:50:03.394 - 55 0A 32 00 00 00 01 92 55 0A 32 00 00 00 02 93 (厨房顶灯一开, 厨房顶灯二开)
2025-09-23 06:53:41.286 - 19 08 24 03 CC 00 D4 00 01 (调用厨房感应灯关的按键)
2025-09-23 06:53:41.321 - 55 0A 31 00 00 00 01 91 55 0A 31 00 00 00 02 92 (厨房顶灯一关, 厨房顶灯二关)
2025-09-23 06:54:27.377 - 19 08 24 03 CC 00 D3 00 01 (调用厨房感应灯开的按键)
2025-09-23 06:54:27.413 - 55 0A 32 00 00 00 01 92 55 0A 32 00 00 00 02 93 (厨房顶灯一开, 厨房顶灯二开)
2025-09-23 07:00:27.085 - 19 08 24 03 CC 00 D4 00 01 (调用厨房感应灯关的按键)
2025-09-23 07:00:27.121 - 55 0A 31 00 00 00 01 91 55 0A 31 00 00 00 02 92 (厨房顶灯一关, 厨房顶灯二关)
2025-09-23 07:00:47.124 - 19 08 24 03 CC 00 D3 00 01 (调用厨房感应灯开的按键)
2025-09-23 07:00:47.159 - 55 0A 32 00 00 00 01 92 55 0A 32 00 00 00 02 93 (厨房顶灯一开, 厨房顶灯二开)
2025-09-23 07:01:44.237 - 19 08 24 03 CC 00 D4 00 01 (调用厨房感应灯关的按键)
2025-09-23 07:01:44.271 - 55 0A 31 00 00 00 01 91 55 0A 31 00 00 00 02 92 (厨房顶灯一关, 厨房顶灯二关)
2025-09-23 07:02:02.773 - 19 08 24 03 CC 00 D3 00 01 (调用厨房感应灯开的按键)
2025-09-23 07:02:02.808 - 55 0A 32 00 00 00 01 92 55 0A 32 00 00 00 02 93 (厨房顶灯一开, 厨房顶灯二开)
2025-09-23 07:02:54.877 - 19 08 24 03 CC 00 D4 00 01 (调用厨房感应灯关的按键)
2025-09-23 07:02:54.912 - 55 0A 31 00 00 00 01 91 55 0A 31 00 00 00 02 92 (厨房顶灯一关, 厨房顶灯二关)
2025-09-23 07:03:43.471 - 19 08 24 03 CC 00 D3 00 01 (调用厨房感应灯开的按键)
2025-09-23 07:03:43.506 - 55 0A 32 00 00 00 01 92 55 0A 32 00 00 00 02 93 (厨房顶灯一开, 厨房顶灯二开)
2025-09-23 07:05:02.127 - 19 08 24 03 CC 00 D4 00 01 (调用厨房感应灯关的按键)
2025-09-23 07:05:02.161 - 55 0A 31 00 00 00 01 91 55 0A 31 00 00 00 02 92 (厨房顶灯一关, 厨房顶灯二关)
2025-09-23 07:06:52.843 - 19 08 24 03 CC 00 D3 00 01 (调用厨房感应灯开的按键)
2025-09-23 07:06:52.879 - 55 0A 32 00 00 00 01 92 55 0A 32 00 00 00 02 93 (厨房顶灯一开, 厨房顶灯二开)
2025-09-23 07:09:02.599 - 19 08 24 03 CC 00 D4 00 01 (调用厨房感应灯关的按键)
2025-09-23 07:09:02.634 - 55 0A 31 00 00 00 01 91 55 0A 31 00 00 00 02 92 (厨房顶灯一关, 厨房顶灯二关)
2025-09-23 07:10:24.260 - 19 08 24 03 CC 00 D3 00 01 (调用厨房感应灯开的按键)
2025-09-23 07:10:24.296 - 55 0A 32 00 00 00 01 92 55 0A 32 00 00 00 02 93 (厨房顶灯一开, 厨房顶灯二开)
2025-09-23 07:11:56.441 - 19 08 24 03 CC 00 D4 00 01 (调用厨房感应灯关的按键)
2025-09-23 07:11:56.476 - 55 0A 31 00 00 00 01 91 55 0A 31 00 00 00 02 92 (厨房顶灯一关, 厨房顶灯二关)
2025-09-23 07:12:05.459 - 19 08 24 03 CC 00 D3 00 01 (调用厨房感应灯开的按键)
2025-09-23 07:12:05.494 - 55 0A 32 00 00 00 01 92 55 0A 32 00 00 00 02 93 (厨房顶灯一开, 厨房顶灯二开)
2025-09-23 07:12:45.538 - 19 08 24 03 CC 00 D4 00 01 (调用厨房感应灯关的按键)
2025-09-23 07:12:45.573 - 55 0A 31 00 00 00 01 91 55 0A 31 00 00 00 02 92 (厨房顶灯一关, 厨房顶灯二关)
2025-09-23 07:12:51.049 - 19 08 24 03 CC 00 D3 00 01 (调用厨房感应灯开的按键)
2025-09-23 07:12:51.084 - 55 0A 32 00 00 00 01 92 55 0A 32 00 00 00 02 93 (厨房顶灯一开, 厨房顶灯二开)
2025-09-23 07:13:36.138 - 19 08 24 03 CC 00 D4 00 01 (调用厨房感应灯关的按键)
2025-09-23 07:13:36.172 - 55 0A 31 00 00 00 01 91 55 0A 31 00 00 00 02 92 (厨房顶灯一关, 厨房顶灯二关)
2025-09-23 07:16:42.003 - 19 08 24 03 CC 00 D3 00 01 (调用厨房感应灯开的按键)
2025-09-23 07:16:42.038 - 55 0A 32 00 00 00 01 92 55 0A 32 00 00 00 02 93 (厨房顶灯一开, 厨房顶灯二开)
2025-09-23 07:17:37.612 - 19 08 24 03 CC 00 D4 00 01 (调用厨房感应灯关的按键)
2025-09-23 07:17:37.647 - 55 0A 31 00 00 00 01 91 55 0A 31 00 00 00 02 92 (厨房顶灯一关, 厨房顶灯二关)
2025-09-23 07:17:38.637 - 19 08 24 03 DD 00 40 00 01 (调用情景-离开主卧)
2025-09-23 07:17:39.149 - EE 00 00 B1 00 00 00 FF FC FF FF (情景执行提示)
2025-09-23 07:17:39.745 - 09 06 00 0F 02 01 78 21 (提示音叮)
2025-09-23 07:17:40.287 - 50 F5 05 (关主卧影视)
2025-09-23 07:17:40.886 - 50 F5 04 (关内卫影视)
2025-09-23 07:17:41.439 - 01 06 07 D6 FF 60 28 9E (主卧空调关)
2025-09-23 07:17:41.472 - 01 06 07 D6 FF 60 28 9E (主卧空调关)
2025-09-23 07:17:42.036 - 55 12 12 03 01 4C 41 (主卧窗帘开)
2025-09-23 07:17:42.077 - 55 12 12 03 01 4C 41 (主卧窗帘开)
2025-09-23 07:17:43.132 - 55 12 12 03 01 4C 41 (主卧窗帘开)
2025-09-23 07:17:43.257 - 55 12 12 03 01 4C 41 (主卧窗帘开)
2025-09-23 07:17:44.178 - 55 11 1D 03 02 3C 07 (主卧纱帘开)
2025-09-23 07:17:44.219 - 55 11 1D 03 02 3C 07 (主卧纱帘开)
2025-09-23 07:17:44.776 - 55 11 1D 03 02 3C 07 (主卧纱帘开)
2025-09-23 07:17:44.818 - 55 11 1D 03 02 3C 07 (主卧纱帘开)
2025-09-23 07:17:45.376 - 1A 22 33 62 0F 00 00 01 0F (正反转地址-内卫卷帘, 内卫卷帘升)
2025-09-23 07:17:46.423 - 1A 20 07 01 40 00 01 00 0F (自保持开关地址-内卫顶灯, 内卫顶灯关)
2025-09-23 07:17:47.468 - 1A 20 07 01 55 00 01 00 0F (自保持开关地址-主卧顶灯, 主卧顶灯只关)
2025-09-23 07:17:48.022 - 1A 0C 02 08 01 FF 00 01 FF 00 01 FF 00 00 0F (调光器地址-内卫射灯, 内卫感应灯关)
2025-09-23 07:17:48.615 - 1A FF FF FF 56 00 00 01 0F (人体感应地址-内卫, 打开内卫感应)
2025-09-23 07:17:48.706 - BF BF
2025-09-23 07:17:49.014 - 19 08 24 03 CC 01 54 00 01 (调用内卫感应灯开的按键)
2025-09-23 07:17:49.067 - 1A 0C 02 08 01 FF 45 01 FF 45 01 FF 00 00 0F (调光器地址-内卫射灯, 内卫射灯微光)
2025-09-23 07:17:52.460 - 1A 0C 02 04 FF FF 00 01 FF 00 01 FF 00 00 0F (主卧调光全关)
2025-09-23 07:17:53.550 - 09 06 00 0F 02 02 38 20 (提示音咚)
2025-09-23 07:17:54.101 - EE 00 00 B1 00 00 02 FF FC FF FF (情景完成返回主页)
2025-09-23 07:17:54.646 - 19 08 24 03 CC 00 D3 00 01 (调用厨房感应灯开的按键)
2025-09-23 07:17:54.681 - 55 0A 32 00 00 00 01 92 55 0A 32 00 00 00 02 93 (厨房顶灯一开, 厨房顶灯二开)
2025-09-23 07:17:58.993 - 19 08 24 03 CC 01 CC 00 01 (调用茶吧感应灯开的按键)
2025-09-23 07:17:59.022 - 1A AA AA AA 88 FF B0 01 FF B0 01 0F (调光器地址-茶吧灯带, 茶吧灯带明亮)
2025-09-23 07:18:20.535 - 19 08 24 03 CC 01 CD 00 01 (调用茶吧感应灯关的按键)
2025-09-23 07:18:20.566 - 1A AA AA AA 88 FF 00 01 FF 00 01 0F (调光器地址-茶吧灯带, 茶吧灯带关闭)
2025-09-23 07:18:41.738 - 19 08 24 03 CC 00 D4 00 01 (调用厨房感应灯关的按键)
2025-09-23 07:18:41.774 - 55 0A 31 00 00 00 01 91 55 0A 31 00 00 00 02 92 (厨房顶灯一关, 厨房顶灯二关)
2025-09-23 07:19:12.883 - 19 08 24 03 CC 01 55 00 01 (调用内卫感应灯关的按键)
2025-09-23 07:19:12.914 - 1A 0C 02 08 01 FF 00 01 FF 00 01 FF 00 00 0F (调光器地址-内卫射灯, 内卫感应灯关)
2025-09-23 07:19:25.687 - 19 08 24 03 DD 00 00 00 01 (调用情景-离家（末）)
2025-09-23 07:19:26.265 - EE 00 00 B1 00 00 00 FF FC FF FF (情景执行提示)
2025-09-23 07:19:26.828 - 09 06 00 0F 02 02 38 20 (提示音咚)
2025-09-23 07:19:27.370 - 50 F7 01 (全屋影音全关)
2025-09-23 07:19:27.923 - 01 06 07 D0 FF 60 C8 9F (客厅空调关)
2025-09-23 07:19:27.955 - 01 06 07 D0 FF 60 C8 9F (客厅空调关)
2025-09-23 07:19:28.521 - 01 06 07 D0 FF 60 C8 9F (客厅空调关)
2025-09-23 07:19:28.552 - 01 06 07 D0 FF 60 C8 9F (客厅空调关)
2025-09-23 07:19:28.831 - 19 08 24 03 CC 00 D3 00 01 (调用厨房感应灯开的按键)
2025-09-23 07:19:28.886 - 55 0A 32 00 00 00 01 92 55 0A 32 00 00 00 02 93 (厨房顶灯一开, 厨房顶灯二开)
2025-09-23 07:19:29.284 - 01 06 07 D3 FF 60 38 9F (餐厅空调关)
2025-09-23 07:19:29.320 - 01 06 07 D3 FF 60 38 9F (餐厅空调关)
2025-09-23 07:19:29.916 - 01 06 07 D3 FF 60 38 9F (餐厅空调关)
2025-09-23 07:19:29.946 - 01 06 07 D3 FF 60 38 9F (餐厅空调关)
2025-09-23 07:19:30.513 - 01 06 07 D6 FF 60 28 9E (主卧空调关)
2025-09-23 07:19:30.543 - 01 06 07 D6 FF 60 28 9E (主卧空调关)
2025-09-23 07:19:31.112 - 01 06 07 D6 FF 60 28 9E (主卧空调关)
2025-09-23 07:19:31.147 - 01 06 07 D6 FF 60 28 9E (主卧空调关)
2025-09-23 07:19:31.709 - 01 06 07 D9 FF 60 18 9D (次卧空调关)
2025-09-23 07:19:31.745 - 01 06 07 D9 FF 60 18 9D (次卧空调关)
2025-09-23 07:19:32.307 - 01 06 07 D9 FF 60 18 9D (次卧空调关)
2025-09-23 07:19:32.339 - 01 06 07 D9 FF 60 18 9D (次卧空调关)
2025-09-23 07:19:32.905 - 01 06 07 DC FF 60 08 9C (书房空调关)
2025-09-23 07:19:32.934 - 01 06 07 DC FF 60 08 9C (书房空调关)
2025-09-23 07:19:33.504 - 01 06 07 DC FF 60 08 9C (书房空调关)
2025-09-23 07:19:33.531 - 01 06 07 DC FF 60 08 9C (书房空调关)
2025-09-23 07:19:34.101 - 09 06 00 0F 02 02 38 20 (提示音咚)
2025-09-23 07:19:34.650 - 1A FF FF FF 56 00 00 00 0F (人体感应地址-内卫, 关闭内卫感应)
2025-09-23 07:19:34.758 - BF BF
2025-09-23 07:19:35.202 - 1A FF FF FF 55 00 00 00 0F (人体感应地址-外卫, 关闭外卫感应)
2025-09-23 07:19:35.306 - BC BC
2025-09-23 07:19:35.746 - 1A FF FF FF 57 00 00 00 0F (人体感应地址-厨房, 关闭厨房感应)
2025-09-23 07:19:35.853 - BE BE
2025-09-23 07:19:36.293 - 1A FF FF FF 58 00 00 00 0F (人体感应地址-茶吧, 关闭茶吧感应)
2025-09-23 07:19:36.348 - BC BC
2025-09-23 07:19:36.891 - 1A 20 07 00 93 00 01 00 0F (自保持开关地址-设备区顶, 设备区顶灯关)
2025-09-23 07:19:37.937 - 1A 20 07 01 40 00 01 00 0F (自保持开关地址-内卫顶灯, 内卫顶灯关)
2025-09-23 07:19:38.984 - 1A 20 07 01 55 00 01 00 0F (自保持开关地址-主卧顶灯, 主卧顶灯只关)
2025-09-23 07:19:40.032 - 1A 20 07 00 42 00 01 00 0F (自保持开关地址-外卫顶灯, 外卫顶灯关)
2025-09-23 07:19:41.075 - 55 0D 31 00 00 00 01 94 (书房顶灯只关)
2025-09-23 07:19:42.124 - 55 0A 31 00 00 00 01 91 (厨房顶灯一关)
2025-09-23 07:19:43.193 - 55 0A 31 00 00 00 02 92 (厨房顶灯二关)
2025-09-23 07:19:44.264 - 55 0B 31 00 00 00 01 92 (厨房风扇只关)
2025-09-23 07:19:45.311 - 55 0C 31 00 00 00 01 93 (餐厅顶灯关)
2025-09-23 07:19:46.359 - 1A 20 07 01 30 00 01 00 0F (自保持开关地址-西阳顶灯, 西阳顶灯关)
2025-09-23 07:19:47.405 - 1A 18 05 21 89 00 01 00 0F (自保持开关地址-客厅顶灯, 客厅顶灯一关)
2025-09-23 07:19:48.451 - 1A 18 05 01 94 00 01 00 0F (自保持开关地址-客厅顶灯, 客厅顶灯二关)
2025-09-23 07:19:49.498 - 1A 20 07 00 70 00 01 00 0F (自保持开关地址-次卧顶灯, 次卧顶灯只关)
2025-09-23 07:19:50.545 - 1A 18 05 10 31 00 01 00 0F (自保持开关地址-门厅顶灯, 门厅顶灯关)
2025-09-23 07:19:51.589 - 1A FF FF FF 04 00 03 02 (继电器地址-东阳衣架, 东阳衣架照明关)
2025-09-23 07:19:52.138 - 09 06 00 0F 02 02 38 20 (提示音咚)
2025-09-23 07:19:52.684 - A5 00 A6 FE 01 AA (餐厅窗帘开)
2025-09-23 07:19:52.733 - 55 00 A6 02 01 66 01 74 AA 55 00 A6 02 01 66 01 74 AA (餐厅窗帘电机状态返回)
2025-09-23 07:19:53.284 - FF FF FF FF 0A 00 01 00 (继电器地址-东阳窗帘, 东阳窗帘开)
2025-09-23 07:19:53.832 - 1A BE B0 DC 04 00 01 00 (继电器地址-西阳窗帘, 西阳窗帘开)
2025-09-23 07:19:54.381 - FF FF FF FF 0E 00 01 00 (继电器地址-西阳小窗帘, 西阳小窗帘开)
2025-09-23 07:19:54.929 - 1A 22 33 62 0F 00 00 01 0F (正反转地址-内卫卷帘, 内卫卷帘升)
2025-09-23 07:19:55.475 - 55 12 12 03 01 4C 41 (主卧窗帘开)
2025-09-23 07:19:55.514 - 55 12 12 03 01 4C 41 (主卧窗帘开)
2025-09-23 07:19:56.074 - 55 11 1D 03 02 3C 07 (主卧纱帘开)
2025-09-23 07:19:56.113 - 55 11 1D 03 02 3C 07 (主卧纱帘开)
2025-09-23 07:19:56.671 - A5 00 76 FE 01 AA (次卧窗帘开)
2025-09-23 07:19:57.219 - A5 00 21 FE 01 AA (次卧纱帘开)
2025-09-23 07:19:57.773 - A5 00 D2 FE 01 AA 22 0D (书房窗帘开)
2025-09-23 07:19:57.821 - 55 00 D2 02 00 FD 01 0B AA 55 00 D2 02 00 FD 01 0B AA (书房窗帘电机状态返回)
2025-09-23 07:19:58.366 - 1A BE B0 DC 09 00 01 00 (继电器地址-客厅窗帘, 客厅窗帘开)
2025-09-23 07:19:58.915 - 1A BE B0 DC 0A 00 02 00 (继电器地址-客厅纱帘, 客厅纱帘开)
2025-09-23 07:19:59.465 - 09 06 00 0F 02 02 38 20 (提示音咚)
2025-09-23 07:20:00.510 - 1A EC A0 DC 02 00 00 00 0F (自保持开关地址-天花12V供电, 天花12V 供电关)
2025-09-23 07:20:01.057 - 1A EC A0 DC 02 00 00 00 0F (自保持开关地址-天花12V供电, 天花12V 供电关)
2025-09-23 07:20:01.606 - 1A EC A0 DC 01 00 00 00 0F (自保持开关地址-电视、设备12V供电, 12V 电视供电关)
2025-09-23 07:20:01.670 - 55 00 A6 00 00 0E 01 74 BA 55 FF B7 FF FF EF FF 77 AF (餐厅窗帘电机状态返回)
2025-09-23 07:20:02.204 - 1A EC A0 DC 01 00 00 00 0F (自保持开关地址-电视、设备12V供电, 12V 电视供电关)
2025-09-23 07:20:02.751 - 1A EC A0 DC 04 00 01 00 0F (自保持开关地址-次卧西阳内外卫供电, 内卫外卫关)
2025-09-23 07:20:03.301 - 1A EC A0 DC 04 00 01 00 0F (自保持开关地址-次卧西阳内外卫供电, 内卫外卫关)
2025-09-23 07:20:04.843 - 1A BB BB BB 01 02 00 (开水器电源关)
2025-09-23 07:20:05.711 - 55 00 D2 00 00 0D 01 0B AA 55 00 D2 00 00 0D 01 0B AA (书房窗帘电机状态返回)
2025-09-23 07:20:17.891 - 09 06 00 0F 02 02 38 20 (提示音咚)
2025-09-23 07:20:18.442 - 1A 27 89 12 AA 00 00 00 0F (状态寄存器地址, 无人状态)
2025-09-23 07:20:18.990 - 1A 27 89 12 AA 00 00 00 0F (状态寄存器地址, 无人状态)
2025-09-23 07:20:19.631 - A1 11 11 11 4D (天花供电关闭确认)
2025-09-23 07:20:19.857 - 1A EC A0 DC 02 86 86 86 0F (查询天花供电状态, 自保持开关地址-天花12V供电)
2025-09-23 07:20:20.286 - 1A EC A0 DC 02 00 00 0F (自保持开关地址-天花12V供电)
2025-09-23 07:20:22.672 - A1 11 11 11 4E (卫生供电关闭确认)
2025-09-23 07:20:22.895 - 1A EC A0 DC 04 86 86 86 0F (查询卫生间供电状态, 自保持开关地址-次卧西阳内外卫供电)
2025-09-23 07:20:23.326 - 1A EC A0 DC 04 01 00 0F (自保持开关地址-次卧西阳内外卫供电)
2025-09-23 07:20:25.711 - A1 11 11 11 4F (电视供电关闭确认)
2025-09-23 07:20:25.933 - 1A EC A0 DC 01 86 86 86 0F (查询电视供电状态, 自保持开关地址-电视、设备12V供电)
2025-09-23 07:20:26.370 - 1A EC A0 DC 01 00 01 0F (自保持开关地址-电视、设备12V供电)
2025-09-23 07:20:28.753 - 09 06 00 0F 02 02 38 20 (提示音咚)
2025-09-23 07:20:29.300 - 09 06 00 0F 02 02 38 20 (提示音咚)
2025-09-23 07:20:29.853 - EE 00 00 B1 00 00 02 FF FC FF FF (情景完成返回主页)
2025-09-23 07:20:30.943 - BA BA EE EE BA BA (离家设置信科变量)
2025-09-23 07:20:31.990 - A1 11 11 11 46 (天热离家遮阳)
2025-09-23 07:20:32.212 - 1A 27 89 12 AA 86 86 86 0F (查询寄存器状态, 状态寄存器地址)
2025-09-23 07:20:32.594 - 1A 27 89 12 AA 00 00 00 00 00 00 00 00 00 00 00 01 00 00 00 00 0F (状态寄存器地址)
2025-09-23 07:20:33.214 - 19 08 24 03 DD 00 05 00 01 (调用情景-天热遮阳关帘)
2025-09-23 07:20:33.767 - EE 00 00 B1 00 00 00 FF FC FF FF (情景执行提示)
2025-09-23 07:20:34.334 - 09 06 00 0F 02 01 78 21 (提示音叮)
2025-09-23 07:20:34.880 - A5 00 A2 FF 00 AA (餐厅纱帘关)
2025-09-23 07:20:35.926 - A5 00 A6 FF 00 AA (餐厅窗帘关)
2025-09-23 07:20:35.982 - 55 00 A6 01 00 0E 01 74 AA 55 00 A6 01 00 0E 01 74 AA (餐厅窗帘电机状态返回)
2025-09-23 07:20:37.024 - 55 11 1D 03 01 7C 06 (主卧纱帘关)
2025-09-23 07:20:37.071 - 55 11 1D 03 01 7C 06 (主卧纱帘关)
2025-09-23 07:20:38.119 - 55 12 12 03 02 0C 40 (主卧窗帘关)
2025-09-23 07:20:38.158 - 55 12 12 03 02 0C 40 (主卧窗帘关)
2025-09-23 07:20:39.218 - A5 00 21 FF 00 AA (次卧纱帘关)
2025-09-23 07:20:39.271 - 55 00 21 01 00 0D 01 34 AA 55 00 21 01 00 0D 01 FE (次卧纱帘电机状态返回)
2025-09-23 07:20:40.313 - A5 00 76 FF 00 AA (次卧窗帘关)
2025-09-23 07:20:40.368 - 55 00 76 01 00 0E 01 1B AA 55 00 76 01 00 0E 01 FB (次卧窗帘电机状态返回)
2025-09-23 07:20:41.410 - A5 00 B7 FF 00 AA 22 0D (书房纱帘关)
2025-09-23 07:20:42.455 - A5 00 D2 FF 00 AA 22 0C (书房窗帘关)
2025-09-23 07:20:42.508 - 55 00 D2 01 00 0D 01 0B AA 55 00 D2 01 00 0D 01 0B AA (书房窗帘电机状态返回)
2025-09-23 07:20:44.051 - 1A 22 33 62 5E 00 02 01 0F (正反转地址-厨房卷帘三, 厨房卷帘一降)
2025-09-23 07:20:45.097 - 1A 22 33 62 56 00 02 01 0F (正反转地址-厨房卷帘二, 厨房卷帘二降)
2025-09-23 07:20:45.172 - 55 00 A6 00 01 66 01 74 AA 55 00 A6 00 01 66 01 74 AA (餐厅窗帘电机状态返回)
2025-09-23 07:20:46.193 - 1A 22 33 62 4F 00 00 01 0F (正反转地址-厨房卷帘一, 厨房卷帘三降)
2025-09-23 07:20:46.688 - 55 00 21 00 01 27 01 34 AA 55 00 21 00 01 27 01 34 AA (次卧纱帘电机状态返回)
2025-09-23 07:20:47.238 - 1A BE B0 DC 04 00 02 00 (继电器地址-西阳窗帘, 西阳窗帘关)
2025-09-23 07:20:48.285 - FF FF FF FF 0E 00 02 00 (继电器地址-西阳小窗帘, 西阳小窗帘关)
2025-09-23 07:20:48.556 - 55 00 76 00 01 0E 01 1B AA 55 00 76 00 01 0E 01 1B AA (次卧窗帘电机状态返回)
2025-09-23 07:20:49.332 - 1A BE B0 DC 03 00 03 00 (继电器地址-西阳天幕, 西阳天幕关)
2025-09-23 07:20:50.378 - 1A BE B0 DC 03 00 03 00 (继电器地址-西阳天幕, 西阳天幕关)
2025-09-23 07:20:51.425 - 09 06 00 0F 02 02 38 20 (提示音咚)
2025-09-23 07:20:51.981 - EE 00 00 B1 00 00 02 FF FC FF FF (情景完成返回主页)
2025-09-23 07:20:52.108 - 55 00 D2 00 00 FE 01 0B AA 55 00 D2 00 00 FE 01 0B AA (书房窗帘电机状态返回)
2025-09-23 07:45:12.532 - 1A BE B0 DC 03 FC (继电器地址-西阳天幕)
2025-09-23 07:45:12.667 - FF
2025-09-23 07:57:11.686 - 1A BE B0 DC 01 (继电器地址-回水泵点动)
2025-09-23 07:57:11.822 - FC
2025-09-23 08:03:06.209 - 1A BE B0 DC 02 (正反转地址-外卫卷帘)
2025-09-23 08:06:59.224 - FF FF FF FF 0E (继电器地址-西阳小窗帘)
2025-09-23 08:06:59.361 - FF
2025-09-23 08:11:06.280 - 1A BE B0 DC 09 (继电器地址-客厅窗帘)
2025-09-23 08:11:06.415 - FC
2025-09-23 08:33:10.529 - 1A FF FF FF 04 FD (继电器地址-东阳衣架)
2025-09-23 08:33:10.663 - FF
2025-09-23 08:48:05.332 - 1A BE B0 DC 0A (继电器地址-客厅纱帘)
2025-09-23 08:48:05.468 - FF
2025-09-23 09:40:18.939 - 1A BE B0 DC 04 (继电器地址-西阳窗帘)
2025-09-23 09:40:19.074 - FF
2025-09-23 09:45:34.280 - FF FF FF FF 0A (继电器地址-东阳窗帘)
2025-09-23 11:06:04.408 - 1A BE B0 DC 03 FC (继电器地址-西阳天幕)
2025-09-23 11:06:04.544 - FF
