2025-09-23 21:41:01.931 - 02 AF 06 17 03 CF FF (查询门锁状态)
2025-09-23 21:52:08.217 - 19 08 24 03 CC 01 CC 00 01 (调用茶吧感应灯开的按键)
2025-09-23 21:52:08.268 - 1A AA AA AA 88 FF B0 01 FF B0 01 0F (调光器地址-茶吧灯带, 茶吧灯带明亮)
2025-09-23 21:52:20.744 - 19 08 24 03 CC 01 CD 00 01 (调用茶吧感应灯关的按键)
2025-09-23 21:52:20.771 - 1A AA AA AA 88 FF 00 01 FF 00 01 0F (调光器地址-茶吧灯带, 茶吧灯带关闭)
2025-09-23 21:52:34.268 - 19 08 24 03 CC 01 CC 00 01 (调用茶吧感应灯开的按键)
2025-09-23 21:52:34.299 - 1A AA AA AA 88 FF B0 01 FF B0 01 0F (调光器地址-茶吧灯带, 茶吧灯带明亮)
2025-09-23 21:53:25.368 - 19 08 24 03 CC 01 CD 00 01 (调用茶吧感应灯关的按键)
2025-09-23 21:53:25.400 - 1A AA AA AA 88 FF 00 01 FF 00 01 0F (调光器地址-茶吧灯带, 茶吧灯带关闭)
2025-09-23 21:58:14.374 - 1A FF FF FF 04 (继电器地址-东阳衣架)
2025-09-23 22:05:15.773 - 19 08 24 03 CC 01 CC 00 01 (调用茶吧感应灯开的按键)
2025-09-23 22:05:15.846 - 1A AA AA AA 88 FF B0 01 FF B0 01 0F (调光器地址-茶吧灯带, 茶吧灯带明亮)
2025-09-23 22:05:36.313 - 19 08 24 03 CC 01 CD 00 01 (调用茶吧感应灯关的按键)
2025-09-23 22:05:36.362 - 1A AA AA AA 88 FF 00 01 FF 00 01 0F (调光器地址-茶吧灯带, 茶吧灯带关闭)
2025-09-23 22:07:17.395 - 19 08 24 03 CC 00 D4 00 01 (调用厨房感应灯关的按键)
2025-09-23 22:07:17.431 - 55 0A 31 00 00 00 01 91 55 0A 31 00 00 00 02 92 (厨房顶灯一关, 厨房顶灯二关)
2025-09-23 22:07:54.469 - 19 08 24 03 CC 00 D3 00 01 (调用厨房感应灯开的按键)
2025-09-23 22:07:54.506 - 55 0A 32 00 00 00 01 92 55 0A 32 00 00 00 02 93 (厨房顶灯一开, 厨房顶灯二开)
2025-09-23 22:12:11.434 - 1A BE B0 DC 0A (继电器地址-客厅纱帘)
2025-09-23 22:12:11.570 - FC
2025-09-23 22:12:32.015 - 19 08 24 03 CC 00 D4 00 01 (调用厨房感应灯关的按键)
2025-09-23 22:12:32.069 - 55 0A 31 00 00 00 01 91 55 0A 31 00 00 00 02 92 (厨房顶灯一关, 厨房顶灯二关)
2025-09-23 22:13:25.120 - 19 08 24 03 CC 00 D3 00 01 (调用厨房感应灯开的按键)
2025-09-23 22:13:25.173 - 55 0A 32 00 00 00 01 92 55 0A 32 00 00 00 02 93 (厨房顶灯一开, 厨房顶灯二开)
2025-09-23 22:22:55.742 - 19 08 24 03 CC 00 D4 00 01 (调用厨房感应灯关的按键)
2025-09-23 22:22:55.778 - 55 0A 31 00 00 00 01 91 55 0A 31 00 00 00 02 92 (厨房顶灯一关, 厨房顶灯二关)
2025-09-23 22:27:41.304 - 19 08 24 03 CC 00 D3 00 01 (调用厨房感应灯开的按键)
2025-09-23 22:27:41.341 - 55 0A 32 00 00 00 01 92 55 0A 32 00 00 00 02 93 (厨房顶灯一开, 厨房顶灯二开)
2025-09-23 22:27:57.062 - 55 0C 32 00 00 00 01 94 (餐厅顶灯开)
2025-09-23 22:28:07.801 - 55 0C 31 00 00 00 01 93 (餐厅顶灯关)
2025-09-23 22:29:26.511 - 19 08 24 03 CC 00 D4 00 01 (调用厨房感应灯关的按键)
2025-09-23 22:29:26.568 - 55 0A 31 00 00 00 01 91 55 0A 31 00 00 00 02 92 (厨房顶灯一关, 厨房顶灯二关)
2025-09-23 22:29:41.572 - 55 0C 12 00 00 00 01 74
2025-09-23 22:29:41.598 - 22 0C 12 00 00 00 01 41
2025-09-23 22:30:01.306 - 55 0C 11 00 00 00 01 73
2025-09-23 22:30:01.332 - 22 0C 11 00 00 00 00 3F
2025-09-23 22:32:30.818 - 55 0C 21 00 01 00 01 84
2025-09-23 22:32:30.842 - 22 0C 21 00 00 00 01 50
2025-09-23 22:32:33.632 - 55 0C 21 00 01 00 01 84
2025-09-23 22:32:33.660 - 22 0C 21 00 00 00 01 50
2025-09-23 22:32:52.550 - 55 0C 21 01 00 00 01 84
2025-09-23 22:32:52.574 - 22 0C 21 00 00 00 01 50
2025-09-23 22:33:41.580 - 55 0C 11 00 00 00 01 73
2025-09-23 22:33:41.606 - 22 0C 11 00 00 00 00 3F
2025-09-23 22:34:01.598 - 55 0C 21 00 05 00 01 88
2025-09-23 22:34:01.622 - 22 0C 21 00 00 00 01 50
2025-09-23 22:34:04.664 - 55 0C 21 00 05 00 01 88
2025-09-23 22:34:04.687 - 22 0C 21 00 00 00 01 50
2025-09-23 22:34:38.644 - 55 0C 21 00 05 00 01 88
2025-09-23 22:34:38.669 - 22 0C 21 00 00 00 01 50
2025-09-23 22:34:50.812 - 55 0C 21 00 05 00 01 88
2025-09-23 22:34:50.837 - 22 0C 21 00 00 00 01 50
2025-09-23 22:35:49.845 - 55 0C 21 00 13 88 01 1D
2025-09-23 22:35:53.860 - 55 0C 21 00 13 88 01 1D
2025-09-23 22:36:33.925 - 55 0C 21 00 13 88 01 1E
2025-09-23 22:36:33.950 - 22 0C 21 00 00 00 01 50
2025-09-23 22:37:42.790 - 55 0C 21 00 27 10 01 BA
2025-09-23 22:37:42.815 - 22 0C 21 00 00 00 01 50
2025-09-23 22:39:07.017 - 55 0C 12 00 00 00 01 74
2025-09-23 22:39:07.042 - 22 0C 12 00 00 00 01 41
2025-09-23 22:39:16.020 - 55 0C 22 00 27 10 01 BB
2025-09-23 22:39:16.044 - 22 0C 22 00 00 00 00 50
2025-09-23 22:39:37.417 - 55 0C 11 00 00 00 01 73
2025-09-23 22:39:37.443 - 22 0C 11 00 00 00 00 3F
2025-09-23 22:40:34.297 - 55 0C 10 00 00 00 00 71
2025-09-23 22:40:34.324 - 22 0C 10 00 00 00 00 3E
2025-09-23 22:41:18.196 - 55 0C 32 00 00 00 01 94 (餐厅顶灯开)
2025-09-23 22:41:25.245 - 55 0C 10 00 00 00 00 71
2025-09-23 22:41:25.271 - 22 0C 10 00 00 00 01 3F
2025-09-23 22:45:46.848 - 55 0C 31 00 00 00 01 93 (餐厅顶灯关)
2025-09-23 22:48:40.503 - 1A AA AA AA 66 00 00 02 0F (调光器地址-东阳筒灯, 东阳筒灯开关)
2025-09-23 22:48:46.775 - 1A AA AA AA 66 00 64 00 00 64 00 0F (调光器地址-东阳筒灯)
2025-09-23 22:48:47.694 - 1A AA AA AA 66 00 0F (调光器地址-东阳筒灯)
2025-09-23 22:49:01.980 - 19 08 24 03 CC 01 CC 00 01 (调用茶吧感应灯开的按键)
2025-09-23 22:49:02.029 - 1A AA AA AA 88 FF B0 01 FF B0 01 0F (调光器地址-茶吧灯带, 茶吧灯带明亮)
2025-09-23 22:49:10.097 - 19 08 24 03 DD 00 13 00 01 (调用情景-公共区域关)
2025-09-23 22:49:10.643 - EE 00 00 B1 00 00 00 FF FC FF FF (情景执行提示)
2025-09-23 22:49:11.235 - 09 06 00 0F 02 01 78 21 (提示音叮)
2025-09-23 22:49:11.784 - 55 0B 31 00 00 00 01 92 (厨房风扇只关)
2025-09-23 22:49:12.832 - 01 06 07 D3 FF 60 38 9F (餐厅空调关)
2025-09-23 22:49:12.866 - 01 06 07 D3 FF 60 38 9F (餐厅空调关)
2025-09-23 22:49:13.927 - 01 06 07 D0 FF 60 C8 9F (客厅空调关)
2025-09-23 22:49:13.958 - 01 06 07 D0 FF 60 C8 9F (客厅空调关)
2025-09-23 22:49:18.010 - 50 F5 02 (关厨房影视)
2025-09-23 22:49:19.058 - 50 F5 01 (关餐厅影视)
2025-09-23 22:49:20.104 - 50 F5 08 (关客厅影视)
2025-09-23 22:49:21.150 - 50 F5 03 (关外卫影视)
2025-09-23 22:49:22.203 - 55 0A 31 00 00 00 01 91 (厨房顶灯一关)
2025-09-23 22:49:23.249 - 55 0A 31 00 00 00 02 92 (厨房顶灯二关)
2025-09-23 22:49:24.294 - 55 0C 31 00 00 00 01 93 (餐厅顶灯关)
2025-09-23 22:49:25.342 - 1A 18 05 10 31 00 01 00 0F (自保持开关地址-门厅顶灯, 门厅顶灯关)
2025-09-23 22:49:26.388 - 1A 20 07 00 42 00 01 00 0F (自保持开关地址-外卫顶灯, 外卫顶灯关)
2025-09-23 22:49:27.435 - 1A 18 05 21 89 00 01 00 0F (自保持开关地址-客厅顶灯, 客厅顶灯一关)
2025-09-23 22:49:28.482 - 1A 18 05 01 94 00 01 00 0F (自保持开关地址-客厅顶灯, 客厅顶灯二关)
2025-09-23 22:49:29.528 - 1A 20 07 01 30 00 01 00 0F (自保持开关地址-西阳顶灯, 西阳顶灯关)
2025-09-23 22:49:30.580 - 1A FF 01 FF FF FF 00 01 FF 00 01 FF 00 00 0F (调光器地址-公共区域统配地址, 公共区域灯光全关)
2025-09-23 22:49:31.670 - 09 06 00 0F 02 02 38 20 (提示音咚)
2025-09-23 22:49:33.716 - EE 00 00 B1 00 00 02 FF FC FF FF (情景完成返回主页)
2025-09-23 22:50:01.110 - 19 08 24 03 CC 01 CD 00 01 (调用茶吧感应灯关的按键)
2025-09-23 22:50:01.160 - 1A AA AA AA 88 FF 00 01 FF 00 01 0F (调光器地址-茶吧灯带, 茶吧灯带关闭)
2025-09-23 22:56:05.845 - 19 08 24 03 DD 00 4F 00 01 (调用情景-内卫使用完毕)
2025-09-23 22:56:06.379 - EE 00 00 B1 00 00 00 FF FC FF FF (情景执行提示)
2025-09-23 22:56:06.976 - 09 06 00 0F 02 01 78 21 (提示音叮)
2025-09-23 22:56:07.531 - 1A 0C 02 08 01 FF 00 01 FF 00 01 FF 00 00 0F (调光器地址-内卫射灯, 内卫感应灯关)
2025-09-23 22:56:11.605 - 50 F5 04 (关内卫影视)
2025-09-23 22:56:12.157 - 1A 20 07 01 40 00 01 00 0F (自保持开关地址-内卫顶灯, 内卫顶灯关)
2025-09-23 22:56:12.706 - 1A FF FF FF 56 00 00 01 0F (人体感应地址-内卫, 打开内卫感应)
2025-09-23 22:56:12.818 - BC BC
2025-09-23 22:56:13.125 - 19 08 24 03 CC 01 54 00 01 (调用内卫感应灯开的按键)
2025-09-23 22:56:13.178 - 1A 0C 02 08 01 FF 45 01 FF 45 01 FF 00 00 0F (调光器地址-内卫射灯, 内卫射灯微光)
2025-09-23 22:56:15.599 - 09 06 00 0F 02 02 38 20 (提示音咚)
2025-09-23 22:56:16.199 - EE 00 00 B1 00 00 02 FF FC FF FF (情景完成返回主页)
2025-09-23 22:56:27.854 - 19 08 24 03 CC 01 55 00 01 (调用内卫感应灯关的按键)
2025-09-23 22:56:27.888 - 1A 0C 02 08 01 FF 00 01 FF 00 01 FF 00 00 0F (调光器地址-内卫射灯, 内卫感应灯关)
2025-09-23 22:59:04.049 - 19 08 24 03 CC 00 D3 00 01 (调用厨房感应灯开的按键)
2025-09-23 22:59:04.084 - 55 0A 32 00 00 00 01 92 55 0A 32 00 00 00 02 93 (厨房顶灯一开, 厨房顶灯二开)
2025-09-23 23:00:25.209 - 19 08 24 03 CC 00 D4 00 01 (调用厨房感应灯关的按键)
2025-09-23 23:00:25.243 - 55 0A 31 00 00 00 01 91 55 0A 31 00 00 00 02 92 (厨房顶灯一关, 厨房顶灯二关)
2025-09-23 23:01:12.664 - 1A BE B0 DC 04 FC (继电器地址-西阳窗帘)
2025-09-23 23:01:12.797 - FE
2025-09-23 23:04:32.695 - 19 08 24 03 CC 00 D3 00 01 (调用厨房感应灯开的按键)
2025-09-23 23:04:32.748 - 55 0A 32 00 00 00 01 92 55 0A 32 00 00 00 02 93 (厨房顶灯一开, 厨房顶灯二开)
2025-09-23 23:12:22.119 - 19 08 24 03 CC 00 D4 00 01 (调用厨房感应灯关的按键)
2025-09-23 23:12:22.174 - 55 0A 31 00 00 00 01 91 55 0A 31 00 00 00 02 92 (厨房顶灯一关, 厨房顶灯二关)
2025-09-23 23:14:09.331 - 19 08 24 03 CC 00 D3 00 01 (调用厨房感应灯开的按键)
2025-09-23 23:14:09.365 - 55 0A 32 00 00 00 01 92 55 0A 32 00 00 00 02 93 (厨房顶灯一开, 厨房顶灯二开)
2025-09-23 23:14:09.966 - FF FF FF FF 0A FC (继电器地址-东阳窗帘)
2025-09-23 23:14:10.100 - FE
2025-09-23 23:18:07.300 - 19 08 24 03 CC 00 D4 00 01 (调用厨房感应灯关的按键)
2025-09-23 23:18:07.351 - 55 0A 31 00 00 00 01 91 55 0A 31 00 00 00 02 92 (厨房顶灯一关, 厨房顶灯二关)
2025-09-23 23:30:06.215 - 19 08 24 03 CC 00 D3 00 01 (调用厨房感应灯开的按键)
2025-09-23 23:30:06.268 - 55 0A 32 00 00 00 01 92 55 0A 32 00 00 00 02 93 (厨房顶灯一开, 厨房顶灯二开)
2025-09-23 23:30:50.301 - 19 08 24 03 CC 00 D4 00 01 (调用厨房感应灯关的按键)
2025-09-23 23:30:50.334 - 55 0A 31 00 00 00 01 91 55 0A 31 00 00 00 02 92 (厨房顶灯一关, 厨房顶灯二关)
2025-09-23 23:43:40.324 - 19 08 24 03 CC 00 D3 00 01 (调用厨房感应灯开的按键)
2025-09-23 23:43:40.352 - 55 0A 32 00 00 00 01 92 55 0A 32 00 00 00 02 93 (厨房顶灯一开, 厨房顶灯二开)
2025-09-23 23:44:39.932 - 19 08 24 03 CC 00 D4 00 01 (调用厨房感应灯关的按键)
2025-09-23 23:44:39.993 - 55 0A 31 00 00 00 01 91 55 0A 31 00 00 00 02 92 (厨房顶灯一关, 厨房顶灯二关)
2025-09-24 00:12:57.444 - 19 08 24 03 CC 01 CC 00 01 (调用茶吧感应灯开的按键)
2025-09-24 00:12:57.475 - 1A AA AA AA 88 FF B0 01 FF B0 01 0F (调光器地址-茶吧灯带, 茶吧灯带明亮)
2025-09-24 00:13:04.957 - 19 08 24 03 CC 01 CD 00 01 (调用茶吧感应灯关的按键)
2025-09-24 00:13:04.989 - 1A AA AA AA 88 FF 00 01 FF 00 01 0F (调光器地址-茶吧灯带, 茶吧灯带关闭)
2025-09-24 00:32:10.674 - 1A BE B0 DC 03 FC (继电器地址-西阳天幕)
2025-09-24 00:32:10.812 - FF
2025-09-24 00:44:08.753 - 1A BE B0 DC 01 FC (继电器地址-回水泵点动)
2025-09-24 00:44:08.888 - FF
2025-09-24 00:47:02.431 - 19 08 24 03 CC 01 54 00 01 (调用内卫感应灯开的按键)
2025-09-24 00:47:02.480 - 1A 0C 02 08 01 FF 45 01 FF 45 01 FF 00 00 0F (调光器地址-内卫射灯, 内卫射灯微光)
2025-09-24 00:48:03.458 - 19 08 24 03 DD 00 4B 00 01 (调用情景-主卧睡觉)
2025-09-24 00:48:03.998 - EE 00 00 B1 00 00 00 FF FC FF FF (情景执行提示)
2025-09-24 00:48:04.596 - 09 06 00 0F 02 01 78 21 (提示音叮)
2025-09-24 00:48:05.185 - 50 F5 04 (关内卫影视)
2025-09-24 00:48:05.742 - 55 11 1D 03 01 7C 06 (主卧纱帘关)
2025-09-24 00:48:05.782 - 55 11 1D 03 01 7C 06 (主卧纱帘关)
2025-09-24 00:48:06.835 - 55 12 12 03 02 0C 40 (主卧窗帘关)
2025-09-24 00:48:06.875 - 55 12 12 03 02 0C 40 (主卧窗帘关)
2025-09-24 00:48:07.933 - 1A 22 33 62 0F 00 02 01 0F (正反转地址-内卫卷帘, 内卫卷帘降)
2025-09-24 00:48:08.982 - 1A 20 07 01 40 00 01 00 0F (自保持开关地址-内卫顶灯, 内卫顶灯关)
2025-09-24 00:48:10.026 - 1A 20 07 01 55 00 01 00 0F (自保持开关地址-主卧顶灯, 主卧顶灯只关)
2025-09-24 00:48:10.574 - 1A FF FF FF 56 00 00 01 0F (人体感应地址-内卫, 打开内卫感应)
2025-09-24 00:48:10.586 - BC BC
2025-09-24 00:48:11.564 - 19 08 24 03 CC 01 55 00 01 (调用内卫感应灯关的按键)
2025-09-24 00:48:14.169 - 1A 0C 02 08 01 FF 00 01 FF 00 01 FF 00 00 0F (调光器地址-内卫射灯, 内卫感应灯关)
2025-09-24 00:48:14.769 - 1A 0C 02 04 01 FF 00 01 FF 00 01 FF 00 00 0F (调光器地址-主卧筒灯, 主卧筒灯关闭)
2025-09-24 00:48:15.365 - 1A 0C 02 04 03 FF 00 01 FF 00 01 FF 00 00 0F (调光器地址-主卧灯带, 主卧灯带关闭)
2025-09-24 00:48:15.965 - 1A 0C 02 04 04 FF 00 01 FF 00 01 FF 00 00 0F (调光器地址-主卧南阅, 主卧南阅关闭)
2025-09-24 00:48:16.562 - 1A 0C 02 04 05 FF 00 01 FF 00 01 FF 00 00 0F (调光器地址-主卧北阅, 主卧北阅关闭)
2025-09-24 00:48:17.159 - 1A 0C 02 04 02 FF 00 01 FF 00 01 FF 00 00 0F (调光器地址-主卧过道, 主卧过道关闭)
2025-09-24 00:48:17.750 - 09 06 00 0F 02 02 38 20 (提示音咚)
2025-09-24 00:48:18.301 - EE 00 00 B1 00 00 02 FF FC FF FF (情景完成返回主页)
2025-09-24 00:49:12.015 - 1A BE B0 DC 02 (正反转地址-外卫卷帘)
2025-09-24 00:49:12.152 - FF
2025-09-24 00:49:54.775 - 19 08 24 03 CC 01 54 00 01 (调用内卫感应灯开的按键)
2025-09-24 00:49:54.825 - 1A 0C 02 08 01 FF 45 01 FF 45 01 FF 00 00 0F (调光器地址-内卫射灯, 内卫射灯微光)
2025-09-24 00:50:11.618 - FF FF FF FF 0E (继电器地址-西阳小窗帘)
2025-09-24 00:50:11.755 - FF
2025-09-24 00:50:15.819 - 19 08 24 03 CC 01 55 00 01 (调用内卫感应灯关的按键)
2025-09-24 00:50:15.868 - 1A 0C 02 08 01 FF 00 01 FF 00 01 FF 00 00 0F (调光器地址-内卫射灯, 内卫感应灯关)
2025-09-24 00:57:10.234 - 1A BE B0 DC 09 (继电器地址-客厅窗帘)
2025-09-24 00:57:10.368 - FE
2025-09-24 00:58:43.677 - 19 08 24 03 CC 00 D3 00 01 (调用厨房感应灯开的按键)
2025-09-24 00:58:43.732 - 55 0A 32 00 00 00 01 92 55 0A 32 00 00 00 02 93 (厨房顶灯一开, 厨房顶灯二开)
2025-09-24 00:59:39.787 - 19 08 24 03 CC 00 D4 00 01 (调用厨房感应灯关的按键)
2025-09-24 00:59:39.842 - 55 0A 31 00 00 00 01 91 55 0A 31 00 00 00 02 92 (厨房顶灯一关, 厨房顶灯二关)
2025-09-24 01:20:10.648 - 1A FF FF FF 04 (继电器地址-东阳衣架)
2025-09-24 01:34:06.122 - 1A BE B0 DC 0A (继电器地址-客厅纱帘)
2025-09-24 01:34:06.260 - FC
2025-09-24 02:01:11.296 - 19 08 24 03 CC 01 CC 00 01 (调用茶吧感应灯开的按键)
2025-09-24 02:01:11.367 - 1A AA AA AA 88 FF B0 01 FF B0 01 0F (调光器地址-茶吧灯带, 茶吧灯带明亮)
2025-09-24 02:01:18.812 - 19 08 24 03 CC 01 CD 00 01 (调用茶吧感应灯关的按键)
2025-09-24 02:01:18.861 - 1A AA AA AA 88 FF 00 01 FF 00 01 0F (调光器地址-茶吧灯带, 茶吧灯带关闭)
2025-09-24 02:13:35.673 - 19 08 24 03 CC 01 54 00 01 (调用内卫感应灯开的按键)
2025-09-24 02:13:35.706 - 1A 0C 02 08 01 FF 45 01 FF 45 01 FF 00 00 0F (调光器地址-内卫射灯, 内卫射灯微光)
2025-09-24 02:15:35.907 - 19 08 24 03 CC 01 55 00 01 (调用内卫感应灯关的按键)
2025-09-24 02:15:35.943 - 1A 0C 02 08 01 FF 00 01 FF 00 01 FF 00 00 0F (调光器地址-内卫射灯, 内卫感应灯关)
2025-09-24 02:17:15.604 - 19 08 24 03 CC 01 54 00 01 (调用内卫感应灯开的按键)
2025-09-24 02:17:15.638 - 1A 0C 02 08 01 FF 45 01 FF 45 01 FF 00 00 0F (调光器地址-内卫射灯, 内卫射灯微光)
2025-09-24 02:17:36.646 - 19 08 24 03 CC 01 55 00 01 (调用内卫感应灯关的按键)
2025-09-24 02:17:36.679 - 1A 0C 02 08 01 FF 00 01 FF 00 01 FF 00 00 0F (调光器地址-内卫射灯, 内卫感应灯关)
2025-09-24 02:21:36.646 - 1A BE B0 DC 04 (继电器地址-西阳窗帘)
2025-09-24 02:21:36.782 - FF
2025-09-24 02:35:44.582 - FF FF FF FF 0A FF (继电器地址-东阳窗帘)
2025-09-24 02:35:44.715 - FF
2025-09-24 02:59:44.101 - 50 F7 01 (全屋影音全关)
2025-09-24 03:53:04.369 - 1A BE B0 DC 03 FC (继电器地址-西阳天幕)
2025-09-24 04:05:01.874 - 1A BE B0 DC 01 FE (继电器地址-回水泵点动)
2025-09-24 04:09:38.433 - 1A BE B0 DC 02 (正反转地址-外卫卷帘)
2025-09-24 04:09:38.566 - FF
2025-09-24 04:10:10.248 - FF FF FF FF 0E (继电器地址-西阳小窗帘)
2025-09-24 04:17:28.258 - 1A BE B0 DC 09 (继电器地址-客厅窗帘)
2025-09-24 04:17:28.395 - FF
2025-09-24 04:29:44.002 - EE 00 00 B1 00 00 00 FF FC FF FF (情景执行提示)
2025-09-24 04:29:44.597 - A5 00 A2 FF 00 AA (餐厅纱帘关)
2025-09-24 04:29:45.691 - A5 00 A6 FF 00 AA (餐厅窗帘关)
2025-09-24 04:29:45.746 - 55 00 A6 01 00 0F 01 74 AA 55 00 A6 01 00 0F 01 74 AA (餐厅窗帘电机状态返回)
2025-09-24 04:29:46.789 - A5 00 B7 FF 00 AA 22 0D (书房纱帘关)
2025-09-24 04:29:47.889 - A5 00 D2 FF 00 AA 22 0C (书房窗帘关)
2025-09-24 04:29:47.937 - 55 00 D2 01 00 0E 01 0B AA 55 00 D2 01 00 0E 01 0B AA (书房窗帘电机状态返回)
2025-09-24 04:29:49.017 - EE 00 00 B1 00 00 02 FF FC FF FF (情景完成返回主页)
2025-09-24 04:29:54.450 - 55 00 A6 00 01 66 01 74 AA 55 00 A6 00 01 66 01 74 AA (餐厅窗帘电机状态返回)
2025-09-24 04:29:58.071 - 55 00 D2 00 00 FE 01 0B AA 55 00 D2 00 00 FE 01 0B AA (书房窗帘电机状态返回)
2025-09-24 04:41:01.280 - 1A FF FF FF 04 (继电器地址-东阳衣架)
2025-09-24 04:41:01.418 - FF
2025-09-24 04:51:24.972 - 19 08 24 03 CC 01 CC 00 01 (调用茶吧感应灯开的按键)
2025-09-24 04:51:25.022 - 1A AA AA AA 88 FF B0 01 FF B0 01 0F (调光器地址-茶吧灯带, 茶吧灯带明亮)
2025-09-24 04:51:32.490 - 19 08 24 03 CC 01 CD 00 01 (调用茶吧感应灯关的按键)
2025-09-24 04:51:32.537 - 1A AA AA AA 88 FF 00 01 FF 00 01 0F (调光器地址-茶吧灯带, 茶吧灯带关闭)
2025-09-24 04:54:39.775 - 1A BE B0 DC 0A (继电器地址-客厅纱帘)
2025-09-24 04:54:39.909 - FE
2025-09-24 05:41:20.124 - 1A BE B0 DC 04 FE (继电器地址-西阳窗帘)
2025-09-24 05:41:20.256 - FF
2025-09-24 05:55:53.005 - FF FF FF FF 0A FE (继电器地址-东阳窗帘)
2025-09-24 05:55:53.137 - FF
2025-09-24 06:30:54.591 - 19 08 24 03 CC 01 54 00 01 (调用内卫感应灯开的按键)
2025-09-24 06:30:54.669 - 1A 0C 02 08 01 FF 45 01 FF 45 01 FF 00 00 0F (调光器地址-内卫射灯, 内卫射灯微光)
2025-09-24 06:33:01.343 - 19 08 24 03 CC 01 55 00 01 (调用内卫感应灯关的按键)
2025-09-24 06:33:01.394 - 1A 0C 02 08 01 FF 00 01 FF 00 01 FF 00 00 0F (调光器地址-内卫射灯, 内卫感应灯关)
2025-09-24 06:34:41.539 - 19 08 24 03 CC 01 54 00 01 (调用内卫感应灯开的按键)
2025-09-24 06:34:41.574 - 1A 0C 02 08 01 FF 45 01 FF 45 01 FF 00 00 0F (调光器地址-内卫射灯, 内卫射灯微光)
2025-09-24 06:35:02.580 - 19 08 24 03 CC 01 55 00 01 (调用内卫感应灯关的按键)
2025-09-24 06:35:02.614 - 1A 0C 02 08 01 FF 00 01 FF 00 01 FF 00 00 0F (调光器地址-内卫射灯, 内卫感应灯关)
2025-09-24 06:44:44.190 - EE 00 00 B1 00 00 00 FF FC FF FF (情景执行提示)
2025-09-24 06:44:44.785 - 09 06 00 0F 02 01 78 21 (提示音叮)
2025-09-24 06:44:45.380 - 50 F0 04 (开内卫影视)
2025-09-24 06:44:45.925 - 50 F0 05 (开主卧影视)
2025-09-24 06:44:46.478 - 55 11 1D 03 01 7C 06 (主卧纱帘关)
2025-09-24 06:44:46.519 - 55 11 1D 03 01 7C 06 (主卧纱帘关)
2025-09-24 06:44:47.076 - 55 11 1D 03 01 7C 06 (主卧纱帘关)
2025-09-24 06:44:47.119 - 55 11 1D 03 01 7C 06 (主卧纱帘关)
2025-09-24 06:44:47.672 - 55 12 12 03 01 4C 41 (主卧窗帘开)
2025-09-24 06:44:47.713 - 55 12 12 03 01 4C 41 (主卧窗帘开)
2025-09-24 06:44:48.774 - 55 12 12 03 01 4C 41 (主卧窗帘开)
2025-09-24 06:44:48.812 - 55 12 12 03 01 4C 41 (主卧窗帘开)
2025-09-24 06:44:49.868 - 1A 22 33 62 0F 00 02 01 0F (正反转地址-内卫卷帘, 内卫卷帘降)
2025-09-24 06:44:50.465 - 1A FF FF FF 56 00 00 00 0F (人体感应地址-内卫, 关闭内卫感应)
2025-09-24 06:44:50.577 - BC BC
2025-09-24 06:44:51.014 - 1A 20 07 01 55 00 01 00 0F (自保持开关地址-主卧顶灯, 主卧顶灯只关)
2025-09-24 06:44:52.067 - 1A 0C 02 08 01 FF F0 01 FF F0 01 FF 00 00 0F (调光器地址-内卫射灯, 内卫射灯明亮)
2025-09-24 06:44:52.665 - 1A 0C 02 04 01 FF 00 01 FF 00 01 FF 00 00 0F (调光器地址-主卧筒灯, 主卧筒灯关闭)
2025-09-24 06:44:53.262 - 1A 0C 02 04 03 FF 45 01 FF 45 01 FF 00 00 0F (调光器地址-主卧灯带, 主卧灯带微光)
2025-09-24 06:44:53.859 - 1A 0C 02 04 02 FF F0 01 FF 00 01 FF 00 00 0F (调光器地址-主卧过道, 主卧过道暖光)
2025-09-24 06:44:54.457 - 1A 0C 02 04 05 FF 00 01 FF 00 01 FF 00 00 0F (调光器地址-主卧北阅, 主卧北阅关闭)
2025-09-24 06:44:55.056 - 1A 0C 02 04 04 FF 00 01 FF 00 01 FF 00 00 0F (调光器地址-主卧南阅, 主卧南阅关闭)
2025-09-24 06:44:56.140 - 50 F1 24 (内卫—有线2)
2025-09-24 06:44:57.186 - 50 F1 25 (主卧—有线2)
2025-09-24 06:44:58.236 - AF BF CF DF C2 21 (有线2/快捷-凤凰卫视)
2025-09-24 06:44:58.837 - 1A FF FF FF 60 0B 01 01 0F (红外总线地址-主卧发射设备, 主卧电视电源)
2025-09-24 06:44:59.358 - F0 0B 01 08
2025-09-24 06:44:59.887 - 1A BE B0 DC 01 00 01 00 (继电器地址-回水泵点动, 回水泵点动)
2025-09-24 06:45:03.921 - 09 06 00 0F 02 02 38 20 (提示音咚)
2025-09-24 06:45:04.473 - EE 00 00 B1 00 00 02 FF FC FF FF (情景完成返回主页)
2025-09-24 06:45:05.564 - A1 11 11 11 11 01 (内卫浴霸取暖判断)
2025-09-24 06:45:05.790 - 14 03 00 00 00 02 C6 CE (查询内卫温湿度)
2025-09-24 06:45:05.814 - 14 03 04 02 26 00 FD 9F 00 (内卫温湿度返回)
2025-09-24 07:14:01.898 - 1A BE B0 DC 03 (继电器地址-西阳天幕)
2025-09-24 07:14:02.035 - FF
2025-09-24 07:14:50.371 - 19 08 24 03 DD 00 40 00 01 (调用情景-离开主卧)
2025-09-24 07:14:50.933 - EE 00 00 B1 00 00 00 FF FC FF FF (情景执行提示)
2025-09-24 07:14:51.529 - 09 06 00 0F 02 01 78 21 (提示音叮)
2025-09-24 07:14:52.070 - 50 F5 05 (关主卧影视)
2025-09-24 07:14:52.619 - 50 F5 04 (关内卫影视)
2025-09-24 07:14:53.175 - 01 06 07 D6 FF 60 28 9E (主卧空调关)
2025-09-24 07:14:53.201 - 01 06 07 D6 FF 60 28 9E (主卧空调关)
2025-09-24 07:14:53.770 - 55 12 12 03 01 4C 41 (主卧窗帘开)
2025-09-24 07:14:53.815 - 55 12 12 03 01 4C 41 (主卧窗帘开)
2025-09-24 07:14:54.866 - 55 12 12 03 01 4C 41 (主卧窗帘开)
2025-09-24 07:14:54.905 - 55 12 12 03 01 4C 41 (主卧窗帘开)
2025-09-24 07:14:55.961 - 55 11 1D 03 02 3C 07 (主卧纱帘开)
2025-09-24 07:14:56.005 - 55 11 1D 03 02 3C 07 (主卧纱帘开)
2025-09-24 07:14:56.560 - 55 11 1D 03 02 3C 07 (主卧纱帘开)
2025-09-24 07:14:56.600 - 55 11 1D 03 02 3C 07 (主卧纱帘开)
2025-09-24 07:14:57.158 - 1A 22 33 62 0F 00 00 01 0F (正反转地址-内卫卷帘, 内卫卷帘升)
2025-09-24 07:14:58.206 - 1A 20 07 01 40 00 01 00 0F (自保持开关地址-内卫顶灯, 内卫顶灯关)
2025-09-24 07:14:59.252 - 1A 20 07 01 55 00 01 00 0F (自保持开关地址-主卧顶灯, 主卧顶灯只关)
2025-09-24 07:14:59.806 - 1A 0C 02 08 01 FF 00 01 FF 00 01 FF 00 00 0F (调光器地址-内卫射灯, 内卫感应灯关)
2025-09-24 07:15:00.398 - 1A FF FF FF 56 00 00 01 0F (人体感应地址-内卫, 打开内卫感应)
2025-09-24 07:15:00.509 - BE BF
2025-09-24 07:15:00.816 - 19 08 24 03 CC 01 54 00 01 (调用内卫感应灯开的按键)
2025-09-24 07:15:00.869 - 1A 0C 02 08 01 FF 45 01 FF 45 01 FF 00 00 0F (调光器地址-内卫射灯, 内卫射灯微光)
2025-09-24 07:15:04.293 - 1A 0C 02 04 FF FF 00 01 FF 00 01 FF 00 00 0F (主卧调光全关)
2025-09-24 07:15:05.383 - 09 06 00 0F 02 02 38 20 (提示音咚)
2025-09-24 07:15:05.985 - EE 00 00 B1 00 00 02 FF FC FF FF (情景完成返回主页)
2025-09-24 07:15:22.038 - 19 08 24 03 CC 01 CC 00 01 (调用茶吧感应灯开的按键)
2025-09-24 07:15:22.069 - 1A AA AA AA 88 FF B0 01 FF B0 01 0F (调光器地址-茶吧灯带, 茶吧灯带明亮)
2025-09-24 07:15:37.591 - 19 08 24 03 CC 01 55 00 01 (调用内卫感应灯关的按键)
2025-09-24 07:15:37.626 - 1A 0C 02 08 01 FF 00 01 FF 00 01 FF 00 00 0F (调光器地址-内卫射灯, 内卫感应灯关)
2025-09-24 07:15:56.605 - 19 08 24 03 CC 01 CD 00 01 (调用茶吧感应灯关的按键)
2025-09-24 07:15:56.637 - 1A AA AA AA 88 FF 00 01 FF 00 01 0F (调光器地址-茶吧灯带, 茶吧灯带关闭)
2025-09-24 07:16:08.129 - 19 08 24 03 CC 01 CC 00 01 (调用茶吧感应灯开的按键)
2025-09-24 07:16:08.159 - 1A AA AA AA 88 FF B0 01 FF B0 01 0F (调光器地址-茶吧灯带, 茶吧灯带明亮)
2025-09-24 07:16:15.644 - 19 08 24 03 CC 01 CD 00 01 (调用茶吧感应灯关的按键)
2025-09-24 07:16:15.674 - 1A AA AA AA 88 FF 00 01 FF 00 01 0F (调光器地址-茶吧灯带, 茶吧灯带关闭)
2025-09-24 07:16:56.366 - 19 08 24 03 DD 00 00 00 01 (调用情景-离家（末）)
2025-09-24 07:16:56.900 - EE 00 00 B1 00 00 00 FF FC FF FF (情景执行提示)
2025-09-24 07:16:57.494 - 09 06 00 0F 02 02 38 20 (提示音咚)
2025-09-24 07:16:58.037 - 50 F7 01 (全屋影音全关)
2025-09-24 07:16:58.591 - 01 06 07 D0 FF 60 C8 9F (客厅空调关)
2025-09-24 07:16:58.619 - 01 06 07 D0 FF 60 C8 9F (客厅空调关)
2025-09-24 07:16:59.188 - 01 06 07 D0 FF 60 C8 9F (客厅空调关)
2025-09-24 07:16:59.216 - 01 06 07 D0 FF 60 C8 9F (客厅空调关)
2025-09-24 07:16:59.785 - 01 06 07 D3 FF 60 38 9F (餐厅空调关)
2025-09-24 07:16:59.821 - 01 06 07 D3 FF 60 38 9F (餐厅空调关)
2025-09-24 07:17:00.384 - 01 06 07 D3 FF 60 38 9F (餐厅空调关)
2025-09-24 07:17:00.420 - 01 06 07 D3 FF 60 38 9F (餐厅空调关)
2025-09-24 07:17:00.983 - 01 06 07 D6 FF 60 28 9E (主卧空调关)
2025-09-24 07:17:01.014 - 01 06 07 D6 FF 60 28 9E (主卧空调关)
2025-09-24 07:17:01.580 - 01 06 07 D6 FF 60 28 9E (主卧空调关)
2025-09-24 07:17:01.610 - 01 06 07 D6 FF 60 28 9E (主卧空调关)
2025-09-24 07:17:02.177 - 01 06 07 D9 FF 60 18 9D (次卧空调关)
2025-09-24 07:17:02.205 - 01 06 07 D9 FF 60 18 9D (次卧空调关)
2025-09-24 07:17:02.826 - 01 06 07 D9 FF 60 18 9D (次卧空调关)
2025-09-24 07:17:02.862 - 01 06 07 D9 FF 60 18 9D (次卧空调关)
2025-09-24 07:17:03.423 - 01 06 07 DC FF 60 08 9C (书房空调关)
2025-09-24 07:17:03.457 - 01 06 07 DC FF 60 08 9C (书房空调关)
2025-09-24 07:17:04.021 - 01 06 07 DC FF 60 08 9C (书房空调关)
2025-09-24 07:17:04.052 - 01 06 07 DC FF 60 08 9C (书房空调关)
2025-09-24 07:17:04.621 - 09 06 00 0F 02 02 38 20 (提示音咚)
2025-09-24 07:17:05.169 - 1A FF FF FF 56 00 00 00 0F (人体感应地址-内卫, 关闭内卫感应)
2025-09-24 07:17:05.280 - BF BF
2025-09-24 07:17:05.766 - 1A FF FF FF 55 00 00 00 0F (人体感应地址-外卫, 关闭外卫感应)
2025-09-24 07:17:05.835 - BC BC
2025-09-24 07:17:06.365 - 1A FF FF FF 57 00 00 00 0F (人体感应地址-厨房, 关闭厨房感应)
2025-09-24 07:17:06.471 - BF BE
2025-09-24 07:17:06.913 - 1A FF FF FF 58 00 00 00 0F (人体感应地址-茶吧, 关闭茶吧感应)
2025-09-24 07:17:06.964 - BC BC
2025-09-24 07:17:07.512 - 1A 20 07 00 93 00 01 00 0F (自保持开关地址-设备区顶, 设备区顶灯关)
2025-09-24 07:17:08.557 - 1A 20 07 01 40 00 01 00 0F (自保持开关地址-内卫顶灯, 内卫顶灯关)
2025-09-24 07:17:09.608 - 1A 20 07 01 55 00 01 00 0F (自保持开关地址-主卧顶灯, 主卧顶灯只关)
2025-09-24 07:17:10.670 - 1A 20 07 00 42 00 01 00 0F (自保持开关地址-外卫顶灯, 外卫顶灯关)
2025-09-24 07:17:11.745 - 55 0D 31 00 00 00 01 94 (书房顶灯只关)
2025-09-24 07:17:12.790 - 55 0A 31 00 00 00 01 91 (厨房顶灯一关)
2025-09-24 07:17:13.838 - 55 0A 31 00 00 00 02 92 (厨房顶灯二关)
2025-09-24 07:17:14.886 - 55 0B 31 00 00 00 01 92 (厨房风扇只关)
2025-09-24 07:17:15.929 - 55 0C 31 00 00 00 01 93 (餐厅顶灯关)
2025-09-24 07:17:16.979 - 1A 20 07 01 30 00 01 00 0F (自保持开关地址-西阳顶灯, 西阳顶灯关)
2025-09-24 07:17:18.024 - 1A 18 05 21 89 00 01 00 0F (自保持开关地址-客厅顶灯, 客厅顶灯一关)
2025-09-24 07:17:19.070 - 1A 18 05 01 94 00 01 00 0F (自保持开关地址-客厅顶灯, 客厅顶灯二关)
2025-09-24 07:17:20.120 - 1A 20 07 00 70 00 01 00 0F (自保持开关地址-次卧顶灯, 次卧顶灯只关)
2025-09-24 07:17:21.163 - 1A 18 05 10 31 00 01 00 0F (自保持开关地址-门厅顶灯, 门厅顶灯关)
2025-09-24 07:17:22.208 - 1A FF FF FF 04 00 03 02 (继电器地址-东阳衣架, 东阳衣架照明关)
2025-09-24 07:17:22.758 - 09 06 00 0F 02 02 38 20 (提示音咚)
2025-09-24 07:17:23.303 - A5 00 A6 FE 01 AA (餐厅窗帘开)
2025-09-24 07:17:23.361 - 55 00 A6 02 01 66 01 74 AA 55 00 A6 02 01 66 01 74 EA (餐厅窗帘电机状态返回)
2025-09-24 07:17:23.902 - FF FF FF FF 0A 00 01 00 (继电器地址-东阳窗帘, 东阳窗帘开)
2025-09-24 07:17:24.449 - 1A BE B0 DC 04 00 01 00 (继电器地址-西阳窗帘, 西阳窗帘开)
2025-09-24 07:17:24.998 - FF FF FF FF 0E 00 01 00 (继电器地址-西阳小窗帘, 西阳小窗帘开)
2025-09-24 07:17:25.547 - 1A 22 33 62 0F 00 00 01 0F (正反转地址-内卫卷帘, 内卫卷帘升)
2025-09-24 07:17:26.093 - 55 12 12 03 01 4C 41 (主卧窗帘开)
2025-09-24 07:17:26.135 - 55 12 12 03 01 4C 41 (主卧窗帘开)
2025-09-24 07:17:26.691 - 55 11 1D 03 02 3C 07 (主卧纱帘开)
2025-09-24 07:17:26.735 - 55 11 1D 03 02 3C 07 (主卧纱帘开)
2025-09-24 07:17:27.287 - A5 00 76 FE 01 AA (次卧窗帘开)
2025-09-24 07:17:27.838 - A5 00 21 FE 01 AA (次卧纱帘开)
2025-09-24 07:17:28.387 - A5 00 D2 FE 01 AA 22 0D (书房窗帘开)
2025-09-24 07:17:28.434 - 55 00 D2 02 00 FE 01 0B AA 55 00 D2 02 00 FE 01 0B AA (书房窗帘电机状态返回)
2025-09-24 07:17:28.984 - 1A BE B0 DC 09 00 01 00 (继电器地址-客厅窗帘, 客厅窗帘开)
2025-09-24 07:17:29.535 - 1A BE B0 DC 0A 00 02 00 (继电器地址-客厅纱帘, 客厅纱帘开)
2025-09-24 07:17:30.081 - 09 06 00 0F 02 02 38 20 (提示音咚)
2025-09-24 07:17:31.128 - 1A EC A0 DC 02 00 00 00 0F (自保持开关地址-天花12V供电, 天花12V 供电关)
2025-09-24 07:17:31.676 - 1A EC A0 DC 02 00 00 00 0F (自保持开关地址-天花12V供电, 天花12V 供电关)
2025-09-24 07:17:32.224 - 1A EC A0 DC 01 00 00 00 0F (自保持开关地址-电视、设备12V供电, 12V 电视供电关)
2025-09-24 07:17:32.355 - 55 00 A6 00 00 0E 01 74 AA 55 00 A6 00 00 0E 01 74 AA (餐厅窗帘电机状态返回)
2025-09-24 07:17:32.772 - 1A EC A0 DC 01 00 00 00 0F (自保持开关地址-电视、设备12V供电, 12V 电视供电关)
2025-09-24 07:17:33.320 - 1A EC A0 DC 04 00 01 00 0F (自保持开关地址-次卧西阳内外卫供电, 内卫外卫关)
2025-09-24 07:17:33.869 - 1A EC A0 DC 04 00 01 00 0F (自保持开关地址-次卧西阳内外卫供电, 内卫外卫关)
2025-09-24 07:17:35.411 - 1A BB BB BB 01 02 00 (开水器电源关)
2025-09-24 07:17:36.214 - 55 00 D2 00 00 0D 01 0B AA 55 00 D2 00 00 0D 01 0B AA (书房窗帘电机状态返回)
2025-09-24 07:17:48.411 - 09 06 00 0F 02 02 38 20 (提示音咚)
2025-09-24 07:17:48.961 - 1A 27 89 12 AA 00 00 00 0F (状态寄存器地址, 无人状态)
2025-09-24 07:17:49.509 - 1A 27 89 12 AA 00 00 00 0F (状态寄存器地址, 无人状态)
2025-09-24 07:17:50.051 - A1 11 11 11 4D (天花供电关闭确认)
2025-09-24 07:17:50.280 - 1A EC A0 DC 02 86 86 86 0F (查询天花供电状态, 自保持开关地址-天花12V供电)
2025-09-24 07:17:50.713 - 1A EC A0 DC 02 00 00 0F (自保持开关地址-天花12V供电)
2025-09-24 07:17:53.092 - A1 11 11 11 4E (卫生供电关闭确认)
2025-09-24 07:17:53.319 - 1A EC A0 DC 04 86 86 86 0F (查询卫生间供电状态, 自保持开关地址-次卧西阳内外卫供电)
2025-09-24 07:17:53.750 - 1A EC A0 DC 04 01 00 0F (自保持开关地址-次卧西阳内外卫供电)
2025-09-24 07:17:56.130 - A1 11 11 11 4F (电视供电关闭确认)
2025-09-24 07:17:56.358 - 1A EC A0 DC 01 86 86 86 0F (查询电视供电状态, 自保持开关地址-电视、设备12V供电)
2025-09-24 07:17:56.791 - 1A EC A0 DC 01 00 01 0F (自保持开关地址-电视、设备12V供电)
2025-09-24 07:17:59.179 - 09 06 00 0F 02 02 38 20 (提示音咚)
2025-09-24 07:17:59.723 - 09 06 00 0F 02 02 38 20 (提示音咚)
2025-09-24 07:18:00.274 - EE 00 00 B1 00 00 02 FF FC FF FF (情景完成返回主页)
2025-09-24 07:18:01.364 - BA BA EE EE BA BA (离家设置信科变量)
2025-09-24 07:18:02.409 - A1 11 11 11 46 (天热离家遮阳)
2025-09-24 07:18:02.636 - 1A 27 89 12 AA 86 86 86 0F (查询寄存器状态, 状态寄存器地址)
2025-09-24 07:18:03.020 - 1A 27 89 12 AA 00 00 00 00 00 00 00 00 00 00 00 01 00 00 00 00 0F (状态寄存器地址)
2025-09-24 07:18:03.638 - 19 08 24 03 DD 00 05 00 01 (调用情景-天热遮阳关帘)
2025-09-24 07:18:04.208 - EE 00 00 B1 00 00 00 FF FC FF FF (情景执行提示)
2025-09-24 07:18:04.805 - 09 06 00 0F 02 01 78 21 (提示音叮)
2025-09-24 07:18:05.350 - A5 00 A2 FF 00 AA (餐厅纱帘关)
2025-09-24 07:18:06.473 - A5 00 A6 FF 00 AA (餐厅窗帘关)
2025-09-24 07:18:06.527 - 55 00 A6 01 00 0E 01 74 AA 55 00 A6 01 00 0E 01 74 AA (餐厅窗帘电机状态返回)
2025-09-24 07:18:07.544 - 55 11 1D 03 01 7C 06 (主卧纱帘关)
2025-09-24 07:18:07.588 - 55 11 1D 03 01 7C 06 (主卧纱帘关)
2025-09-24 07:18:08.639 - 55 12 12 03 02 0C 40 (主卧窗帘关)
2025-09-24 07:18:08.677 - 55 12 12 03 02 0C 40 (主卧窗帘关)
2025-09-24 07:18:09.736 - A5 00 21 FF 00 AA (次卧纱帘关)
2025-09-24 07:18:09.787 - 55 00 21 01 00 0D 01 34 AA 55 00 21 01 00 0D 01 34 AA (次卧纱帘电机状态返回)
2025-09-24 07:18:10.831 - A5 00 76 FF 00 AA (次卧窗帘关)
2025-09-24 07:18:10.889 - 55 00 76 01 00 0D 01 1B AA 55 00 76 01 00 0D 01 DB (次卧窗帘电机状态返回)
2025-09-24 07:18:11.929 - A5 00 B7 FF 00 AA 22 0D (书房纱帘关)
2025-09-24 07:18:12.975 - A5 00 D2 FF 00 AA 22 0C (书房窗帘关)
2025-09-24 07:18:13.032 - 55 00 D2 01 00 0D 01 0B AA 55 00 D2 01 00 0D 01 0B FF (书房窗帘电机状态返回)
2025-09-24 07:18:14.571 - 1A 22 33 62 5E 00 02 01 0F (正反转地址-厨房卷帘三, 厨房卷帘一降)
2025-09-24 07:18:15.567 - 55 00 A6 00 01 66 01 74 AA 55 00 A6 00 01 66 01 74 AA (餐厅窗帘电机状态返回)
2025-09-24 07:18:15.618 - 1A 22 33 62 56 00 02 01 0F (正反转地址-厨房卷帘二, 厨房卷帘二降)
2025-09-24 07:18:16.716 - 1A 22 33 62 4F 00 00 01 0F (正反转地址-厨房卷帘一, 厨房卷帘三降)
2025-09-24 07:18:17.154 - 55 00 21 00 01 27 01 34 AA 55 00 21 00 01 27 01 34 AA (次卧纱帘电机状态返回)
2025-09-24 07:18:17.761 - 1A BE B0 DC 04 00 02 00 (继电器地址-西阳窗帘, 西阳窗帘关)
2025-09-24 07:18:18.805 - FF FF FF FF 0E 00 02 00 (继电器地址-西阳小窗帘, 西阳小窗帘关)
2025-09-24 07:18:18.946 - 55 00 76 00 01 0F 01 1B AA 55 00 76 00 01 0F 01 1B AA (次卧窗帘电机状态返回)
2025-09-24 07:18:19.853 - 1A BE B0 DC 03 00 03 00 (继电器地址-西阳天幕, 西阳天幕关)
2025-09-24 07:18:20.899 - 1A BE B0 DC 03 00 03 00 (继电器地址-西阳天幕, 西阳天幕关)
2025-09-24 07:18:21.946 - 09 06 00 0F 02 02 38 20 (提示音咚)
2025-09-24 07:18:22.486 - 55 00 D2 00 00 FE 01 0B AA 55 00 D2 00 00 FE 01 0B AA (书房窗帘电机状态返回)
2025-09-24 07:18:22.510 - EE 00 00 B1 00 00 02 FF FC FF FF (情景完成返回主页)
2025-09-24 07:26:43.697 - 1A BE B0 DC 01 FC (继电器地址-回水泵点动)
2025-09-24 07:31:39.815 - FF FF FF FF 0E FC (继电器地址-西阳小窗帘)
2025-09-24 07:31:39.951 - FF
2025-09-24 07:31:41.649 - 1A BE B0 DC 02 FC (正反转地址-外卫卷帘)
2025-09-24 07:38:43.072 - 1A BE B0 DC 09 FC (继电器地址-客厅窗帘)
2025-09-24 07:38:43.206 - FF
2025-09-24 08:02:42.140 - 1A FF FF FF 04 FC (继电器地址-东阳衣架)
2025-09-24 08:02:42.277 - FE
2025-09-24 08:16:39.516 - 1A BE B0 DC 0A (继电器地址-客厅纱帘)
2025-09-24 08:16:39.651 - FE
2025-09-24 09:02:03.979 - 1A BE B0 DC 04 FC (继电器地址-西阳窗帘)
2025-09-24 09:21:40.103 - FF FF FF FF 0A FC (继电器地址-东阳窗帘)
2025-09-24 09:21:40.238 - FF
2025-09-24 10:36:36.190 - 1A BE B0 DC 03 (继电器地址-西阳天幕)
2025-09-24 10:47:32.887 - 1A BE B0 DC 01 FE (继电器地址-回水泵点动)
2025-09-24 10:51:38.306 - FF FF FF FF 0E (继电器地址-西阳小窗帘)
2025-09-24 10:52:07.568 - 1A BE B0 DC 02 FC (正反转地址-外卫卷帘)
2025-09-24 10:59:01.065 - 1A BE B0 DC 09 (继电器地址-客厅窗帘)
2025-09-24 10:59:01.200 - FE
2025-09-24 11:23:34.907 - 1A FF FF FF 04 (继电器地址-东阳衣架)
2025-09-24 11:37:11.519 - 1A BE B0 DC 0A FE (继电器地址-客厅纱帘)
2025-09-24 11:37:11.654 - FF
2025-09-24 12:21:48.080 - 1A BE B0 DC 04 FC (继电器地址-西阳窗帘)
2025-09-24 12:21:48.213 - FF
2025-09-24 12:43:34.039 - FF FF FF FF 0A FC (继电器地址-东阳窗帘)
2025-09-24 12:43:34.173 - FF
2025-09-24 13:30:37.031 - 55 0C 10 00 00 00 00 71
2025-09-24 13:30:37.056 - 22 0C 10 00 00 00 00 3E
2025-09-24 13:34:29.377 - 01 04 07 D0 00 06 70 85
2025-09-24 13:34:29.411 - 01 04 0C 70 00 42 02 00 FA 00 00 01 18 00 00 B5 42
2025-09-24 13:34:29.526 - 01 04 07 D6 00 06 90 84
2025-09-24 13:34:29.564 - 01 04 0C 70 00 42 02 00 FA 00 00 01 18 00 00 B5 42
2025-09-24 13:34:29.685 - 01 04 07 DC 00 06 B0 86
2025-09-24 13:34:29.714 - 01 04 0C 50 00 42 02 01 04 00 00 01 18 00 00 EA FE
2025-09-24 13:34:29.841 - 01 04 07 E2 00 06 D1 4A
2025-09-24 13:34:29.877 - 01 04 0C 70 00 42 02 00 FA 00 00 01 18 00 00 B5 42
2025-09-24 13:34:29.999 - 01 04 07 E8 00 06 F1 48
2025-09-24 13:34:30.037 - 01 04 0C 70 00 42 02 00 FA 00 00 01 18 00 00 B5 42
2025-09-24 13:34:43.033 - 1A 0C 02 04 01 86 86 86 0F (调光器地址-主卧筒灯)
2025-09-24 13:35:18.386 - 1A EC A0 DC 02 30 77 88 0F (自保持开关地址-天花12V供电, 天花供电全开)
2025-09-24 13:35:18.905 - 1A AA AA AA 88 (调光器地址-茶吧灯带)
2025-09-24 13:35:43.409 - 1A 0B 01 02 01 FF FF 01 FF 00 01 FF 00 00 0F (调光器地址-门厅灯带)
2025-09-24 13:35:47.914 - 1A 0B 01 02 01 86 86 86 0F (调光器地址-门厅灯带)
2025-09-24 13:35:47.958 - 1A 0B 01 02 01 00 63 01 00 4C 00 00 (调光器地址-门厅灯带)
2025-09-24 13:35:47.960 - 0D 00 0F
2025-09-24 13:35:48.300 - EE 00 6F B1 12 00 05 00 02 00 04 00 00 00 ED 00 04 00 04 00 00 00 00 FF FC FF FF
2025-09-24 13:35:48.601 - EE 00 71 B1 12 00 05 00 02 00 04 00 00 00 ED 00 04 00 04 00 00 00 00 FF FC FF FF
2025-09-24 13:35:48.773 - 1A 0B 01 02 01 86 86 86 0F (调光器地址-门厅灯带)
2025-09-24 13:35:48.818 - 1A 0B 01 02 01 00 63 01 00 4C 00 00 0D 00 0F (调光器地址-门厅灯带)
2025-09-24 13:35:49.159 - EE 00 6F B1 12 00 05 00 02 00 04 00 00 00 ED 00 04 00 04 00 00 00 00 FF FC FF FF
2025-09-24 13:35:49.459 - EE 00 71 B1 12 00 05 00 02 00 04 00 00 00 ED 00 04 00 04 00 00 00 00 FF FC FF FF
2025-09-24 13:35:49.968 - 1A 0B 01 02 01 86 86 86 0F (调光器地址-门厅灯带)
2025-09-24 13:35:50.014 - 1A 0B 01 02 01 00 63 01 00 4C 00 00 (调光器地址-门厅灯带)
2025-09-24 13:35:50.014 - 0D 00 0F
2025-09-24 13:35:50.355 - EE 00 6F B1 12 00 05 00 02 00 04 00 00 00 ED 00 04 00 04 00 00 00 00 FF FC FF FF
2025-09-24 13:35:50.655 - EE 00 71 B1 12 00 05 00 02 00 04 00 00 00 ED 00 04 00 04 00 00 00 00 FF FC FF FF
2025-09-24 13:35:50.906 - 1A 0B 01 02 01 FF 00 01 FF 00 01 FF 00 00 0F (调光器地址-门厅灯带, 门厅灯带关闭)
2025-09-24 13:35:55.415 - 1A 0B 01 02 01 86 86 86 0F (调光器地址-门厅灯带)
2025-09-24 13:35:55.460 - 1A 0B 01 02 01 00 4C 00 00 4C 00 00 0D 00 0F (调光器地址-门厅灯带)
2025-09-24 13:35:55.800 - EE 00 6F B1 12 00 05 00 02 00 04 00 00 00 00 00 04 00 04 00 00 00 00 FF FC FF FF
2025-09-24 13:35:56.101 - EE 00 71 B1 12 00 05 00 02 00 04 00 00 00 00 00 04 00 04 00 00 00 00 FF FC FF FF
2025-09-24 13:35:57.368 - 1A 0B 01 02 01 86 86 86 0F (调光器地址-门厅灯带)
2025-09-24 13:35:57.410 - 1A 0B 01 02 01 00 4C 00 00 4C 00 00 (调光器地址-门厅灯带)
2025-09-24 13:35:57.414 - 0D 00 0F
2025-09-24 13:35:57.755 - EE 00 6F B1 12 00 05 00 02 00 04 00 00 00 00 00 04 00 04 00 00 00 00 FF FC FF FF
2025-09-24 13:35:58.056 - EE 00 71 B1 12 00 05 00 02 00 04 00 00 00 00 00 04 00 04 00 00 00 00 FF FC FF FF
2025-09-24 13:36:20.729 - 1A EC A0 DC 02 40 77 88 0F (自保持开关地址-天花12V供电, 天花供电全关)
2025-09-24 13:36:32.935 - 1A 0B 01 03 03 86 86 86 0F (调光器地址-餐厅灯带)
2025-09-24 13:38:10.160 - 55 0A 32 00 00 00 01 92 (厨房顶灯一开)
2025-09-24 13:38:13.175 - 55 0A 31 00 00 00 01 91 (厨房顶灯一关)
2025-09-24 13:38:14.361 - 55 0A 31 00 00 00 02 92 (厨房顶灯二关)
2025-09-24 13:38:17.511 - 55 0A 32 00 00 00 02 93 (厨房顶灯二开)
2025-09-24 13:38:20.026 - 55 0A 32 00 00 00 01 92 (厨房顶灯一开)
2025-09-24 13:38:23.326 - 55 0A 31 00 00 00 02 92 (厨房顶灯二关)
2025-09-24 13:38:26.378 - 55 0A 32 00 00 00 02 93 (厨房顶灯二开)
2025-09-24 13:38:28.541 - 55 0A 31 00 00 00 02 92 (厨房顶灯二关)
2025-09-24 13:38:31.778 - 55 0A 31 00 00 00 01 91 (厨房顶灯一关)
2025-09-24 13:40:36.553 - 55 0A 15 00 00 00 03 77
2025-09-24 13:40:36.569 - 22 0A 15 00 00 00 03 44
2025-09-24 13:40:58.510 - 55 0A 31 00 00 00 02 92 (厨房顶灯二关)
2025-09-24 13:41:01.056 - 55 0A 32 00 00 00 02 93 (厨房顶灯二开)
2025-09-24 13:41:33.931 - 55 0A 14 00 00 00 03 76
2025-09-24 13:41:33.948 - 22 0A 14 00 00 00 00 40
2025-09-24 13:43:02.112 - 55 0A 15 00 00 00 01 75
2025-09-24 13:43:02.131 - 22 0A 15 00 00 00 01 42
2025-09-24 13:43:07.786 - 55 0A 32 00 00 00 02 93 (厨房顶灯二开)
2025-09-24 13:43:09.952 - 55 0A 31 00 00 00 02 92 (厨房顶灯二关)
2025-09-24 13:43:17.645 - 55 0A 14 00 00 00 01 74
2025-09-24 13:43:17.664 - 22 0A 14 00 00 00 00 40
2025-09-24 13:43:28.828 - 55 0A 15 00 00 00 02 76
2025-09-24 13:43:28.846 - 22 0A 15 00 00 00 02 43
2025-09-24 13:43:37.960 - 55 0A 14 00 00 00 02 75
2025-09-24 13:43:37.979 - 22 0A 14 00 00 00 00 40
2025-09-24 13:44:32.761 - 55 0A 12 00 00 00 03 74
2025-09-24 13:44:32.778 - 22 0A 12 00 00 00 04 42
2025-09-24 13:44:34.225 - 55 0A 12 00 00 00 03 74
2025-09-24 13:44:34.243 - 22 0A 12 00 00 00 04 42
2025-09-24 13:46:26.175 - 55 0A 13 00 00 00 03 75
2025-09-24 13:46:26.193 - 22 0A 13 00 00 00 03 42
2025-09-24 13:46:33.201 - 55 0A 31 00 00 00 02 92 (厨房顶灯二关)
2025-09-24 13:46:34.830 - 55 0A 32 00 00 00 02 93 (厨房顶灯二开)
2025-09-24 13:47:09.870 - 55 0A 13 00 00 00 01 73
2025-09-24 13:47:09.890 - 22 0A 13 00 00 00 01 40
2025-09-24 13:47:21.922 - 55 0A 13 00 00 00 02 74
2025-09-24 13:47:21.939 - 22 0A 13 00 00 00 02 41
2025-09-24 13:47:24.835 - 55 0A 13 00 00 00 02 74
2025-09-24 13:47:24.854 - 22 0A 13 00 00 00 02 41
2025-09-24 13:47:26.206 - 55 0A 13 00 00 00 02 74
2025-09-24 13:47:26.225 - 22 0A 13 00 00 00 02 41
2025-09-24 13:47:32.638 - 55 0A 13 00 00 00 00 74
2025-09-24 13:47:37.255 - 55 0A 13 00 00 00 00 72
2025-09-24 13:47:37.273 - 22 0A 13 00 00 00 00 3F
2025-09-24 13:48:08.909 - 55 0A 32 00 00 00 01 92 (厨房顶灯一开)
2025-09-24 13:48:30.287 - 55 0A 16 00 00 00 03 78
2025-09-24 13:48:30.305 - 22 0A 16 00 00 00 02 44
2025-09-24 13:48:32.085 - 55 0A 16 00 00 00 03 78
2025-09-24 13:48:32.103 - 22 0A 16 00 00 00 01 43
2025-09-24 13:48:33.839 - 55 0A 16 00 00 00 03 78
2025-09-24 13:48:33.857 - 22 0A 16 00 00 00 02 44
2025-09-24 13:48:35.451 - 55 0A 16 00 00 00 03 78
2025-09-24 13:48:35.470 - 22 0A 16 00 00 00 01 43
2025-09-24 13:48:47.970 - 55 0A 16 00 00 00 02 77
2025-09-24 13:48:47.989 - 22 0A 16 00 00 00 03 45
2025-09-24 13:48:49.384 - 55 0A 16 00 00 00 02 77
2025-09-24 13:48:49.402 - 22 0A 16 00 00 00 01 43
2025-09-24 13:48:50.284 - 55 0A 16 00 00 00 02 77
2025-09-24 13:48:50.302 - 22 0A 16 00 00 00 03 45
2025-09-24 13:48:51.351 - 55 0A 16 00 00 00 02 77
2025-09-24 13:48:51.370 - 22 0A 16 00 00 00 01 43
2025-09-24 13:48:57.603 - 55 0A 16 00 00 00 01 76
2025-09-24 13:48:57.624 - 22 0A 16 00 00 00 00 42
2025-09-24 13:48:58.835 - 55 0A 16 00 00 00 01 76
2025-09-24 13:48:58.855 - 22 0A 16 00 00 00 01 43
2025-09-24 13:48:59.984 - 55 0A 16 00 00 00 01 76
2025-09-24 13:49:00.003 - 22 0A 16 00 00 00 00 42
2025-09-24 13:51:02.615 - 55 0A 16 00 00 00 01 76
2025-09-24 13:51:02.634 - 22 0A 16 00 00 00 01 43
2025-09-24 13:51:37.939 - 55 0A 31 00 00 00 01 91 (厨房顶灯一关)
2025-09-24 13:51:46.366 - 55 0A 37 00 27 10 01 CE
2025-09-24 13:52:17.900 - 55 0A 38 00 27 10 01 CF
2025-09-24 13:53:23.478 - 55 0A 37 00 27 10 01 CE
2025-09-24 13:57:53.806 - 1A BE B0 DC 03 (继电器地址-西阳天幕)
