2024-08-22 22:38:12.248 - 19 08 24 03 DD 00 13 00 01 (调用情景-公共区域关)
2024-08-22 22:38:12.775 - EE 00 00 B1 00 00 00 FF FC FF FF (情景执行提示)
2024-08-22 22:38:13.369 - 09 06 00 0F 02 01 78 21 (提示音叮)
2024-08-22 22:38:13.920 - 55 0B 31 00 00 00 01 92 (厨房风扇只关)
2024-08-22 22:38:14.966 - 01 06 07 D3 FF 60 38 9F (餐厅空调关)
2024-08-22 22:38:15.000 - 01 06 07 D3 FF 60 38 9F (餐厅空调关)
2024-08-22 22:38:16.060 - 01 06 07 D0 FF 60 C8 9F (客厅空调关)
2024-08-22 22:38:16.091 - 01 06 07 D0 FF 60 C8 9F (客厅空调关)
2024-08-22 22:38:20.153 - 50 F5 02 (关厨房影视)
2024-08-22 22:38:21.190 - 50 F5 01 (关餐厅影视)
2024-08-22 22:38:22.245 - 50 F5 08 (关客厅影视)
2024-08-22 22:38:23.283 - 50 F5 03 (关外卫影视)
2024-08-22 22:38:24.344 - 55 0A 31 00 00 00 01 91 (厨房顶灯一关)
2024-08-22 22:38:25.383 - 55 0A 31 00 00 00 02 92 (厨房顶灯二关)
2024-08-22 22:38:26.438 - 55 0C 31 00 00 00 01 93 (餐厅顶灯关)
2024-08-22 22:38:27.484 - 1A 18 05 10 31 00 01 00 0F (自保持开关地址-门厅顶灯, 门厅顶灯关)
2024-08-22 22:38:28.530 - 1A 20 07 00 42 00 01 00 0F (自保持开关地址-外卫顶灯, 外卫顶灯关)
2024-08-22 22:38:29.575 - 1A 18 05 21 89 00 01 00 0F (自保持开关地址-客厅顶灯, 客厅顶灯一关)
2024-08-22 22:38:30.627 - 1A 18 05 01 94 00 01 00 0F (自保持开关地址-客厅顶灯, 客厅顶灯二关)
2024-08-22 22:38:31.665 - 1A 20 07 01 30 00 01 00 0F (自保持开关地址-西阳顶灯, 西阳顶灯关)
2024-08-22 22:38:32.718 - 1A FF 01 FF FF FF 00 01 FF 00 01 FF 00 00 0F (调光器地址-公共区域统配地址, 公共区域灯光全关)
2024-08-22 22:38:33.804 - 09 06 00 0F 02 02 38 20 (提示音咚)
2024-08-22 22:38:35.863 - EE 00 00 B1 00 00 02 FF FC FF FF (情景完成返回主页)
2024-08-22 22:39:30.512 - 19 08 24 03 DD 00 4F 00 01 (调用情景-内卫使用完毕)
2024-08-22 22:39:31.039 - EE 00 00 B1 00 00 00 FF FC FF FF (情景执行提示)
2024-08-22 22:39:31.635 - 09 06 00 0F 02 01 78 21 (提示音叮)
2024-08-22 22:39:32.184 - 1A 0C 02 08 01 FF 00 01 FF 00 01 FF 00 00 0F (调光器地址-内卫射灯, 内卫感应灯关)
2024-08-22 22:39:36.269 - 50 F5 04 (关内卫影视)
2024-08-22 22:39:36.823 - 1A 20 07 01 40 00 01 00 0F (自保持开关地址-内卫顶灯, 内卫顶灯关)
2024-08-22 22:39:37.370 - 1A FF FF FF 56 00 00 01 0F (人体红外感应地址-内卫, 打开内卫感应)
2024-08-22 22:39:37.469 - BC BC
2024-08-22 22:39:37.784 - 19 08 24 03 CC 01 54 00 01 (调用内卫感应灯开的按键)
2024-08-22 22:39:37.832 - 1A 0C 02 08 01 FF 45 01 FF 45 01 FF 00 00 0F (调光器地址-内卫射灯, 内卫射灯微光)
2024-08-22 22:39:40.259 - 09 06 00 0F 02 02 38 20 (提示音咚)
2024-08-22 22:39:40.864 - EE 00 00 B1 00 00 02 FF FC FF FF (情景完成返回主页)
2024-08-22 22:40:20.569 - 19 08 24 03 CC 01 55 00 01 (调用外卫感应灯关的按键)
2024-08-22 22:40:20.602 - 1A 0C 02 08 01 FF 00 01 FF 00 01 FF 00 00 0F (调光器地址-内卫射灯, 内卫感应灯关)
2024-08-22 22:41:27.196 - 19 08 24 03 CC 01 54 00 01 (调用内卫感应灯开的按键)
2024-08-22 22:41:27.228 - 1A 0C 02 08 01 FF 45 01 FF 45 01 FF 00 00 0F (调光器地址-内卫射灯, 内卫射灯微光)
2024-08-22 22:41:53.247 - 19 08 24 03 CC 01 55 00 01 (调用外卫感应灯关的按键)
2024-08-22 22:41:53.304 - 1A 0C 02 08 01 FF 00 01 FF 00 01 FF 00 00 0F (调光器地址-内卫射灯, 内卫感应灯关)
2024-08-22 22:55:17.344 - FF
2024-08-22 23:07:52.226 - FF
2024-08-23 00:00:45.562 - 19 08 24 03 CC 01 54 00 01 (调用内卫感应灯开的按键)
2024-08-23 00:00:45.625 - 1A 0C 02 08 01 FF 45 01 FF 45 01 FF 00 00 0F (调光器地址-内卫射灯, 内卫射灯微光)
2024-08-23 00:01:39.796 - 19 08 24 03 DD 00 4B 00 01 (调用情景-主卧睡觉)
2024-08-23 00:01:40.340 - EE 00 00 B1 00 00 00 FF FC FF FF (情景执行提示)
2024-08-23 00:01:40.936 - 09 06 00 0F 02 01 78 21 (提示音叮)
2024-08-23 00:01:41.480 - 50 F5 04 (关内卫影视)
2024-08-23 00:01:42.025 - A5 00 53 FE 01 AA (主卧纱帘关)
2024-08-23 00:01:43.079 - A5 00 52 FF 00 AA (主卧窗帘关)
2024-08-23 00:01:44.129 - 1A 22 33 62 0F 00 02 01 0F (正反转地址-内卫卷帘, 内卫卷帘降)
2024-08-23 00:01:45.170 - 1A 20 07 01 40 00 01 00 0F (自保持开关地址-内卫顶灯, 内卫顶灯关)
2024-08-23 00:01:46.219 - 1A 20 07 01 55 00 01 00 0F (自保持开关地址-主卧顶灯, 主卧顶灯只关)
2024-08-23 00:01:46.769 - 1A FF FF FF 56 00 00 01 0F (人体红外感应地址-内卫, 打开内卫感应)
2024-08-23 00:01:46.777 - BC BC
2024-08-23 00:01:50.368 - 1A 0C 02 08 01 FF 00 01 FF 00 01 FF 00 00 0F (调光器地址-内卫射灯, 内卫感应灯关)
2024-08-23 00:01:50.958 - 1A 0C 02 04 01 FF 00 01 FF 00 01 FF 00 00 0F (调光器地址-主卧筒灯, 主卧筒灯关闭)
2024-08-23 00:01:51.563 - 1A 0C 02 04 03 FF 00 01 FF 00 01 FF 00 00 0F (调光器地址-主卧灯带, 主卧灯带关闭)
2024-08-23 00:01:52.161 - 1A 0C 02 04 04 FF 00 01 FF 00 01 FF 00 00 0F (调光器地址-主卧南阅, 主卧南阅关闭)
2024-08-23 00:01:52.759 - 1A 0C 02 04 05 FF 00 01 FF 00 01 FF 00 00 0F (调光器地址-主卧北阅, 主卧北阅关闭)
2024-08-23 00:01:53.352 - 1A 0C 02 04 02 FF 00 01 FF 00 01 FF 00 00 0F (调光器地址-主卧过道, 主卧过道关闭)
2024-08-23 00:01:53.943 - 09 06 00 0F 02 02 38 20 (提示音咚)
2024-08-23 00:01:54.542 - EE 00 00 B1 00 00 02 FF FC FF FF (情景完成返回主页)
2024-08-23 00:02:08.738 - 19 08 24 03 CC 01 55 00 01 (调用外卫感应灯关的按键)
2024-08-23 00:02:08.789 - 1A 0C 02 08 01 FF 00 01 FF 00 01 FF 00 00 0F (调光器地址-内卫射灯, 内卫感应灯关)
2024-08-23 00:03:35.410 - 19 08 24 03 CC 01 54 00 01 (调用内卫感应灯开的按键)
2024-08-23 00:03:35.445 - 1A 0C 02 08 01 FF 45 01 FF 45 01 FF 00 00 0F (调光器地址-内卫射灯, 内卫射灯微光)
2024-08-23 00:04:01.456 - 19 08 24 03 CC 01 55 00 01 (调用外卫感应灯关的按键)
2024-08-23 00:04:01.488 - 1A 0C 02 08 01 FF 00 01 FF 00 01 FF 00 00 0F (调光器地址-内卫射灯, 内卫感应灯关)
2024-08-23 00:25:40.521 - 1A BE B0 DC 04 FC (继电器地址-西阳窗帘)
2024-08-23 00:25:41.248 - FF FF FF FF 0E FE (继电器地址-西阳小窗帘)
2024-08-23 00:25:41.367 - FF
2024-08-23 00:28:44.563 - 1A BE B0 DC 02 (正反转地址-外卫卷帘)
2024-08-23 00:28:44.697 - FF
2024-08-23 00:30:47.698 - 1A BE B0 DC 03 (继电器地址-西阳天幕)
2024-08-23 00:30:47.834 - FF
2024-08-23 00:33:59.833 - 1A FF FF FF 60 (红外总线地址-主卧发射设备)
2024-08-23 00:38:48.888 - 1A FF FF FF 04 (继电器地址-东阳衣架)
2024-08-23 00:38:49.031 - FF
2024-08-23 00:41:41.038 - 1A BE B0 DC 09 FE (继电器地址-客厅窗帘)
2024-08-23 00:48:37.675 - FF FF FF FF 0A FC (继电器地址-东阳窗帘)
2024-08-23 01:17:44.467 - FF
2024-08-23 01:57:57.421 - 19 08 24 03 CC 01 54 00 01 (调用内卫感应灯开的按键)
2024-08-23 01:57:57.469 - 1A 0C 02 08 01 FF 45 01 FF 45 01 FF 00 00 0F (调光器地址-内卫射灯, 内卫射灯微光)
2024-08-23 02:00:29.223 - 19 08 24 03 CC 01 55 00 01 (调用外卫感应灯关的按键)
2024-08-23 02:00:29.257 - 1A 0C 02 08 01 FF 00 01 FF 00 01 FF 00 00 0F (调光器地址-内卫射灯, 内卫感应灯关)
2024-08-23 02:01:37.356 - 19 08 24 03 CC 01 54 00 01 (调用内卫感应灯开的按键)
2024-08-23 02:01:37.389 - 1A 0C 02 08 01 FF 45 01 FF 45 01 FF 00 00 0F (调光器地址-内卫射灯, 内卫射灯微光)
2024-08-23 02:02:02.910 - 19 08 24 03 CC 01 55 00 01 (调用外卫感应灯关的按键)
2024-08-23 02:02:02.942 - 1A 0C 02 08 01 FF 00 01 FF 00 01 FF 00 00 0F (调光器地址-内卫射灯, 内卫感应灯关)
2024-08-23 02:59:50.647 - 50 F7 01 (全屋影音全关)
2024-08-23 03:45:34.214 - 1A BE B0 DC 04 FC (继电器地址-西阳窗帘)
2024-08-23 03:45:34.345 - FF
2024-08-23 03:45:41.090 - FF FF FF FF 0E (继电器地址-西阳小窗帘)
2024-08-23 03:49:16.902 - 1A BE B0 DC 02 FC (正反转地址-外卫卷帘)
2024-08-23 03:49:17.031 - FF
2024-08-23 03:49:18.146 - 1A BE B0 DC 0A FC (继电器地址-客厅纱帘)
2024-08-23 03:49:18.274 - FF
2024-08-23 03:51:42.084 - 1A BE B0 DC 03 (继电器地址-西阳天幕)
2024-08-23 03:51:42.227 - FF
2024-08-23 03:51:43.981 - 1A BE B0 DC 01 (继电器地址-回水泵点动)
2024-08-23 03:51:44.109 - FE
2024-08-23 03:59:52.099 - 1A FF FF FF 04 FE (继电器地址-东阳衣架)
2024-08-23 03:59:52.228 - 03
2024-08-23 04:02:05.484 - 1A BE B0 DC 09 FE (继电器地址-客厅窗帘)
2024-08-23 04:02:05.620 - FF
2024-08-23 04:08:52.344 - FF FF FF FF 0A FC (继电器地址-东阳窗帘)
2024-08-23 04:08:52.480 - FF
2024-08-23 04:19:51.025 - 1A EC A0 DC 01 00 01 00 0F (自保持开关地址-电视、设备12V供电, 12V 设备供电关)
2024-08-23 04:19:51.570 - 1A EC A0 DC 01 00 01 00 0F (自保持开关地址-电视、设备12V供电, 12V 设备供电关)
2024-08-23 04:19:51.570 - FF
2024-08-23 04:19:51.603 - 43 3F 32 91 DA
2024-08-23 04:20:01.639 - 1A EC A0 DC 01 00 01 01 0F (自保持开关地址-电视、设备12V供电, 12V 设备供电开)
2024-08-23 04:20:01.860 - 0A
2024-08-23 04:20:01.860 - 00
2024-08-23 04:20:01.873 - 00 00 00
2024-08-23 04:20:02.002 - FF
2024-08-23 04:20:02.034 - F7
2024-08-23 04:20:02.034 - FF
2024-08-23 04:20:02.050 - FF
2024-08-23 04:20:02.066 - EE 00 7E 07 FF FC
2024-08-23 04:20:02.226 - F6 CB F3 4A FF
2024-08-23 04:20:02.257 - EE 00 71 B1 01 00 02 FF FC FF FF
2024-08-23 04:20:02.286 - F7
2024-08-23 04:20:02.577 - FF
2024-08-23 04:20:02.688 - 1A EC A0 DC 01 00 01 01 0F (自保持开关地址-电视、设备12V供电, 12V 设备供电开)
2024-08-23 04:20:03.137 - FF
2024-08-23 04:20:03.188 - FF
2024-08-23 04:20:03.470 - 68 86
2024-08-23 04:20:03.477 - 68 86 FF
2024-08-23 04:20:03.518 - 68 86 FF
2024-08-23 04:20:03.599 - BC 18
2024-08-23 04:20:03.732 - 1A BE B0 DC 03 FE (继电器地址-西阳天幕)
2024-08-23 04:20:03.869 - FC
2024-08-23 04:20:04.157 - FE
2024-08-23 04:20:04.778 - F7
2024-08-23 04:20:05.098 - 68 86
2024-08-23 04:20:11.092 - 19 08 24 03 CC 00 D3 00 01 (调用厨房感应灯开的按键)
2024-08-23 04:20:11.147 - 55 0A 32 00 00 00 01 92 55 0A 32 00 00 00 02 93 (厨房顶灯一开, 厨房顶灯二开)
2024-08-23 04:20:47.154 - 19 08 24 03 CC 00 D4 00 01 (调用厨房感应灯关的按键)
2024-08-23 04:20:47.188 - 55 0A 31 00 00 00 01 91 55 0A 31 00 00 00 02 92 (厨房顶灯一关, 厨房顶灯二关)
2024-08-23 04:49:51.231 - EE 00 00 B1 00 00 00 FF FC FF FF (情景执行提示)
2024-08-23 04:49:51.821 - A5 00 A2 FF 00 AA (餐厅纱帘关)
2024-08-23 04:49:52.953 - A5 00 A6 FF 00 AA (餐厅窗帘关)
2024-08-23 04:49:53.001 - 55 00 A6 01 00 0E 01 75 AA 55 00 A6 01 00 0E 01 75 AA (餐厅窗帘电机状态返回)
2024-08-23 04:49:54.014 - A5 00 B7 FF 00 AA 22 0D (书房纱帘关)
2024-08-23 04:49:55.059 - A5 00 D2 FF 00 AA 22 0C (书房窗帘关)
2024-08-23 04:49:55.107 - 55 00 D2 01 00 0E 00 F2 AA 55 00 D2 01 00 0E 00 F2 AA (书房窗帘电机状态返回)
2024-08-23 04:49:56.159 - EE 00 00 B1 00 00 02 FF FC FF FF (情景完成返回主页)
2024-08-23 04:50:01.464 - 55 00 A6 00 01 67 01 75 AA 55 00 A6 00 01 67 01 75 AA (餐厅窗帘电机状态返回)
2024-08-23 04:50:02.937 - 55 00 D2 00 00 E5 00 F2 AA 55 00 D2 00 00 E5 00 F2 AA (书房窗帘电机状态返回)
2024-08-23 04:55:24.984 - FF
2024-08-23 04:58:47.634 - 19 08 24 03 CC 00 D3 00 01 (调用厨房感应灯开的按键)
2024-08-23 04:58:47.682 - 55 0A 32 00 00 00 01 92 55 0A 32 00 00 00 02 93 (厨房顶灯一开, 厨房顶灯二开)
2024-08-23 04:59:22.697 - 19 08 24 03 CC 00 D4 00 01 (调用厨房感应灯关的按键)
2024-08-23 04:59:22.757 - 55 0A 31 00 00 00 01 91 55 0A 31 00 00 00 02 92 (厨房顶灯一关, 厨房顶灯二关)
2024-08-23 05:03:34.214 - 19 08 24 03 CC 01 54 00 01 (调用内卫感应灯开的按键)
2024-08-23 05:03:34.262 - 1A 0C 02 08 01 FF 45 01 FF 45 01 FF 00 00 0F (调光器地址-内卫射灯, 内卫射灯微光)
2024-08-23 05:05:42.978 - 19 08 24 03 CC 01 55 00 01 (调用外卫感应灯关的按键)
2024-08-23 05:05:43.010 - 1A 0C 02 08 01 FF 00 01 FF 00 01 FF 00 00 0F (调光器地址-内卫射灯, 内卫感应灯关)
2024-08-23 05:06:50.610 - 19 08 24 03 CC 01 54 00 01 (调用内卫感应灯开的按键)
2024-08-23 05:06:50.651 - 1A 0C 02 08 01 FF 45 01 FF 45 01 FF 00 00 0F (调光器地址-内卫射灯, 内卫射灯微光)
2024-08-23 05:07:16.659 - 19 08 24 03 CC 01 55 00 01 (调用外卫感应灯关的按键)
2024-08-23 05:07:16.693 - 1A 0C 02 08 01 FF 00 01 FF 00 01 FF 00 00 0F (调光器地址-内卫射灯, 内卫感应灯关)
2024-08-23 06:44:51.281 - EE 00 00 B1 00 00 00 FF FC FF FF (情景执行提示)
2024-08-23 06:44:51.908 - 09 06 00 0F 02 01 78 21 (提示音叮)
2024-08-23 06:44:52.469 - 50 F0 04 (开内卫影视)
2024-08-23 06:44:53.018 - 50 F0 05 (开主卧影视)
2024-08-23 06:44:53.574 - A5 00 53 FE 01 AA (主卧纱帘关)
2024-08-23 06:44:54.118 - A5 00 53 FE 01 AA (主卧纱帘关)
2024-08-23 06:44:54.663 - A5 00 52 FE 01 AA (主卧窗帘开)
2024-08-23 06:44:55.717 - A5 00 52 FE 01 AA (主卧窗帘开)
2024-08-23 06:44:56.764 - 1A 22 33 62 0F 00 02 01 0F (正反转地址-内卫卷帘, 内卫卷帘降)
2024-08-23 06:44:57.315 - 1A FF FF FF 56 00 00 00 0F (人体红外感应地址-内卫, 关闭内卫感应)
2024-08-23 06:44:57.419 - BC BC
2024-08-23 06:44:57.860 - 1A 20 07 01 55 00 01 00 0F (自保持开关地址-主卧顶灯, 主卧顶灯只关)
2024-08-23 06:44:58.914 - 1A 0C 02 08 01 FF F0 01 FF F0 01 FF 00 00 0F (调光器地址-内卫射灯, 内卫射灯明亮)
2024-08-23 06:44:59.509 - 1A 0C 02 04 01 FF 00 01 FF 00 01 FF 00 00 0F (调光器地址-主卧筒灯, 主卧筒灯关闭)
2024-08-23 06:45:00.105 - 1A 0C 02 04 03 FF 45 01 FF 45 01 FF 00 00 0F (调光器地址-主卧灯带, 主卧灯带微光)
2024-08-23 06:45:00.706 - 1A 0C 02 04 02 FF F0 01 FF 00 01 FF 00 00 0F (调光器地址-主卧过道, 主卧过道暖光)
2024-08-23 06:45:01.296 - 1A 0C 02 04 05 FF 00 01 FF 00 01 FF 00 00 0F (调光器地址-主卧北阅, 主卧北阅关闭)
2024-08-23 06:45:01.908 - 1A 0C 02 04 04 FF 00 01 FF 00 01 FF 00 00 0F (调光器地址-主卧南阅, 主卧南阅关闭)
2024-08-23 06:45:02.987 - 50 F1 24 (内卫—有线2)
2024-08-23 06:45:04.033 - 50 F1 25 (主卧—有线2)
2024-08-23 06:45:05.088 - AF BF CF DF C2 21 (有线2/快捷-凤凰卫视)
2024-08-23 06:45:05.636 - 1A FF FF FF 60 0B 01 01 0F (红外总线地址-主卧发射设备, 主卧电视电源)
2024-08-23 06:45:06.145 - F0 0B 01 08
2024-08-23 06:45:06.672 - 1A BE B0 DC 01 00 01 00 (继电器地址-回水泵点动, 回水泵点动)
2024-08-23 06:45:08.202 - 55 20 20 00 00 0F 02 16 AA 55 20 20 00 00 0F 02 16 AA (主卧窗帘电机状态返回)
2024-08-23 06:45:10.720 - 09 06 00 0F 02 02 38 20 (提示音咚)
2024-08-23 06:45:11.325 - EE 00 00 B1 00 00 02 FF FC FF FF (情景完成返回主页)
2024-08-23 06:45:12.417 - A1 11 11 11 11 01 (内卫浴霸取暖判断)
2024-08-23 06:45:12.638 - 14 03 00 00 00 02 C6 CE (查询内卫温湿度)
2024-08-23 06:45:12.655 - 14 03 04 01 E0 01 01 7E A8 (内卫温湿度返回)
2024-08-23 07:21:10.191 - 1A FF FF FF 04 (继电器地址-东阳衣架)
2024-08-23 07:21:10.339 - 00
2024-08-23 07:21:56.658 - 19 08 24 03 DD 00 40 00 01 (调用情景-离开主卧)
2024-08-23 07:21:57.216 - EE 00 00 B1 00 00 00 FF FC FF FF (情景执行提示)
2024-08-23 07:21:57.811 - 09 06 00 0F 02 01 78 21 (提示音叮)
2024-08-23 07:21:58.365 - 50 F5 05 (关主卧影视)
2024-08-23 07:21:58.907 - 50 F5 04 (关内卫影视)
2024-08-23 07:21:59.465 - 01 06 07 D6 FF 60 28 9E (主卧空调关)
2024-08-23 07:21:59.481 - 01 06 07 D6 FF 60 28 9E (主卧空调关)
2024-08-23 07:22:00.057 - A5 00 52 FE 01 AA (主卧窗帘开)
2024-08-23 07:22:01.107 - A5 00 52 FE 01 AA (主卧窗帘开)
2024-08-23 07:22:01.604 - 19 08 24 03 CC 01 52 00 01 (调用外卫感应灯开的按键)
2024-08-23 07:22:01.655 - 1A 0D 01 07 01 FF 45 01 FF 45 01 FF 00 00 0F (调光器地址-外卫射灯, 外卫感应灯开)
2024-08-23 07:22:02.149 - A5 00 53 FF 00 AA (主卧纱帘开)
2024-08-23 07:22:02.208 - 55 00 53 01 00 0C 02 30 AA 55 00 53 01 00 0C 02 30 FE (主卧纱帘电机状态返回)
2024-08-23 07:22:02.749 - A5 00 53 FF 00 AA (主卧纱帘开)
2024-08-23 07:22:03.324 - 1A 22 33 62 0F 00 00 01 0F (正反转地址-内卫卷帘, 内卫卷帘升)
2024-08-23 07:22:04.011 - 55 20 20 00 00 0F 02 16 AA 55 20 20 00 00 0F 02 16 AA (主卧窗帘电机状态返回)
2024-08-23 07:22:04.394 - 1A 20 07 01 40 00 01 00 0F (自保持开关地址-内卫顶灯, 内卫顶灯关)
2024-08-23 07:22:05.446 - 1A 20 07 01 55 00 01 00 0F (自保持开关地址-主卧顶灯, 主卧顶灯只关)
2024-08-23 07:22:05.993 - 1A 0C 02 08 01 FF 00 01 FF 00 01 FF 00 00 0F (调光器地址-内卫射灯, 内卫感应灯关)
2024-08-23 07:22:06.589 - 1A FF FF FF 56 00 00 01 0F (人体红外感应地址-内卫, 打开内卫感应)
2024-08-23 07:22:06.997 - 19 08 24 03 CC 01 54 00 01 (调用内卫感应灯开的按键)
2024-08-23 07:22:07.056 - 1A 0C 02 08 01 FF 45 01 FF 45 01 FF 00 00 0F (调光器地址-内卫射灯, 内卫射灯微光)
2024-08-23 07:22:10.488 - 1A 0C 02 04 FF FF 00 01 FF 00 01 FF 00 00 0F (主卧调光全关)
2024-08-23 07:22:11.572 - 09 06 00 0F 02 02 38 20 (提示音咚)
2024-08-23 07:22:12.178 - EE 00 00 B1 00 00 02 FF FC FF FF (情景完成返回主页)
2024-08-23 07:22:12.818 - 55 00 53 00 02 22 02 30 AA 55 00 53 00 02 22 02 30 AA (主卧纱帘电机状态返回)
2024-08-23 07:22:14.636 - 19 08 24 03 CC 01 53 00 01 (调用外卫感应灯关的按键)
2024-08-23 07:22:14.686 - 1A 0D 01 07 01 FF 00 01 FF 00 01 FF 00 00 0F (调光器地址-外卫射灯, 外卫感应灯关)
2024-08-23 07:22:17.560 - 19 08 24 03 CC 00 D3 00 01 (调用厨房感应灯开的按键)
2024-08-23 07:22:17.602 - 55 0A 32 00 00 00 01 92 55 0A 32 00 00 00 02 93 (厨房顶灯一开, 厨房顶灯二开)
2024-08-23 07:22:50.506 - 19 08 24 03 DD 00 00 00 01 (调用情景-离家（末）)
2024-08-23 07:22:51.050 - EE 00 00 B1 00 00 00 FF FC FF FF (情景执行提示)
2024-08-23 07:22:51.643 - 09 06 00 0F 02 02 38 20 (提示音咚)
2024-08-23 07:22:52.245 - 50 F7 01 (全屋影音全关)
2024-08-23 07:22:52.800 - 01 06 07 D0 FF 60 C8 9F (客厅空调关)
2024-08-23 07:22:52.819 - 01 06 07 D0 FF 60 C8 9F (客厅空调关)
2024-08-23 07:22:53.297 - 19 08 24 03 CC 01 55 00 01 (调用外卫感应灯关的按键)
2024-08-23 07:22:53.345 - 1A 0C 02 08 01 FF 00 01 FF 00 01 FF 00 00 0F (调光器地址-内卫射灯, 内卫感应灯关)
2024-08-23 07:22:53.744 - 01 06 07 D0 FF 60 C8 9F (客厅空调关)
2024-08-23 07:22:53.787 - 01 06 07 D0 FF 60 C8 9F (客厅空调关)
2024-08-23 07:22:54.382 - 01 06 07 D3 FF 60 38 9F (餐厅空调关)
2024-08-23 07:22:54.416 - 01 06 07 D3 FF 60 38 9F (餐厅空调关)
2024-08-23 07:22:54.987 - 01 06 07 D3 FF 60 38 9F (餐厅空调关)
2024-08-23 07:22:55.028 - 01 06 07 D3 FF 60 38 9F (餐厅空调关)
2024-08-23 07:22:55.590 - 01 06 07 D6 FF 60 28 9E (主卧空调关)
2024-08-23 07:22:55.624 - 01 06 07 D6 FF 60 28 9E (主卧空调关)
2024-08-23 07:22:56.185 - 01 06 07 D6 FF 60 28 9E (主卧空调关)
2024-08-23 07:22:56.219 - 01 06 07 D6 FF 60 28 9E (主卧空调关)
2024-08-23 07:22:56.780 - 01 06 07 D9 FF 60 18 9D (次卧空调关)
2024-08-23 07:22:56.814 - 01 06 07 D9 FF 60 18 9D (次卧空调关)
2024-08-23 07:22:57.380 - 01 06 07 D9 FF 60 18 9D (次卧空调关)
2024-08-23 07:22:57.412 - 01 06 07 D9 FF 60 18 9D (次卧空调关)
2024-08-23 07:22:57.971 - 01 06 07 DC FF 60 08 9C (书房空调关)
2024-08-23 07:22:58.017 - 01 06 07 DC FF 60 08 9C (书房空调关)
2024-08-23 07:22:58.576 - 01 06 07 DC FF 60 08 9C (书房空调关)
2024-08-23 07:22:58.608 - 01 06 07 DC FF 60 08 9C (书房空调关)
2024-08-23 07:22:59.178 - 09 06 00 0F 02 02 38 20 (提示音咚)
2024-08-23 07:22:59.725 - 1A FF FF FF 56 00 00 00 0F (人体红外感应地址-内卫, 关闭内卫感应)
2024-08-23 07:23:00.268 - 1A FF FF FF 55 00 00 00 0F (人体红外感应地址-外卫, 关闭外卫感应)
2024-08-23 07:23:00.368 - BC BC
2024-08-23 07:23:00.810 - 1A FF FF FF 57 00 00 00 0F (关闭厨房感应)
2024-08-23 07:23:01.371 - 1A 20 07 00 93 00 01 00 0F (自保持开关地址-设备区顶, 设备区顶灯关)
2024-08-23 07:23:02.409 - 1A 20 07 01 40 00 01 00 0F (自保持开关地址-内卫顶灯, 内卫顶灯关)
2024-08-23 07:23:03.464 - 1A 20 07 01 55 00 01 00 0F (自保持开关地址-主卧顶灯, 主卧顶灯只关)
2024-08-23 07:23:04.510 - 1A 20 07 00 42 00 01 00 0F (自保持开关地址-外卫顶灯, 外卫顶灯关)
2024-08-23 07:23:05.556 - 55 0D 31 00 00 00 01 94 (书房顶灯只关)
2024-08-23 07:23:06.599 - 55 0A 31 00 00 00 01 91 (厨房顶灯一关)
2024-08-23 07:23:07.652 - 55 0A 31 00 00 00 02 92 (厨房顶灯二关)
2024-08-23 07:23:08.689 - 55 0B 31 00 00 00 01 92 (厨房风扇只关)
2024-08-23 07:23:09.741 - 55 0C 31 00 00 00 01 93 (餐厅顶灯关)
2024-08-23 07:23:10.780 - 1A 20 07 01 30 00 01 00 0F (自保持开关地址-西阳顶灯, 西阳顶灯关)
2024-08-23 07:23:11.834 - 1A 18 05 21 89 00 01 00 0F (自保持开关地址-客厅顶灯, 客厅顶灯一关)
2024-08-23 07:23:12.883 - 1A 18 05 01 94 00 01 00 0F (自保持开关地址-客厅顶灯, 客厅顶灯二关)
2024-08-23 07:23:13.926 - 1A 20 07 00 70 00 01 00 0F (自保持开关地址-次卧顶灯, 次卧顶灯只关)
2024-08-23 07:23:14.980 - 1A 18 05 10 31 00 01 00 0F (自保持开关地址-门厅顶灯, 门厅顶灯关)
2024-08-23 07:23:16.017 - 1A FF FF FF 04 00 03 02 (继电器地址-东阳衣架, 东阳衣架照明关)
2024-08-23 07:23:16.568 - 09 06 00 0F 02 02 38 20 (提示音咚)
2024-08-23 07:23:17.110 - A5 00 A6 FE 01 AA (餐厅窗帘开)
2024-08-23 07:23:17.158 - 55 00 A6 02 01 67 01 75 AA 55 00 A6 02 01 67 01 75 AA (餐厅窗帘电机状态返回)
2024-08-23 07:23:17.719 - FF FF FF FF 0A 00 01 00 (继电器地址-东阳窗帘, 东阳窗帘开)
2024-08-23 07:23:18.263 - 1A BE B0 DC 04 00 01 00 (继电器地址-西阳窗帘, 西阳窗帘开)
2024-08-23 07:23:18.807 - FF FF FF FF 0E 00 01 00 (继电器地址-西阳小窗帘, 西阳小窗帘开)
2024-08-23 07:23:19.359 - 1A 22 33 62 0F 00 00 01 0F (正反转地址-内卫卷帘, 内卫卷帘升)
2024-08-23 07:23:19.901 - A5 00 52 FE 01 AA (主卧窗帘开)
2024-08-23 07:23:20.460 - A5 00 53 FF 00 AA (主卧纱帘开)
2024-08-23 07:23:21.002 - A5 00 76 FE 01 AA (次卧窗帘开)
2024-08-23 07:23:21.597 - A5 00 21 FE 01 AA (次卧纱帘开)
2024-08-23 07:23:22.150 - A5 00 D2 FE 01 AA 22 0D (书房窗帘开)
2024-08-23 07:23:22.198 - 55 00 D2 02 00 E5 00 F2 AA 55 00 D2 02 00 E5 00 F2 AA (书房窗帘电机状态返回)
2024-08-23 07:23:22.754 - 1A BE B0 DC 09 00 01 00 (继电器地址-客厅窗帘, 客厅窗帘开)
2024-08-23 07:23:23.299 - 1A BE B0 DC 0A 00 02 00 (继电器地址-客厅纱帘, 客厅纱帘开)
2024-08-23 07:23:23.843 - 09 06 00 0F 02 02 38 20 (提示音咚)
2024-08-23 07:23:24.897 - 1A EC A0 DC 02 00 00 00 0F (自保持开关地址-天花12V供电, 天花12V 供电关)
2024-08-23 07:23:25.441 - 1A EC A0 DC 02 00 00 00 0F (自保持开关地址-天花12V供电, 天花12V 供电关)
2024-08-23 07:23:25.993 - 1A EC A0 DC 01 00 00 00 0F (自保持开关地址-电视、设备12V供电, 12V 电视供电关)
2024-08-23 07:23:26.138 - 55 00 A6 00 00 0E 01 75 AA 55 00 A6 00 00 0E 01 75 AA (餐厅窗帘电机状态返回)
2024-08-23 07:23:26.536 - 1A EC A0 DC 01 00 00 00 0F (自保持开关地址-电视、设备12V供电, 12V 电视供电关)
2024-08-23 07:23:27.091 - 1A EC A0 DC 04 00 01 00 0F (自保持开关地址-次卧西阳内外卫供电, 内卫外卫关)
2024-08-23 07:23:27.637 - 1A EC A0 DC 04 00 01 00 0F (自保持开关地址-次卧西阳内外卫供电, 内卫外卫关)
2024-08-23 07:23:29.659 - 55 00 D2 00 00 0E 00 F2 AA 55 00 D2 00 00 0E 00 F2 AA (书房窗帘电机状态返回)
2024-08-23 07:23:45.731 - 09 06 00 0F 02 02 38 20 (提示音咚)
2024-08-23 07:23:46.281 - 1A 27 89 12 AA 00 00 00 0F (状态寄存器地址, 无人状态)
2024-08-23 07:23:46.824 - 1A 27 89 12 AA 00 00 00 0F (状态寄存器地址, 无人状态)
2024-08-23 07:23:47.367 - A1 11 11 11 4D (天花供电关闭确认)
2024-08-23 07:23:47.590 - 1A EC A0 DC 02 86 86 86 0F (查询天花供电状态, 自保持开关地址-天花12V供电)
2024-08-23 07:23:48.028 - 1A EC A0 DC 02 00 01 0F (自保持开关地址-天花12V供电)
2024-08-23 07:23:50.414 - A1 11 11 11 4E (卫生供电关闭确认)
2024-08-23 07:23:50.636 - 1A EC A0 DC 04 86 86 86 0F (查询卫生间供电状态, 自保持开关地址-次卧西阳内外卫供电)
2024-08-23 07:23:51.067 - 1A EC A0 DC 04 01 00 0F (自保持开关地址-次卧西阳内外卫供电)
2024-08-23 07:23:53.444 - A1 11 11 11 4F (电视供电关闭确认)
2024-08-23 07:23:53.677 - 1A EC A0 DC 01 86 86 86 0F (查询电视供电状态, 自保持开关地址-电视、设备12V供电)
2024-08-23 07:23:54.102 - 1A EC A0 DC 01 00 01 0F (自保持开关地址-电视、设备12V供电)
2024-08-23 07:23:56.490 - 09 06 00 0F 02 02 38 20 (提示音咚)
2024-08-23 07:23:57.045 - 09 06 00 0F 02 02 38 20 (提示音咚)
2024-08-23 07:23:57.591 - EE 00 00 B1 00 00 02 FF FC FF FF (情景完成返回主页)
2024-08-23 07:23:58.676 - BA BA EE EE BA BA (离家设置信科变量)
2024-08-23 07:23:59.731 - A1 11 11 11 46 (天热离家遮阳)
2024-08-23 07:23:59.953 - 1A 27 89 12 AA 86 86 86 0F (查询寄存器状态, 状态寄存器地址)
2024-08-23 07:24:00.333 - 1A 27 89 12 AA 00 00 00 00 00 00 00 00 00 00 00 01 00 00 00 00 0F (状态寄存器地址)
2024-08-23 07:24:00.956 - 19 08 24 03 DD 00 05 00 01 (调用情景-天热遮阳关帘)
2024-08-23 07:24:01.483 - EE 00 00 B1 00 00 00 FF FC FF FF (情景执行提示)
2024-08-23 07:24:02.078 - 09 06 00 0F 02 01 78 21 (提示音叮)
2024-08-23 07:24:02.623 - A5 00 A2 FF 00 AA (餐厅纱帘关)
2024-08-23 07:24:03.665 - A5 00 A6 FF 00 AA (餐厅窗帘关)
2024-08-23 07:24:03.728 - 55 00 A6 01 00 0E 01 75 AA 55 00 A6 01 00 0E 01 75 AA (餐厅窗帘电机状态返回)
2024-08-23 07:24:04.765 - A5 00 53 FE 01 AA (主卧纱帘关)
2024-08-23 07:24:04.816 - 55 00 53 02 02 22 02 30 AA 55 00 53 02 02 22 02 30 AA (主卧纱帘电机状态返回)
2024-08-23 07:24:05.865 - A5 00 52 FF 00 AA (主卧窗帘关)
2024-08-23 07:24:06.908 - A5 00 21 FF 00 AA (次卧纱帘关)
2024-08-23 07:24:06.959 - 55 00 21 01 00 0D 01 34 AA 55 00 21 01 00 0D 01 34 AA (次卧纱帘电机状态返回)
2024-08-23 07:24:08.003 - A5 00 76 FF 00 AA (次卧窗帘关)
2024-08-23 07:24:08.050 - 55 00 76 01 00 0E 01 1B AA 55 00 76 01 00 0E 01 1B AA (次卧窗帘电机状态返回)
2024-08-23 07:24:09.103 - A5 00 B7 FF 00 AA 22 0D (书房纱帘关)
2024-08-23 07:24:10.141 - A5 00 D2 FF 00 AA 22 0C (书房窗帘关)
2024-08-23 07:24:10.209 - 55 00 D2 01 00 0E 00 F2 AA 55 00 D2 01 00 0E FC (书房窗帘电机状态返回)
2024-08-23 07:24:11.740 - 1A 22 33 62 5E 00 02 01 0F (正反转地址-厨房卷帘三, 厨房卷帘一降)
2024-08-23 07:24:12.165 - 55 00 A6 00 01 67 01 75 AA 55 00 A6 00 01 67 01 75 AA (餐厅窗帘电机状态返回)
2024-08-23 07:24:12.795 - 1A 22 33 62 56 00 02 01 0F (正反转地址-厨房卷帘二, 厨房卷帘二降)
2024-08-23 07:24:13.840 - 1A 22 33 62 4F 00 00 01 0F (正反转地址-厨房卷帘一, 厨房卷帘三降)
2024-08-23 07:24:14.223 - 55 00 21 00 01 27 01 34 AA 55 00 21 00 01 27 01 34 AA (次卧纱帘电机状态返回)
2024-08-23 07:24:14.887 - 1A BE B0 DC 04 00 02 00 (继电器地址-西阳窗帘, 西阳窗帘关)
2024-08-23 07:24:15.006 - 40 28
2024-08-23 07:24:15.006 - 1B AA
2024-08-23 07:24:15.930 - FF FF FF FF 0E 00 02 00 (继电器地址-西阳小窗帘, 西阳小窗帘关)
2024-08-23 07:24:16.979 - 1A BE B0 DC 03 00 03 00 (继电器地址-西阳天幕, 西阳天幕关)
2024-08-23 07:24:17.509 - 55 20 20 00 02 09 02 16 AA 55 20 20 00 02 09 02 16 AA (主卧窗帘电机状态返回)
2024-08-23 07:24:18.019 - 55 00 D2 00 00 E5 C0 1A BE B0 DC 03 00 03 00 00 F2 AA (书房窗帘电机状态返回, 继电器地址-西阳天幕, 西阳天幕关)
2024-08-23 07:24:19.122 - 09 06 00 0F 02 02 38 20 (提示音咚)
2024-08-23 07:24:19.677 - EE 00 00 B1 00 00 02 FF FC FF FF (情景完成返回主页)
2024-08-23 07:41:35.472 - 1A BE B0 DC 04 (继电器地址-西阳窗帘)
2024-08-23 07:41:35.603 - FF
2024-08-23 07:41:36.063 - FF FF FF FF 0E (继电器地址-西阳小窗帘)
2024-08-23 07:41:36.198 - FE
2024-08-23 07:41:39.064 - 1A BE B0 DC 02 FC (正反转地址-外卫卷帘)
2024-08-23 07:41:39.191 - FF
2024-08-23 07:41:42.270 - 1A BE B0 DC 0A FE (继电器地址-客厅纱帘)
2024-08-23 07:41:42.406 - FE
2024-08-23 07:42:40.906 - 1A BE B0 DC 03 FE (继电器地址-西阳天幕)
2024-08-23 07:42:41.034 - 1A BE B0 DC 01 (继电器地址-回水泵点动)
2024-08-23 07:42:41.034 - FC
2024-08-23 07:42:42.816 - 1A BE B0 DC 09 (继电器地址-客厅窗帘)
2024-08-23 08:00:36.313 - FF FF FF FF 0A FC (继电器地址-东阳窗帘)
2024-08-23 08:00:36.450 - FE
2024-08-23 09:50:29.691 - 1A FF FF FF 60 (红外总线地址-主卧发射设备)
2024-08-23 10:43:47.469 - 1A FF FF FF 04 FC (继电器地址-东阳衣架)
2024-08-23 10:43:47.613 - 00
2024-08-23 11:01:29.809 - 1A BE B0 DC 04 FC (继电器地址-西阳窗帘)
2024-08-23 11:01:29.943 - FF
2024-08-23 11:01:35.251 - FF FF FF FF 0E (继电器地址-西阳小窗帘)
2024-08-23 11:01:35.388 - FF
2024-08-23 11:02:11.494 - 1A BE B0 DC 02 FC (正反转地址-外卫卷帘)
2024-08-23 11:02:14.231 - 1A BE B0 DC 0A (继电器地址-客厅纱帘)
2024-08-23 11:02:14.367 - FF
2024-08-23 11:03:07.731 - 1A BE B0 DC 09 FE (继电器地址-客厅窗帘)
2024-08-23 11:03:07.866 - FE
2024-08-23 11:03:36.524 - 1A BE B0 DC 03 (继电器地址-西阳天幕)
2024-08-23 11:03:36.661 - FF
2024-08-23 11:03:37.060 - 1A BE B0 DC 01 (继电器地址-回水泵点动)
2024-08-23 11:27:02.895 - FF FF FF FF 0A FD (继电器地址-东阳窗帘)
2024-08-23 14:04:58.383 - 1A FF FF FF 04 (继电器地址-东阳衣架)
2024-08-23 14:04:58.515 - FE
2024-08-23 14:21:28.402 - 1A BE B0 DC 04 FC (继电器地址-西阳窗帘)
2024-08-23 14:21:35.166 - FF FF FF FF 0E FC (继电器地址-西阳小窗帘)
2024-08-23 14:21:35.299 - FF
2024-08-23 14:22:43.727 - 1A BE B0 DC 02 (正反转地址-外卫卷帘)
2024-08-23 14:22:45.737 - 1A BE B0 DC 0A FC (继电器地址-客厅纱帘)
2024-08-23 14:23:33.211 - 1A BE B0 DC 09 FF (继电器地址-客厅窗帘)
2024-08-23 14:23:33.343 - FF
2024-08-23 14:24:32.673 - 1A BE B0 DC 03 (继电器地址-西阳天幕)
2024-08-23 14:24:32.803 - FE
2024-08-23 14:24:33.216 - 1A BE B0 DC 01 (继电器地址-回水泵点动)
2024-08-23 14:24:33.348 - FE
2024-08-23 14:47:30.952 - FF FF FF FF 0A (继电器地址-东阳窗帘)
2024-08-23 14:47:31.088 - FF
2024-08-23 16:04:33.666 - 03 00 00 2F 2A E0 00 00 00 00 00 43 6F 6F 6B 69 65 3A 20 6D 73 74 73 68 61 73 68 3D 41 64 6D 69
2024-08-23 16:04:33.683 - 6E 69 73 74 72 0D 0A 01 00 08 00 03 00 00 00
2024-08-23 17:05:09.030 - FF
2024-08-23 17:26:15.268 - 1A FF FF FF 04 (继电器地址-东阳衣架)
2024-08-23 17:26:15.396 - 00
2024-08-23 17:41:33.609 - 1A BE B0 DC 04 FC (继电器地址-西阳窗帘)
2024-08-23 17:41:33.741 - FC
2024-08-23 17:41:36.127 - FF FF FF FF 0E (继电器地址-西阳小窗帘)
2024-08-23 17:41:36.262 - FF
2024-08-23 17:43:16.489 - 1A BE B0 DC 02 FC (正反转地址-外卫卷帘)
2024-08-23 17:43:16.614 - FF
2024-08-23 17:43:17.407 - 1A BE B0 DC 0A (继电器地址-客厅纱帘)
2024-08-23 17:43:17.543 - FE
2024-08-23 17:43:58.555 - 1A BE B0 DC 09 (继电器地址-客厅窗帘)
2024-08-23 17:43:58.683 - FC
2024-08-23 17:45:29.300 - 1A BE B0 DC 01 FE (继电器地址-回水泵点动)
2024-08-23 17:45:29.436 - FF
2024-08-23 17:45:30.082 - 1A BE B0 DC 03 FC (继电器地址-西阳天幕)
2024-08-23 17:45:30.210 - FE
2024-08-23 18:25:23.090 - FF FF FF FF 0A FC (继电器地址-东阳窗帘)
2024-08-23 18:25:23.227 - FE
2024-08-23 18:35:22.504 - 1A FF FF FF 60 (红外总线地址-主卧发射设备)
2024-08-23 19:31:13.530 - FF
2024-08-23 20:25:27.838 - FF
2024-08-23 20:47:25.562 - 1A FF FF FF 04 FD (继电器地址-东阳衣架)
2024-08-23 20:47:25.706 - 00
2024-08-23 20:56:00.392 - 1B 03 00 00 00 02 C6 31 (查询室外光线)
2024-08-23 20:56:00.409 - 1B 03 04 00 00 00 00 41 F2 (室外光线返回)
2024-08-23 20:56:00.732 - 1A EC A0 DC 02 00 00 01 0F (自保持开关地址-天花12V供电, 天花12V 供电开)
2024-08-23 20:56:01.436 - 1A FF 01 FF FF FF 60 01 FF 60 01 FF 00 00 0F (调光器地址-公共区域统配地址)
2024-08-23 20:56:02.425 - 19 08 24 03 DD 00 0D 00 01 (调用情景-信科调用进门暗)
2024-08-23 20:56:03.510 - 1A EC A0 DC 01 00 00 01 0F (自保持开关地址-电视、设备12V供电, 12V 电视供电开)
2024-08-23 20:56:04.064 - 1A EC A0 DC 01 00 00 01 0F (自保持开关地址-电视、设备12V供电, 12V 电视供电开)
2024-08-23 20:56:04.610 - 1A EC A0 DC 04 00 01 01 0F (自保持开关地址-次卧西阳内外卫供电, 内卫外卫开)
2024-08-23 20:56:05.153 - 1A EC A0 DC 04 00 01 01 0F (自保持开关地址-次卧西阳内外卫供电, 内卫外卫开)
2024-08-23 20:56:10.195 - 1A 27 89 12 AA 00 00 01 0F (状态寄存器地址, 有人状态)
2024-08-23 20:56:10.748 - 1A 27 89 12 AA 00 00 01 0F (状态寄存器地址, 有人状态)
2024-08-23 20:56:11.296 - 1A BE B0 DC 01 00 01 00 (继电器地址-回水泵点动, 回水泵点动)
2024-08-23 20:56:11.839 - 1A FF FF FF 56 00 00 01 0F (人体红外感应地址-内卫, 打开内卫感应)
2024-08-23 20:56:12.433 - 1A FF FF FF 55 00 00 01 0F (人体红外感应地址-外卫, 打开外卫感应)
2024-08-23 20:56:12.535 - BC BC
2024-08-23 20:56:13.019 - 1A FF FF FF 57 00 00 01 0F (打开厨房感应)
2024-08-23 20:56:13.577 - 1A BE B0 DC 01 00 01 00 (继电器地址-回水泵点动, 回水泵点动)
2024-08-23 20:56:14.134 - A5 00 B7 FF 00 AA 22 0D (书房纱帘关)
2024-08-23 20:56:14.678 - A5 00 A2 FF 00 AA (餐厅纱帘关)
2024-08-23 20:56:15.222 - 09 06 00 0F 02 01 78 21 (提示音叮)
2024-08-23 20:56:15.778 - 09 06 00 0F 02 01 78 21 (提示音叮)
2024-08-23 20:56:16.328 - EE 00 00 B1 00 00 02 FF FC FF FF (情景完成返回主页)
2024-08-23 20:56:16.464 - 19 08 24 03 DD 00 42 00 01 (调用情景-主卧电视空调)
2024-08-23 20:56:16.923 - A1 11 11 11 50 (天花供电打开确认)
2024-08-23 20:56:17.151 - 1A EC A0 DC 02 86 86 86 0F (查询天花供电状态, 自保持开关地址-天花12V供电)
2024-08-23 20:56:17.586 - 1A EC A0 DC 02 01 01 0F (自保持开关地址-天花12V供电)
2024-08-23 20:56:18.969 - 19 08 24 03 CC 01 54 00 01 (调用内卫感应灯开的按键)
2024-08-23 20:56:19.016 - 1A 0C 02 08 01 FF 45 01 FF 45 01 FF 00 00 0F (调光器地址-内卫射灯, 内卫射灯微光)
2024-08-23 20:56:19.463 - A1 11 11 11 51 (卫生供电打开确认)
2024-08-23 20:56:19.686 - 1A EC A0 DC 04 86 86 86 0F (查询卫生间供电状态, 自保持开关地址-次卧西阳内外卫供电)
2024-08-23 20:56:20.120 - 1A EC A0 DC 04 01 01 0F (自保持开关地址-次卧西阳内外卫供电)
2024-08-23 20:56:22.008 - A1 11 11 11 52 (电视供电打开确认)
2024-08-23 20:56:22.221 - 1A EC A0 DC 01 86 86 86 0F (查询电视供电状态, 自保持开关地址-电视、设备12V供电)
2024-08-23 20:56:22.655 - 1A EC A0 DC 01 01 01 0F (自保持开关地址-电视、设备12V供电)
2024-08-23 20:56:27.038 - A1 11 11 11 47 (天热回家开帘)
2024-08-23 20:56:27.261 - 1A 27 89 12 AA 86 86 86 0F (查询寄存器状态, 状态寄存器地址)
2024-08-23 20:56:27.628 - 1A 27 89 12 AA 01 00 00 00 00 (状态寄存器地址)
2024-08-23 20:56:27.628 - 00
2024-08-23 20:56:27.644 - 00 00 00 00 0F
2024-08-23 20:56:28.235 - 09 06 00 0F 02 01 78 21 (提示音叮)
2024-08-23 20:56:28.779 - 50 F0 05 (开主卧影视)
2024-08-23 20:56:29.374 - 50 F0 04 (开内卫影视)
2024-08-23 20:56:29.935 - 1A FF FF FF 56 00 00 00 0F (人体红外感应地址-内卫, 关闭内卫感应)
2024-08-23 20:56:30.479 - 1A 22 33 62 0F 00 02 01 0F (正反转地址-内卫卷帘, 内卫卷帘降)
2024-08-23 20:56:31.028 - A5 00 53 FE 01 AA (主卧纱帘关)
2024-08-23 20:56:32.063 - A5 00 52 FF 00 AA (主卧窗帘关)
2024-08-23 20:56:33.131 - 1A 0C 02 04 FF FF 45 01 FF 45 01 FF 00 00 0F (主卧调光微光)
2024-08-23 20:56:37.246 - 1A 0C 02 08 01 FF 45 01 FF 45 01 FF 00 00 0F (调光器地址-内卫射灯, 内卫射灯微光)
2024-08-23 20:56:37.793 - 50 F1 25 (主卧—有线2)
2024-08-23 20:56:38.346 - A1 11 11 11 42 (主卧空调自动开)
2024-08-23 20:56:38.575 - 19 08 24 03 F0 BB 78 02 02 00
2024-08-23 20:56:38.626 - 23 AA 56 02 14 38 33 18 08 17 05 73 65 6F 6B 65 6E 64
2024-08-23 20:56:38.898 - 50 F1 24 (内卫—有线2)
2024-08-23 20:56:39.578 - 01 10 07 D6 00 03 06 70 61 00 02 00 F0 0F 3E (主卧空调冷24度)
2024-08-23 20:56:39.623 - 01 10 07 D6 00 03 06 70 61 00 02 00 F0 0F 3E (主卧空调冷24度)
2024-08-23 20:56:40.938 - AF BF CF DF C2 21 (有线2/快捷-凤凰卫视)
2024-08-23 20:56:42.989 - 1A FF FF FF 60 0B 01 01 0F (红外总线地址-主卧发射设备, 主卧电视电源)
2024-08-23 20:56:43.507 - F0 0B 01 08
2024-08-23 20:56:51.010 - 09 06 00 0F 02 02 38 20 (提示音咚)
2024-08-23 20:56:51.569 - EE 00 00 B1 00 00 02 FF FC FF FF (情景完成返回主页)
2024-08-23 21:02:48.124 - 1A BE B0 DC 04 FF (继电器地址-西阳窗帘)
2024-08-23 21:02:48.443 - FF FF FF FF 0E (继电器地址-西阳小窗帘)
2024-08-23 21:02:48.586 - FF
2024-08-23 21:04:48.941 - 1A BE B0 DC 0A (继电器地址-客厅纱帘)
2024-08-23 21:05:48.441 - 1A BE B0 DC 09 FC (继电器地址-客厅窗帘)
2024-08-23 21:05:48.584 - FF
2024-08-23 21:07:49.745 - 1A BE B0 DC 03 (继电器地址-西阳天幕)
2024-08-23 21:07:49.810 - 1A BE B0 DC 01 (继电器地址-回水泵点动)
2024-08-23 21:07:49.946 - FF
2024-08-23 21:12:48.016 - FF
2024-08-23 21:45:57.854 - FF FF FF FF 0A (继电器地址-东阳窗帘)
2024-08-23 21:45:57.983 - FE
2024-08-23 22:10:08.852 - FF
2024-08-23 22:29:14.982 - 19 08 24 03 DD 00 4F 00 01 (调用情景-内卫使用完毕)
2024-08-23 22:29:15.543 - EE 00 00 B1 00 00 00 FF FC FF FF (情景执行提示)
2024-08-23 22:29:16.146 - 09 06 00 0F 02 01 78 21 (提示音叮)
2024-08-23 22:29:16.705 - 1A 0C 02 08 01 FF 00 01 FF 00 01 FF 00 00 0F (调光器地址-内卫射灯, 内卫感应灯关)
2024-08-23 22:29:20.772 - 50 F5 04 (关内卫影视)
2024-08-23 22:29:21.330 - 1A 20 07 01 40 00 01 00 0F (自保持开关地址-内卫顶灯, 内卫顶灯关)
2024-08-23 22:29:21.923 - 1A FF FF FF 56 00 00 01 0F (人体红外感应地址-内卫, 打开内卫感应)
2024-08-23 22:29:22.032 - BC BC
2024-08-23 22:29:24.471 - 09 06 00 0F 02 02 38 20 (提示音咚)
2024-08-23 22:29:25.020 - EE 00 00 B1 00 00 02 FF FC FF FF (情景完成返回主页)
2024-08-23 22:30:04.120 - 19 08 24 03 CC 01 55 00 01 (调用外卫感应灯关的按键)
2024-08-23 22:30:04.172 - 1A 0C 02 08 01 FF 00 01 FF 00 01 FF 00 00 0F (调光器地址-内卫射灯, 内卫感应灯关)
2024-08-23 22:30:28.677 - 19 08 24 03 CC 01 54 00 01 (调用内卫感应灯开的按键)
2024-08-23 22:30:28.712 - 1A 0C 02 08 01 FF 45 01 FF 45 01 FF 00 00 0F (调光器地址-内卫射灯, 内卫射灯微光)
2024-08-23 22:32:37.920 - 19 08 24 03 CC 01 55 00 01 (调用外卫感应灯关的按键)
2024-08-23 22:32:37.984 - 1A 0C 02 08 01 FF 00 01 FF 00 01 FF 00 00 0F (调光器地址-内卫射灯, 内卫感应灯关)
2024-08-23 22:33:57.582 - 19 08 24 03 CC 01 54 00 01 (调用内卫感应灯开的按键)
2024-08-23 22:33:57.616 - 1A 0C 02 08 01 FF 45 01 FF 45 01 FF 00 00 0F (调光器地址-内卫射灯, 内卫射灯微光)
2024-08-23 22:34:22.637 - 19 08 24 03 CC 01 55 00 01 (调用外卫感应灯关的按键)
2024-08-23 22:34:22.671 - 1A 0C 02 08 01 FF 00 01 FF 00 01 FF 00 00 0F (调光器地址-内卫射灯, 内卫感应灯关)
2024-08-23 22:50:11.808 - FF
2024-08-23 22:56:40.064 - FF
2024-08-23 23:42:20.677 - FF
2024-08-23 23:49:12.537 - 19 08 24 03 CC 00 D3 00 01 (调用厨房感应灯开的按键)
2024-08-23 23:49:12.585 - 55 0A 32 00 00 00 01 92 55 0A 32 00 00 00 02 93 (厨房顶灯一开, 厨房顶灯二开)
2024-08-23 23:49:47.610 - 19 08 24 03 CC 00 D4 00 01 (调用厨房感应灯关的按键)
2024-08-23 23:49:47.658 - 55 0A 31 00 00 00 01 91 55 0A 31 00 00 00 02 92 (厨房顶灯一关, 厨房顶灯二关)
2024-08-24 00:02:02.857 - FF
2024-08-24 00:09:55.292 - 1A FF FF FF 04 (继电器地址-东阳衣架)
2024-08-24 00:09:55.420 - 00
2024-08-24 00:22:47.292 - 1A BE B0 DC 04 FE (继电器地址-西阳窗帘)
2024-08-24 00:22:47.420 - FE
2024-08-24 00:22:48.871 - FF FF FF FF 0E (继电器地址-西阳小窗帘)
2024-08-24 00:22:49.003 - FF
2024-08-24 00:26:07.136 - 1A BE B0 DC 0A FC (继电器地址-客厅纱帘)
2024-08-24 00:26:07.265 - FF
2024-08-24 00:26:07.662 - 1A BE B0 DC 02 (正反转地址-外卫卷帘)
2024-08-24 00:26:07.806 - FF
2024-08-24 00:27:02.761 - 1A BE B0 DC 09 (继电器地址-客厅窗帘)
2024-08-24 00:27:02.904 - FE
2024-08-24 00:29:21.040 - 1A BE B0 DC 03 (继电器地址-西阳天幕)
2024-08-24 00:29:21.431 - 1A BE B0 DC 01 FE (继电器地址-回水泵点动)
2024-08-24 00:29:21.563 - FF
2024-08-24 00:56:38.517 - 53 53 48 2D 32 2E 30 2D 4F 70 65 6E 53 53 48 0D 0A
2024-08-24 01:01:57.668 - FF
2024-08-24 01:05:54.590 - 19 08 24 03 CC 00 D3 00 01 (调用厨房感应灯开的按键)
2024-08-24 01:05:54.638 - 55 0A 32 00 00 00 01 92 55 0A 32 00 00 00 02 93 (厨房顶灯一开, 厨房顶灯二开)
2024-08-24 01:06:29.652 - 19 08 24 03 CC 00 D4 00 01 (调用厨房感应灯关的按键)
2024-08-24 01:06:29.711 - 55 0A 31 00 00 00 01 91 55 0A 31 00 00 00 02 92 (厨房顶灯一关, 厨房顶灯二关)
2024-08-24 01:06:48.547 - FF FF FF FF 0A (继电器地址-东阳窗帘)
2024-08-24 01:08:55.947 - 19 08 24 03 CC 00 D3 00 01 (调用厨房感应灯开的按键)
2024-08-24 01:08:55.995 - 55 0A 32 00 00 00 01 92 55 0A 32 00 00 00 02 93 (厨房顶灯一开, 厨房顶灯二开)
2024-08-24 01:09:31.009 - 19 08 24 03 CC 00 D4 00 01 (调用厨房感应灯关的按键)
2024-08-24 01:09:31.072 - 55 0A 31 00 00 00 01 91 55 0A 31 00 00 00 02 92 (厨房顶灯一关, 厨房顶灯二关)
2024-08-24 01:14:16.079 - 19 08 24 03 CC 00 D3 00 01 (调用厨房感应灯开的按键)
2024-08-24 01:14:16.113 - 55 0A 32 00 00 00 01 92 55 0A 32 00 00 00 02 93 (厨房顶灯一开, 厨房顶灯二开)
2024-08-24 01:14:17.342 - FF
2024-08-24 01:14:37.230 - FF
2024-08-24 01:14:51.145 - 19 08 24 03 CC 00 D4 00 01 (调用厨房感应灯关的按键)
2024-08-24 01:14:51.200 - 55 0A 31 00 00 00 01 91 55 0A 31 00 00 00 02 92 (厨房顶灯一关, 厨房顶灯二关)
2024-08-24 01:47:07.363 - FF
2024-08-24 01:54:55.951 - FF
2024-08-24 02:05:10.583 - 19 08 24 03 CC 00 D3 00 01 (调用厨房感应灯开的按键)
2024-08-24 02:05:10.636 - 55 0A 32 00 00 00 01 92 55 0A 32 00 00 00 02 93 (厨房顶灯一开, 厨房顶灯二开)
2024-08-24 02:05:45.653 - 19 08 24 03 CC 00 D4 00 01 (调用厨房感应灯关的按键)
2024-08-24 02:05:45.687 - 55 0A 31 00 00 00 01 91 55 0A 31 00 00 00 02 92 (厨房顶灯一关, 厨房顶灯二关)
2024-08-24 02:08:14.036 - FF
2024-08-24 02:10:45.652 - FF
2024-08-24 02:23:54.150 - FF
2024-08-24 02:46:34.469 - 19 08 24 03 CC 00 D3 00 01 (调用厨房感应灯开的按键)
2024-08-24 02:46:34.517 - 55 0A 32 00 00 00 01 92 55 0A 32 00 00 00 02 93 (厨房顶灯一开, 厨房顶灯二开)
2024-08-24 02:47:09.531 - 19 08 24 03 CC 00 D4 00 01 (调用厨房感应灯关的按键)
2024-08-24 02:47:09.582 - 55 0A 31 00 00 00 01 91 55 0A 31 00 00 00 02 92 (厨房顶灯一关, 厨房顶灯二关)
2024-08-24 02:47:56.118 - 19 08 24 03 CC 00 D3 00 01 (调用厨房感应灯开的按键)
2024-08-24 02:47:56.150 - 55 0A 32 00 00 00 01 92 55 0A 32 00 00 00 02 93 (厨房顶灯一开, 厨房顶灯二开)
2024-08-24 02:48:31.192 - 19 08 24 03 CC 00 D4 00 01 (调用厨房感应灯关的按键)
2024-08-24 02:48:31.224 - 55 0A 31 00 00 00 01 91 55 0A 31 00 00 00 02 92 (厨房顶灯一关, 厨房顶灯二关)
2024-08-24 02:59:48.063 - 50 F7 01 (全屋影音全关)
2024-08-24 03:10:31.273 - FF
2024-08-24 03:13:32.325 - FF
2024-08-24 03:29:29.468 - 19 08 24 03 DD 00 13 00 01 (调用情景-公共区域关)
2024-08-24 03:29:30.011 - EE 00 00 B1 00 00 00 FF FC FF FF (情景执行提示)
2024-08-24 03:29:30.600 - 09 06 00 0F 02 01 78 21 (提示音叮)
2024-08-24 03:29:31.142 - 55 0B 31 00 00 00 01 92 (厨房风扇只关)
2024-08-24 03:29:32.195 - 01 06 07 D3 FF 60 38 9F (餐厅空调关)
2024-08-24 03:29:32.229 - 01 06 07 D3 FF 60 38 9F (餐厅空调关)
2024-08-24 03:29:33.296 - 01 06 07 D0 FF 60 C8 9F (客厅空调关)
2024-08-24 03:29:33.327 - 01 06 07 D0 FF 60 C8 9F (客厅空调关)
2024-08-24 03:29:37.383 - 50 F5 02 (关厨房影视)
2024-08-24 03:29:38.428 - 50 F5 01 (关餐厅影视)
2024-08-24 03:29:39.476 - 50 F5 08 (关客厅影视)
2024-08-24 03:29:40.518 - 50 F5 03 (关外卫影视)
2024-08-24 03:29:41.571 - 55 0A 31 00 00 00 01 91 (厨房顶灯一关)
2024-08-24 03:29:42.621 - 55 0A 31 00 00 00 02 92 (厨房顶灯二关)
2024-08-24 03:29:43.662 - 55 0C 31 00 00 00 01 93 (餐厅顶灯关)
2024-08-24 03:29:44.714 - 1A 18 05 10 31 00 01 00 0F (自保持开关地址-门厅顶灯, 门厅顶灯关)
2024-08-24 03:29:45.750 - 1A 20 07 00 42 00 01 00 0F (自保持开关地址-外卫顶灯, 外卫顶灯关)
2024-08-24 03:29:46.805 - 1A 18 05 21 89 00 01 00 0F (自保持开关地址-客厅顶灯, 客厅顶灯一关)
2024-08-24 03:29:47.855 - 1A 18 05 01 94 00 01 00 0F (自保持开关地址-客厅顶灯, 客厅顶灯二关)
2024-08-24 03:29:48.895 - 1A 20 07 01 30 00 01 00 0F (自保持开关地址-西阳顶灯, 西阳顶灯关)
2024-08-24 03:29:49.950 - 1A FF 01 FF FF FF 00 01 FF 00 01 FF 00 00 0F (调光器地址-公共区域统配地址, 公共区域灯光全关)
2024-08-24 03:29:51.042 - 09 06 00 0F 02 02 38 20 (提示音咚)
2024-08-24 03:29:53.133 - EE 00 00 B1 00 00 02 FF FC FF FF (情景完成返回主页)
2024-08-24 03:30:34.146 - 19 08 24 03 CC 01 54 00 01 (调用内卫感应灯开的按键)
2024-08-24 03:30:34.197 - 1A 0C 02 08 01 FF 45 01 FF 45 01 FF 00 00 0F (调光器地址-内卫射灯, 内卫射灯微光)
2024-08-24 03:31:35.395 - 1A FF FF FF 04 FC (继电器地址-东阳衣架)
2024-08-24 03:31:35.530 - 03
2024-08-24 03:41:24.212 - FF
2024-08-24 03:43:30.877 - 1A BE B0 DC 04 FE (继电器地址-西阳窗帘)
2024-08-24 03:43:31.017 - FF
2024-08-24 03:43:31.337 - FF FF FF FF 0E (继电器地址-西阳小窗帘)
2024-08-24 03:46:34.543 - 1A FF FF FF 60 (红外总线地址-主卧发射设备)
2024-08-24 03:47:32.835 - 1A BE B0 DC 0A FC (继电器地址-客厅纱帘)
2024-08-24 03:47:32.963 - FF
2024-08-24 03:47:33.014 - 1A BE B0 DC 02 FC (正反转地址-外卫卷帘)
2024-08-24 03:47:33.150 - FF
2024-08-24 03:49:18.981 - 1A BE B0 DC 09 (继电器地址-客厅窗帘)
2024-08-24 03:49:19.117 - FF
2024-08-24 03:50:04.799 - 19 08 24 03 DD 00 1B 00 01 (调用情景-外卫使用)
2024-08-24 03:50:05.372 - EE 00 00 B1 00 00 00 FF FC FF FF (情景执行提示)
2024-08-24 03:50:05.962 - 09 06 00 0F 02 01 78 21 (提示音叮)
2024-08-24 03:50:06.516 - 1A BE B0 DC 02 00 01 00 (正反转地址-外卫卷帘, 外卫卷帘降)
2024-08-24 03:50:07.046 - 50 F0 03 (开外卫影视)
2024-08-24 03:50:07.656 - 1A FF FF FF 55 00 00 00 0F (人体红外感应地址-外卫, 关闭外卫感应)
2024-08-24 03:50:08.217 - 1A 0D 01 07 01 FF 45 01 FF 45 01 FF 00 00 0F (调光器地址-外卫射灯, 外卫感应灯开)
2024-08-24 03:50:10.301 - 1A BE B0 DC 01 00 01 00 (继电器地址-回水泵点动, 回水泵点动)
2024-08-24 03:50:11.347 - 1A BE B0 DC 01 00 01 00 (继电器地址-回水泵点动, 回水泵点动)
2024-08-24 03:50:12.391 - 1A BE B0 DC 01 00 01 00 (继电器地址-回水泵点动, 回水泵点动)
2024-08-24 03:50:13.428 - 50 F1 43 (外卫—CH4)
2024-08-24 03:50:30.434 - A1 11 11 11 11 05 (外卫使用浴霸判断)
2024-08-24 03:50:30.657 - 13 03 00 00 00 02 C7 79 (查询外卫温湿度)
2024-08-24 03:50:30.673 - 13 03 04 02 36 01 38 29 C6 (外卫温湿度返回)
2024-08-24 03:50:32.478 - 09 06 00 0F 02 02 38 20 (提示音咚)
2024-08-24 03:50:34.521 - EE 00 00 B1 00 00 02 FF FC FF FF (情景完成返回主页)
2024-08-24 03:51:29.397 - 1A BE B0 DC 01 FE (继电器地址-回水泵点动)
2024-08-24 03:51:29.439 - 1A BE B0 DC 03 (继电器地址-西阳天幕)
2024-08-24 03:51:29.520 - FF
2024-08-24 03:51:29.568 - FF
2024-08-24 03:54:34.482 - 19 08 24 03 CC 01 55 00 01 (调用外卫感应灯关的按键)
2024-08-24 03:54:34.533 - 1A 0C 02 08 01 FF 00 01 FF 00 01 FF 00 00 0F (调光器地址-内卫射灯, 内卫感应灯关)
2024-08-24 03:54:47.879 - FF
2024-08-24 03:56:11.177 - 19 08 24 03 CC 01 54 00 01 (调用内卫感应灯开的按键)
2024-08-24 03:56:11.227 - 1A 0C 02 08 01 FF 45 01 FF 45 01 FF 00 00 0F (调光器地址-内卫射灯, 内卫射灯微光)
2024-08-24 03:56:36.724 - 19 08 24 03 CC 01 55 00 01 (调用外卫感应灯关的按键)
2024-08-24 03:56:36.797 - 1A 0C 02 08 01 FF 00 01 FF 00 01 FF 00 00 0F (调光器地址-内卫射灯, 内卫感应灯关)
2024-08-24 03:58:04.897 - 19 08 24 03 CC 00 D3 00 01 (调用厨房感应灯开的按键)
2024-08-24 03:58:04.931 - 55 0A 32 00 00 00 01 92 55 0A 32 00 00 00 02 93 (厨房顶灯一开, 厨房顶灯二开)
2024-08-24 03:58:40.468 - 19 08 24 03 CC 00 D4 00 01 (调用厨房感应灯关的按键)
2024-08-24 03:58:40.499 - 55 0A 31 00 00 00 01 91 55 0A 31 00 00 00 02 92 (厨房顶灯一关, 厨房顶灯二关)
2024-08-24 04:09:05.007 - 19 08 24 03 DD 00 1C 00 01 (调用情景-外卫使用完毕)
2024-08-24 04:09:05.518 - EE 00 00 B1 00 00 00 FF FC FF FF (情景执行提示)
2024-08-24 04:09:06.108 - 09 06 00 0F 02 01 78 21 (提示音叮)
2024-08-24 04:09:06.669 - 1A 0D 01 07 01 FF 00 01 FF 00 01 FF 00 00 0F (调光器地址-外卫射灯, 外卫感应灯关)
2024-08-24 04:09:07.257 - 50 F5 03 (关外卫影视)
2024-08-24 04:09:07.809 - 1A 20 07 00 42 00 01 00 0F (自保持开关地址-外卫顶灯, 外卫顶灯关)
2024-08-24 04:09:08.357 - 1A FF FF FF 55 00 00 01 0F (人体红外感应地址-外卫, 打开外卫感应)
2024-08-24 04:09:08.452 - BC BC
2024-08-24 04:09:08.762 - 19 08 24 03 CC 01 52 00 01 (调用外卫感应灯开的按键)
2024-08-24 04:09:08.813 - 1A 0D 01 07 01 FF 45 01 FF 45 01 FF 00 00 0F (调光器地址-外卫射灯, 外卫感应灯开)
2024-08-24 04:09:11.195 - 09 06 00 0F 02 02 38 20 (提示音咚)
2024-08-24 04:09:11.802 - EE 00 00 B1 00 00 02 FF FC FF FF (情景完成返回主页)
2024-08-24 04:09:16.733 - 19 08 24 03 CC 01 54 00 01 (调用内卫感应灯开的按键)
2024-08-24 04:09:16.766 - 1A 0C 02 08 01 FF 45 01 FF 45 01 FF 00 00 0F (调光器地址-内卫射灯, 内卫射灯微光)
2024-08-24 04:09:21.536 - 1A 20 07 01 40 00 01 01 0F (自保持开关地址-内卫顶灯, 内卫顶灯开)
2024-08-24 04:09:24.264 - FF
2024-08-24 04:09:25.993 - 19 08 24 03 CC 01 53 00 01 (调用外卫感应灯关的按键)
2024-08-24 04:09:26.044 - 1A 0D 01 07 01 FF 00 01 FF 00 01 FF 00 00 0F (调光器地址-外卫射灯, 外卫感应灯关)
2024-08-24 04:10:53.915 - 19 08 24 03 CC 00 D3 00 01 (调用厨房感应灯开的按键)
2024-08-24 04:10:53.979 - 55 0A 32 00 00 00 01 92 55 0A 32 00 00 00 02 93 (厨房顶灯一开, 厨房顶灯二开)
2024-08-24 04:10:55.207 - FF
2024-08-24 04:11:28.994 - 19 08 24 03 CC 00 D4 00 01 (调用厨房感应灯关的按键)
2024-08-24 04:11:29.041 - 55 0A 31 00 00 00 01 91 55 0A 31 00 00 00 02 92 (厨房顶灯一关, 厨房顶灯二关)
2024-08-24 04:11:36.440 - 1A 20 07 01 40 00 01 00 0F (自保持开关地址-内卫顶灯, 内卫顶灯关)
2024-08-24 04:12:17.085 - 19 08 24 03 CC 01 55 00 01 (调用外卫感应灯关的按键)
2024-08-24 04:12:17.118 - 1A 0C 02 08 01 FF 00 01 FF 00 01 FF 00 00 0F (调光器地址-内卫射灯, 内卫感应灯关)
2024-08-24 04:13:43.757 - 19 08 24 03 CC 01 54 00 01 (调用内卫感应灯开的按键)
2024-08-24 04:13:43.789 - 1A 0C 02 08 01 FF 45 01 FF 45 01 FF 00 00 0F (调光器地址-内卫射灯, 内卫射灯微光)
2024-08-24 04:14:09.284 - 19 08 24 03 DD 00 4F 00 01 (调用情景-内卫使用完毕)
2024-08-24 04:14:09.827 - EE 00 00 B1 00 00 00 FF FC FF FF (情景执行提示)
2024-08-24 04:14:10.417 - 09 06 00 0F 02 01 78 21 (提示音叮)
2024-08-24 04:14:10.977 - 1A 0C 02 08 01 FF 00 01 FF 00 01 FF 00 00 0F (调光器地址-内卫射灯, 内卫感应灯关)
2024-08-24 04:14:15.043 - 50 F5 04 (关内卫影视)
2024-08-24 04:14:15.604 - 1A 20 07 01 40 00 01 00 0F (自保持开关地址-内卫顶灯, 内卫顶灯关)
2024-08-24 04:14:16.149 - 1A FF FF FF 56 00 00 01 0F (人体红外感应地址-内卫, 打开内卫感应)
2024-08-24 04:14:16.166 - BC BC
2024-08-24 04:14:18.746 - 09 06 00 0F 02 02 38 20 (提示音咚)
2024-08-24 04:14:19.348 - EE 00 00 B1 00 00 02 FF FC FF FF (情景完成返回主页)
2024-08-24 04:14:31.855 - 19 08 24 03 CC 01 55 00 01 (调用外卫感应灯关的按键)
2024-08-24 04:14:31.903 - 1A 0C 02 08 01 FF 00 01 FF 00 01 FF 00 00 0F (调光器地址-内卫射灯, 内卫感应灯关)
2024-08-24 04:16:17.813 - 19 08 24 03 CC 01 52 00 01 (调用外卫感应灯开的按键)
2024-08-24 04:16:17.847 - 1A 0D 01 07 01 FF 45 01 FF 45 01 FF 00 00 0F (调光器地址-外卫射灯, 外卫感应灯开)
2024-08-24 04:16:25.319 - 19 08 24 03 CC 01 53 00 01 (调用外卫感应灯关的按键)
2024-08-24 04:16:25.351 - 1A 0D 01 07 01 FF 00 01 FF 00 01 FF 00 00 0F (调光器地址-外卫射灯, 外卫感应灯关)
2024-08-24 04:19:48.153 - 1A EC A0 DC 01 00 01 00 0F (自保持开关地址-电视、设备12V供电, 12V 设备供电关)
2024-08-24 04:19:48.681 - FF
2024-08-24 04:19:48.715 - C0 1A EC A0 DC 01 00 01 00 0F (自保持开关地址-电视、设备12V供电, 12V 设备供电关)
2024-08-24 04:19:58.780 - 1A EC A0 DC 01 00 01 01 0F (自保持开关地址-电视、设备12V供电, 12V 设备供电开)
2024-08-24 04:19:59.029 - 02 00
2024-08-24 04:19:59.029 - 00 00 00
2024-08-24 04:19:59.157 - FF
2024-08-24 04:19:59.188 - FB
2024-08-24 04:19:59.188 - FF
2024-08-24 04:19:59.206 - FF
2024-08-24 04:19:59.223 - EE 00 7E 07 FF
2024-08-24 04:19:59.380 - 9F 9F 99 DE 4A FC
2024-08-24 04:19:59.412 - EE 00 71 B1 01 00 02 FF FC FF FF
2024-08-24 04:19:59.826 - 1A EC A0 DC 01 00 01 01 0F (自保持开关地址-电视、设备12V供电, 12V 设备供电开)
2024-08-24 04:20:00.294 - FE
2024-08-24 04:20:00.353 - FC
2024-08-24 04:20:00.625 - 68 82 87
2024-08-24 04:20:00.673 - 68 86 FF
2024-08-24 04:20:00.753 - 5A
2024-08-24 04:20:00.753 - 5A 18
2024-08-24 04:20:00.889 - 1A BE B0 DC 03 FC (继电器地址-西阳天幕)
2024-08-24 04:20:01.025 - F7
2024-08-24 04:20:01.315 - FE
2024-08-24 04:20:01.933 - FF
2024-08-24 04:20:02.251 - 68 86
2024-08-24 04:20:08.203 - 19 08
2024-08-24 04:20:08.203 - 00 C0
2024-08-24 04:20:08.203 - 10
2024-08-24 04:20:08.203 - 02
2024-08-24 04:20:08.220 - 01
2024-08-24 04:20:15.217 - 19 08 24 03 CC 01 53 00 01 (调用外卫感应灯关的按键)
2024-08-24 04:20:15.265 - 1A 0D 01 07 01 FF 00 01 FF 00 01 FF 00 00 0F (调光器地址-外卫射灯, 外卫感应灯关)
2024-08-24 04:20:55.793 - 19 08 24 03 CC 00 D4 00 01 (调用厨房感应灯关的按键)
2024-08-24 04:20:55.859 - 55 0A 31 00 00 00 01 91 55 0A 31 00 00 00 02 92 (厨房顶灯一关, 厨房顶灯二关)
2024-08-24 04:29:01.152 - FF
2024-08-24 04:29:17.274 - 19 08 24 03 CC 00 D3 00 01 (调用厨房感应灯开的按键)
2024-08-24 04:29:17.337 - 55 0A 32 00 00 00 01 92 55 0A 32 00 00 00 02 93 (厨房顶灯一开, 厨房顶灯二开)
2024-08-24 04:29:52.355 - 19 08 24 03 CC 00 D4 00 01 (调用厨房感应灯关的按键)
2024-08-24 04:29:52.406 - 55 0A 31 00 00 00 01 91 55 0A 31 00 00 00 02 92 (厨房顶灯一关, 厨房顶灯二关)
2024-08-24 04:29:54.504 - FF
2024-08-24 04:42:15.407 - FF
2024-08-24 04:43:11.464 - FF
2024-08-24 04:49:48.322 - EE 00 00 B1 00 00 00 FF FC FF FF (情景执行提示)
2024-08-24 04:49:48.916 - A5 00 A2 FF 00 AA (餐厅纱帘关)
2024-08-24 04:49:50.013 - A5 00 A6 FF 00 AA (餐厅窗帘关)
2024-08-24 04:49:51.145 - A5 00 B7 FF 00 AA 22 0D (书房纱帘关)
2024-08-24 04:49:52.213 - A5 00 D2 FF 00 AA 22 0C (书房窗帘关)
2024-08-24 04:49:53.255 - EE 00 00 B1 00 00 02 FF FC FF FF (情景完成返回主页)
2024-08-24 04:52:58.073 - 19 08 24 03 CC 00 D3 00 01 (调用厨房感应灯开的按键)
2024-08-24 04:52:58.121 - 55 0A 32 00 00 00 01 92 55 0A 32 00 00 00 02 93 (厨房顶灯一开, 厨房顶灯二开)
2024-08-24 04:53:52.682 - 19 08 24 03 CC 00 D4 00 01 (调用厨房感应灯关的按键)
2024-08-24 04:53:52.733 - 55 0A 31 00 00 00 01 91 55 0A 31 00 00 00 02 92 (厨房顶灯一关, 厨房顶灯二关)
2024-08-24 04:54:17.928 - FF
2024-08-24 05:25:41.027 - 19 08 24 03 CC 01 54 00 01 (调用内卫感应灯开的按键)
2024-08-24 05:25:41.078 - 1A 0C 02 08 01 FF 45 01 FF 45 01 FF 00 00 0F (调光器地址-内卫射灯, 内卫射灯微光)
2024-08-24 05:26:42.839 - 19 08 24 03 DD 00 4B 00 01 (调用情景-主卧睡觉)
2024-08-24 05:26:43.379 - EE 00 00 B1 00 00 00 FF FC FF FF (情景执行提示)
2024-08-24 05:26:43.970 - 09 06 00 0F 02 01 78 21 (提示音叮)
2024-08-24 05:26:44.513 - 50 F5 04 (关内卫影视)
2024-08-24 05:26:45.067 - A5 00 53 FE 01 AA (主卧纱帘关)
2024-08-24 05:26:46.108 - A5 00 52 FF 00 AA (主卧窗帘关)
2024-08-24 05:26:47.160 - 1A 22 33 62 0F 00 02 01 0F (正反转地址-内卫卷帘, 内卫卷帘降)
2024-08-24 05:26:48.197 - 1A 20 07 01 40 00 01 00 0F (自保持开关地址-内卫顶灯, 内卫顶灯关)
2024-08-24 05:26:49.251 - 1A 20 07 01 55 00 01 00 0F (自保持开关地址-主卧顶灯, 主卧顶灯只关)
2024-08-24 05:26:49.795 - 1A FF FF FF 56 00 00 01 0F (人体红外感应地址-内卫, 打开内卫感应)
2024-08-24 05:26:49.812 - BC BC
2024-08-24 05:26:53.401 - 1A 0C 02 08 01 FF 00 01 FF 00 01 FF 00 00 0F (调光器地址-内卫射灯, 内卫感应灯关)
2024-08-24 05:26:54.035 - 1A 0C 02 04 01 FF 00 01 FF 00 01 FF 00 00 0F (调光器地址-主卧筒灯, 主卧筒灯关闭)
2024-08-24 05:26:54.593 - 1A 0C 02 04 03 FF 00 01 FF 00 01 FF 00 00 0F (调光器地址-主卧灯带, 主卧灯带关闭)
2024-08-24 05:26:55.186 - 1A 0C 02 04 04 FF 00 01 FF 00 01 FF 00 00 0F (调光器地址-主卧南阅, 主卧南阅关闭)
2024-08-24 05:26:55.790 - 1A 0C 02 04 05 FF 00 01 FF 00 01 FF 00 00 0F (调光器地址-主卧北阅, 主卧北阅关闭)
2024-08-24 05:26:56.394 - 1A 0C 02 04 02 FF 00 01 FF 00 01 FF 00 00 0F (调光器地址-主卧过道, 主卧过道关闭)
2024-08-24 05:26:56.972 - 09 06 00 0F 02 02 38 20 (提示音咚)
2024-08-24 05:26:57.533 - EE 00 00 B1 00 00 02 FF FC FF FF (情景完成返回主页)
2024-08-24 05:27:01.683 - 19 08 24 03 CC 01 55 00 01 (调用外卫感应灯关的按键)
2024-08-24 05:27:01.734 - 1A 0C 02 08 01 FF 00 01 FF 00 01 FF 00 00 0F (调光器地址-内卫射灯, 内卫感应灯关)
2024-08-24 05:27:06.512 - FF
2024-08-24 05:28:32.363 - 19 08 24 03 CC 01 54 00 01 (调用内卫感应灯开的按键)
2024-08-24 05:28:32.442 - 1A 0C 02 08 01 FF 45 01 FF 45 01 FF 00 00 0F (调光器地址-内卫射灯, 内卫射灯微光)
2024-08-24 05:28:58.412 - 19 08 24 03 CC 01 55 00 01 (调用外卫感应灯关的按键)
2024-08-24 05:28:58.470 - 1A 0C 02 08 01 FF 00 01 FF 00 01 FF 00 00 0F (调光器地址-内卫射灯, 内卫感应灯关)
2024-08-24 05:30:00.013 - FF
2024-08-24 05:40:38.290 - FF
2024-08-24 06:25:32.099 - 19 08 24 03 CC 01 54 00 01 (调用内卫感应灯开的按键)
2024-08-24 06:25:32.150 - 1A 0C 02 08 01 FF 45 01 FF 45 01 FF 00 00 0F (调光器地址-内卫射灯, 内卫射灯微光)
2024-08-24 06:27:29.329 - 19 08 24 03 CC 01 55 00 01 (调用外卫感应灯关的按键)
2024-08-24 06:27:29.363 - 1A 0C 02 08 01 FF 00 01 FF 00 01 FF 00 00 0F (调光器地址-内卫射灯, 内卫感应灯关)
2024-08-24 06:28:35.959 - 19 08 24 03 CC 01 54 00 01 (调用内卫感应灯开的按键)
2024-08-24 06:28:35.991 - 1A 0C 02 08 01 FF 45 01 FF 45 01 FF 00 00 0F (调光器地址-内卫射灯, 内卫射灯微光)
2024-08-24 06:29:02.008 - 19 08 24 03 CC 01 55 00 01 (调用外卫感应灯关的按键)
2024-08-24 06:29:02.040 - 1A 0C 02 08 01 FF 00 01 FF 00 01 FF 00 00 0F (调光器地址-内卫射灯, 内卫感应灯关)
2024-08-24 06:31:02.143 - 19 08 24 03 CC 00 D3 00 01 (调用厨房感应灯开的按键)
2024-08-24 06:31:02.177 - 55 0A 32 00 00 00 01 92 55 0A 32 00 00 00 02 93 (厨房顶灯一开, 厨房顶灯二开)
2024-08-24 06:31:37.218 - 19 08 24 03 CC 00 D4 00 01 (调用厨房感应灯关的按键)
2024-08-24 06:31:37.250 - 55 0A 31 00 00 00 01 91 55 0A 31 00 00 00 02 92 (厨房顶灯一关, 厨房顶灯二关)
2024-08-24 06:31:39.723 - 19 08 24 03 CC 00 D3 00 01 (调用厨房感应灯开的按键)
2024-08-24 06:31:39.761 - 55 0A 32 00 00 00 01 92 55 0A 32 00 00 00 02 93 (厨房顶灯一开, 厨房顶灯二开)
2024-08-24 06:32:14.781 - 19 08 24 03 CC 00 D4 00 01 (调用厨房感应灯关的按键)
2024-08-24 06:32:14.814 - 55 0A 31 00 00 00 01 91 55 0A 31 00 00 00 02 92 (厨房顶灯一关, 厨房顶灯二关)
2024-08-24 06:38:15.604 - 19 08 24 03 CC 01 54 00 01 (调用内卫感应灯开的按键)
2024-08-24 06:38:15.636 - 1A 0C 02 08 01 FF 45 01 FF 45 01 FF 00 00 0F (调光器地址-内卫射灯, 内卫射灯微光)
2024-08-24 06:39:07.204 - 19 08 24 03 CC 01 55 00 01 (调用外卫感应灯关的按键)
2024-08-24 06:39:07.238 - 1A 0C 02 08 01 FF 00 01 FF 00 01 FF 00 00 0F (调光器地址-内卫射灯, 内卫感应灯关)
2024-08-24 06:40:00.412 - FF
2024-08-24 06:40:43.895 - 19 08 24 03 CC 01 54 00 01 (调用内卫感应灯开的按键)
2024-08-24 06:40:43.946 - 1A 0C 02 08 01 FF 45 01 FF 45 01 FF 00 00 0F (调光器地址-内卫射灯, 内卫射灯微光)
2024-08-24 06:41:09.439 - 19 08 24 03 CC 01 55 00 01 (调用外卫感应灯关的按键)
2024-08-24 06:41:09.486 - 1A 0C 02 08 01 FF 00 01 FF 00 01 FF 00 00 0F (调光器地址-内卫射灯, 内卫感应灯关)
2024-08-24 06:54:52.198 - 1A FF FF FF 04 FE (继电器地址-东阳衣架)
2024-08-24 06:54:52.327 - FE
2024-08-24 06:57:19.360 - FF
2024-08-24 06:58:49.422 - 19 08 24 03 CC 00 D3 00 01 (调用厨房感应灯开的按键)
2024-08-24 06:58:49.470 - 55 0A 32 00 00 00 01 92 55 0A 32 00 00 00 02 93 (厨房顶灯一开, 厨房顶灯二开)
2024-08-24 06:59:24.995 - 19 08 24 03 CC 00 D4 00 01 (调用厨房感应灯关的按键)
2024-08-24 06:59:25.028 - 55 0A 31 00 00 00 01 91 55 0A 31 00 00 00 02 92 (厨房顶灯一关, 厨房顶灯二关)
2024-08-24 07:07:26.676 - FF
2024-08-24 07:13:24.648 - 19 08 24 03 CC 00 D3 00 01 (调用厨房感应灯开的按键)
2024-08-24 07:13:24.699 - 55 0A 32 00 00 00 01 92 55 0A 32 00 00 00 02 93 (厨房顶灯一开, 厨房顶灯二开)
2024-08-24 07:14:20.255 - 19 08 24 03 CC 00 D4 00 01 (调用厨房感应灯关的按键)
2024-08-24 07:14:20.306 - 55 0A 31 00 00 00 01 91 55 0A 31 00 00 00 02 92 (厨房顶灯一关, 厨房顶灯二关)
2024-08-24 07:18:51.635 - FF
2024-08-24 07:19:58.508 - 19 08 24 03 CC 01 52 00 01 (调用外卫感应灯开的按键)
2024-08-24 07:19:58.566 - 1A 0D 01 07 01 FF 45 01 FF 45 01 FF 00 00 0F (调光器地址-外卫射灯, 外卫感应灯开)
2024-08-24 07:21:49.727 - 19 08 24 03 CC 01 53 00 01 (调用外卫感应灯关的按键)
2024-08-24 07:21:49.778 - 1A 0D 01 07 01 FF 00 01 FF 00 01 FF 00 00 0F (调光器地址-外卫射灯, 外卫感应灯关)
2024-08-24 07:31:16.630 - FF
2024-08-24 07:32:56.564 - FF
2024-08-24 07:34:23.301 - FF
2024-08-24 07:40:06.936 - 1A BE B0 DC 04 (继电器地址-西阳窗帘)
2024-08-24 07:40:07.072 - FE
2024-08-24 07:40:10.525 - FF FF FF FF 0E FC (继电器地址-西阳小窗帘)
2024-08-24 07:40:10.668 - FF
2024-08-24 07:40:28.153 - 1A BE B0 DC 09 FC (继电器地址-客厅窗帘)
2024-08-24 07:40:32.841 - 1A BE B0 DC 0A (继电器地址-客厅纱帘)
2024-08-24 07:40:32.978 - FE
2024-08-24 07:40:33.353 - 1A BE B0 DC 02 (正反转地址-外卫卷帘)
2024-08-24 07:40:33.496 - FE
2024-08-24 07:41:48.356 - 1A BE B0 DC 03 FC (继电器地址-西阳天幕)
2024-08-24 07:41:48.488 - FF
2024-08-24 07:41:48.964 - 1A BE B0 DC 01 FC (继电器地址-回水泵点动)
2024-08-24 07:41:49.089 - FE
2024-08-24 07:42:18.949 - FF FF FF FF 0A (继电器地址-东阳窗帘)
2024-08-24 08:06:24.011 - 19 08 24 03 CC 01 54 00 01 (调用内卫感应灯开的按键)
2024-08-24 08:06:24.095 - 1A 0C 02 08 01 FF 45 01 FF 45 01 FF 00 00 0F (调光器地址-内卫射灯, 内卫射灯微光)
2024-08-24 08:08:50.811 - 19 08 24 03 CC 01 55 00 01 (调用外卫感应灯关的按键)
2024-08-24 08:08:50.859 - 1A 0C 02 08 01 FF 00 01 FF 00 01 FF 00 00 0F (调光器地址-内卫射灯, 内卫感应灯关)
2024-08-24 08:09:57.445 - 19 08 24 03 CC 01 54 00 01 (调用内卫感应灯开的按键)
2024-08-24 08:09:57.476 - 1A 0C 02 08 01 FF 45 01 FF 45 01 FF 00 00 0F (调光器地址-内卫射灯, 内卫射灯微光)
2024-08-24 08:10:22.993 - 19 08 24 03 CC 01 55 00 01 (调用外卫感应灯关的按键)
2024-08-24 08:10:23.035 - 1A 0C 02 08 01 FF 00 01 FF 00 01 FF 00 00 0F (调光器地址-内卫射灯, 内卫感应灯关)
2024-08-24 09:02:48.547 - 19 08 24 03 CC 00 D3 00 01 (调用厨房感应灯开的按键)
2024-08-24 09:02:48.579 - 55 0A 32 00 00 00 01 92 55 0A 32 00 00 00 02 93 (厨房顶灯一开, 厨房顶灯二开)
2024-08-24 09:03:23.606 - 19 08 24 03 CC 00 D4 00 01 (调用厨房感应灯关的按键)
2024-08-24 09:03:23.651 - 55 0A 31 00 00 00 01 91 55 0A 31 00 00 00 02 92 (厨房顶灯一关, 厨房顶灯二关)
2024-08-24 09:04:27.382 - 19 08 24 03 CC 01 54 00 01 (调用内卫感应灯开的按键)
2024-08-24 09:04:27.415 - 1A 0C 02 08 01 FF 45 01 FF 45 01 FF 00 00 0F (调光器地址-内卫射灯, 内卫射灯微光)
2024-08-24 09:04:27.738 - 19 08 24 03 CC 00 D3 00 01 (调用厨房感应灯开的按键)
2024-08-24 09:04:30.891 - 19 08 24 03 DD 00 10 00 01 (调用情景-客餐厅空调开)
2024-08-24 09:04:31.446 - EE 00 00 B1 00 00 00 FF FC FF FF (情景执行提示)
2024-08-24 09:04:32.042 - 09 06 00 0F 02 01 78 21 (提示音叮)
2024-08-24 09:04:32.586 - A1 11 11 11 40 (客厅空调自动开)
2024-08-24 09:04:32.807 - 19 08 24 03 F0 BB 78 02 02 00
2024-08-24 09:04:32.858 - 23 AA 56 02 09 04 2E 18 08 18 06 73 65 6F 6B 65 6E 64
2024-08-24 09:04:33.812 - 01 10 07 D0 00 03 06 70 61 00 02 00 FA 6F 26 (客厅空调冷25度)
2024-08-24 09:04:33.859 - 01 10 07 D0 00 03 06 70 61 00 02 00 FA 6F 26 (客厅空调冷25度)
2024-08-24 09:04:36.668 - A1 11 11 11 41 (餐厅空调自动开)
2024-08-24 09:04:36.891 - 19 08 24 03 F0 BB 78 02 02 00
2024-08-24 09:04:36.923 - 19 08 24 03 CC 01 52 00 01 (调用外卫感应灯开的按键)
2024-08-24 09:04:36.970 - 23 AA 56 02 09 04 32 18 08 18 06 73 65 6F 6B 65 6E 64
2024-08-24 09:04:37.896 - 01 10 07 D3 00 03 06 70 61 00 02 00 FA 9F 29 (餐厅空调冷25度)
2024-08-24 09:04:37.944 - 01 10 07 D3 00 03 06 70 61 00 02 00 FA 9F 29 (餐厅空调冷25度)
2024-08-24 09:04:40.702 - 09 06 00 0F 02 02 38 20 (提示音咚)
2024-08-24 09:04:41.261 - EE 00 00 B1 00 00 02 FF FC FF FF (情景完成返回主页)
2024-08-24 09:04:54.961 - 19 08 24 03 CC 01 55 00 01 (调用外卫感应灯关的按键)
2024-08-24 09:04:55.010 - 1A 0C 02 08 01 FF 00 01 FF 00 01 FF 00 00 0F (调光器地址-内卫射灯, 内卫感应灯关)
2024-08-24 09:05:03.324 - 19 08 24 03 CC 00 D4 00 01 (调用厨房感应灯关的按键)
2024-08-24 09:05:03.354 - 55 0A 31 00 00 00 01 91 55 0A 31 00 00 00 02 92 (厨房顶灯一关, 厨房顶灯二关)
2024-08-24 09:05:17.503 - 19 08 24 03 CC 01 54 00 01 (调用内卫感应灯开的按键)
2024-08-24 09:05:17.537 - 1A 0C 02 08 01 FF 45 01 FF 45 01 FF 00 00 0F (调光器地址-内卫射灯, 内卫射灯微光)
2024-08-24 09:07:02.207 - 19 08 24 03 CC 01 53 00 01 (调用外卫感应灯关的按键)
2024-08-24 09:07:02.239 - 1A 0D 01 07 01 FF 00 01 FF 00 01 FF 00 00 0F (调光器地址-外卫射灯, 外卫感应灯关)
2024-08-24 09:09:08.454 - 19 08 24 03 CC 01 55 00 01 (调用外卫感应灯关的按键)
2024-08-24 09:09:08.486 - 1A 0C 02 08 01 FF 00 01 FF 00 01 FF 00 00 0F (调光器地址-内卫射灯, 内卫感应灯关)
2024-08-24 09:10:16.595 - 19 08 24 03 CC 01 54 00 01 (调用内卫感应灯开的按键)
2024-08-24 09:10:16.627 - 1A 0C 02 08 01 FF 45 01 FF 45 01 FF 00 00 0F (调光器地址-内卫射灯, 内卫射灯微光)
2024-08-24 09:10:42.145 - 19 08 24 03 CC 01 55 00 01 (调用外卫感应灯关的按键)
2024-08-24 09:10:42.179 - 1A 0C 02 08 01 FF 00 01 FF 00 01 FF 00 00 0F (调光器地址-内卫射灯, 内卫感应灯关)
2024-08-24 09:13:30.476 - 19 08 24 03 DD 00 4A 00 01 (调用情景-主卧起床)
2024-08-24 09:13:31.038 - EE 00 00 B1 00 00 00 FF FC FF FF (情景执行提示)
2024-08-24 09:13:31.610 - 09 06 00 0F 02 01 78 21 (提示音叮)
2024-08-24 09:13:32.151 - 50 F0 04 (开内卫影视)
2024-08-24 09:13:32.694 - 50 F0 05 (开主卧影视)
2024-08-24 09:13:33.252 - A5 00 53 FE 01 AA (主卧纱帘关)
2024-08-24 09:13:33.793 - A5 00 53 FE 01 AA (主卧纱帘关)
2024-08-24 09:13:34.337 - A5 00 52 FE 01 AA (主卧窗帘开)
2024-08-24 09:13:35.392 - A5 00 52 FE 01 AA (主卧窗帘开)
2024-08-24 09:13:36.446 - 1A 22 33 62 0F 00 02 01 0F (正反转地址-内卫卷帘, 内卫卷帘降)
2024-08-24 09:13:37.483 - 1A FF FF FF 56 00 00 00 0F (人体红外感应地址-内卫, 关闭内卫感应)
2024-08-24 09:13:37.591 - BC BC
2024-08-24 09:13:38.538 - 1A 20 07 01 55 00 01 00 0F (自保持开关地址-主卧顶灯, 主卧顶灯只关)
2024-08-24 09:13:39.592 - 1A 0C 02 08 01 FF 45 01 FF 45 01 FF 00 00 0F (调光器地址-内卫射灯, 内卫射灯微光)
2024-08-24 09:13:40.684 - 1A 0C 02 04 01 FF 45 01 FF 45 01 FF 00 00 0F (调光器地址-主卧筒灯, 主卧筒灯微光)
2024-08-24 09:13:41.276 - 1A 0C 02 04 03 FF 45 01 FF 45 01 FF 00 00 0F (调光器地址-主卧灯带, 主卧灯带微光)
2024-08-24 09:13:41.880 - 1A 0C 02 04 02 FF 45 01 FF 45 01 FF 00 00 0F (调光器地址-主卧过道, 主卧过道微光)
2024-08-24 09:13:42.470 - 50 F1 25 (主卧—有线2)
2024-08-24 09:13:43.062 - 50 F1 24 (内卫—有线2)
2024-08-24 09:13:44.114 - AF BF CF DF C2 21 (有线2/快捷-凤凰卫视)
2024-08-24 09:13:44.658 - 1A FF FF FF 60 0B 01 01 0F (红外总线地址-主卧发射设备, 主卧电视电源)
2024-08-24 09:13:45.184 - F0 0B 01 08
2024-08-24 09:13:48.404 - 55 20 20 00 00 10 02 16 AA 55 20 20 00 00 10 02 16 AA (主卧窗帘电机状态返回)
2024-08-24 09:13:49.712 - 09 06 00 0F 02 02 38 20 (提示音咚)
2024-08-24 09:13:50.320 - EE 00 00 B1 00 00 02 FF FC FF FF (情景完成返回主页)
2024-08-24 09:13:50.915 - A1 11 11 11 11 01 (内卫浴霸取暖判断)
2024-08-24 09:13:51.136 - 14 03 00 00 00 02 C6 CE (查询内卫温湿度)
2024-08-24 09:13:51.170 - 14 03 04 01 DD 01 09 EE A2 (内卫温湿度返回)
2024-08-24 09:15:52.604 - 19 08 24 03 CC 00 D3 00 01 (调用厨房感应灯开的按键)
2024-08-24 09:15:52.652 - 55 0A 32 00 00 00 01 92 55 0A 32 00 00 00 02 93 (厨房顶灯一开, 厨房顶灯二开)
2024-08-24 09:16:27.670 - 19 08 24 03 CC 00 D4 00 01 (调用厨房感应灯关的按键)
2024-08-24 09:16:27.704 - 55 0A 31 00 00 00 01 91 55 0A 31 00 00 00 02 92 (厨房顶灯一关, 厨房顶灯二关)
2024-08-24 09:17:57.031 - EE 00 6E B1 01 00 03 FF FC FF FF
2024-08-24 09:17:57.886 - EE 00 6E B1 01 00 08 FF FC FF FF
2024-08-24 09:18:00.552 - 19 08 24 03 DD 00 1D 00 01 (调用情景-西阳窗帘开)
2024-08-24 09:18:01.124 - EE 00 00 B1 00 00 00 FF FC FF FF (情景执行提示)
2024-08-24 09:18:01.715 - 09 06 00 0F 02 01 78 21 (提示音叮)
2024-08-24 09:18:02.290 - 1A BE B0 DC 04 00 01 00 (继电器地址-西阳窗帘, 西阳窗帘开)
2024-08-24 09:18:02.864 - FF FF FF FF 0E 00 01 00 (继电器地址-西阳小窗帘, 西阳小窗帘开)
2024-08-24 09:18:03.901 - 09 06 00 0F 02 02 38 20 (提示音咚)
2024-08-24 09:18:04.462 - EE 00 00 B1 00 00 02 FF FC FF FF (情景完成返回主页)
2024-08-24 09:18:23.137 - A5 00 A6 FE 01 AA (餐厅窗帘开)
2024-08-24 09:18:23.201 - 55 00 A6 02 01 67 01 75 AA 55 00 A6 02 01 67 E1 (餐厅窗帘电机状态返回)
2024-08-24 09:18:25.898 - 19 08 24 03 CC 00 D3 00 01 (调用厨房感应灯开的按键)
2024-08-24 09:18:25.947 - 55 0A 32 00 00 00 01 92 55 0A 32 00 00 00 02 93 (厨房顶灯一开, 厨房顶灯二开)
2024-08-24 09:18:32.120 - 55 00 A6 00 00 0E 01 75 AA 55 00 A6 00 00 0E 01 75 AA (餐厅窗帘电机状态返回)
2024-08-24 09:32:16.365 - 19 08 24 03 DD 00 40 00 01 (调用情景-离开主卧)
2024-08-24 09:32:16.899 - EE 00 00 B1 00 00 00 FF FC FF FF (情景执行提示)
2024-08-24 09:32:17.489 - 09 06 00 0F 02 01 78 21 (提示音叮)
2024-08-24 09:32:18.032 - 50 F5 05 (关主卧影视)
2024-08-24 09:32:18.593 - 50 F5 04 (关内卫影视)
2024-08-24 09:32:19.137 - 01 06 07 D6 FF 60 28 9E (主卧空调关)
2024-08-24 09:32:19.171 - 01 06 07 D6 FF 60 28 9E (主卧空调关)
2024-08-24 09:32:19.738 - A5 00 52 FE 01 AA (主卧窗帘开)
2024-08-24 09:32:20.786 - A5 00 52 FE 01 AA (主卧窗帘开)
2024-08-24 09:32:21.827 - A5 00 53 FF 00 AA (主卧纱帘开)
2024-08-24 09:32:21.875 - 55 00 53 01 00 0C 02 30 AA 55 00 53 01 00 0C 02 30 AA (主卧纱帘电机状态返回)
2024-08-24 09:32:22.433 - A5 00 53 FF 00 AA (主卧纱帘开)
2024-08-24 09:32:23.031 - 1A 22 33 62 0F 00 00 01 0F (正反转地址-内卫卷帘, 内卫卷帘升)
2024-08-24 09:32:23.694 - 55 20 20 00 00 0F 02 16 AA 55 20 20 00 00 0F 02 16 AA (主卧窗帘电机状态返回)
2024-08-24 09:32:24.078 - 1A 20 07 01 40 00 01 00 0F (自保持开关地址-内卫顶灯, 内卫顶灯关)
2024-08-24 09:32:25.123 - 1A 20 07 01 55 00 01 00 0F (自保持开关地址-主卧顶灯, 主卧顶灯只关)
2024-08-24 09:32:25.672 - 1A 0C 02 08 01 FF 00 01 FF 00 01 FF 00 00 0F (调光器地址-内卫射灯, 内卫感应灯关)
2024-08-24 09:32:26.262 - 1A FF FF FF 56 00 00 01 0F (人体红外感应地址-内卫, 打开内卫感应)
2024-08-24 09:32:26.677 - 19 08 24 03 CC 01 54 00 01 (调用内卫感应灯开的按键)
2024-08-24 09:32:26.741 - 1A 0C 02 08 01 FF 45 01 FF 45 01 FF 00 00 0F (调光器地址-内卫射灯, 内卫射灯微光)
2024-08-24 09:32:30.107 - 1A 0C 02 04 FF FF 00 01 FF 00 01 FF 00 00 0F (主卧调光全关)
2024-08-24 09:32:31.207 - 09 06 00 0F 02 02 38 20 (提示音咚)
2024-08-24 09:32:31.757 - EE 00 00 B1 00 00 02 FF FC FF FF (情景完成返回主页)
2024-08-24 09:32:32.532 - 55 00 53 00 02 22 02 30 AA 55 00 53 00 02 22 02 30 AA (主卧纱帘电机状态返回)
2024-08-24 09:33:12.976 - 19 08 24 03 CC 01 55 00 01 (调用外卫感应灯关的按键)
2024-08-24 09:33:13.025 - 1A 0C 02 08 01 FF 00 01 FF 00 01 FF 00 00 0F (调光器地址-内卫射灯, 内卫感应灯关)
2024-08-24 09:39:12.854 - 19 08 24 03 CC 00 D4 00 01 (调用厨房感应灯关的按键)
2024-08-24 09:39:12.886 - 55 0A 31 00 00 00 01 91 55 0A 31 00 00 00 02 92 (厨房顶灯一关, 厨房顶灯二关)
2024-08-24 09:52:13.390 - 19 08 24 03 CC 00 D3 00 01 (调用厨房感应灯开的按键)
2024-08-24 09:52:13.424 - 55 0A 32 00 00 00 01 92 55 0A 32 00 00 00 02 93 (厨房顶灯一开, 厨房顶灯二开)
2024-08-24 09:56:01.044 - 19 08 24 03 DD 00 1A 00 01 (调用情景-客厅电视播放)
2024-08-24 09:56:01.588 - EE 00 00 B1 00 00 00 FF FC FF FF (情景执行提示)
2024-08-24 09:56:02.183 - 09 06 00 0F 02 01 78 21 (提示音叮)
2024-08-24 09:56:02.728 - 50 F0 08 (开客厅影视)
2024-08-24 09:56:06.179 - 19 08 24 03 CC 01 54 00 01 (调用内卫感应灯开的按键)
2024-08-24 09:56:06.213 - 1A 0C 02 08 01 FF 45 01 FF 45 01 FF 00 00 0F (调光器地址-内卫射灯, 内卫射灯微光)
2024-08-24 09:56:11.744 - 50 F1 28 (客厅—有线2)
2024-08-24 09:56:12.301 - 09 06 00 0F 02 01 78 21 (提示音叮)
2024-08-24 09:56:12.845 - EE 00 00 B1 00 00 02 FF FC FF FF (情景完成返回主页)
2024-08-24 09:59:25.561 - 19 08 24 03 CC 01 55 00 01 (调用外卫感应灯关的按键)
2024-08-24 09:59:25.605 - 1A 0C 02 08 01 FF 00 01 FF 00 01 FF 00 00 0F (调光器地址-内卫射灯, 内卫感应灯关)
2024-08-24 10:01:04.766 - 19 08 24 03 CC 01 54 00 01 (调用内卫感应灯开的按键)
2024-08-24 10:01:04.802 - 1A 0C 02 08 01 FF 45 01 FF 45 01 FF 00 00 0F (调光器地址-内卫射灯, 内卫射灯微光)
2024-08-24 10:01:32.319 - 19 08 24 03 CC 01 55 00 01 (调用外卫感应灯关的按键)
2024-08-24 10:01:32.353 - 1A 0C 02 08 01 FF 00 01 FF 00 01 FF 00 00 0F (调光器地址-内卫射灯, 内卫感应灯关)
2024-08-24 10:01:35.170 - 19 08 24 03 CC 01 52 00 01 (调用外卫感应灯开的按键)
2024-08-24 10:01:35.203 - 1A 0D 01 07 01 FF 45 01 FF 45 01 FF 00 00 0F (调光器地址-外卫射灯, 外卫感应灯开)
2024-08-24 10:01:52.035 - 19 08 24 03 CC 00 D4 00 01 (调用厨房感应灯关的按键)
2024-08-24 10:01:52.069 - 55 0A 31 00 00 00 01 91 55 0A 31 00 00 00 02 92 (厨房顶灯一关, 厨房顶灯二关)
2024-08-24 10:03:02.841 - 19 08 24 03 CC 01 53 00 01 (调用外卫感应灯关的按键)
2024-08-24 10:03:02.872 - 1A 0D 01 07 01 FF 00 01 FF 00 01 FF 00 00 0F (调光器地址-外卫射灯, 外卫感应灯关)
2024-08-24 10:06:08.543 - 19 08 24 03 CC 00 D3 00 01 (调用厨房感应灯开的按键)
2024-08-24 10:06:08.581 - 55 0A 32 00 00 00 01 92 55 0A 32 00 00 00 02 93 (厨房顶灯一开, 厨房顶灯二开)
2024-08-24 10:08:41.338 - 19 08 24 03 CC 00 D4 00 01 (调用厨房感应灯关的按键)
2024-08-24 10:08:41.371 - 55 0A 31 00 00 00 01 91 55 0A 31 00 00 00 02 92 (厨房顶灯一关, 厨房顶灯二关)
2024-08-24 10:11:52.715 - 19 08 24 03 CC 00 D3 00 01 (调用厨房感应灯开的按键)
2024-08-24 10:11:52.747 - 55 0A 32 00 00 00 01 92 55 0A 32 00 00 00 02 93 (厨房顶灯一开, 厨房顶灯二开)
2024-08-24 10:13:26.903 - 19 08 24 03 CC 00 D4 00 01 (调用厨房感应灯关的按键)
2024-08-24 10:13:26.937 - 55 0A 31 00 00 00 01 91 55 0A 31 00 00 00 02 92 (厨房顶灯一关, 厨房顶灯二关)
2024-08-24 10:14:59.583 - 19 08 24 03 CC 00 D3 00 01 (调用厨房感应灯开的按键)
2024-08-24 10:14:59.615 - 55 0A 32 00 00 00 01 92 55 0A 32 00 00 00 02 93 (厨房顶灯一开, 厨房顶灯二开)
2024-08-24 10:15:46.181 - 19 08 24 03 CC 00 D4 00 01 (调用厨房感应灯关的按键)
2024-08-24 10:15:46.213 - 55 0A 31 00 00 00 01 91 55 0A 31 00 00 00 02 92 (厨房顶灯一关, 厨房顶灯二关)
2024-08-24 10:17:39.904 - 19 08 24 03 CC 00 D3 00 01 (调用厨房感应灯开的按键)
2024-08-24 10:17:39.937 - 55 0A 32 00 00 00 01 92 55 0A 32 00 00 00 02 93 (厨房顶灯一开, 厨房顶灯二开)
2024-08-24 10:18:11.300 - 1A FF FF FF 04 FC (继电器地址-东阳衣架)
2024-08-24 10:18:11.443 - 00
2024-08-24 10:18:14.971 - 19 08 24 03 CC 00 D4 00 01 (调用厨房感应灯关的按键)
2024-08-24 10:18:15.022 - 55 0A 31 00 00 00 01 91 55 0A 31 00 00 00 02 92 (厨房顶灯一关, 厨房顶灯二关)
2024-08-24 10:20:00.169 - 19 08 24 03 CC 00 D3 00 01 (调用厨房感应灯开的按键)
2024-08-24 10:20:00.231 - 55 0A 32 00 00 00 01 92 55 0A 32 00 00 00 02 93 (厨房顶灯一开, 厨房顶灯二开)
2024-08-24 10:21:45.056 - 19 08 24 03 CC 01 52 00 01 (调用外卫感应灯开的按键)
2024-08-24 10:21:45.088 - 1A 0D 01 07 01 FF 45 01 FF 45 01 FF 00 00 0F (调光器地址-外卫射灯, 外卫感应灯开)
2024-08-24 10:22:03.590 - 19 08 24 03 CC 01 53 00 01 (调用外卫感应灯关的按键)
2024-08-24 10:22:03.624 - 1A 0D 01 07 01 FF 00 01 FF 00 01 FF 00 00 0F (调光器地址-外卫射灯, 外卫感应灯关)
2024-08-24 10:22:20.955 - 19 08 24 03 CC 00 D4 00 01 (调用厨房感应灯关的按键)
2024-08-24 10:22:20.991 - 55 0A 31 00 00 00 01 91 55 0A 31 00 00 00 02 92 (厨房顶灯一关, 厨房顶灯二关)
2024-08-24 10:34:04.272 - FF FF FF FF 0E 00 01 00 (继电器地址-西阳小窗帘, 西阳小窗帘开)
2024-08-24 10:34:11.638 - FF FF FF FF 0E 00 01 00 (继电器地址-西阳小窗帘, 西阳小窗帘开)
2024-08-24 10:35:39.348 - 19 08 24 03 CC 01 54 00 01 (调用内卫感应灯开的按键)
2024-08-24 10:35:39.397 - 1A 0C 02 08 01 FF 45 01 FF 45 01 FF 00 00 0F (调光器地址-内卫射灯, 内卫射灯微光)
2024-08-24 10:36:32.946 - 19 08 24 03 CC 01 55 00 01 (调用外卫感应灯关的按键)
2024-08-24 10:36:32.978 - 1A 0C 02 08 01 FF 00 01 FF 00 01 FF 00 00 0F (调光器地址-内卫射灯, 内卫感应灯关)
2024-08-24 10:38:11.646 - 19 08 24 03 CC 01 54 00 01 (调用内卫感应灯开的按键)
2024-08-24 10:38:11.679 - 1A 0C 02 08 01 FF 45 01 FF 45 01 FF 00 00 0F (调光器地址-内卫射灯, 内卫射灯微光)
2024-08-24 10:38:37.194 - 19 08 24 03 CC 01 55 00 01 (调用外卫感应灯关的按键)
2024-08-24 10:38:37.227 - 1A 0C 02 08 01 FF 00 01 FF 00 01 FF 00 00 0F (调光器地址-内卫射灯, 内卫感应灯关)
2024-08-24 10:48:06.133 - FF
2024-08-24 10:48:06.377 - EE 00 6E B1 01 00 02 FF FC FF FF
2024-08-24 10:48:10.017 - EE 00 6E B1 01 00 03 FF FC FF FF
2024-08-24 10:48:11.037 - 1A 18 05 21 89 00 01 02 0F (自保持开关地址-客厅顶灯, 客厅顶灯一开关)
2024-08-24 10:48:13.283 - 1A 18 05 21 89 00 01 02 0F (自保持开关地址-客厅顶灯, 客厅顶灯一开关)
2024-08-24 10:48:14.508 - 1A 18 05 21 89 00 01 02 0F (自保持开关地址-客厅顶灯, 客厅顶灯一开关)
2024-08-24 10:48:17.586 - 1A 20 07 01 30 00 01 02 0F (自保持开关地址-西阳顶灯, 西阳顶灯开关)
2024-08-24 10:48:17.860 - 1A 20 07 01 30 00 01 02 0F (自保持开关地址-西阳顶灯, 西阳顶灯开关)
2024-08-24 10:49:44.742 - 00
2024-08-24 10:49:44.758 - 62
2024-08-24 10:49:44.972 - 1A 18 05 21 89 (自保持开关地址-客厅顶灯)
2024-08-24 10:49:49.021 - 00
2024-08-24 10:49:57.440 - F6 F8
2024-08-24 10:49:57.695 - FF
2024-08-24 10:49:57.935 - EE 00 6E B1 01 00 02 FF FC FF FF
2024-08-24 10:49:59.532 - EE 00 6E B1 01 00 03 FF FC FF FF
2024-08-24 10:50:00.263 - 1A 18 05 21 89 00 01 02 0F (自保持开关地址-客厅顶灯, 客厅顶灯一开关)
2024-08-24 10:50:02.143 - 1A 18 05 01 94 00 01 02 0F (自保持开关地址-客厅顶灯, 客厅顶灯二开关)
2024-08-24 10:50:03.714 - 1A 18 05 21 89 00 01 02 0F (自保持开关地址-客厅顶灯, 客厅顶灯一开关)
2024-08-24 10:50:04.258 - 1A 18 05 01 94 00 01 02 0F (自保持开关地址-客厅顶灯, 客厅顶灯二开关)
2024-08-24 10:51:38.970 - FF
2024-08-24 10:51:39.214 - EE 00 6E B1 01 00 02 FF FC FF FF
2024-08-24 10:51:47.144 - EE 00 6E B1 01 00 03 FF FC FF FF
2024-08-24 10:51:47.765 - 1A 18 05 21 89 00 01 02 0F (自保持开关地址-客厅顶灯, 客厅顶灯一开关)
2024-08-24 10:51:49.153 - 1A 18 05 01 94 00 01 02 0F (自保持开关地址-客厅顶灯, 客厅顶灯二开关)
2024-08-24 10:51:50.302 - 1A 18 05 21 89 00 01 02 0F (自保持开关地址-客厅顶灯, 客厅顶灯一开关)
2024-08-24 10:51:50.878 - 1A 18 05 01 94 00 01 02 0F (自保持开关地址-客厅顶灯, 客厅顶灯二开关)
2024-08-24 10:51:54.594 - EE 00 6E B1 01 00 08 FF FC FF FF
2024-08-24 10:51:56.185 - 19 08 24 03 DD 00 1F 00 01 (调用情景-西阳窗帘关)
2024-08-24 10:51:56.712 - EE 00 00 B1 00 00 00 FF FC FF FF (情景执行提示)
2024-08-24 10:51:57.308 - 09 06 00 0F 02 01 78 21 (提示音叮)
2024-08-24 10:51:57.853 - 1A BE B0 DC 04 00 02 00 (继电器地址-西阳窗帘, 西阳窗帘关)
2024-08-24 10:51:58.455 - FF FF FF FF 0E 00 02 00 (继电器地址-西阳小窗帘, 西阳小窗帘关)
2024-08-24 10:51:58.997 - 09 06 00 0F 02 02 38 20 (提示音咚)
2024-08-24 10:51:59.553 - EE 00 00 B1 00 00 02 FF FC FF FF (情景完成返回主页)
2024-08-24 10:52:04.027 - EE 00 6E B1 01 00 03 FF FC FF FF
2024-08-24 10:52:04.690 - EE 00 6E B1 01 00 08 FF FC FF FF
2024-08-24 10:52:05.678 - 19 08 24 03 DD 00 1D 00 01 (调用情景-西阳窗帘开)
2024-08-24 10:52:06.221 - EE 00 00 B1 00 00 00 FF FC FF FF (情景执行提示)
2024-08-24 10:52:06.826 - 09 06 00 0F 02 01 78 21 (提示音叮)
2024-08-24 10:52:07.368 - 1A BE B0 DC 04 00 01 00 (继电器地址-西阳窗帘, 西阳窗帘开)
2024-08-24 10:52:07.973 - FF FF FF FF 0E 00 01 00 (继电器地址-西阳小窗帘, 西阳小窗帘开)
2024-08-24 10:52:09.013 - 09 06 00 0F 02 02 38 20 (提示音咚)
2024-08-24 10:52:09.571 - EE 00 00 B1 00 00 02 FF FC FF FF (情景完成返回主页)
2024-08-24 11:01:49.474 - 1A BE B0 DC 04 FC (继电器地址-西阳窗帘)
2024-08-24 11:01:49.609 - FE
2024-08-24 11:01:50.715 - FF FF FF FF 0E FC (继电器地址-西阳小窗帘)
2024-08-24 11:01:50.846 - FF
2024-08-24 11:03:01.404 - 1A BE B0 DC 0A FC (继电器地址-客厅纱帘)
2024-08-24 11:03:01.532 - FF
2024-08-24 11:03:01.755 - FE
2024-08-24 11:04:09.090 - 1A BE B0 DC 03 FC (继电器地址-西阳天幕)
2024-08-24 11:05:09.507 - 1A BE B0 DC 01 (继电器地址-回水泵点动)
2024-08-24 11:05:09.644 - FE
2024-08-24 11:09:56.773 - FF FF FF FF 0A (继电器地址-东阳窗帘)
2024-08-24 11:09:56.909 - FE
2024-08-24 11:10:57.047 - 1A BE B0 DC 09 (继电器地址-客厅窗帘)
2024-08-24 11:10:57.184 - FF
2024-08-24 11:25:08.861 - 19 08 24 03 CC 00 D3 00 01 (调用厨房感应灯开的按键)
2024-08-24 11:25:08.909 - 55 0A 32 00 00 00 01 92 55 0A 32 00 00 00 02 93 (厨房顶灯一开, 厨房顶灯二开)
2024-08-24 11:25:43.926 - 19 08 24 03 CC 00 D4 00 01 (调用厨房感应灯关的按键)
2024-08-24 11:25:43.983 - 55 0A 31 00 00 00 01 91 55 0A 31 00 00 00 02 92 (厨房顶灯一关, 厨房顶灯二关)
2024-08-24 11:40:02.613 - 19 08 24 03 CC 00 D3 00 01 (调用厨房感应灯开的按键)
2024-08-24 11:40:02.647 - 55 0A 32 00 00 00 01 92 55 0A 32 00 00 00 02 93 (厨房顶灯一开, 厨房顶灯二开)
2024-08-24 11:41:37.802 - 19 08 24 03 CC 00 D4 00 01 (调用厨房感应灯关的按键)
2024-08-24 11:41:37.836 - 55 0A 31 00 00 00 01 91 55 0A 31 00 00 00 02 92 (厨房顶灯一关, 厨房顶灯二关)
2024-08-24 11:43:48.054 - 19 08 24 03 CC 00 D3 00 01 (调用厨房感应灯开的按键)
2024-08-24 11:43:48.096 - 55 0A 32 00 00 00 01 92 55 0A 32 00 00 00 02 93 (厨房顶灯一开, 厨房顶灯二开)
2024-08-24 11:44:48.672 - 19 08 24 03 CC 00 D4 00 01 (调用厨房感应灯关的按键)
2024-08-24 11:44:48.713 - 55 0A 31 00 00 00 01 91 55 0A 31 00 00 00 02 92 (厨房顶灯一关, 厨房顶灯二关)
2024-08-24 11:53:36.212 - 19 08 24 03 CC 00 D3 00 01 (调用厨房感应灯开的按键)
2024-08-24 11:53:36.246 - 55 0A 32 00 00 00 01 92 55 0A 32 00 00 00 02 93 (厨房顶灯一开, 厨房顶灯二开)
2024-08-24 11:55:16.406 - 19 08 24 03 CC 00 D4 00 01 (调用厨房感应灯关的按键)
2024-08-24 11:55:16.438 - 55 0A 31 00 00 00 01 91 55 0A 31 00 00 00 02 92 (厨房顶灯一关, 厨房顶灯二关)
2024-08-24 11:57:39.689 - 19 08 24 03 CC 00 D3 00 01 (调用厨房感应灯开的按键)
2024-08-24 11:57:39.721 - 55 0A 32 00 00 00 01 92 55 0A 32 00 00 00 02 93 (厨房顶灯一开, 厨房顶灯二开)
2024-08-24 11:58:39.443 - 19 08 24 03 DD 00 3B 00 01 (调用情景-书房照明关帘)
2024-08-24 11:58:39.985 - EE 00 00 B1 00 00 00 FF FC FF FF (情景执行提示)
2024-08-24 11:58:40.575 - 09 06 00 0F 02 01 78 21 (提示音叮)
2024-08-24 11:58:41.133 - 1A 0A 04 06 01 FF F0 01 FF F0 01 FF 00 00 0F (调光器地址-书房射灯, 书房射灯明亮)
2024-08-24 11:58:45.217 - A5 00 B7 FF 00 AA 22 0D (书房纱帘关)
2024-08-24 11:58:46.254 - A5 00 D2 FF 00 AA 22 0C (书房窗帘关)
2024-08-24 11:58:47.307 - 09 06 00 0F 02 02 38 20 (提示音咚)
2024-08-24 11:58:47.864 - EE 00 00 B1 00 00 02 FF FC FF FF (情景完成返回主页)
2024-08-24 11:58:50.337 - 19 08 24 03 CC 00 D4 00 01 (调用厨房感应灯关的按键)
2024-08-24 11:58:50.369 - 55 0A 31 00 00 00 01 91 55 0A 31 00 00 00 02 92 (厨房顶灯一关, 厨房顶灯二关)
2024-08-24 11:58:51.246 - 19 08 24 03 DD 00 3A 00 01 (调用情景-离开书房)
2024-08-24 11:58:51.744 - EE 00 00 B1 00 00 00 FF FC FF FF (情景执行提示)
2024-08-24 11:58:52.346 - 09 06 00 0F 02 01 78 21 (提示音叮)
2024-08-24 11:58:52.888 - 01 06 07 DC FF 60 08 9C (书房空调关)
2024-08-24 11:58:52.920 - 01 06 07 DC FF 60 08 9C (书房空调关)
2024-08-24 11:58:53.479 - 50 F5 07 (关书房影视)
2024-08-24 11:58:54.040 - A5 00 D2 FE 01 AA 22 0D (书房窗帘开)
2024-08-24 11:58:54.091 - 55 00 D2 02 00 E5 00 F2 AA 55 00 D2 02 00 E5 00 F2 FA (书房窗帘电机状态返回)
2024-08-24 11:58:55.136 - A5 00 B7 FF 00 AA 22 0D (书房纱帘关)
2024-08-24 11:58:56.183 - 55 0D 31 00 00 00 01 94 (书房顶灯只关)
2024-08-24 11:58:57.227 - 1A 0A 04 06 01 FF 00 01 FF 00 01 FF 00 00 0F (调光器地址-书房射灯, 书房射灯关闭)
2024-08-24 11:59:00.882 - 55 00 D2 00 00 0E 00 F2 AA 55 00 D2 00 00 0E 00 F2 AA (书房窗帘电机状态返回)
2024-08-24 11:59:01.312 - 09 06 00 0F 02 02 38 20 (提示音咚)
2024-08-24 11:59:01.915 - EE 00 00 B1 00 00 02 FF FC FF FF (情景完成返回主页)
2024-08-24 12:00:28.073 - 19 08 24 03 CC 01 D2 00 01
2024-08-24 12:00:28.124 - 55 0D 30 00 00 00 01 93 (书房顶灯开关)
2024-08-24 12:00:30.098 - 19 08 24 03 CC 01 D2 00 01
2024-08-24 12:00:30.131 - 55 0D 30 00 00 00 01 93 (书房顶灯开关)
2024-08-24 12:11:14.796 - 19 08 24 03 CC 00 D3 00 01 (调用厨房感应灯开的按键)
2024-08-24 12:11:14.830 - 55 0A 32 00 00 00 01 92 55 0A 32 00 00 00 02 93 (厨房顶灯一开, 厨房顶灯二开)
2024-08-24 12:11:55.375 - 19 08 24 03 CC 00 D4 00 01 (调用厨房感应灯关的按键)
2024-08-24 12:11:55.409 - 55 0A 31 00 00 00 01 91 55 0A 31 00 00 00 02 92 (厨房顶灯一关, 厨房顶灯二关)
2024-08-24 12:12:12.916 - 19 08 24 03 CC 00 D3 00 01 (调用厨房感应灯开的按键)
2024-08-24 12:12:12.948 - 55 0A 32 00 00 00 01 92 55 0A 32 00 00 00 02 93 (厨房顶灯一开, 厨房顶灯二开)
2024-08-24 12:13:45.587 - 19 08 24 03 CC 00 D4 00 01 (调用厨房感应灯关的按键)
2024-08-24 12:13:45.631 - 55 0A 31 00 00 00 01 91 55 0A 31 00 00 00 02 92 (厨房顶灯一关, 厨房顶灯二关)
2024-08-24 12:19:31.277 - 19 08 24 03 CC 00 D3 00 01 (调用厨房感应灯开的按键)
2024-08-24 12:19:31.308 - 55 0A 32 00 00 00 01 92 55 0A 32 00 00 00 02 93 (厨房顶灯一开, 厨房顶灯二开)
2024-08-24 12:20:29.886 - 19 08 24 03 CC 00 D4 00 01 (调用厨房感应灯关的按键)
2024-08-24 12:20:29.918 - 55 0A 31 00 00 00 01 91 55 0A 31 00 00 00 02 92 (厨房顶灯一关, 厨房顶灯二关)
2024-08-24 12:25:05.153 - 19 08 24 03 CC 01 52 00 01 (调用外卫感应灯开的按键)
2024-08-24 12:25:05.195 - 1A 0D 01 07 01 FF 45 01 FF 45 01 FF 00 00 0F (调光器地址-外卫射灯, 外卫感应灯开)
2024-08-24 12:26:26.590 - 19 08 24 03 CC 00 D3 00 01 (调用厨房感应灯开的按键)
2024-08-24 12:26:26.624 - 55 0A 32 00 00 00 01 92 55 0A 32 00 00 00 02 93 (厨房顶灯一开, 厨房顶灯二开)
2024-08-24 12:27:24.204 - 19 08 24 03 CC 00 D4 00 01 (调用厨房感应灯关的按键)
2024-08-24 12:27:24.241 - 55 0A 31 00 00 00 01 91 55 0A 31 00 00 00 02 92 (厨房顶灯一关, 厨房顶灯二关)
2024-08-24 12:29:02.887 - 19 08 24 03 CC 00 D3 00 01 (调用厨房感应灯开的按键)
2024-08-24 12:29:02.933 - 55 0A 32 00 00 00 01 92 55 0A 32 00 00 00 02 93 (厨房顶灯一开, 厨房顶灯二开)
2024-08-24 12:29:37.962 - 19 08 24 03 CC 00 D4 00 01 (调用厨房感应灯关的按键)
2024-08-24 12:29:37.996 - 55 0A 31 00 00 00 01 91 55 0A 31 00 00 00 02 92 (厨房顶灯一关, 厨房顶灯二关)
2024-08-24 12:30:00.512 - 19 08 24 03 CC 00 D3 00 01 (调用厨房感应灯开的按键)
2024-08-24 12:30:00.546 - 55 0A 32 00 00 00 01 92 55 0A 32 00 00 00 02 93 (厨房顶灯一开, 厨房顶灯二开)
2024-08-24 12:31:12.150 - 19 08 24 03 CC 00 D4 00 01 (调用厨房感应灯关的按键)
2024-08-24 12:31:12.184 - 55 0A 31 00 00 00 01 91 55 0A 31 00 00 00 02 92 (厨房顶灯一关, 厨房顶灯二关)
2024-08-24 12:31:18.665 - 19 08 24 03 CC 00 D3 00 01 (调用厨房感应灯开的按键)
2024-08-24 12:31:18.700 - 55 0A 32 00 00 00 01 92 55 0A 32 00 00 00 02 93 (厨房顶灯一开, 厨房顶灯二开)
2024-08-24 12:32:13.274 - 19 08 24 03 CC 00 D4 00 01 (调用厨房感应灯关的按键)
2024-08-24 12:32:13.308 - 55 0A 31 00 00 00 01 91 55 0A 31 00 00 00 02 92 (厨房顶灯一关, 厨房顶灯二关)
2024-08-24 12:32:30.302 - 19 08 24 03 CC 00 D3 00 01 (调用厨房感应灯开的按键)
2024-08-24 12:32:30.335 - 55 0A 32 00 00 00 01 92 55 0A 32 00 00 00 02 93 (厨房顶灯一开, 厨房顶灯二开)
2024-08-24 12:33:08.381 - 19 08 24 03 CC 00 D4 00 01 (调用厨房感应灯关的按键)
2024-08-24 12:33:08.433 - 55 0A 31 00 00 00 01 91 55 0A 31 00 00 00 02 92 (厨房顶灯一关, 厨房顶灯二关)
2024-08-24 12:35:33.894 - 19 08 24 03 CC 01 53 00 01 (调用外卫感应灯关的按键)
2024-08-24 12:35:33.926 - 1A 0D 01 07 01 FF 00 01 FF 00 01 FF 00 00 0F (调光器地址-外卫射灯, 外卫感应灯关)
2024-08-24 12:41:15.838 - 19 08 24 03 CC 00 D3 00 01 (调用厨房感应灯开的按键)
2024-08-24 12:41:15.870 - 55 0A 32 00 00 00 01 92 55 0A 32 00 00 00 02 93 (厨房顶灯一开, 厨房顶灯二开)
2024-08-24 12:41:36.617 - 19 08 24 03 CC 01 52 00 01 (调用外卫感应灯开的按键)
2024-08-24 12:41:36.651 - 1A 0D 01 07 01 FF 45 01 FF 45 01 FF 00 00 0F (调光器地址-外卫射灯, 外卫感应灯开)
2024-08-24 12:42:12.179 - 19 08 24 03 CC 01 53 00 01 (调用外卫感应灯关的按键)
2024-08-24 12:42:12.211 - 1A 0D 01 07 01 FF 00 01 FF 00 01 FF 00 00 0F (调光器地址-外卫射灯, 外卫感应灯关)
2024-08-24 12:43:22.086 - 19 08 24 03 CC 00 D4 00 01 (调用厨房感应灯关的按键)
2024-08-24 12:43:22.118 - 55 0A 31 00 00 00 01 91 55 0A 31 00 00 00 02 92 (厨房顶灯一关, 厨房顶灯二关)
2024-08-24 12:44:17.692 - 19 08 24 03 CC 00 D3 00 01 (调用厨房感应灯开的按键)
2024-08-24 12:44:17.724 - 55 0A 32 00 00 00 01 92 55 0A 32 00 00 00 02 93 (厨房顶灯一开, 厨房顶灯二开)
2024-08-24 12:44:35.018 - A1 11 11 11 42 (主卧空调自动开)
2024-08-24 12:44:35.254 - 19 08 24 03 F0 BB 78 02 02 00
2024-08-24 12:44:35.302 - 23 AA 56 02 0C 2C 31 18 08 18 06 73 65 6F 6B 65 6E 64
2024-08-24 12:44:36.259 - 01 10 07 D6 00 03 06 70 61 00 02 00 F0 0F 3E (主卧空调冷24度)
2024-08-24 12:44:36.293 - 01 10 07 D6 00 03 06 70 61 00 02 00 F0 0F 3E (主卧空调冷24度)
2024-08-24 12:44:42.654 - A5 00 53 FE 01 AA (主卧纱帘关)
2024-08-24 12:44:42.705 - 55 00 53 02 02 22 02 30 AA 55 00 53 02 02 22 02 F8 (主卧纱帘电机状态返回)
2024-08-24 12:44:52.766 - 19 08 24 03 CC 00 D4 00 01 (调用厨房感应灯关的按键)
2024-08-24 12:44:52.814 - 55 0A 31 00 00 00 01 91 55 0A 31 00 00 00 02 92 (厨房顶灯一关, 厨房顶灯二关)
2024-08-24 12:44:54.298 - 55 00 53 00 00 0C 02 30 AA 55 00 53 00 00 0C 02 30 AA (主卧纱帘电机状态返回)
2024-08-24 12:45:46.368 - 19 08 24 03 CC 00 D3 00 01 (调用厨房感应灯开的按键)
2024-08-24 12:45:46.417 - 55 0A 32 00 00 00 01 92 55 0A 32 00 00 00 02 93 (厨房顶灯一开, 厨房顶灯二开)
2024-08-24 12:47:06.265 - 19 08 24 03 CC 01 52 00 01 (调用外卫感应灯开的按键)
2024-08-24 12:47:06.297 - 1A 0D 01 07 01 FF 45 01 FF 45 01 FF 00 00 0F (调光器地址-外卫射灯, 外卫感应灯开)
2024-08-24 12:47:13.222 - 19 08 24 03 CC 01 77 00 01
2024-08-24 12:47:13.249 - 50 F0 03 (开外卫影视)
2024-08-24 12:48:09.650 - 19 08 24 03 CC 00 D4 00 01 (调用厨房感应灯关的按键)
2024-08-24 12:48:09.681 - 55 0A 31 00 00 00 01 91 55 0A 31 00 00 00 02 92 (厨房顶灯一关, 厨房顶灯二关)
2024-08-24 12:59:39.509 - 19 08 24 03 CC 00 D3 00 01 (调用厨房感应灯开的按键)
2024-08-24 12:59:39.541 - 55 0A 32 00 00 00 01 92 55 0A 32 00 00 00 02 93 (厨房顶灯一开, 厨房顶灯二开)
2024-08-24 13:00:15.079 - 19 08 24 03 CC 00 D4 00 01 (调用厨房感应灯关的按键)
2024-08-24 13:00:15.114 - 55 0A 31 00 00 00 01 91 55 0A 31 00 00 00 02 92 (厨房顶灯一关, 厨房顶灯二关)
2024-08-24 13:01:31.729 - 19 08 24 03 CC 00 D3 00 01 (调用厨房感应灯开的按键)
2024-08-24 13:01:31.761 - 55 0A 32 00 00 00 01 92 55 0A 32 00 00 00 02 93 (厨房顶灯一开, 厨房顶灯二开)
2024-08-24 13:02:09.797 - 19 08 24 03 CC 00 D4 00 01 (调用厨房感应灯关的按键)
2024-08-24 13:02:09.865 - 55 0A 31 00 00 00 01 91 55 0A 31 00 00 00 02 92 (厨房顶灯一关, 厨房顶灯二关)
2024-08-24 13:04:21.303 - 19 08 24 03 CC 01 53 00 01 (调用外卫感应灯关的按键)
2024-08-24 13:04:21.337 - 1A 0D 01 07 01 FF 00 01 FF 00 01 FF 00 00 0F (调光器地址-外卫射灯, 外卫感应灯关)
2024-08-24 13:11:15.126 - 19 08 24 03 CC 01 52 00 01 (调用外卫感应灯开的按键)
2024-08-24 13:11:15.190 - 1A 0D 01 07 01 FF 45 01 FF 45 01 FF 00 00 0F (调光器地址-外卫射灯, 外卫感应灯开)
2024-08-24 13:11:22.672 - 19 08 24 03 CC 01 78 00 01
2024-08-24 13:11:22.700 - 50 F5 03 (关外卫影视)
2024-08-24 13:11:39.164 - 19 08 24 03 CC 01 53 00 01 (调用外卫感应灯关的按键)
2024-08-24 13:11:39.198 - 1A 0D 01 07 01 FF 00 01 FF 00 01 FF 00 00 0F (调光器地址-外卫射灯, 外卫感应灯关)
2024-08-24 13:13:28.383 - 19 08 24 03 CC 01 52 00 01 (调用外卫感应灯开的按键)
2024-08-24 13:13:28.417 - 1A 0D 01 07 01 FF 45 01 FF 45 01 FF 00 00 0F (调光器地址-外卫射灯, 外卫感应灯开)
2024-08-24 13:14:15.228 - 19 08 24 03 CC 00 D3 00 01 (调用厨房感应灯开的按键)
2024-08-24 13:14:15.260 - 55 0A 32 00 00 00 01 92 55 0A 32 00 00 00 02 93 (厨房顶灯一开, 厨房顶灯二开)
2024-08-24 13:14:20.492 - 19 08 24 03 CC 01 53 00 01 (调用外卫感应灯关的按键)
2024-08-24 13:14:20.526 - 1A 0D 01 07 01 FF 00 01 FF 00 01 FF 00 00 0F (调光器地址-外卫射灯, 外卫感应灯关)
2024-08-24 13:16:17.972 - 19 08 24 03 CC 00 D4 00 01 (调用厨房感应灯关的按键)
2024-08-24 13:16:18.004 - 55 0A 31 00 00 00 01 91 55 0A 31 00 00 00 02 92 (厨房顶灯一关, 厨房顶灯二关)
2024-08-24 13:19:03.785 - 19 08 24 03 CC 00 D3 00 01 (调用厨房感应灯开的按键)
2024-08-24 13:19:03.833 - 55 0A 32 00 00 00 01 92 55 0A 32 00 00 00 02 93 (厨房顶灯一开, 厨房顶灯二开)
2024-08-24 13:19:48.878 - 19 08 24 03 CC 00 D4 00 01 (调用厨房感应灯关的按键)
2024-08-24 13:19:48.910 - 55 0A 31 00 00 00 01 91 55 0A 31 00 00 00 02 92 (厨房顶灯一关, 厨房顶灯二关)
2024-08-24 13:26:46.695 - 19 08 24 03 CC 00 D3 00 01 (调用厨房感应灯开的按键)
2024-08-24 13:26:46.741 - 55 0A 32 00 00 00 01 92 55 0A 32 00 00 00 02 93 (厨房顶灯一开, 厨房顶灯二开)
2024-08-24 13:27:25.276 - 19 08 24 03 CC 00 D4 00 01 (调用厨房感应灯关的按键)
2024-08-24 13:27:25.319 - 55 0A 31 00 00 00 01 91 55 0A 31 00 00 00 02 92 (厨房顶灯一关, 厨房顶灯二关)
2024-08-24 13:28:12.870 - 19 08 24 03 CC 00 D3 00 01 (调用厨房感应灯开的按键)
2024-08-24 13:28:12.910 - 55 0A 32 00 00 00 01 92 55 0A 32 00 00 00 02 93 (厨房顶灯一开, 厨房顶灯二开)
2024-08-24 13:28:47.937 - 19 08 24 03 CC 00 D4 00 01 (调用厨房感应灯关的按键)
2024-08-24 13:28:47.982 - 55 0A 31 00 00 00 01 91 55 0A 31 00 00 00 02 92 (厨房顶灯一关, 厨房顶灯二关)
2024-08-24 13:35:35.741 - 19 08 24 03 CC 00 D3 00 01 (调用厨房感应灯开的按键)
2024-08-24 13:35:35.775 - 55 0A 32 00 00 00 01 92 55 0A 32 00 00 00 02 93 (厨房顶灯一开, 厨房顶灯二开)
2024-08-24 13:39:20.395 - 1A FF FF FF 04 (继电器地址-东阳衣架)
2024-08-24 13:39:20.531 - 00
2024-08-24 13:40:52.363 - 19 08 24 03 CC 00 D4 00 01 (调用厨房感应灯关的按键)
2024-08-24 13:40:52.413 - 55 0A 31 00 00 00 01 91 55 0A 31 00 00 00 02 92 (厨房顶灯一关, 厨房顶灯二关)
2024-08-24 14:10:38.877 - 19 08 24 03 CC 00 D3 00 01 (调用厨房感应灯开的按键)
2024-08-24 14:10:38.925 - 55 0A 32 00 00 00 01 92 55 0A 32 00 00 00 02 93 (厨房顶灯一开, 厨房顶灯二开)
2024-08-24 14:11:41.994 - 19 08 24 03 CC 00 D4 00 01 (调用厨房感应灯关的按键)
2024-08-24 14:11:42.042 - 55 0A 31 00 00 00 01 91 55 0A 31 00 00 00 02 92 (厨房顶灯一关, 厨房顶灯二关)
2024-08-24 14:21:49.411 - 1A BE B0 DC 04 FC (继电器地址-西阳窗帘)
2024-08-24 14:21:49.552 - FF
2024-08-24 14:21:50.449 - FF FF FF FF 0E FC (继电器地址-西阳小窗帘)
2024-08-24 14:23:33.694 - 1A BE B0 DC 02 (正反转地址-外卫卷帘)
2024-08-24 14:23:33.824 - FF
2024-08-24 14:23:34.746 - 1A BE B0 DC 0A (继电器地址-客厅纱帘)
2024-08-24 14:23:34.889 - FF
2024-08-24 14:25:05.067 - 1A BE B0 DC 03 FC (继电器地址-西阳天幕)
2024-08-24 14:25:05.198 - FF
2024-08-24 14:26:05.840 - 1A BE B0 DC 01 FC (继电器地址-回水泵点动)
2024-08-24 14:31:06.017 - FF FF FF FF 0A FE (继电器地址-东阳窗帘)
2024-08-24 14:31:06.151 - FF
2024-08-24 14:31:19.229 - 1A BE B0 DC 09 FF (继电器地址-客厅窗帘)
2024-08-24 14:31:19.370 - FF
2024-08-24 14:39:49.209 - 19 08 24 03 CC 01 54 00 01 (调用内卫感应灯开的按键)
2024-08-24 14:39:49.257 - 1A 0C 02 08 01 FF 45 01 FF 45 01 FF 00 00 0F (调光器地址-内卫射灯, 内卫射灯微光)
2024-08-24 14:41:53.953 - 19 08 24 03 CC 01 55 00 01 (调用外卫感应灯关的按键)
2024-08-24 14:41:54.001 - 1A 0C 02 08 01 FF 00 01 FF 00 01 FF 00 00 0F (调光器地址-内卫射灯, 内卫感应灯关)
2024-08-24 14:42:59.585 - 19 08 24 03 CC 01 54 00 01 (调用内卫感应灯开的按键)
2024-08-24 14:42:59.618 - 1A 0C 02 08 01 FF 45 01 FF 45 01 FF 00 00 0F (调光器地址-内卫射灯, 内卫射灯微光)
2024-08-24 14:43:25.136 - 19 08 24 03 CC 01 55 00 01 (调用外卫感应灯关的按键)
2024-08-24 14:43:25.168 - 1A 0C 02 08 01 FF 00 01 FF 00 01 FF 00 00 0F (调光器地址-内卫射灯, 内卫感应灯关)
2024-08-24 14:54:29.043 - 19 08 24 03 CC 00 D3 00 01 (调用厨房感应灯开的按键)
2024-08-24 14:54:29.085 - 55 0A 32 00 00 00 01 92 55 0A 32 00 00 00 02 93 (厨房顶灯一开, 厨房顶灯二开)
2024-08-24 14:55:26.158 - 19 08 24 03 CC 00 D4 00 01 (调用厨房感应灯关的按键)
2024-08-24 14:55:26.190 - 55 0A 31 00 00 00 01 91 55 0A 31 00 00 00 02 92 (厨房顶灯一关, 厨房顶灯二关)
2024-08-24 15:02:02.940 - 19 08 24 03 CC 00 D3 00 01 (调用厨房感应灯开的按键)
2024-08-24 15:02:02.972 - 55 0A 32 00 00 00 01 92 55 0A 32 00 00 00 02 93 (厨房顶灯一开, 厨房顶灯二开)
2024-08-24 15:03:11.578 - 19 08 24 03 CC 00 D4 00 01 (调用厨房感应灯关的按键)
2024-08-24 15:03:11.614 - 55 0A 31 00 00 00 01 91 55 0A 31 00 00 00 02 92 (厨房顶灯一关, 厨房顶灯二关)
2024-08-24 15:03:52.651 - 19 08 24 03 CC 00 D3 00 01 (调用厨房感应灯开的按键)
2024-08-24 15:03:52.694 - 55 0A 32 00 00 00 01 92 55 0A 32 00 00 00 02 93 (厨房顶灯一开, 厨房顶灯二开)
2024-08-24 15:06:13.937 - 19 08 24 03 CC 00 D4 00 01 (调用厨房感应灯关的按键)
2024-08-24 15:06:13.971 - 55 0A 31 00 00 00 01 91 55 0A 31 00 00 00 02 92 (厨房顶灯一关, 厨房顶灯二关)
2024-08-24 15:16:14.116 - 19 08 24 03 CC 00 D3 00 01 (调用厨房感应灯开的按键)
2024-08-24 15:16:14.147 - 55 0A 32 00 00 00 01 92 55 0A 32 00 00 00 02 93 (厨房顶灯一开, 厨房顶灯二开)
2024-08-24 15:17:36.274 - 19 08 24 03 CC 00 D4 00 01 (调用厨房感应灯关的按键)
2024-08-24 15:17:36.308 - 55 0A 31 00 00 00 01 91 55 0A 31 00 00 00 02 92 (厨房顶灯一关, 厨房顶灯二关)
2024-08-24 15:24:25.080 - 19 08 24 03 CC 00 D3 00 01 (调用厨房感应灯开的按键)
2024-08-24 15:24:25.112 - 55 0A 32 00 00 00 01 92 55 0A 32 00 00 00 02 93 (厨房顶灯一开, 厨房顶灯二开)
2024-08-24 15:26:51.669 - 19 08 24 03 CC 01 52 00 01 (调用外卫感应灯开的按键)
2024-08-24 15:26:51.716 - 1A 0D 01 07 01 FF 45 01 FF 45 01 FF 00 00 0F (调光器地址-外卫射灯, 外卫感应灯开)
2024-08-24 15:26:58.693 - 19 08 24 03 CC 01 53 00 01 (调用外卫感应灯关的按键)
2024-08-24 15:26:58.727 - 1A 0D 01 07 01 FF 00 01 FF 00 01 FF 00 00 0F (调光器地址-外卫射灯, 外卫感应灯关)
2024-08-24 15:27:05.292 - 19 08 24 03 CC 01 54 00 01 (调用内卫感应灯开的按键)
2024-08-24 15:27:05.326 - 1A 0C 02 08 01 FF 45 01 FF 45 01 FF 00 00 0F (调光器地址-内卫射灯, 内卫射灯微光)
2024-08-24 15:27:50.673 - 19 08 24 03 CC 01 64 00 01
2024-08-24 15:27:50.689 - 50 F5 08 (关客厅影视)
2024-08-24 15:28:04.312 - 19 08 24 03 DD 00 00 00 01 (调用情景-离家（末）)
2024-08-24 15:28:04.823 - EE 00 00 B1 00 00 00 FF FC FF FF (情景执行提示)
2024-08-24 15:28:05.418 - 09 06 00 0F 02 02 38 20 (提示音咚)
2024-08-24 15:28:05.963 - 50 F7 01 (全屋影音全关)
2024-08-24 15:28:06.515 - 01 06 07 D0 FF 60 C8 9F (客厅空调关)
2024-08-24 15:28:06.546 - 01 06 07 D0 FF 60 C8 9F (客厅空调关)
2024-08-24 15:28:07.105 - 01 06 07 D0 FF 60 C8 9F (客厅空调关)
2024-08-24 15:28:07.137 - 01 06 07 D0 FF 60 C8 9F (客厅空调关)
2024-08-24 15:28:07.716 - 01 06 07 D3 FF 60 38 9F (餐厅空调关)
2024-08-24 15:28:07.743 - 01 06 07 D3 FF 60 38 9F (餐厅空调关)
2024-08-24 15:28:08.311 - 01 06 07 D3 FF 60 38 9F (餐厅空调关)
2024-08-24 15:28:08.336 - 01 06 07 D3 FF 60 38 9F (餐厅空调关)
2024-08-24 15:28:08.909 - 01 06 07 D6 FF 60 28 9E (主卧空调关)
2024-08-24 15:28:08.940 - 01 06 07 D6 FF 60 28 9E (主卧空调关)
2024-08-24 15:28:09.502 - 01 06 07 D6 FF 60 28 9E (主卧空调关)
2024-08-24 15:28:09.536 - 01 06 07 D6 FF 60 28 9E (主卧空调关)
2024-08-24 15:28:10.105 - 01 06 07 D9 FF 60 18 9D (次卧空调关)
2024-08-24 15:28:10.136 - 01 06 07 D9 FF 60 18 9D (次卧空调关)
2024-08-24 15:28:10.695 - 01 06 07 D9 FF 60 18 9D (次卧空调关)
2024-08-24 15:28:10.726 - 01 06 07 D9 FF 60 18 9D (次卧空调关)
2024-08-24 15:28:11.304 - 01 06 07 DC FF 60 08 9C (书房空调关)
2024-08-24 15:28:11.355 - 01 06 07 DC FF 60
2024-08-24 15:28:11.899 - 01 06 07 DC FF 60 08 9C (书房空调关)
2024-08-24 15:28:11.937 - 01 06 07 DC FF 60 08 9C (书房空调关)
2024-08-24 15:28:12.496 - 09 06 00 0F 02 02 38 20 (提示音咚)
2024-08-24 15:28:13.073 - 1A FF FF FF 56 00 00 00 0F (人体红外感应地址-内卫, 关闭内卫感应)
2024-08-24 15:28:13.650 - 1A FF FF FF 55 00 00 00 0F (人体红外感应地址-外卫, 关闭外卫感应)
2024-08-24 15:28:13.739 - BC BC
2024-08-24 15:28:14.194 - 1A FF FF FF 57 00 00 00 0F (关闭厨房感应)
2024-08-24 15:28:14.745 - 1A 20 07 00 93 00 01 00 0F (自保持开关地址-设备区顶, 设备区顶灯关)
2024-08-24 15:28:15.782 - 1A 20 07 01 40 00 01 00 0F (自保持开关地址-内卫顶灯, 内卫顶灯关)
2024-08-24 15:28:16.836 - 1A 20 07 01 55 00 01 00 0F (自保持开关地址-主卧顶灯, 主卧顶灯只关)
2024-08-24 15:28:17.885 - 1A 20 07 00 42 00 01 00 0F (自保持开关地址-外卫顶灯, 外卫顶灯关)
2024-08-24 15:28:18.926 - 55 0D 31 00 00 00 01 94 (书房顶灯只关)
2024-08-24 15:28:19.978 - 55 0A 31 00 00 00 01 91 (厨房顶灯一关)
2024-08-24 15:28:21.015 - 55 0A 31 00 00 00 02 92 (厨房顶灯二关)
2024-08-24 15:28:22.070 - 55 0B 31 00 00 00 01 92 (厨房风扇只关)
2024-08-24 15:28:23.107 - 55 0C 31 00 00 00 01 93 (餐厅顶灯关)
2024-08-24 15:28:24.163 - 1A 20 07 01 30 00 01 00 0F (自保持开关地址-西阳顶灯, 西阳顶灯关)
2024-08-24 15:28:25.209 - 1A 18 05 21 89 00 01 00 0F (自保持开关地址-客厅顶灯, 客厅顶灯一关)
2024-08-24 15:28:26.254 - 1A 18 05 01 94 00 01 00 0F (自保持开关地址-客厅顶灯, 客厅顶灯二关)
2024-08-24 15:28:27.298 - 1A 20 07 00 70 00 01 00 0F (自保持开关地址-次卧顶灯, 次卧顶灯只关)
2024-08-24 15:28:28.350 - 1A 18 05 10 31 00 01 00 0F (自保持开关地址-门厅顶灯, 门厅顶灯关)
2024-08-24 15:28:29.387 - 1A FF FF FF 04 00 03 02 (继电器地址-东阳衣架, 东阳衣架照明关)
2024-08-24 15:28:29.946 - 09 06 00 0F 02 02 38 20 (提示音咚)
2024-08-24 15:28:30.489 - A5 00 A6 FE 01 AA (餐厅窗帘开)
2024-08-24 15:28:31.034 - FF FF FF FF 0A 00 01 00 (继电器地址-东阳窗帘, 东阳窗帘开)
2024-08-24 15:28:31.588 - 1A BE B0 DC 04 00 01 00 (继电器地址-西阳窗帘, 西阳窗帘开)
2024-08-24 15:28:32.139 - FF FF FF FF 0E 00 01 00 (继电器地址-西阳小窗帘, 西阳小窗帘开)
2024-08-24 15:28:32.689 - 1A 22 33 62 0F 00 00 01 0F (正反转地址-内卫卷帘, 内卫卷帘升)
2024-08-24 15:28:33.232 - A5 00 52 FE 01 AA (主卧窗帘开)
2024-08-24 15:28:33.773 - A5 00 53 FF 00 AA (主卧纱帘开)
2024-08-24 15:28:33.840 - 55 00 53 01 00 0C 02 30 AA 55 00 53 01 00 0C 02 (主卧纱帘电机状态返回)
2024-08-24 15:28:34.379 - A5 00 76 FE 01 AA (次卧窗帘开)
2024-08-24 15:28:34.435 - 55 00 76 02 01 0E 01 1B AA 55 00 76 02 01 0E 01 1B AA (次卧窗帘电机状态返回)
2024-08-24 15:28:34.978 - A5 00 21 FE 01 AA (次卧纱帘开)
2024-08-24 15:28:35.033 - 55 00 21 02 01 27 01 34 AA 55 00 21 02 01 27 01 34 AA (次卧纱帘电机状态返回)
2024-08-24 15:28:35.577 - A5 00 D2 FE 01 AA 22 0D (书房窗帘开)
2024-08-24 15:28:36.119 - 1A BE B0 DC 09 00 01 00 (继电器地址-客厅窗帘, 客厅窗帘开)
2024-08-24 15:28:36.663 - 1A BE B0 DC 0A 00 02 00 (继电器地址-客厅纱帘, 客厅纱帘开)
2024-08-24 15:28:37.225 - 09 06 00 0F 02 02 38 20 (提示音咚)
2024-08-24 15:28:38.272 - 1A EC A0 DC 02 00 00 00 0F (自保持开关地址-天花12V供电, 天花12V 供电关)
2024-08-24 15:28:38.815 - 1A EC A0 DC 02 00 00 00 0F (自保持开关地址-天花12V供电, 天花12V 供电关)
2024-08-24 15:28:39.367 - 1A EC A0 DC 01 00 00 00 0F (自保持开关地址-电视、设备12V供电, 12V 电视供电关)
2024-08-24 15:28:39.916 - 1A EC A0 DC 01 00 00 00 0F (自保持开关地址-电视、设备12V供电, 12V 电视供电关)
2024-08-24 15:28:40.458 - 1A EC A0 DC 04 00 01 00 0F (自保持开关地址-次卧西阳内外卫供电, 内卫外卫关)
2024-08-24 15:28:40.881 - 55 00 76 00 00 0E 01 1B AA 55 00 76 00 00 0E 01 1B AA (次卧窗帘电机状态返回)
2024-08-24 15:28:41.000 - 1A EC A0 DC 04 00 01 00 0F (自保持开关地址-次卧西阳内外卫供电, 内卫外卫关)
2024-08-24 15:28:41.748 - 55 00 21 00 00 0D 01 34 AA 55 00 21 00 00 0D 01 34 AA (次卧纱帘电机状态返回)
2024-08-24 15:28:44.470 - 55 00 53 00 02 22 02 30 AA 55 00 53 00 02 22 02 30 AA (主卧纱帘电机状态返回)
2024-08-24 15:28:58.995 - 09 06 00 0F 02 02 38 20 (提示音咚)
2024-08-24 15:28:59.557 - 1A 27 89 12 AA 00 00 00 0F (状态寄存器地址, 无人状态)
2024-08-24 15:29:00.101 - 1A 27 89 12 AA 00 00 00 0F (状态寄存器地址, 无人状态)
2024-08-24 15:29:00.646 - A1 11 11 11 4D (天花供电关闭确认)
2024-08-24 15:29:00.876 - 1A EC A0 DC 02 86 86 86 0F (查询天花供电状态, 自保持开关地址-天花12V供电)
2024-08-24 15:29:01.309 - 1A EC A0 DC 02 00 01 0F (自保持开关地址-天花12V供电)
2024-08-24 15:29:03.690 - A1 11 11 11 4E (卫生供电关闭确认)
2024-08-24 15:29:03.911 - 1A EC A0 DC 04 86 86 86 0F (查询卫生间供电状态, 自保持开关地址-次卧西阳内外卫供电)
2024-08-24 15:29:04.336 - 1A EC A0 DC 04 01 00 0F (自保持开关地址-次卧西阳内外卫供电)
2024-08-24 15:29:06.729 - A1 11 11 11 4F (电视供电关闭确认)
2024-08-24 15:29:06.938 - 1A EC A0 DC 01 86 86 86 0F (查询电视供电状态, 自保持开关地址-电视、设备12V供电)
2024-08-24 15:29:07.383 - 1A EC A0 DC 01 00 01 0F (自保持开关地址-电视、设备12V供电)
2024-08-24 15:29:09.762 - 09 06 00 0F 02 02 38 20 (提示音咚)
2024-08-24 15:29:10.323 - 09 06 00 0F 02 02 38 20 (提示音咚)
2024-08-24 15:29:10.867 - EE 00 00 B1 00 00 02 FF FC FF FF (情景完成返回主页)
2024-08-24 15:29:11.962 - BA BA EE EE BA BA (离家设置信科变量)
2024-08-24 15:29:13.010 - A1 11 11 11 46 (天热离家遮阳)
2024-08-24 15:29:13.231 - 1A 27 89 12 AA 86 86 86 0F (查询寄存器状态, 状态寄存器地址)
2024-08-24 15:29:13.605 - 1A 27 89 12 AA 00 00 00 00 00 00 00 00 00 00 00 01 00 00 00 00 0F (状态寄存器地址)
2024-08-24 15:29:14.234 - 19 08 24 03 DD 00 05 00 01 (调用情景-天热遮阳关帘)
2024-08-24 15:29:14.762 - EE 00 00 B1 00 00 00 FF FC FF FF (情景执行提示)
2024-08-24 15:29:15.357 - 09 06 00 0F 02 01 78 21 (提示音叮)
2024-08-24 15:29:15.901 - A5 00 A2 FF 00 AA (餐厅纱帘关)
2024-08-24 15:29:16.990 - A5 00 A6 FF 00 AA (餐厅窗帘关)
2024-08-24 15:29:17.050 - 55 00 A6 01 00 0E 01 75 AA 55 00 A6 01 00 0E 01 75 AA (餐厅窗帘电机状态返回)
2024-08-24 15:29:18.095 - A5 00 53 FE 01 AA (主卧纱帘关)
2024-08-24 15:29:18.146 - 55 00 53 02 02 22 02 30 AA 55 00 53 02 02 22 02 30 AA (主卧纱帘电机状态返回)
2024-08-24 15:29:19.221 - A5 00 52 FF 00 AA (主卧窗帘关)
2024-08-24 15:29:20.289 - A5 00 21 FF 00 AA (次卧纱帘关)
2024-08-24 15:29:20.340 - 55 00 21 01 00 0D 01 34 AA 55 00 21 01 00 0D 01 34 AA (次卧纱帘电机状态返回)
2024-08-24 15:29:21.378 - A5 00 76 FF 00 AA (次卧窗帘关)
2024-08-24 15:29:21.437 - 55 00 76 01 00 0E 01 1B AA 55 00 76 01 00 0E 01 1B AA (次卧窗帘电机状态返回)
2024-08-24 15:29:22.483 - A5 00 B7 FF 00 AA 22 0D (书房纱帘关)
2024-08-24 15:29:23.526 - A5 00 D2 FF 00 AA 22 0C (书房窗帘关)
2024-08-24 15:29:23.574 - 55 00 D2 01 00 0E 00 F2 AA 55 00 D2 01 00 0E FC (书房窗帘电机状态返回)
2024-08-24 15:29:25.121 - 1A 22 33 62 5E 00 02 01 0F (正反转地址-厨房卷帘三, 厨房卷帘一降)
2024-08-24 15:29:25.648 - 55 00 A6 00 01 67 01 75 AA 55 00 A6 00 01 67 01 75 AA (餐厅窗帘电机状态返回)
2024-08-24 15:29:26.174 - 1A 22 33 62 56 00 02 01 0F (正反转地址-厨房卷帘二, 厨房卷帘二降)
2024-08-24 15:29:27.212 - 1A 22 33 62 4F 00 00 01 0F (正反转地址-厨房卷帘一, 厨房卷帘三降)
2024-08-24 15:29:27.263 - 55 00 21 00 01 27 01 34 AA 55 00 21 00 01 27 01 34 AA (次卧纱帘电机状态返回)
2024-08-24 15:29:28.040 - 55 00 76 00 01 0E 01 1B AA 55 00 76 00 01 0E 01 1B AA (次卧窗帘电机状态返回)
2024-08-24 15:29:28.317 - 1A BE B0 DC 04 00 02 00 (继电器地址-西阳窗帘, 西阳窗帘关)
2024-08-24 15:29:28.949 - 55 00 53 00 00 0C 02 30 AA 55 00 53 00 00 0C 02 30 AA (主卧纱帘电机状态返回)
2024-08-24 15:29:29.364 - FF FF FF FF 0E 00 02 00 (继电器地址-西阳小窗帘, 西阳小窗帘关)
2024-08-24 15:29:30.409 - 1A BE B0 DC 03 00 03 00 (继电器地址-西阳天幕, 西阳天幕关)
2024-08-24 15:29:30.783 - 55 20 20 00 02 09 02 16 AA 55 20 20 00 02 09 02 16 AA (主卧窗帘电机状态返回)
2024-08-24 15:29:31.362 - 55 00 D2 00 00 E5 00 F2 AA 55 00 D2 00 00 E5 00 F2 AA (书房窗帘电机状态返回)
2024-08-24 15:29:31.454 - 1A BE B0 DC 03 00 03 00 (继电器地址-西阳天幕, 西阳天幕关)
2024-08-24 15:29:32.501 - 09 06 00 0F 02 02 38 20 (提示音咚)
2024-08-24 15:29:33.049 - EE 00 00 B1 00 00 02 FF FC FF FF (情景完成返回主页)
2024-08-24 16:29:29.687 - 1A FF FF FF 60 (红外总线地址-主卧发射设备)
2024-08-24 17:01:02.154 - 1A FF FF FF 04 FC (继电器地址-东阳衣架)
2024-08-24 17:01:02.290 - 03
2024-08-24 17:42:16.031 - FF FF FF FF 0E FC (继电器地址-西阳小窗帘)
2024-08-24 17:42:16.161 - FF
2024-08-24 17:42:20.003 - 1A BE B0 DC 04 (继电器地址-西阳窗帘)
2024-08-24 17:44:35.993 - 1A BE B0 DC 02 (正反转地址-外卫卷帘)
2024-08-24 17:44:36.131 - FF
2024-08-24 17:44:39.944 - 1A BE B0 DC 0A FC (继电器地址-客厅纱帘)
2024-08-24 17:46:53.278 - 1A BE B0 DC 03 (继电器地址-西阳天幕)
2024-08-24 17:46:53.415 - FF
2024-08-24 17:47:53.096 - 1A BE B0 DC 01 (继电器地址-回水泵点动)
2024-08-24 17:47:53.240 - FF
2024-08-24 17:52:31.717 - 1A BE B0 DC 09 FF (继电器地址-客厅窗帘)
2024-08-24 17:52:31.846 - FE
2024-08-24 17:58:26.467 - FF FF FF FF 0A (继电器地址-东阳窗帘)
2024-08-24 17:58:26.610 - FF
2024-08-24 20:22:13.586 - 1A FF FF FF 04 (继电器地址-东阳衣架)
2024-08-24 20:22:13.726 - 03
2024-08-24 21:02:16.924 - FF FF FF FF 0E FE (继电器地址-西阳小窗帘)
2024-08-24 21:02:17.060 - FE
2024-08-24 21:02:21.599 - 1A BE B0 DC 04 FE (继电器地址-西阳窗帘)
2024-08-24 21:02:21.741 - FE
2024-08-24 21:05:08.376 - 1A BE B0 DC 02 (正反转地址-外卫卷帘)
2024-08-24 21:05:08.520 - FE
2024-08-24 21:05:13.462 - 1A BE B0 DC 0A (继电器地址-客厅纱帘)
2024-08-24 21:05:13.597 - FF
2024-08-24 21:07:49.639 - 1A BE B0 DC 03 (继电器地址-西阳天幕)
2024-08-24 21:07:49.768 - FF
2024-08-24 21:08:50.515 - 1A BE B0 DC 01 (继电器地址-回水泵点动)
2024-08-24 21:08:50.659 - FF
2024-08-24 21:12:56.154 - 1A BE B0 DC 09 FD (继电器地址-客厅窗帘)
2024-08-24 21:12:56.291 - FF
2024-08-24 21:19:52.587 - FF FF FF FF 0A FF (继电器地址-东阳窗帘)
2024-08-24 21:52:56.448 - EE 00 00 B1 00 00 00 FF FC FF FF (情景执行提示)
2024-08-24 21:52:57.047 - 09 06 00 0F 02 01 78 21 (提示音叮)
2024-08-24 21:52:57.589 - A1 11 11 11 40 (客厅空调自动开)
2024-08-24 21:52:57.812 - 19 08 24 03 F0 BB 78 02 02 00
2024-08-24 21:52:57.860 - 23 AA 56 02 15 35 0D 18 08 18 06 73 65 6F 6B 65 6E 64
2024-08-24 21:52:58.829 - 01 10 07 D0 00 03 06 70 61 00 02 00 FA 6F 26 (客厅空调冷25度)
2024-08-24 21:52:58.866 - 01 10 07 D0 00 03 06 70 61 00 02 00 FA 6F 26 (客厅空调冷25度)
2024-08-24 21:53:01.625 - A1 11 11 11 41 (餐厅空调自动开)
2024-08-24 21:53:01.848 - 19 08 24 03 F0 BB 78 02 02 00
2024-08-24 21:53:01.896 - 23 AA 56 02 15 35 11 18 08 18 06 73 65 6F 6B 65 6E 64
2024-08-24 21:53:02.859 - 01 10 07 D3 00 03 06 70 61 00 02 00 FA 9F 29 (餐厅空调冷25度)
2024-08-24 21:53:02.900 - 01 10 07 D3 00 03 06 70 61 00 02 00 FA 9F 29 (餐厅空调冷25度)
2024-08-24 21:53:05.666 - A1 11 11 11 42 (主卧空调自动开)
2024-08-24 21:53:05.887 - 19 08 24 03 F0 BB 78 02 02 00
2024-08-24 21:53:05.949 - 23 AA 56 02 15 35 15 18 08 18 06 73 65 6F 6B 65 6E 64
2024-08-24 21:53:06.220 - 09 06 00 0F 02 02 38 20 (提示音咚)
2024-08-24 21:53:06.906 - 01 10 07 D6 00 03 06 70 61 00 02 00 F0 0F 3E (主卧空调冷24度)
2024-08-24 21:53:06.938 - 01 10 07 D6 00 03 06 70 61 00 02 00 F0 0F 3E (主卧空调冷24度)
2024-08-24 21:53:07.265 - EE 00 00 B1 00 00 02 FF FC FF FF (情景完成返回主页)
2024-08-24 21:53:46.229 - 1B 03 00 00 00 02 C6 31 (查询室外光线)
2024-08-24 21:53:46.246 - 1B 03 04 00 00 00 00 41 F2 (室外光线返回)
2024-08-24 21:53:46.568 - 1A EC A0 DC 02 00 00 01 0F (自保持开关地址-天花12V供电, 天花12V 供电开)
2024-08-24 21:53:47.271 - 1A FF 01 FF FF FF 60 01 FF 60 01 FF 00 00 0F (调光器地址-公共区域统配地址)
2024-08-24 21:53:48.259 - 19 08 24 03 DD 00 0D 00 01 (调用情景-信科调用进门暗)
2024-08-24 21:53:49.376 - 1A EC A0 DC 01 00 00 01 0F (自保持开关地址-电视、设备12V供电, 12V 电视供电开)
2024-08-24 21:53:49.921 - 1A EC A0 DC 01 00 00 01 0F (自保持开关地址-电视、设备12V供电, 12V 电视供电开)
2024-08-24 21:53:50.477 - 1A EC A0 DC 04 00 01 01 0F (自保持开关地址-次卧西阳内外卫供电, 内卫外卫开)
2024-08-24 21:53:51.021 - 1A EC A0 DC 04 00 01 01 0F (自保持开关地址-次卧西阳内外卫供电, 内卫外卫开)
2024-08-24 21:53:56.061 - 1A 27 89 12 AA 00 00 01 0F (状态寄存器地址, 有人状态)
2024-08-24 21:53:56.606 - 1A 27 89 12 AA 00 00 01 0F (状态寄存器地址, 有人状态)
2024-08-24 21:53:57.161 - 1A BE B0 DC 01 00 01 00 (继电器地址-回水泵点动, 回水泵点动)
2024-08-24 21:53:57.751 - 1A FF FF FF 56 00 00 01 0F (人体红外感应地址-内卫, 打开内卫感应)
2024-08-24 21:53:58.307 - 1A FF FF FF 55 00 00 01 0F (人体红外感应地址-外卫, 打开外卫感应)
2024-08-24 21:53:58.392 - BC BC
2024-08-24 21:53:58.853 - 1A FF FF FF 57 00 00 01 0F (打开厨房感应)
2024-08-24 21:53:59.395 - 1A BE B0 DC 01 00 01 00 (继电器地址-回水泵点动, 回水泵点动)
2024-08-24 21:53:59.873 - 19 08 24 03 CC 01 55 00 01 (调用外卫感应灯关的按键)
2024-08-24 21:53:59.922 - 1A 0C 02 08 01 FF 00 01 FF 00 01 FF 00 00 0F (调光器地址-内卫射灯, 内卫感应灯关)
2024-08-24 21:54:00.330 - A5 00 B7 FF 00 AA 22 0D (书房纱帘关)
2024-08-24 21:54:00.943 - A5 00 A2 FF 00 AA (餐厅纱帘关)
2024-08-24 21:54:01.487 - 09 06 00 0F 02 01 78 21 (提示音叮)
2024-08-24 21:54:02.042 - 09 06 00 0F 02 01 78 21 (提示音叮)
2024-08-24 21:54:02.593 - EE 00 00 B1 00 00 02 FF FC FF FF (情景完成返回主页)
2024-08-24 21:54:03.188 - A1 11 11 11 50 (天花供电打开确认)
2024-08-24 21:54:03.381 - 19 08 24 03 CC 01 54 00 01 (调用内卫感应灯开的按键)
2024-08-24 21:54:03.413 - 1A 0C 02 08 01 FF 45 01 FF 45 01 FF 00 00 0F (调光器地址-内卫射灯, 内卫射灯微光)
2024-08-24 21:54:03.429 - 1A EC A0 DC 02 86 86 86 0F (查询天花供电状态, 自保持开关地址-天花12V供电)
2024-08-24 21:54:05.727 - A1 11 11 11 51 (卫生供电打开确认)
2024-08-24 21:54:05.951 - 1A EC A0 DC 04 86 86 86 0F (查询卫生间供电状态, 自保持开关地址-次卧西阳内外卫供电)
2024-08-24 21:54:06.381 - 1A EC A0 DC 04 01 01 0F (自保持开关地址-次卧西阳内外卫供电)
2024-08-24 21:54:08.273 - A1 11 11 11 52 (电视供电打开确认)
2024-08-24 21:54:08.495 - 1A EC A0 DC 01 86 86 86 0F (查询电视供电状态, 自保持开关地址-电视、设备12V供电)
2024-08-24 21:54:08.933 - 1A EC A0 DC 01 01 01 0F (自保持开关地址-电视、设备12V供电)
2024-08-24 21:54:13.303 - A1 11 11 11 47 (天热回家开帘)
2024-08-24 21:54:13.512 - 1A 27 89 12 AA 86 86 86 0F (查询寄存器状态, 状态寄存器地址)
2024-08-24 21:54:13.903 - 1A 27 89 12 AA 01 00 00 00 00 00 00 00 00 00 00 01 00 00 00 00 0F (状态寄存器地址)
2024-08-24 21:54:14.516 - 19 08 24 03 DD 00 06 00 01 (调用情景-天热遮阳开帘)
2024-08-24 21:54:15.043 - EE 00 00 B1 00 00 00 FF FC FF FF (情景执行提示)
2024-08-24 21:54:15.648 - 09 06 00 0F 02 01 78 21 (提示音叮)
2024-08-24 21:54:16.190 - A5 00 A6 FE 01 AA (餐厅窗帘开)
2024-08-24 21:54:16.251 - 55 00 A6 02 01 67 01 75 AA 55 00 A6 02 01 67 01 F5 (餐厅窗帘电机状态返回)
2024-08-24 21:54:17.291 - A5 00 52 FE 01 AA (主卧窗帘开)
2024-08-24 21:54:18.327 - A5 00 53 FF 00 AA (主卧纱帘开)
2024-08-24 21:54:18.391 - 55 00 53 01 00 0C 02 30 AA 55 00 53 01 00 0C 02 30 AA (主卧纱帘电机状态返回)
2024-08-24 21:54:19.432 - A5 00 76 FE 01 AA (次卧窗帘开)
2024-08-24 21:54:19.483 - 55 00 76 02 01 0E 01 1B AA 55 00 76 02 01 0E 01 1B AA (次卧窗帘电机状态返回)
2024-08-24 21:54:20.562 - A5 00 21 FE 01 AA (次卧纱帘开)
2024-08-24 21:54:20.610 - 55 00 21 02 01 27 01 34 AA 55 00 21 02 01 27 01 34 FA (次卧纱帘电机状态返回)
2024-08-24 21:54:21.626 - 1A BE B0 DC 04 00 01 00 (继电器地址-西阳窗帘, 西阳窗帘开)
2024-08-24 21:54:22.669 - FF FF FF FF 0E 00 01 00 (继电器地址-西阳小窗帘, 西阳小窗帘开)
2024-08-24 21:54:23.720 - A5 00 D2 FE 01 AA 22 0D (书房窗帘开)
2024-08-24 21:54:23.769 - 55 00 D2 02 00 E5 00 F2 AA 55 00 D2 02 00 E5 00 F2 AA (书房窗帘电机状态返回)
2024-08-24 21:54:24.819 - 09 06 00 0F 02 02 38 20 (提示音咚)
2024-08-24 21:54:24.964 - 55 00 A6 00 00 0E 01 75 AA 55 00 A6 00 00 0E 01 75 AA (餐厅窗帘电机状态返回)
2024-08-24 21:54:25.367 - EE 00 00 B1 00 00 02 FF FC FF FF (情景完成返回主页)
2024-08-24 21:54:26.303 - 55 00 76 00 00 0E 01 1B AA 55 00 76 00 00 0E 01 1B AA (次卧窗帘电机状态返回)
2024-08-24 21:54:27.935 - 55 00 21 00 00 0D 01 34 AA 55 00 21 00 00 0D 01 34 AA (次卧纱帘电机状态返回)
2024-08-24 21:54:29.016 - 19 08 24 03 CC 00 D4 00 01 (调用厨房感应灯关的按键)
2024-08-24 21:54:29.064 - 55 0A 31 00 00 00 01 91 55 0A 31 00 00 00 02 92 (厨房顶灯一关, 厨房顶灯二关)
2024-08-24 21:54:29.351 - 55 20 20 00 00 0E 02 16 AA 55 20 20 00 00 0E 02 16 AA (主卧窗帘电机状态返回)
2024-08-24 21:54:29.590 - 55 00 53 00 02 22 02 30 AA 55 00 53 00 02 22 02 30 AA (主卧纱帘电机状态返回)
2024-08-24 21:54:31.139 - 55 00 D2 00 00 0D 00 F2 AA 55 00 D2 00 00 0D 00 F2 AA (书房窗帘电机状态返回)
2024-08-24 21:54:40.471 - 19 08 24 03 CC 01 55 00 01 (调用外卫感应灯关的按键)
2024-08-24 21:54:40.520 - 1A 0C 02 08 01 FF 00 01 FF 00 01 FF 00 00 0F (调光器地址-内卫射灯, 内卫感应灯关)
2024-08-24 21:54:51.236 - 19 08 24 03 DD 00 42 00 01 (调用情景-主卧电视空调)
2024-08-24 21:54:51.779 - EE 00 00 B1 00 00 00 FF FC FF FF (情景执行提示)
2024-08-24 21:54:52.379 - 09 06 00 0F 02 01 78 21 (提示音叮)
2024-08-24 21:54:52.916 - 50 F0 05 (开主卧影视)
2024-08-24 21:54:53.516 - 50 F0 04 (开内卫影视)
2024-08-24 21:54:54.002 - 19 08 24 03 CC 01 54 00 01 (调用内卫感应灯开的按键)
2024-08-24 21:54:54.040 - 1A 0C 02 08 01 FF 45 01 FF 45 01 FF 00 00 0F (调光器地址-内卫射灯, 内卫射灯微光)
2024-08-24 21:54:54.440 - 1A FF FF FF 56 00 00 00 0F (人体红外感应地址-内卫, 关闭内卫感应)
2024-08-24 21:54:55.021 - 1A 22 33 62 0F 00 02 01 0F (正反转地址-内卫卷帘, 内卫卷帘降)
2024-08-24 21:54:55.563 - A5 00 53 FE 01 AA (主卧纱帘关)
2024-08-24 21:54:55.613 - 55 00 53 02 02 22 02 30 AA 55 00 53 02 02 22 02 30 AA (主卧纱帘电机状态返回)
2024-08-24 21:54:56.659 - A5 00 52 FF 00 AA (主卧窗帘关)
2024-08-24 21:54:57.790 - 1A 0C 02 04 FF FF 45 01 FF 45 01 FF 00 00 0F (主卧调光微光)
2024-08-24 21:55:01.848 - 1A 0C 02 08 01 FF 45 01 FF 45 01 FF 00 00 0F (调光器地址-内卫射灯, 内卫射灯微光)
2024-08-24 21:55:02.437 - 50 F1 25 (主卧—有线2)
2024-08-24 21:55:03.012 - A1 11 11 11 42 (主卧空调自动开)
2024-08-24 21:55:03.250 - 19 08 24 03 F0 BB 78 02 02 00
2024-08-24 21:55:03.301 - 23 AA 56 02 15 37 12 18 08 18 06 73 65 6F 6B 65 6E 64
2024-08-24 21:55:03.582 - 50 F1 24 (内卫—有线2)
2024-08-24 21:55:04.254 - 01 10 07 D6 00 03 06 70 61 00 02 00 F0 0F 3E (主卧空调冷24度)
2024-08-24 21:55:04.299 - 01 10 07 D6 00 03 06 70 61 00 02 00 F0 0F 3E (主卧空调冷24度)
2024-08-24 21:55:05.631 - AF BF CF DF C2 21 (有线2/快捷-凤凰卫视)
2024-08-24 21:55:06.346 - 55 00 53 00 00 0C 02 30 AA 55 00 53 00 00 0C 02 30 AA (主卧纱帘电机状态返回)
2024-08-24 21:55:07.672 - 1A FF FF FF 60 0B 01 01 0F (红外总线地址-主卧发射设备, 主卧电视电源)
2024-08-24 21:55:08.149 - 55 20 20 00 02 09 02 16 AA 55 20 20 00 02 09 02 16 AA (主卧窗帘电机状态返回)
2024-08-24 21:55:08.200 - F0 0B 01 08
2024-08-24 21:55:15.706 - 09 06 00 0F 02 02 38 20 (提示音咚)
2024-08-24 21:55:16.248 - EE 00 00 B1 00 00 02 FF FC FF FF (情景完成返回主页)
2024-08-24 21:56:07.604 - EE 00 6E B1 01 00 03 FF FC FF FF
2024-08-24 21:56:08.369 - EE 00 6E B1 01 00 08 FF FC FF FF
2024-08-24 21:56:09.008 - 1A BE B0 DC 0A 00 01 00 (继电器地址-客厅纱帘, 客厅纱帘关)
2024-08-24 21:56:20.690 - EE 00 6E B1 01 00 02 FF FC FF FF
2024-08-24 21:56:21.175 - 19 08 24 03 DD 00 1A 00 01 (调用情景-客厅电视播放)
2024-08-24 21:56:21.734 - EE 00 00 B1 00 00 00 FF FC FF FF (情景执行提示)
2024-08-24 21:56:22.357 - 09 06 00 0F 02 01 78 21 (提示音叮)
2024-08-24 21:56:22.917 - 50 F0 08 (开客厅影视)
2024-08-24 21:56:29.276 - 19 08 24 03 CC 00 D3 00 01 (调用厨房感应灯开的按键)
2024-08-24 21:56:29.310 - 55 0A 32 00 00 00 01 92 55 0A 32 00 00 00 02 93 (厨房顶灯一开, 厨房顶灯二开)
2024-08-24 21:56:31.947 - 50 F1 28 (客厅—有线2)
2024-08-24 21:56:32.499 - 09 06 00 0F 02 01 78 21 (提示音叮)
2024-08-24 21:56:33.053 - EE 00 00 B1 00 00 02 FF FC FF FF (情景完成返回主页)
2024-08-24 21:57:26.376 - 19 08 24 03 CC 00 D4 00 01 (调用厨房感应灯关的按键)
