2025-09-22 20:45:42.205 - 1A 0C 02 08 01 86 86 86 0F (调光器地址-内卫射灯)
2025-09-22 20:45:42.245 - 1A 0C 02 08 01 00 1A 01 00 1A 01 00 5E 00 0F (调光器地址-内卫射灯)
2025-09-22 20:46:09.722 - 02 AF 06 17 06 D2 FF
2025-09-22 20:46:13.271 - 02 AF 06 17 06 D2 FF
2025-09-22 20:46:16.389 - 02 AF 06 17 06 D2 FF
2025-09-22 20:46:22.404 - 02 AF 06 17 06 D2 FF
2025-09-22 20:50:29.889 - 02 AF 06 17 01 CD FF (门锁开门指令)
2025-09-22 20:50:48.104 - 02 AF 06 17 02 CE FF (门锁关锁指令)
2025-09-22 20:52:55.921 - 01 04 07 D0 00 06 70 85
2025-09-22 20:52:55.958 - 01 04 0C 70 00 42 02 00 FA 00 00 01 0E 00 00 54 86
2025-09-22 20:52:56.080 - 01 04 07 D6 00 06 90 84
2025-09-22 20:52:56.109 - 01 04 0C 70 00 42 02 00 FA 00 00 01 0E 00 00 54 86
2025-09-22 20:52:56.221 - 01 04 07 DC 00 06 B0 86
2025-09-22 20:52:56.260 - 01 04 0C 70 01 42 02 00 F0 00 00 01 0E 00 00 FA 7A
2025-09-22 20:52:56.377 - 01 04 07 E2 00 06 D1 4A
2025-09-22 20:52:56.413 - 01 04 0C 70 00 42 02 00 FA 00 00 01 0E 00 00 54 86
2025-09-22 20:52:56.536 - 01 04 07 E8 00 06 F1 48
2025-09-22 20:52:56.574 - 01 04 0C 70 00 42 02 00 FA 00 00 01 0E 00 00 54 86
2025-09-22 20:53:03.991 - 01 06 07 D6 50 FF 15 06
2025-09-22 20:53:04.017 - 01 06 07 D6 50 FF 15 06
2025-09-22 20:53:05.195 - 01 04 07 DC 00 06 B0 86
2025-09-22 20:53:05.228 - 01 04 0C 50 01 42 02 00 F0 00 00 01 0E 00 00 7B C5
2025-09-22 20:53:05.660 - 01 06 07 D8 00 E6 89 0F
2025-09-22 20:53:05.684 - 01 06 07 D8 00 E6 89 0F
2025-09-22 20:53:06.575 - 01 06 07 D8 00 DC 09 1C
2025-09-22 20:53:06.613 - 01 06 07 D8 00 DC 09 1C
2025-09-22 20:53:06.860 - 01 04 07 DC 00 06 B0 86
2025-09-22 20:53:06.895 - 01 04 0C 50 01 42 02 00 DC 00 00 01 0E 00 00 96 07
2025-09-22 20:53:07.779 - 01 04 07 DC 00 06 B0 86
2025-09-22 20:53:07.813 - 01 04 0C 50 01 42 02 00 DC 00 00 01 0E 00 00 96 07
2025-09-22 20:53:25.075 - 01 04 07 D0 00 06 70 85
2025-09-22 20:53:25.112 - 01 04 0C 70 00 42 02 00 FA 00 00 01 0E 00 00 54 86
2025-09-22 20:53:25.227 - 01 04 07 D6 00 06 90 84
2025-09-22 20:53:25.266 - 01 04 0C 70 00 42 02 00 FA 00 00 01 0E 00 00 54 86
2025-09-22 20:53:25.384 - 01 04 07 DC 00 06 B0 86
2025-09-22 20:53:25.415 - 01 04 0C 50 01 42 02 00 DC 00 00 01 0E 00 00 96 07
2025-09-22 20:53:25.545 - 01 04 07 E2 00 06 D1 4A
2025-09-22 20:53:25.578 - 01 04 0C 70 00 42 02 00 FA 00 00 01 0E 00 00 54 86
2025-09-22 20:53:25.700 - 01 04 07 E8 00 06 F1 48
2025-09-22 20:53:25.740 - 01 04 0C 70 00 42 02 00 FA 00 00 01 0E 00 00 54 86
2025-09-22 20:53:30.946 - 1A 0C 02 04 01 86 86 86 0F (调光器地址-主卧筒灯)
2025-09-22 20:53:30.982 - 1A 0C 02 04 01 00 (调光器地址-主卧筒灯)
2025-09-22 20:53:30.987 - 1A 01 00
2025-09-22 20:53:30.993 - 1A 01 00 0D 00 0F
2025-09-22 20:53:32.935 - 1A 0C 02 04 02 86 86 86 0F (调光器地址-主卧过道)
2025-09-22 20:53:32.974 - 1A 0C 02 04 02 00 1A 01 00 (调光器地址-主卧过道)
2025-09-22 20:53:32.980 - 1A 01 00 06 00 0F
2025-09-22 20:53:35.345 - 1A 0C 02 04 03 86 86 86 0F (调光器地址-主卧灯带)
2025-09-22 20:53:35.382 - 1A 0C 02 04 03 00 (调光器地址-主卧灯带)
2025-09-22 20:53:35.392 - 1A 01 00 1A 01 00 3F 00 0F
2025-09-22 20:53:50.070 - 1A 0E 03 05 FF FF FF 01 FF FF 01 FF 00 00 0F (调光器地址-次卧调光统配符)
2025-09-22 20:53:53.942 - 1A 0E 03 05 01 86 86 86 0F (调光器地址-次卧射灯)
2025-09-22 20:53:53.986 - 1A 0E 03 05 01 00 63 01 00 63 01 00 (调光器地址-次卧射灯)
2025-09-22 20:53:53.988 - 0D 00 0F
2025-09-22 20:53:56.078 - 1A 0E 03 05 02 86 86 86 0F (调光器地址-次卧灯带)
2025-09-22 20:53:56.123 - 1A 0E 03 05 02 00 63 01 00 63 01 00 50 00 0F (调光器地址-次卧灯带)
2025-09-22 20:53:57.924 - 1A 0E 03 05 03 86 86 86 0F (调光器地址-次卧阅读灯)
2025-09-22 20:53:57.971 - 1A 0E 03 05 03 00 63 01 00 63 01 00 3F 00 0F (调光器地址-次卧阅读灯)
2025-09-22 20:53:58.922 - 1A 0E 03 05 FF FF 00 01 FF 00 01 FF 00 00 0F (调光器地址-次卧调光统配符, 次卧调光全关)
2025-09-22 20:54:00.434 - 1A 0E 03 05 04 86 86 86 0F (调光器地址-次卧北筒灯)
2025-09-22 20:54:00.478 - 1A 0E 03 05 04 00 4C 00 00 4C 00 00 (调光器地址-次卧北筒灯)
2025-09-22 20:54:00.480 - 0D 00 0F
2025-09-22 20:54:02.220 - 1A 0E 03 05 05 86 86 86 0F (调光器地址-次卧南筒灯)
2025-09-22 20:54:02.265 - 1A 0E 03 05 05 00 4C 00 00 4C 00 00 3F 00 0F (调光器地址-次卧南筒灯)
2025-09-22 20:54:06.829 - 1A 0E 03 05 01 86 86 86 0F (调光器地址-次卧射灯)
2025-09-22 20:54:06.869 - 1A 0E 03 05 01 00 4C 00 00 4C 00 00 (调光器地址-次卧射灯)
2025-09-22 20:54:06.873 - 0D 00 0F
2025-09-22 20:54:06.946 - 1A 0E 03 05 FF FF 00 01 FF 00 01 FF 00 00 0F (调光器地址-次卧调光统配符, 次卧调光全关)
2025-09-22 20:54:08.597 - 1A 0E 03 05 02 86 86 86 0F (调光器地址-次卧灯带)
2025-09-22 20:54:08.643 - 1A 0E 03 05 02 00 4C 00 00 4C 00 00 50 00 0F (调光器地址-次卧灯带)
2025-09-22 20:54:10.353 - 1A 0E 03 05 03 86 86 86 0F (调光器地址-次卧阅读灯)
2025-09-22 20:54:10.399 - 1A 0E 03 05 03 00 4C 00 00 4C 00 00 3F 00 0F (调光器地址-次卧阅读灯)
2025-09-22 20:54:10.971 - 1A 0E 03 05 01 86 86 86 0F (调光器地址-次卧射灯)
2025-09-22 20:54:11.013 - 1A 0E 03 05 01 00 4C 00 00 4C 00 00 (调光器地址-次卧射灯)
2025-09-22 20:54:11.021 - 0D 00 0F
2025-09-22 20:54:12.146 - 1A 0E 03 05 04 86 86 86 0F (调光器地址-次卧北筒灯)
2025-09-22 20:54:12.188 - 1A 0E 03 05 04 00 4C 00 00 4C 00 00 (调光器地址-次卧北筒灯)
2025-09-22 20:54:12.190 - 0D 00 0F
2025-09-22 20:54:12.758 - 1A 0E 03 05 02 86 86 86 0F (调光器地址-次卧灯带)
2025-09-22 20:54:12.806 - 1A 0E 03 05 02 00 4C 00 00 4C 00 00 50 00 0F (调光器地址-次卧灯带)
2025-09-22 20:54:13.993 - 1A 0E 03 05 05 86 86 86 0F (调光器地址-次卧南筒灯)
2025-09-22 20:54:14.032 - 1A 0E 03 05 05 00 4C 00 00 4C 00 00 3F 00 0F (调光器地址-次卧南筒灯)
2025-09-22 20:54:14.604 - 1A 0E 03 05 03 86 86 86 0F (调光器地址-次卧阅读灯)
2025-09-22 20:54:14.651 - 1A 0E 03 05 03 00 4C 00 00 4C 00 00 3F 00 0F (调光器地址-次卧阅读灯)
2025-09-22 20:54:16.443 - 1A 0E 03 05 04 86 86 86 0F (调光器地址-次卧北筒灯)
2025-09-22 20:54:16.489 - 1A 0E 03 05 04 00 4C 00 00 4C 00 00 0D 00 0F (调光器地址-次卧北筒灯)
2025-09-22 20:54:18.796 - 1A 0E 03 05 05 86 86 86 0F (调光器地址-次卧南筒灯)
2025-09-22 20:54:18.840 - 1A 0E 03 05 05 00 4C 00 00 4C 00 00 3F 00 0F (调光器地址-次卧南筒灯)
2025-09-22 20:54:20.773 - 1A 0E 03 05 01 FF FF 01 FF 00 01 FF 00 00 0F (调光器地址-次卧射灯)
2025-09-22 20:54:25.287 - 1A 0E 03 05 01 86 86 86 0F (调光器地址-次卧射灯)
2025-09-22 20:54:25.327 - 1A 0E 03 05 01 00 63 01 00 4C 00 00 0D (调光器地址-次卧射灯)
2025-09-22 20:54:25.333 - 00 0F
2025-09-22 20:54:26.700 - 1A 0E 03 05 01 FF 00 01 FF FF 01 FF 00 00 0F (调光器地址-次卧射灯)
2025-09-22 20:54:31.213 - 1A 0E 03 05 01 86 86 86 0F (调光器地址-次卧射灯)
2025-09-22 20:54:31.261 - 1A 0E 03 05 01 00 4C 00 00 63 01 00 0D 00 0F (调光器地址-次卧射灯)
2025-09-22 20:54:31.831 - 1A 0E 03 05 01 86 86 86 0F (调光器地址-次卧射灯)
2025-09-22 20:54:31.854 - 1A 0E 03 05 01 00 4C 00 00 63 01 00 (调光器地址-次卧射灯)
2025-09-22 20:54:31.856 - 0D 00 0F
2025-09-22 20:54:31.949 - 1A 0E 03 05 01 FF 00 01 FF 00 01 FF 00 00 0F (调光器地址-次卧射灯, 次卧射灯关闭)
2025-09-22 20:54:36.465 - 1A 0E 03 05 01 86 86 86 0F (调光器地址-次卧射灯)
2025-09-22 20:54:36.486 - 1A 0E 03 05 01 00 4C 00 00 63 01 00 (调光器地址-次卧射灯)
2025-09-22 20:54:36.488 - 0D 01 0F
2025-09-22 20:54:38.092 - 1A 0E 03 05 01 FF 00 01 FF 00 01 FF 00 00 0F (调光器地址-次卧射灯, 次卧射灯关闭)
2025-09-22 20:54:42.612 - 1A 0E 03 05 01 86 86 86 0F (调光器地址-次卧射灯)
2025-09-22 20:54:42.656 - 1A 0E 03 05 01 00 4C 00 00 4C 00 00 0D 01 0F (调光器地址-次卧射灯)
2025-09-22 20:54:43.232 - 1A 0E 03 05 01 86 86 86 0F (调光器地址-次卧射灯)
2025-09-22 20:54:43.253 - 1A 0E 03 05 01 00 4C 00 00 4C 00 00 (调光器地址-次卧射灯)
2025-09-22 20:54:43.257 - 0D 01 0F
2025-09-22 20:54:43.350 - 1A 0E 03 05 01 FF 00 01 FF 00 01 FF 00 00 0F (调光器地址-次卧射灯, 次卧射灯关闭)
2025-09-22 20:54:47.857 - 1A 0E 03 05 01 86 86 86 0F (调光器地址-次卧射灯)
2025-09-22 20:54:47.880 - 1A 0E 03 05 01 00 4C 00 00 4C 00 00 (调光器地址-次卧射灯)
2025-09-22 20:54:47.884 - 0D 01 0F
2025-09-22 20:54:47.972 - 14
2025-09-22 20:54:47.978 - FF 00 00 0F
2025-09-22 20:54:52.502 - 1A 0E 03 05 01 86 86 86 0F (调光器地址-次卧射灯)
2025-09-22 20:54:52.547 - 1A 0E 03 05 01 00 4C 00 00 4C 00 00 0D 01 0F (调光器地址-次卧射灯)
2025-09-22 20:54:53.114 - 1A 0E 03 05 01 86 86 86 0F (调光器地址-次卧射灯)
2025-09-22 20:54:53.142 - 1A 0E 03 05 01 00 4C 00 00 4C 00 00 0D 01 0F (调光器地址-次卧射灯)
2025-09-22 20:56:25.600 - 19 08 24 03 DD 00 10 00 01 (调用情景-客餐厅空调开)
2025-09-22 20:56:26.140 - EE 00 00 B1 00 00 00 FF FC FF FF (情景执行提示)
2025-09-22 20:56:26.735 - 09 06 00 0F 02 01 78 21 (提示音叮)
2025-09-22 20:56:27.281 - A1 11 11 11 40 (客厅空调自动开)
2025-09-22 20:56:27.509 - 19 08 24 03 F0 BB 78 02 02 00
2025-09-22 20:56:27.588 - 23 AA 56 02 14 38 29 19 09 16 01 73 65 6F 6B 65 6E 64
2025-09-22 20:56:28.516 - 01 10 07 D0 00 03 06 70 61 00 02 00 FA 6F 26 (客厅空调冷25度)
2025-09-22 20:56:28.558 - 01 10 07 D0 00 03 06 70 61 00 02 00 FA 6F 26 (客厅空调冷25度)
2025-09-22 20:56:31.315 - A1 11 11 11 41 (餐厅空调自动开)
2025-09-22 20:56:31.539 - 19 08 24 03 F0 BB 78 02 02 00
2025-09-22 20:56:31.590 - 23 AA 56 02 14 38 2D 19 09 16 01 73 65 6F 6B 65 6E 64
2025-09-22 20:56:32.548 - 01 10 07 D3 00 03 06 70 61 00 02 00 FA 9F 29 (餐厅空调冷25度)
2025-09-22 20:56:32.588 - 01 10 07 D3 00 03 06 70 61 00 02 00 FA 9F 29 (餐厅空调冷25度)
2025-09-22 20:56:35.355 - 09 06 00 0F 02 02 38 20 (提示音咚)
2025-09-22 20:56:35.935 - EE 00 00 B1 00 00 02 FF FC FF FF (情景完成返回主页)
2025-09-22 20:56:54.111 - 19 08 24 03 CC 01 52 00 01 (调用外卫感应灯开的按键)
2025-09-22 20:56:54.162 - 1A 0D 01 07 01 FF 45 01 FF 45 01 FF 00 00 0F (调光器地址-外卫射灯, 外卫感应灯开)
2025-09-22 20:57:05.634 - 19 08 24 03 CC 01 53 00 01 (调用外卫感应灯关的按键)
2025-09-22 20:57:05.667 - 1A 0D 01 07 01 FF 00 01 FF 00 01 FF 00 00 0F (调光器地址-外卫射灯, 外卫感应灯关)
2025-09-22 21:15:35.824 - 19 08 24 03 CC 01 52 00 01 (调用外卫感应灯开的按键)
2025-09-22 21:15:35.860 - 1A 0D 01 07 01 FF 45 01 FF 45 01 FF 00 00 0F (调光器地址-外卫射灯, 外卫感应灯开)
2025-09-22 21:15:37.786 - 19 08 24 03 DD 00 1B 00 01 (调用情景-外卫使用)
2025-09-22 21:15:38.326 - EE 00 00 B1 00 00 00 FF FC FF FF (情景执行提示)
2025-09-22 21:15:38.918 - 09 06 00 0F 02 01 78 21 (提示音叮)
2025-09-22 21:15:39.462 - 50 F0 03 (开外卫影视)
2025-09-22 21:15:40.016 - 1A FF FF FF 55 00 00 00 0F (人体感应地址-外卫, 关闭外卫感应)
2025-09-22 21:15:40.121 - BF BF
2025-09-22 21:15:40.569 - 1A 0D 01 07 01 FF 45 01 FF 45 01 FF 00 00 0F (调光器地址-外卫射灯, 外卫感应灯开)
2025-09-22 21:15:42.656 - 1A BE B0 DC 01 00 01 00 (继电器地址-回水泵点动, 回水泵点动)
2025-09-22 21:15:43.703 - 1A BE B0 DC 01 00 01 00 (继电器地址-回水泵点动, 回水泵点动)
2025-09-22 21:15:44.752 - 1A BE B0 DC 01 00 01 00 (继电器地址-回水泵点动, 回水泵点动)
2025-09-22 21:15:45.789 - 50 F1 43 (外卫—CH4)
2025-09-22 21:16:02.789 - A1 11 11 11 11 05 (外卫使用浴霸判断)
2025-09-22 21:16:03.013 - 13 03 00 00 00 02 C7 79 (查询外卫温湿度)
2025-09-22 21:16:03.031 - 13 03 04 01 EE 01 0D 69 AE (外卫温湿度返回)
2025-09-22 21:16:04.832 - 09 06 00 0F 02 02 38 20 (提示音咚)
2025-09-22 21:16:06.880 - EE 00 00 B1 00 00 02 FF FC FF FF (情景完成返回主页)
2025-09-22 21:25:42.363 - 19 08 24 03 DD 00 1C 00 01 (调用情景-外卫使用完毕)
2025-09-22 21:25:42.910 - EE 00 00 B1 00 00 00 FF FC FF FF (情景执行提示)
2025-09-22 21:25:43.505 - 09 06 00 0F 02 01 78 21 (提示音叮)
2025-09-22 21:25:44.109 - 1A 0D 01 07 01 FF 00 01 FF 00 01 FF 00 00 0F (调光器地址-外卫射灯, 外卫感应灯关)
2025-09-22 21:25:44.694 - 50 F5 03 (关外卫影视)
2025-09-22 21:25:45.279 - 1A 20 07 00 42 00 01 00 0F (自保持开关地址-外卫顶灯, 外卫顶灯关)
2025-09-22 21:25:45.848 - 1A FF FF FF 55 00 00 01 0F (人体感应地址-外卫, 打开外卫感应)
2025-09-22 21:25:45.952 - BC BC
2025-09-22 21:25:48.394 - 09 06 00 0F 02 02 38 20 (提示音咚)
2025-09-22 21:25:48.942 - EE 00 00 B1 00 00 02 FF FC FF FF (情景完成返回主页)
2025-09-22 21:25:59.487 - 19 08 24 03 CC 01 53 00 01 (调用外卫感应灯关的按键)
2025-09-22 21:25:59.542 - 1A 0D 01 07 01 FF 00 01 FF 00 01 FF 00 00 0F (调光器地址-外卫射灯, 外卫感应灯关)
2025-09-22 21:26:04.061 - 1A AA AA AA 66 00 00 02 0F (调光器地址-东阳筒灯, 东阳筒灯开关)
2025-09-22 21:26:10.332 - 1A AA AA AA 66 00 64 01 00 64 01 0F (调光器地址-东阳筒灯)
2025-09-22 21:26:11.252 - 1A AA AA AA 66 01 0F (调光器地址-东阳筒灯)
2025-09-22 21:26:41.972 - 1A AA AA AA 66 00 00 02 0F (调光器地址-东阳筒灯, 东阳筒灯开关)
2025-09-22 21:26:48.226 - 1A AA AA AA 66 00 64 00 00 64 00 0F (调光器地址-东阳筒灯)
2025-09-22 21:26:49.144 - 1A AA AA AA 66 00 0F (调光器地址-东阳筒灯)
2025-09-22 21:27:12.863 - 19 08 24 03 CC 01 CC 00 01 (调用茶吧感应灯开的按键)
2025-09-22 21:27:12.913 - 1A AA AA AA 88 FF B0 01 FF B0 01 0F (调光器地址-茶吧灯带, 茶吧灯带明亮)
2025-09-22 21:27:16.271 - 19 08 24 03 CC 00 D3 00 01 (调用厨房感应灯开的按键)
2025-09-22 21:27:16.303 - 55 0A 32 00 00 00 01 92 55 0A 32 00 00 00 02 93 (厨房顶灯一开, 厨房顶灯二开)
2025-09-22 21:27:25.890 - 19 08 24 03 CC 01 CD 00 01 (调用茶吧感应灯关的按键)
2025-09-22 21:27:25.920 - 1A AA AA AA 88 FF 00 01 FF 00 01 0F (调光器地址-茶吧灯带, 茶吧灯带关闭)
2025-09-22 21:28:05.970 - 19 08 24 03 CC 01 CC 00 01 (调用茶吧感应灯开的按键)
2025-09-22 21:28:06.000 - 1A AA AA AA 88 FF B0 01 FF B0 01 0F (调光器地址-茶吧灯带, 茶吧灯带明亮)
2025-09-22 21:28:18.493 - 19 08 24 03 CC 01 CD 00 01 (调用茶吧感应灯关的按键)
2025-09-22 21:28:18.524 - 1A AA AA AA 88 FF 00 01 FF 00 01 0F (调光器地址-茶吧灯带, 茶吧灯带关闭)
2025-09-22 21:28:18.996 - 19 08 24 03 CC 01 CC 00 01 (调用茶吧感应灯开的按键)
2025-09-22 21:28:19.028 - 1A AA AA AA 88 FF B0 01 FF B0 01 0F (调光器地址-茶吧灯带, 茶吧灯带明亮)
2025-09-22 21:28:50.558 - 19 08 24 03 CC 01 CD 00 01 (调用茶吧感应灯关的按键)
2025-09-22 21:28:50.588 - 1A AA AA AA 88 FF 00 01 FF 00 01 0F (调光器地址-茶吧灯带, 茶吧灯带关闭)
2025-09-22 21:29:33.536 - 19 08 24 03 CC 00 D4 00 01 (调用厨房感应灯关的按键)
2025-09-22 21:29:33.573 - 55 0A 31 00 00 00 01 91 55 0A 31 00 00 00 02 92 (厨房顶灯一关, 厨房顶灯二关)
2025-09-22 21:37:46.907 - 1A BE B0 DC 03 (继电器地址-西阳天幕)
2025-09-22 21:37:47.041 - FF
