2025-09-25 13:55:44.191 - 1A 18 05 10 31 86 86 86 0F (自保持开关地址-门厅顶灯)
2025-09-25 13:55:44.347 - 1A 18 05 10 31 00 00 00 00 0F (自保持开关地址-门厅顶灯)
2025-09-25 14:14:02.489 - 1A FF FF FF 04 FC (继电器地址-东阳衣架)
2025-09-25 14:14:02.624 - 00
2025-09-25 14:28:04.695 - 1A BE B0 DC 0A FE (继电器地址-客厅纱帘)
2025-09-25 14:28:04.829 - FF
2025-09-25 14:47:33.381 - 01 04 07 D0 00 06 70 85
2025-09-25 14:47:33.413 - 01 04 0C 70 00 42 02 00 FA 00 00 01 22 00 00 95 4F
2025-09-25 14:47:33.531 - 01 04 07 D6 00 06 90 84
2025-09-25 14:47:33.564 - 01 04 0C 70 00 42 02 00 FA 00 00 01 22 00 00 95 4F
2025-09-25 14:47:33.687 - 01 04 07 DC 00 06 B0 86
2025-09-25 14:47:33.718 - 01 04 0C 50 00 42 02 01 04 00 00 01 18 00 00 EA FE
2025-09-25 14:47:33.845 - 01 04 07 E2 00 06 D1 4A
2025-09-25 14:47:33.880 - 01 04 0C 70 00 42 02 00 FA 00 00 01 18 00 00 B5 42
2025-09-25 14:47:34.001 - 01 04 07 E8 00 06 F1 48
2025-09-25 14:47:34.038 - 01 04 0C 70 00 42 02 00 FA 00 00 01 22 00 00 95 4F
2025-09-25 14:49:16.631 - 01 04 07 D0 00 06 70 85
2025-09-25 14:49:16.665 - 01 04 0C 00 00 00 00 00 00 00 00 00 00 00 00 95 B7
2025-09-25 14:49:16.788 - 01 04 07 D6 00 06 90 84
2025-09-25 14:49:16.826 - 01 04 0C 00 00 00 00 00 00 00 00 00 00 00 00 95 B7
2025-09-25 14:49:16.947 - 01 04 07 DC 00 06 B0 86
2025-09-25 14:49:16.976 - 01 04 0C 00 00 00 00 00 00 00 00 00 00 00 00 95 B7
2025-09-25 14:49:17.105 - 01 04 07 E2 00 06 D1 4A
2025-09-25 14:49:17.139 - 01 04 0C 00 00 00 00 00 00 00 00 00 00 00 00 95 B7
2025-09-25 14:49:17.264 - 01 04 07 E8 00 06 F1 48
2025-09-25 14:49:17.300 - 01 04 0C 00 00 00 00 00 00 00 00 00 00 00 00 95 B7
2025-09-25 14:49:21.459 - 01 04 07 D0 00 06 70 85
2025-09-25 14:49:21.492 - 01 04 0C 00 00 00 00 00 00 00 00 00 00 00 00 95 B7
2025-09-25 14:49:31.826 - 01 06 07 D1 00 02 59 46
2025-09-25 14:49:31.853 - 01 06 07 D1 00 02 59 46
2025-09-25 14:49:33.060 - 01 04 07 D0 00 06 70 85
2025-09-25 14:49:33.096 - 01 04 0C 70 00 42 02 00 FA 00 00 01 22 00 00 95 4F
2025-09-25 14:49:36.781 - 01 06 07 D4 00 02 49 47
2025-09-25 14:49:36.812 - 01 06 07 D4 00 02 49 47
2025-09-25 14:49:37.993 - 01 04 07 D6 00 06 90 84
2025-09-25 14:49:38.023 - 01 04 0C 70 00 42 02 00 FA 00 00 01 22 00 00 95 4F
2025-09-25 14:49:39.168 - 01 06 07 D7 00 02 B9 47
2025-09-25 14:49:39.196 - 01 06 07 D7 00 02 B9 47
2025-09-25 14:49:40.384 - 01 04 07 DC 00 06 B0 86
2025-09-25 14:49:40.418 - 01 04 0C 50 00 42 02 01 04 00 00 01 18 00 00 EA FE
2025-09-25 14:49:41.100 - 01 06 07 DA 00 02 28 84
2025-09-25 14:49:41.136 - 01 06 07 DA 00 02 28 84
2025-09-25 14:49:42.305 - 01 04 07 E2 00 06 D1 4A
2025-09-25 14:49:42.335 - 01 04 0C 70 00 42 02 00 FA 00 00 01 18 00 00 B5 42
2025-09-25 14:49:43.159 - 01 06 07 DD 00 02 99 45
2025-09-25 14:49:43.195 - 01 06 07 DD 00 02 99 45
2025-09-25 14:49:44.371 - 01 04 07 E8 00 06 F1 48
2025-09-25 14:49:44.408 - 01 04 0C 70 00 42 02 00 FA 00 00 01 22 00 00 95 4F
2025-09-25 14:49:46.398 - 01 04 07 D0 00 06 70 85
2025-09-25 14:49:46.437 - 01 04 0C 70 00 42 02 00 FA 00 00 01 22 00 00 95 4F
2025-09-25 14:49:46.558 - 01 04 07 D6 00 06 90 84
2025-09-25 14:49:46.597 - 01 04 0C 70 00 42 02 00 FA 00 00 01 22 00 00 95 4F
2025-09-25 14:49:46.718 - 01 04 07 DC 00 06 B0 86
2025-09-25 14:49:46.751 - 01 04 0C 50 00 42 02 01 04 00 00 01 18 00 00 EA FE
2025-09-25 14:49:46.874 - 01 04 07 E2 00 06 D1 4A
2025-09-25 14:49:46.911 - 01 04 0C 70 00 42 02 00 FA 00 00 01 18 00 00 B5 42
2025-09-25 14:49:47.031 - 01 04 07 E8 00 06 F1 48
2025-09-25 14:49:47.064 - 01 04 0C 70 00 42 02 00 FA 00 00 01 22 00 00 95 4F
2025-09-25 14:49:58.800 - 01 06 07 D8 00 FA 88 C6
2025-09-25 14:49:58.868 - FD DF DF F7 FB EF F7
2025-09-25 14:49:59.441 - 01 06 07 D8 00 F0 08 C1
2025-09-25 14:49:59.464 - 01 06 07 D8 00 F0 08 C1
2025-09-25 14:49:59.955 - 01 06 07 D8 00 E6 89 0F
2025-09-25 14:49:59.990 - 01 06 07 D8 00 E6 89 0F
2025-09-25 14:50:00.009 - 01 04 07 DC C0
2025-09-25 14:50:00.521 - 01 06 07 D8 00 DC 09 1C
2025-09-25 14:50:00.556 - 01 06 07 D8 00 DC 09 1C
2025-09-25 14:50:00.643 - 07 DC 00 06 B0 86
2025-09-25 14:50:01.124 - 01 04 07 DC 00 06 B0 86
2025-09-25 14:50:01.161 - 01 04 0C 50 00 42 02 00 DC 00 00 01 18 00 00 73 3F
2025-09-25 14:50:01.685 - 01 04 07 DC 00 06 B0 86
2025-09-25 14:50:01.716 - 01 04 0C 50 00 42 02 00 DC 00 00 01 18 00 00 73 3F
2025-09-25 14:50:03.228 - 01 04 07 DC 00 06 B0 86
2025-09-25 14:50:03.261 - 01 04 0C 50 00 42 02 00 DC 00 00 01 18 00 00 73 3F
2025-09-25 15:05:18.857 - 1A BE B0 DC 04 (继电器地址-西阳窗帘)
