2024-09-12 11:00:20.027 - FF FF FF FF 0A (继电器地址-东阳窗帘)
2024-09-12 11:00:20.164 - FE
2024-09-12 11:42:55.096 - 1A FF FF FF 04 (继电器地址-东阳衣架)
2024-09-12 11:42:55.233 - 00
2024-09-12 13:24:55.303 - 1A BE B0 DC 04 FC (继电器地址-西阳窗帘)
2024-09-12 13:24:55.435 - FF
2024-09-12 13:34:08.906 - FF FF FF FF 0E FE (继电器地址-西阳小窗帘)
2024-09-12 13:34:09.040 - FF
2024-09-12 13:36:42.652 - 1A BE B0 DC 09 FC (继电器地址-客厅窗帘)
2024-09-12 13:36:42.788 - FF
2024-09-12 13:39:51.270 - 1A BE B0 DC 02 FC (正反转地址-外卫卷帘)
2024-09-12 13:39:51.405 - FF
2024-09-12 13:40:58.210 - 1A BE B0 DC 0A (继电器地址-客厅纱帘)
2024-09-12 13:40:58.344 - FF
2024-09-12 13:45:26.443 - 1A BE B0 DC 01 FC (继电器地址-回水泵点动)
2024-09-12 13:46:32.197 - 1A BE B0 DC 03 (继电器地址-西阳天幕)
2024-09-12 13:46:32.332 - FF
2024-09-12 14:22:57.952 - FF FF FF FF 0A (继电器地址-东阳窗帘)
2024-09-12 14:22:58.088 - FE
2024-09-12 15:04:24.624 - 1A FF FF FF 04 FE (继电器地址-东阳衣架)
2024-09-12 15:04:24.758 - 00
2024-09-12 16:45:01.971 - 1A BE B0 DC 04 (继电器地址-西阳窗帘)
2024-09-12 16:45:02.105 - FF
2024-09-12 16:54:14.560 - FF FF FF FF 0E FC (继电器地址-西阳小窗帘)
2024-09-12 16:54:14.694 - FF
2024-09-12 16:57:05.336 - 1A BE B0 DC 09 (继电器地址-客厅窗帘)
2024-09-12 16:57:05.473 - FF
2024-09-12 17:00:22.187 - 1A BE B0 DC 02 FC (正反转地址-外卫卷帘)
2024-09-12 17:01:30.993 - 1A BE B0 DC 0A (继电器地址-客厅纱帘)
2024-09-12 17:01:31.127 - FC
2024-09-12 17:06:17.853 - 1A BE B0 DC 01 FD (继电器地址-回水泵点动)
2024-09-12 17:07:31.071 - 1A BE B0 DC 03 (继电器地址-西阳天幕)
2024-09-12 17:07:31.207 - FF
2024-09-12 17:21:37.688 - FF
2024-09-12 17:48:27.572 - FF FF FF FF 0A FC (继电器地址-东阳窗帘)
2024-09-12 18:02:59.361 - FF
2024-09-12 18:25:40.405 - 1A FF FF FF 04 (继电器地址-东阳衣架)
2024-09-12 18:25:40.542 - 80
2024-09-12 20:05:01.748 - 1A BE B0 DC 04 (继电器地址-西阳窗帘)
2024-09-12 20:05:01.881 - FF
2024-09-12 20:14:19.167 - FF FF FF FF 0E FC (继电器地址-西阳小窗帘)
2024-09-12 20:14:19.301 - FF
2024-09-12 20:17:27.745 - 1A BE B0 DC 09 (继电器地址-客厅窗帘)
2024-09-12 20:17:27.880 - FE
2024-09-12 20:19:38.214 - EE 00 00 B1 00 00 00 FF FC FF FF (情景执行提示)
2024-09-12 20:19:38.808 - 09 06 00 0F 02 01 78 21 (提示音叮)
2024-09-12 20:19:39.354 - A1 11 11 11 40 (客厅空调自动开)
2024-09-12 20:19:39.582 - 19 08 24 03 F0 BB 78 02 02 00
2024-09-12 20:19:39.631 - 23 AA 56 02 14 13 28 18 09 0C 04 73 65 6F 6B 65 6E 64
2024-09-12 20:19:40.591 - 01 10 07 D0 00 03 06 70 61 00 02 00 FA 6F 26 (客厅空调冷25度)
2024-09-12 20:19:40.631 - 01 10 07 D0 00 03 06 70 61 00 02 00 FA 6F 26 (客厅空调冷25度)
2024-09-12 20:19:43.390 - A1 11 11 11 41 (餐厅空调自动开)
2024-09-12 20:19:43.615 - 19 08 24 03 F0 BB 78 02 02 00
2024-09-12 20:19:43.665 - 23 AA 56 02 14 13 2C 18 09 0C 04 73 65 6F 6B 65 6E 64
2024-09-12 20:19:44.624 - 01 10 07 D3 00 03 06 70 61 00 02 00 FA 9F 29 (餐厅空调冷25度)
2024-09-12 20:19:44.660 - 01 10 07 D3 00 03 06 70 61 00 02 00 FA 9F 29 (餐厅空调冷25度)
2024-09-12 20:19:47.427 - A1 11 11 11 42 (主卧空调自动开)
2024-09-12 20:19:47.657 - 19 08 24 03 F0 BB 78 02 02 00
2024-09-12 20:19:47.747 - 23 AA 56 02 14 13 30 18 09 0C 04 73 65 6F 6B 65 6E 64
2024-09-12 20:19:48.667 - 01 10 07 D6 00 03 06 70 61 00 02 00 F0 0F 3E (主卧空调冷24度)
2024-09-12 20:19:48.710 - 01 10 07 D6 00 03 06 70 61 00 02 00 F0 0F 3E (主卧空调冷24度)
2024-09-12 20:19:49.473 - 09 06 00 0F 02 02 38 20 (提示音咚)
2024-09-12 20:19:50.024 - EE 00 00 B1 00 00 02 FF FC FF FF (情景完成返回主页)
2024-09-12 20:20:52.855 - 1A BE B0 DC 02 (正反转地址-外卫卷帘)
2024-09-12 20:20:52.990 - FF
2024-09-12 20:22:04.315 - 1A BE B0 DC 0A (继电器地址-客厅纱帘)
2024-09-12 20:25:48.656 - FF
2024-09-12 20:27:09.310 - 1A BE B0 DC 01 (继电器地址-回水泵点动)
2024-09-12 20:28:28.322 - 1A BE B0 DC 03 FC (继电器地址-西阳天幕)
2024-09-12 20:28:28.457 - FE
2024-09-12 20:45:52.265 - 1B 03 00 00 00 02 C6 31 (查询室外光线)
2024-09-12 20:45:52.284 - 1B 03 04 00 00 00 00 41 F2 (室外光线返回)
2024-09-12 20:45:53.064 - 1A EC A0 DC 02 00 00 01 0F (自保持开关地址-天花12V供电, 天花12V 供电开)
2024-09-12 20:45:53.701 - 1A AA AA AA 88 (调光器地址-茶吧灯带)
2024-09-12 20:45:53.763 - 1A FF 01 FF FF FF 60 61 FF BC 54 (调光器地址-公共区域统配地址)
2024-09-12 20:45:53.768 - 10 41 F8
2024-09-12 20:45:54.759 - 19 08 24 03 DD 00 0D 00 01 (调用情景-信科调用进门暗)
2024-09-12 20:45:56.800 - 1A FF 01 FF FF FF 60 01 FF 60 01 FF 00 00 0F (调光器地址-公共区域统配地址)
2024-09-12 20:45:58.886 - 1A EC A0 DC 01 00 00 01 0F (自保持开关地址-电视、设备12V供电, 12V 电视供电开)
2024-09-12 20:45:59.435 - 1A EC A0 DC 01 00 00 01 0F (自保持开关地址-电视、设备12V供电, 12V 电视供电开)
2024-09-12 20:45:59.983 - 1A EC A0 DC 04 00 01 01 0F (自保持开关地址-次卧西阳内外卫供电, 内卫外卫开)
2024-09-12 20:46:00.531 - 1A EC A0 DC 04 00 01 01 0F (自保持开关地址-次卧西阳内外卫供电, 内卫外卫开)
2024-09-12 20:46:01.076 - 1A BB BB BB 01 01 00 (开水器电源开)
2024-09-12 20:46:02.624 - 1A 27 89 12 AA 00 00 01 0F (状态寄存器地址, 有人状态)
2024-09-12 20:46:03.172 - 1A 27 89 12 AA 00 00 01 0F (状态寄存器地址, 有人状态)
2024-09-12 20:46:03.718 - 1A BE B0 DC 01 00 01 00 (继电器地址-回水泵点动, 回水泵点动)
2024-09-12 20:46:04.317 - 1A FF FF FF 56 00 00 01 0F (人体感应地址-内卫, 打开内卫感应)
2024-09-12 20:46:04.866 - 1A FF FF FF 55 00 00 01 0F (人体感应地址-外卫, 打开外卫感应)
2024-09-12 20:46:04.962 - BC BC
2024-09-12 20:46:05.413 - 1A FF FF FF 57 00 00 01 0F (人体感应地址-厨房, 打开厨房感应)
2024-09-12 20:46:05.962 - 1A FF FF FF 58 00 00 01 0F (人体感应地址-茶吧, 打开茶吧感应)
2024-09-12 20:46:06.011 - BC BC
2024-09-12 20:46:06.559 - 1A BE B0 DC 01 00 01 00 (继电器地址-回水泵点动, 回水泵点动)
2024-09-12 20:46:07.108 - A5 00 B7 FF 00 AA 22 0D (书房纱帘关)
2024-09-12 20:46:07.653 - A5 00 A2 FF 00 AA (餐厅纱帘关)
2024-09-12 20:46:08.204 - 09 06 00 0F 02 01 78 21 (提示音叮)
2024-09-12 20:46:08.751 - 09 06 00 0F 02 01 78 21 (提示音叮)
2024-09-12 20:46:09.302 - EE 00 00 B1 00 00 02 FF FC FF FF (情景完成返回主页)
2024-09-12 20:46:09.896 - A1 11 11 11 50 (天花供电打开确认)
2024-09-12 20:46:10.120 - 1A EC A0 DC 02 86 86 86 0F (查询天花供电状态, 自保持开关地址-天花12V供电)
2024-09-12 20:46:10.553 - 1A EC A0 DC 02 01 01 0F (自保持开关地址-天花12V供电)
2024-09-12 20:46:12.436 - A1 11 11 11 51 (卫生供电打开确认)
2024-09-12 20:46:12.657 - 1A EC A0 DC 04 86 86 86 0F (查询卫生间供电状态, 自保持开关地址-次卧西阳内外卫供电)
2024-09-12 20:46:13.088 - 1A EC A0 DC 04 01 01 0F (自保持开关地址-次卧西阳内外卫供电)
2024-09-12 20:46:14.459 - 19 08 24 03 CC 01 54 00 01 (调用内卫感应灯开的按键)
2024-09-12 20:46:14.512 - 1A 0C 02 08 01 FF 45 01 FF 45 01 FF 00 00 0F (调光器地址-内卫射灯, 内卫射灯微光)
2024-09-12 20:46:14.977 - A1 11 11 11 52 (电视供电打开确认)
2024-09-12 20:46:15.205 - 1A EC A0 DC 01 86 86 86 0F (查询电视供电状态, 自保持开关地址-电视、设备12V供电)
2024-09-12 20:46:15.636 - 1A EC A0 DC 01 01 01 0F (自保持开关地址-电视、设备12V供电)
2024-09-12 20:46:20.010 - A1 11 11 11 47 (天热回家开帘)
2024-09-12 20:46:20.239 - 1A 27 89 12 AA 86 86 86 0F (查询寄存器状态, 状态寄存器地址)
2024-09-12 20:46:20.623 - 1A 27 89 12 AA 01 00 00 00 00 00 00 00 00 00 00 01 00 00 00 00 0F (状态寄存器地址)
2024-09-12 20:46:21.243 - 19 08 24 03 DD 00 06 00 01 (调用情景-天热遮阳开帘)
2024-09-12 20:46:21.810 - EE 00 00 B1 00 00 00 FF FC FF FF (情景执行提示)
2024-09-12 20:46:22.405 - 09 06 00 0F 02 01 78 21 (提示音叮)
2024-09-12 20:46:22.951 - A5 00 A6 FE 01 AA (餐厅窗帘开)
2024-09-12 20:46:23.007 - 55 00 A6 02 01 66 01 74 AA 55 00 A6 02 01 66 01 74 EA (餐厅窗帘电机状态返回)
2024-09-12 20:46:24.047 - A5 00 52 FE 01 AA (主卧窗帘开)
2024-09-12 20:46:25.093 - A5 00 53 FF 00 AA (主卧纱帘开)
2024-09-12 20:46:25.146 - 55 00 53 01 00 0C 02 30 AA 55 00 53 01 00 0C 02 30 AA (主卧纱帘电机状态返回)
2024-09-12 20:46:26.189 - A5 00 76 FE 01 AA (次卧窗帘开)
2024-09-12 20:46:26.246 - 55 00 76 02 01 0E 01 1B AA 55 00 76 02 01 0E 01 1B EA (次卧窗帘电机状态返回)
2024-09-12 20:46:27.286 - A5 00 21 FE 01 AA (次卧纱帘开)
2024-09-12 20:46:27.337 - 55 00 21 02 01 27 01 34 AA 55 00 21 02 01 27 01 34 AA (次卧纱帘电机状态返回)
2024-09-12 20:46:28.384 - 1A BE B0 DC 04 00 01 00 (继电器地址-西阳窗帘, 西阳窗帘开)
2024-09-12 20:46:29.431 - FF FF FF FF 0E 00 01 00 (继电器地址-西阳小窗帘, 西阳小窗帘开)
2024-09-12 20:46:30.477 - A5 00 D2 FE 01 AA 22 0D (书房窗帘开)
2024-09-12 20:46:30.532 - 55 00 D2 02 00 FE 01 0B AA 55 00 D2 02 00 FE 01 FF (书房窗帘电机状态返回)
2024-09-12 20:46:31.574 - 09 06 00 0F 02 02 38 20 (提示音咚)
2024-09-12 20:46:32.125 - EE 00 00 B1 00 00 02 FF FC FF FF (情景完成返回主页)
2024-09-12 20:46:33.224 - 55 00 76 00 00 0E 01 1B AA 55 00 76 00 00 0E 01 1B AA (次卧窗帘电机状态返回)
2024-09-12 20:46:34.833 - 55 00 21 00 00 0D 01 34 AA 55 00 21 00 00 0D 01 34 AA (次卧纱帘电机状态返回)
2024-09-12 20:46:36.326 - 55 00 53 00 02 23 02 30 AA 55 00 53 00 02 23 02 30 AA (主卧纱帘电机状态返回)
2024-09-12 20:46:36.532 - 55 20 20 00 00 0F 02 16 AA 55 20 20 00 00 0F 02 16 AA (主卧窗帘电机状态返回)
2024-09-12 20:46:37.794 - 55 00 53 00 02 22 02 30 AA 55 00 53 00 02 22 02 30 AA (主卧纱帘电机状态返回)
2024-09-12 20:46:38.627 - 55 00 D2 00 00 0D 01 0B AA 55 00 D2 00 00 0D 01 0B AA (书房窗帘电机状态返回)
2024-09-12 20:46:52.539 - 19 08 24 03 CC 01 55 00 01 (调用内卫感应灯关的按键)
2024-09-12 20:46:52.594 - 1A 0C 02 08 01 FF 00 01 FF 00 01 FF 00 00 0F (调光器地址-内卫射灯, 内卫感应灯关)
2024-09-12 20:47:11.671 - 19 08 24 03 CC 01 CC 00 01 (调用茶吧感应灯开的按键)
2024-09-12 20:47:11.702 - 1A AA AA AA 88 FF B0 01 FF B0 01 0F (调光器地址-茶吧灯带, 茶吧灯带明亮)
2024-09-12 20:47:30.207 - 19 08 24 03 CC 00 D3 00 01 (调用厨房感应灯开的按键)
2024-09-12 20:47:30.244 - 55 0A 32 00 00 00 01 92 55 0A 32 00 00 00 02 93 (厨房顶灯一开, 厨房顶灯二开)
2024-09-12 20:48:22.812 - 19 08 24 03 CC 01 CD 00 01 (调用茶吧感应灯关的按键)
2024-09-12 20:48:22.844 - 1A AA AA AA 88 FF 00 01 FF 00 01 0F (调光器地址-茶吧灯带, 茶吧灯带关闭)
2024-09-12 20:48:28.823 - 19 08 24 03 CC 00 D4 00 01 (调用厨房感应灯关的按键)
2024-09-12 20:48:28.859 - 55 0A 31 00 00 00 01 91 55 0A 31 00 00 00 02 92 (厨房顶灯一关, 厨房顶灯二关)
2024-09-12 20:49:01.388 - 19 08 24 03 CC 01 CC 00 01 (调用茶吧感应灯开的按键)
2024-09-12 20:49:01.418 - 1A AA AA AA 88 FF B0 01 FF B0 01 0F (调光器地址-茶吧灯带, 茶吧灯带明亮)
2024-09-12 20:49:03.892 - 19 08 24 03 CC 00 D3 00 01 (调用厨房感应灯开的按键)
2024-09-12 20:49:03.926 - 55 0A 32 00 00 00 01 92 55 0A 32 00 00 00 02 93 (厨房顶灯一开, 厨房顶灯二开)
2024-09-12 20:49:19.423 - 19 08 24 03 CC 01 CD 00 01 (调用茶吧感应灯关的按键)
2024-09-12 20:49:19.454 - 1A AA AA AA 88 FF 00 01 FF 00 01 0F (调光器地址-茶吧灯带, 茶吧灯带关闭)
2024-09-12 20:49:28.009 - 1A 20 07 01 55 00 01 02 0F (自保持开关地址-主卧顶灯, 主卧顶灯开关)
2024-09-12 20:49:46.477 - 19 08 24 03 CC 00 D4 00 01 (调用厨房感应灯关的按键)
2024-09-12 20:49:46.511 - 55 0A 31 00 00 00 01 91 55 0A 31 00 00 00 02 92 (厨房顶灯一关, 厨房顶灯二关)
2024-09-12 20:51:12.317 - 1A 20 07 01 55 00 01 02 0F (自保持开关地址-主卧顶灯, 主卧顶灯开关)
2024-09-12 20:52:08.221 - 19 08 24 03 DD 00 42 00 01 (调用情景-主卧电视空调)
2024-09-12 20:52:08.744 - EE 00 00 B1 00 00 00 FF FC FF FF (情景执行提示)
2024-09-12 20:52:09.339 - 09 06 00 0F 02 01 78 21 (提示音叮)
2024-09-12 20:52:09.882 - 50 F0 05 (开主卧影视)
2024-09-12 20:52:10.928 - 50 F0 04 (开内卫影视)
2024-09-12 20:52:11.484 - 1A FF FF FF 56 00 00 00 0F (人体感应地址-内卫, 关闭内卫感应)
2024-09-12 20:52:12.032 - 1A 22 33 62 0F 00 02 01 0F (正反转地址-内卫卷帘, 内卫卷帘降)
2024-09-12 20:52:12.577 - A5 00 53 FE 01 AA (主卧纱帘关)
2024-09-12 20:52:12.631 - 55 00 53 02 02 22 02 30 AA 55 00 53 02 02 22 02 30 AA (主卧纱帘电机状态返回)
2024-09-12 20:52:13.674 - A5 00 52 FF 00 AA (主卧窗帘关)
2024-09-12 20:52:14.807 - 1A 0C 02 04 FF FF 45 01 FF 45 01 FF 00 00 0F (主卧调光微光)
2024-09-12 20:52:18.865 - 1A 0C 02 08 01 FF 45 01 FF 45 01 FF 00 00 0F (调光器地址-内卫射灯, 内卫射灯微光)
2024-09-12 20:52:19.501 - 50 F1 25 (主卧—有线2)
2024-09-12 20:52:20.051 - A1 11 11 11 42 (主卧空调自动开)
2024-09-12 20:52:20.275 - 19 08 24 03 F0 BB 78 02 02 00
2024-09-12 20:52:20.326 - 23 AA 56 02 14 34 15 18 09 0C 04 73 65 6F 6B 65 6E 64
2024-09-12 20:52:20.596 - 50 F1 24 (内卫—有线2)
2024-09-12 20:52:21.282 - 01 10 07 D6 00 03 06 70 61 00 02 00 F0 0F 3E (主卧空调冷24度)
2024-09-12 20:52:21.324 - 01 10 07 D6 00 03 06 70 61 00 02 00 F0 0F 3E (主卧空调冷24度)
2024-09-12 20:52:22.644 - AF BF CF DF C2 21 (有线2/快捷-凤凰卫视)
2024-09-12 20:52:23.463 - 55 00 53 00 00 0C 02 30 AA 55 00 53 00 00 0C 02 30 AA (主卧纱帘电机状态返回)
2024-09-12 20:52:24.688 - 1A FF FF FF 60 0B 01 01 0F (红外总线地址-主卧发射设备, 主卧电视电源)
2024-09-12 20:52:24.716 - FF 55 20 20 00 02 09 02 16 AA 55 20 20 00 02 09 02 16 AA (主卧窗帘电机状态返回)
2024-09-12 20:52:32.764 - 09 06 00 0F 02 02 38 20 (提示音咚)
2024-09-12 20:52:33.317 - EE 00 00 B1 00 00 02 FF FC FF FF (情景完成返回主页)
2024-09-12 21:09:54.110 - FF FF FF FF 0A FC (继电器地址-东阳窗帘)
2024-09-12 21:10:04.753 - 19 08 24 03 DD 00 1B 00 01 (调用情景-外卫使用)
2024-09-12 21:10:05.302 - EE 00 00 B1 00 00 00 FF FC FF FF (情景执行提示)
2024-09-12 21:10:05.898 - 09 06 00 0F 02 01 78 21 (提示音叮)
2024-09-12 21:10:06.445 - 1A BE B0 DC 02 00 01 00 (正反转地址-外卫卷帘, 外卫卷帘降)
2024-09-12 21:10:06.989 - 50 F0 03 (开外卫影视)
2024-09-12 21:10:07.543 - 1A FF FF FF 55 00 00 00 0F (人体感应地址-外卫, 关闭外卫感应)
2024-09-12 21:10:08.098 - 1A 0D 01 07 01 FF 45 01 FF 45 01 FF 00 00 0F (调光器地址-外卫射灯, 外卫感应灯开)
2024-09-12 21:10:10.184 - 1A BE B0 DC 01 00 01 00 (继电器地址-回水泵点动, 回水泵点动)
2024-09-12 21:10:11.280 - 1A BE B0 DC 01 00 01 00 (继电器地址-回水泵点动, 回水泵点动)
2024-09-12 21:10:12.327 - 1A BE B0 DC 01 00 01 00 (继电器地址-回水泵点动, 回水泵点动)
2024-09-12 21:10:13.367 - 50 F1 43 (外卫—CH4)
2024-09-12 21:10:17.659 - A1 11 11 11 11 05 (外卫使用浴霸判断)
2024-09-12 21:10:17.885 - 13 03 00 00 00 02 C7 79 (查询外卫温湿度)
2024-09-12 21:10:17.907 - 13 03 04 01 A6 01 11 E8 71 (外卫温湿度返回)
2024-09-12 21:10:19.755 - 09 06 00 0F 02 02 38 20 (提示音咚)
2024-09-12 21:10:21.850 - EE 00 00 B1 00 00 02 FF FC FF FF (情景完成返回主页)
2024-09-12 21:10:38.303 - EE 00 6E B1 01 00 03 FF FC FF FF
2024-09-12 21:10:38.838 - EE 00 6E B1 01 00 08 FF FC FF FF
2024-09-12 21:10:39.199 - 1A BE B0 DC 0A 00 01 00 (继电器地址-客厅纱帘, 客厅纱帘关)
2024-09-12 21:21:52.793 - 19 08 24 03 DD 00 1C 00 01 (调用情景-外卫使用完毕)
2024-09-12 21:21:53.325 - EE 00 00 B1 00 00 00 FF FC FF FF (情景执行提示)
2024-09-12 21:21:53.921 - 09 06 00 0F 02 01 78 21 (提示音叮)
2024-09-12 21:21:54.476 - 1A 0D 01 07 01 FF 00 01 FF 00 01 FF 00 00 0F (调光器地址-外卫射灯, 外卫感应灯关)
2024-09-12 21:21:55.061 - 50 F5 03 (关外卫影视)
2024-09-12 21:21:55.617 - 1A 20 07 00 42 00 01 00 0F (自保持开关地址-外卫顶灯, 外卫顶灯关)
2024-09-12 21:21:56.165 - 1A FF FF FF 55 00 00 01 0F (人体感应地址-外卫, 打开外卫感应)
2024-09-12 21:21:56.220 - BC BC
2024-09-12 21:21:56.528 - 19 08 24 03 CC 01 52 00 01 (调用外卫感应灯开的按键)
2024-09-12 21:21:56.580 - 1A 0D 01 07 01 FF 45 01 FF 45 01 FF 00 00 0F (调光器地址-外卫射灯, 外卫感应灯开)
2024-09-12 21:21:59.036 - 09 06 00 0F 02 02 38 20 (提示音咚)
2024-09-12 21:21:59.608 - EE 00 00 B1 00 00 02 FF FC FF FF (情景完成返回主页)
2024-09-12 21:22:06.248 - 19 08 24 03 CC 01 53 00 01 (调用外卫感应灯关的按键)
2024-09-12 21:22:06.282 - 1A 0D 01 07 01 FF 00 01 FF 00 01 FF 00 00 0F (调光器地址-外卫射灯, 外卫感应灯关)
2024-09-12 21:23:13.469 - 19 08 24 03 CC 01 CC 00 01 (调用茶吧感应灯开的按键)
2024-09-12 21:23:13.500 - 1A AA AA AA 88 FF B0 01 FF B0 01 0F (调光器地址-茶吧灯带, 茶吧灯带明亮)
2024-09-12 21:23:38.513 - 19 08 24 03 CC 00 D3 00 01 (调用厨房感应灯开的按键)
2024-09-12 21:23:38.548 - 55 0A 32 00 00 00 01 92 55 0A 32 00 00 00 02 93 (厨房顶灯一开, 厨房顶灯二开)
2024-09-12 21:24:20.115 - 19 08 24 03 CC 01 CD 00 01 (调用茶吧感应灯关的按键)
2024-09-12 21:24:20.146 - 1A AA AA AA 88 FF 00 01 FF 00 01 0F (调光器地址-茶吧灯带, 茶吧灯带关闭)
2024-09-12 21:24:49.653 - 19 08 24 03 CC 00 D4 00 01 (调用厨房感应灯关的按键)
2024-09-12 21:24:49.689 - 55 0A 31 00 00 00 01 91 55 0A 31 00 00 00 02 92 (厨房顶灯一关, 厨房顶灯二关)
2024-09-12 21:26:29.270 - FF
2024-09-12 21:33:09.661 - 19 08 24 03 CC 01 CC 00 01 (调用茶吧感应灯开的按键)
2024-09-12 21:33:09.709 - 1A AA AA AA 88 FF B0 01 FF B0 01 0F (调光器地址-茶吧灯带, 茶吧灯带明亮)
2024-09-12 21:33:17.150 - 19 08 24 03 CC 00 D3 00 01 (调用厨房感应灯开的按键)
2024-09-12 21:33:17.204 - 55 0A 32 00 00 00 01 92 55 0A 32 00 00 00 02 93 (厨房顶灯一开, 厨房顶灯二开)
2024-09-12 21:33:39.171 - 1A 22 33 62 0F 00 00 01 0F (正反转地址-内卫卷帘, 内卫卷帘升)
2024-09-12 21:33:42.225 - 19 08 24 03 CC 01 CD 00 01 (调用茶吧感应灯关的按键)
2024-09-12 21:33:42.256 - 1A AA AA AA 88 FF 00 01 FF 00 01 0F (调光器地址-茶吧灯带, 茶吧灯带关闭)
2024-09-12 21:33:42.834 - 1A 20 07 00 93 00 01 02 0F (自保持开关地址-设备区顶, 设备区顶灯开关)
2024-09-12 21:34:08.251 - 19 08 24 03 CC 00 D4 00 01 (调用厨房感应灯关的按键)
2024-09-12 21:34:08.285 - 55 0A 31 00 00 00 01 91 55 0A 31 00 00 00 02 92 (厨房顶灯一关, 厨房顶灯二关)
2024-09-12 21:39:26.507 - 1A 22 33 62 0F 00 02 01 0F (正反转地址-内卫卷帘, 内卫卷帘降)
2024-09-12 21:39:28.564 - 1A 20 07 00 93 00 01 02 0F (自保持开关地址-设备区顶, 设备区顶灯开关)
2024-09-12 21:41:15.298 - 19 08 24 03 DD 00 3B 00 01 (调用情景-书房照明关帘)
2024-09-12 21:41:15.827 - EE 00 00 B1 00 00 00 FF FC FF FF (情景执行提示)
2024-09-12 21:41:16.422 - 09 06 00 0F 02 01 78 21 (提示音叮)
2024-09-12 21:41:16.978 - 1A 0A 04 06 01 FF F0 01 FF F0 01 FF 00 00 0F (调光器地址-书房射灯, 书房射灯明亮)
2024-09-12 21:41:21.057 - A5 00 B7 FF 00 AA 22 0D (书房纱帘关)
2024-09-12 21:41:22.102 - A5 00 D2 FF 00 AA 22 0C (书房窗帘关)
2024-09-12 21:41:22.152 - 55 00 D2 01 00 0D 01 0B AA 55 00 D2 01 00 0D 01 0B AA (书房窗帘电机状态返回)
2024-09-12 21:41:23.198 - 09 06 00 0F 02 02 38 20 (提示音咚)
2024-09-12 21:41:23.751 - EE 00 00 B1 00 00 02 FF FC FF FF (情景完成返回主页)
2024-09-12 21:41:31.445 - 55 00 D2 00 00 FE 01 0B AA 55 00 D2 00 00 FE 01 0B AA (书房窗帘电机状态返回)
2024-09-12 21:46:46.867 - 1A FF FF FF 04 FE (继电器地址-东阳衣架)
2024-09-12 21:46:47.002 - FF
2024-09-12 21:54:47.221 - 19 08 24 03 CC 01 CC 00 01 (调用茶吧感应灯开的按键)
2024-09-12 21:54:47.270 - 1A AA AA AA 88 FF B0 01 FF B0 01 0F (调光器地址-茶吧灯带, 茶吧灯带明亮)
2024-09-12 21:54:51.695 - 19 08 24 03 CC 00 D3 00 01 (调用厨房感应灯开的按键)
2024-09-12 21:54:51.748 - 55 0A 32 00 00 00 01 92 55 0A 32 00 00 00 02 93 (厨房顶灯一开, 厨房顶灯二开)
2024-09-12 21:55:01.750 - 19 08 24 03 CC 01 CD 00 01 (调用茶吧感应灯关的按键)
2024-09-12 21:55:01.781 - 1A AA AA AA 88 FF 00 01 FF 00 01 0F (调光器地址-茶吧灯带, 茶吧灯带关闭)
2024-09-12 21:59:11.436 - FF
2024-09-12 22:00:33.405 - 19 08 24 03 CC 01 CC 00 01 (调用茶吧感应灯开的按键)
2024-09-12 22:00:33.454 - 1A AA AA AA 88 FF B0 01 FF B0 01 0F (调光器地址-茶吧灯带, 茶吧灯带明亮)
2024-09-12 22:00:48.936 - 19 08 24 03 CC 01 CD 00 01 (调用茶吧感应灯关的按键)
2024-09-12 22:00:48.985 - 1A AA AA AA 88 FF 00 01 FF 00 01 0F (调光器地址-茶吧灯带, 茶吧灯带关闭)
2024-09-12 22:01:13.445 - 19 08 24 03 CC 00 D4 00 01 (调用厨房感应灯关的按键)
2024-09-12 22:09:35.474 - 19 08 24 03 CC 01 CC 00 01 (调用茶吧感应灯开的按键)
2024-09-12 22:09:35.523 - 1A AA AA AA 88 FF B0 01 FF B0 01 0F (调光器地址-茶吧灯带, 茶吧灯带明亮)
2024-09-12 22:09:36.433 - 19 08 24 03 CC 00 D3 00 01 (调用厨房感应灯开的按键)
2024-09-12 22:09:36.487 - 55 0A 32 00 00 00 01 92 55 0A 32 00 00 00 02 93 (厨房顶灯一开, 厨房顶灯二开)
2024-09-12 22:09:54.011 - 19 08 24 03 CC 01 CD 00 01 (调用茶吧感应灯关的按键)
2024-09-12 22:09:54.042 - 1A AA AA AA 88 FF 00 01 FF 00 01 0F (调光器地址-茶吧灯带, 茶吧灯带关闭)
2024-09-12 22:13:29.937 - 19 08 24 03 CC 01 CC 00 01 (调用茶吧感应灯开的按键)
2024-09-12 22:13:29.968 - 1A AA AA AA 88 FF B0 01 FF B0 01 0F (调光器地址-茶吧灯带, 茶吧灯带明亮)
2024-09-12 22:13:40.458 - 19 08 24 03 CC 01 CD 00 01 (调用茶吧感应灯关的按键)
2024-09-12 22:13:40.489 - 1A AA AA AA 88 FF 00 01 FF 00 01 0F (调光器地址-茶吧灯带, 茶吧灯带关闭)
2024-09-12 22:15:25.165 - 19 08 24 03 CC 01 CC 00 01 (调用茶吧感应灯开的按键)
2024-09-12 22:15:25.195 - 1A AA AA AA 88 FF B0 01 FF B0 01 0F (调光器地址-茶吧灯带, 茶吧灯带明亮)
2024-09-12 22:15:37.690 - 19 08 24 03 CC 01 CD 00 01 (调用茶吧感应灯关的按键)
2024-09-12 22:15:37.720 - 1A AA AA AA 88 FF 00 01 FF 00 01 0F (调光器地址-茶吧灯带, 茶吧灯带关闭)
2024-09-12 22:15:43.201 - 19 08 24 03 CC 01 CC 00 01 (调用茶吧感应灯开的按键)
2024-09-12 22:15:43.233 - 1A AA AA AA 88 FF B0 01 FF B0 01 0F (调光器地址-茶吧灯带, 茶吧灯带明亮)
2024-09-12 22:15:56.227 - 19 08 24 03 CC 01 CD 00 01 (调用茶吧感应灯关的按键)
2024-09-12 22:15:56.258 - 1A AA AA AA 88 FF 00 01 FF 00 01 0F (调光器地址-茶吧灯带, 茶吧灯带关闭)
2024-09-12 22:16:29.792 - 19 08 24 03 CC 01 CC 00 01 (调用茶吧感应灯开的按键)
2024-09-12 22:16:29.825 - 1A AA AA AA 88 FF B0 01 FF B0 01 0F (调光器地址-茶吧灯带, 茶吧灯带明亮)
2024-09-12 22:16:41.268 - 19 08 24 03 CC 00 D4 00 01 (调用厨房感应灯关的按键)
2024-09-12 22:16:41.303 - 55 0A 31 00 00 00 01 91 55 0A 31 00 00 00 02 92 (厨房顶灯一关, 厨房顶灯二关)
2024-09-12 22:16:42.325 - 19 08 24 03 CC 01 CD 00 01 (调用茶吧感应灯关的按键)
2024-09-12 22:16:42.356 - 1A AA AA AA 88 FF 00 01 FF 00 01 0F (调光器地址-茶吧灯带, 茶吧灯带关闭)
2024-09-12 22:27:50.543 - FF
2024-09-12 22:31:54.624 - 19 08 24 03 CC 01 CC 00 01 (调用茶吧感应灯开的按键)
2024-09-12 22:31:54.672 - 1A AA AA AA 88 FF B0 01 FF B0 01 0F (调光器地址-茶吧灯带, 茶吧灯带明亮)
2024-09-12 22:31:55.065 - 19 08 24 03 CC 00 D3 00 01 (调用厨房感应灯开的按键)
2024-09-12 22:31:55.149 - 55 0A 32 00 00 00 01 92 55 0A 32 00 00 00 02 93 (厨房顶灯一开, 厨房顶灯二开)
2024-09-12 22:32:06.148 - 19 08 24 03 CC 01 CD 00 01 (调用茶吧感应灯关的按键)
2024-09-12 22:32:06.177 - 1A AA AA AA 88 FF 00 01 FF 00 01 0F (调光器地址-茶吧灯带, 茶吧灯带关闭)
2024-09-12 22:32:42.514 - 0E 08 74 78 57 2D
2024-09-12 22:32:42.516 - FF
2024-09-12 22:32:43.091 - 30 24 6C CD C9
2024-09-12 22:32:43.093 - F0 16
2024-09-12 22:32:44.503 - 8A 48 70 59
2024-09-12 22:32:44.510 - A8 43 47 48 2C
2024-09-12 22:32:44.521 - 40 3E 6C A4 52 C8
2024-09-12 22:32:44.685 - 0E 08 74 78 57 1D
2024-09-12 22:32:44.690 - 5A AC 74 EC
2024-09-12 22:32:44.699 - 24 BC F0 32 64 C6
2024-09-12 22:32:44.803 - 64 65 76 69 63 65 43 6F 64 65 3A 31 41 46 46 46 46 46 46 35 37 0D 0A 70 61 73 73 77 6F 72 64 30
2024-09-12 22:32:44.832 - 32 33 2D 31 32 2D 30 37 32 0D 0A 6D 6F 64 62 75 73 41 64 64 3D 37 32 0D 0A
2024-09-12 22:33:58.658 - 30 24 6E CD C9
2024-09-12 22:36:02.615 - 19 08 24 03 CC 01 CC 00 01 (调用茶吧感应灯开的按键)
2024-09-12 22:36:02.662 - 1A AA AA AA 88 FF B0 01 FF B0 01 0F (调光器地址-茶吧灯带, 茶吧灯带明亮)
2024-09-12 22:36:22.153 - 19 08 24 03 CC 01 CD 00 01 (调用茶吧感应灯关的按键)
2024-09-12 22:36:22.182 - 1A AA AA AA 88 FF 00 01 FF 00 01 0F (调光器地址-茶吧灯带, 茶吧灯带关闭)
2024-09-12 22:41:17.736 - 19 08 24 03 CC 01 CC 00 01 (调用茶吧感应灯开的按键)
2024-09-12 22:41:17.766 - 1A AA AA AA 88 FF B0 01 FF B0 01 0F (调光器地址-茶吧灯带, 茶吧灯带明亮)
2024-09-12 22:41:39.780 - 19 08 24 03 CC 01 CD 00 01 (调用茶吧感应灯关的按键)
2024-09-12 22:41:39.810 - 1A AA AA AA 88 FF 00 01 FF 00 01 0F (调光器地址-茶吧灯带, 茶吧灯带关闭)
2024-09-12 22:42:14.848 - 19 08 24 03 CC 01 CC 00 01 (调用茶吧感应灯开的按键)
2024-09-12 22:42:14.879 - 1A AA AA AA 88 FF B0 01 FF B0 01 0F (调光器地址-茶吧灯带, 茶吧灯带明亮)
2024-09-12 22:42:26.371 - 19 08 24 03 CC 01 CD 00 01 (调用茶吧感应灯关的按键)
2024-09-12 22:42:26.402 - 1A AA AA AA 88 FF 00 01 FF 00 01 0F (调光器地址-茶吧灯带, 茶吧灯带关闭)
2024-09-12 22:42:47.425 - FF
2024-09-12 22:43:01.862 - 55 32 32 00 00 00 01 BA
2024-09-12 22:43:09.188 - 55 32 32 00 00 00 01 BA
2024-09-12 22:43:10.146 - 55 32 32 00 00 00 01 BA
2024-09-12 22:43:33.338 - 55 32 31 00 00 00 01 B9
2024-09-12 22:43:42.022 - 19 08 24 03 CC 01 CC 00 01 (调用茶吧感应灯开的按键)
2024-09-12 22:43:42.070 - 1A AA AA AA 88 FF B0 01 FF B0 01 0F (调光器地址-茶吧灯带, 茶吧灯带明亮)
2024-09-12 22:43:54.044 - 19 08 24 03 CC 01 CD 00 01 (调用茶吧感应灯关的按键)
2024-09-12 22:43:54.076 - 1A AA AA AA 88 FF 00 01 FF 00 01 0F (调光器地址-茶吧灯带, 茶吧灯带关闭)
2024-09-12 22:44:16.589 - 19 08 24 03 CC 01 CC 00 01 (调用茶吧感应灯开的按键)
2024-09-12 22:44:16.620 - 1A AA AA AA 88 FF B0 01 FF B0 01 0F (调光器地址-茶吧灯带, 茶吧灯带明亮)
2024-09-12 22:44:28.613 - 19 08 24 03 CC 01 CD 00 01 (调用茶吧感应灯关的按键)
2024-09-12 22:44:28.643 - 1A AA AA AA 88 FF 00 01 FF 00 01 0F (调光器地址-茶吧灯带, 茶吧灯带关闭)
2024-09-12 22:44:30.296 - 55 32 32 00 00 00 01 BA
2024-09-12 22:44:35.595 - 55 32 31 00 00 00 01 B9
2024-09-12 22:44:43.142 - 19 08 24 03 CC 01 CC 00 01 (调用茶吧感应灯开的按键)
2024-09-12 22:44:43.192 - 1A AA AA AA 88 FF B0 01 FF B0 01 0F (调光器地址-茶吧灯带, 茶吧灯带明亮)
2024-09-12 22:44:55.165 - 19 08 24 03 CC 01 CD 00 01 (调用茶吧感应灯关的按键)
2024-09-12 22:44:55.223 - 1A AA AA AA 88 FF 00 01 FF 00 01 0F (调光器地址-茶吧灯带, 茶吧灯带关闭)
2024-09-12 22:47:39.990 - 19 08 24 03 CC 01 CC 00 01 (调用茶吧感应灯开的按键)
2024-09-12 22:47:40.020 - 1A AA AA AA 88 FF B0 01 FF B0 01 0F (调光器地址-茶吧灯带, 茶吧灯带明亮)
2024-09-12 22:47:52.014 - 19 08 24 03 CC 01 CD 00 01 (调用茶吧感应灯关的按键)
2024-09-12 22:47:52.075 - 1A AA AA AA 88 FF 00 01 FF 00 01 0F (调光器地址-茶吧灯带, 茶吧灯带关闭)
2024-09-12 22:48:49.137 - 55 32 32 00 00 00 01 BA
2024-09-12 22:48:50.148 - 55 32 31 00 00 00 01 B9
2024-09-12 22:48:51.362 - 55 32 32 00 00 00 01 BA
2024-09-12 22:48:52.559 - 55 32 31 00 00 00 01 B9
2024-09-12 22:49:48.758 - FF
2024-09-12 22:49:52.115 - 55 0A 31 00 00 00 01 91 (厨房顶灯一关)
2024-09-12 22:49:53.110 - 55 0A 31 00 00 00 02 92 (厨房顶灯二关)
2024-09-12 22:50:05.277 - 19 08 24 03 CC 01 CC 00 01 (调用茶吧感应灯开的按键)
2024-09-12 22:50:05.325 - 1A AA AA AA 88 FF B0 01 FF B0 01 0F (调光器地址-茶吧灯带, 茶吧灯带明亮)
2024-09-12 22:50:12.750 - 55 0A 32 00 00 00 01 92 (厨房顶灯一开)
2024-09-12 22:50:13.421 - 55 0A 32 00 00 00 02 93 (厨房顶灯二开)
2024-09-12 22:50:24.314 - 19 08 24 03 CC 01 CD 00 01 (调用茶吧感应灯关的按键)
2024-09-12 22:50:24.364 - 1A AA AA AA 88 FF 00 01 FF 00 01 0F (调光器地址-茶吧灯带, 茶吧灯带关闭)
2024-09-12 22:50:32.692 - 30 24 6E CD 2B 60 2C 6C 64
2024-09-12 22:50:32.694 - F8
2024-09-12 22:50:32.703 - 6C 60 3A 49
2024-09-12 22:50:32.703 - AC
2024-09-12 22:50:32.834 - 16 92 9A 6A 8A 92 6A 82 BA 92 6A 0A 6D 6F 64 62 75 73 41 64 64 3D 37 32 0D 0A
2024-09-12 22:50:41.962 - 19 08 24 03 CC 00 D3 00 01 (调用厨房感应灯开的按键)
2024-09-12 22:50:42.016 - 55 0A 32 00 00 00 01 92 55 0A 32 00 00 00 02 93 (厨房顶灯一开, 厨房顶灯二开)
2024-09-12 22:51:07.722 - B4 0C
2024-09-12 22:51:07.730 - 74 78 47 D9 A4 2C E0 B4
2024-09-12 22:51:07.739 - 07 79 A2 48
2024-09-12 22:51:07.742 - B4 FB
2024-09-12 22:51:07.871 - 30 32 33 2D 31 32 2D 30 37 32 0D 0A 6D 6F 64 62 75 73 41 64 64 3D 37 32 0D 0A
2024-09-12 22:51:16.207 - 0E 48 70 59
2024-09-12 22:51:16.214 - A8 43 47 48 AC
2024-09-12 22:51:16.220 - 06 78 4F C5
2024-09-12 22:51:16.225 - 34 FA
2024-09-12 22:51:16.327 - B2
2024-09-12 22:51:16.353 - 92 9A 6A 8A 92 6A 82 BA 92 6A 0A 6D 6F 64 62 75 73 41 64 64 3D 37 32 CD
2024-09-12 22:51:16.465 - C8 48 51 8A
2024-09-12 22:51:16.472 - 34 3E 24 68 E0 B4
2024-09-12 22:51:16.480 - 06 78 4F C5
2024-09-12 22:51:16.482 - 36 F8
2024-09-12 22:51:17.433 - C8 A4 6C CC C9
2024-09-12 22:51:17.435 - F0 16
2024-09-12 22:51:23.600 - C8 48 12 EC E8
2024-09-12 22:51:23.601 - A2 BC
2024-09-12 22:51:24.367 - 1A 24 6C CD 6B 68 24 4C 45
2024-09-12 22:51:24.367 - D8
2024-09-12 22:51:24.376 - 24 BC F0 32 45 C6
2024-09-12 22:51:24.507 - 16 92 9A 6A 8A 92 6A 82 BA 92 6A 0A 6D 6F 64 62 75 73 41 64 64 3D 37 32 0D 0A
2024-09-12 22:51:24.607 - 32 64 4F
2024-09-12 22:51:24.615 - AC 34 60 6C 4D 45
2024-09-12 22:51:24.617 - D8
2024-09-12 22:51:24.624 - 24 3C D0 13
2024-09-12 22:51:24.625 - D2
2024-09-12 22:51:25.004 - 32 64 4F
2024-09-12 22:51:25.011 - AC 34 60 6C 4D 45
2024-09-12 22:51:25.013 - D8
2024-09-12 22:51:25.021 - 48 3C D1 03
2024-09-12 22:51:25.023 - EC
2024-09-12 22:51:25.152 - 92 9A 6A 8A 92 6A 82 BA 92 6A 0A 6D 6F 64 62 75 73 41 64 64 3D 37 32 0D 0A
2024-09-12 22:51:25.617 - A4 48 E9 6C EC A8
2024-09-12 22:51:25.622 - 68 64 EC 8C
2024-09-12 22:51:25.631 - 70 60 38
2024-09-12 22:51:25.633 - 49 58
2024-09-12 22:51:25.834 - B6 45 4F
2024-09-12 22:51:25.841 - 7C 34 60 6C 4D 45
2024-09-12 22:51:25.843 - D8
2024-09-12 22:51:25.850 - 34 FB
2024-09-12 22:51:25.978 - B6 45 4F
2024-09-12 22:51:25.984 - 7C 76 41 4D
2024-09-12 22:51:25.988 - AC F0 E8
2024-09-12 22:51:25.998 - 44 3A 6E C5 73 E9
2024-09-12 22:51:26.127 - C1 32 33 2D 31 32 2D 30 37 32 0D 0A 6D 6F 64 62 75 73 41 64 64 3D 37 32 0D 0A
2024-09-12 22:51:26.476 - 0E 48
2024-09-12 22:51:26.480 - 70 49
2024-09-12 22:51:26.487 - 34 3E 24 68 C1 95
2024-09-12 22:51:26.493 - 07 1A E2 48
2024-09-12 22:51:26.497 - B4 FB
2024-09-12 22:51:26.629 - C8 A4 6C CD C9
2024-09-12 22:51:26.635 - 60 2C 6C 64
2024-09-12 22:51:26.635 - F8
2024-09-12 22:51:26.646 - 34 43 1E 22 60
2024-09-12 22:51:26.754 - C1 32 33 2D 31 FA
2024-09-12 22:51:32.906 - B4 08 74 78 47 A9
2024-09-12 22:51:32.908 - FF
2024-09-12 22:51:34.473 - 0E 48 E9 6C EC A8 DF FF
2024-09-12 22:51:35.446 - C8 48 12 EC E8 89
2024-09-12 22:51:35.448 - BC
2024-09-12 22:52:24.661 - 19 08 24 03 CC 01 CC 00 01 (调用茶吧感应灯开的按键)
2024-09-12 22:52:24.711 - 1A AA AA AA 88 FF B0 01 FF B0 01 0F (调光器地址-茶吧灯带, 茶吧灯带明亮)
2024-09-12 22:52:59.230 - 19 08 24 03 CC 01 CD 00 01 (调用茶吧感应灯关的按键)
2024-09-12 22:52:59.259 - 1A AA AA AA 88 FF 00 01 FF 00 01 0F (调光器地址-茶吧灯带, 茶吧灯带关闭)
2024-09-12 22:53:00.810 - 55 32 32 00 00 00 01 BA
2024-09-12 22:53:01.860 - 55 32 31 00 00 00 01 B9
2024-09-12 22:53:02.953 - 55 32 32 00 00 00 01 BA
2024-09-12 22:53:04.577 - 55 32 31 00 00 00 01 B9
2024-09-12 22:53:12.560 - 55 0A 31 00 00 00 01 91 (厨房顶灯一关)
2024-09-12 22:53:13.784 - 55 0A 31 00 00 00 02 92 (厨房顶灯二关)
2024-09-12 22:53:22.777 - 19 08 24 03 CC 01 CC 00 01 (调用茶吧感应灯开的按键)
2024-09-12 22:53:22.806 - 1A AA AA AA 88 FF B0 01 FF B0 01 0F (调光器地址-茶吧灯带, 茶吧灯带明亮)
2024-09-12 22:53:26.230 - 55 0A 32 00 00 00 01 92 (厨房顶灯一开)
2024-09-12 22:53:26.520 - 55 0A 32 00 00 00 02 93 (厨房顶灯二开)
2024-09-12 22:53:37.805 - 19 08 24 03 CC 01 CD 00 01 (调用茶吧感应灯关的按键)
2024-09-12 22:53:37.856 - 1A AA AA AA 88 FF 00 01 FF 00 01 0F (调光器地址-茶吧灯带, 茶吧灯带关闭)
2024-09-12 22:54:28.328 - 0E 48 E9 6C EC A8
2024-09-12 22:54:28.333 - 68 B6 EC AC
2024-09-12 22:54:28.345 - 78 E4 3A 78 9D FF
2024-09-12 22:54:28.473 - 4C A6 A6 29 92 6A 82 BA 92 6A 0A 6D 6F 64 62 75 73 41 64 64 3D 37 32 0D 0A
2024-09-12 22:54:37.580 - 19 08 24 03 CC 00 D3 00 01 (调用厨房感应灯开的按键)
2024-09-12 22:54:37.633 - 55 0A 32 00 00 00 01 92 55 0A 32 00 00 00 02 93 (厨房顶灯一开, 厨房顶灯二开)
2024-09-12 22:55:10.831 - FF
2024-09-12 22:55:10.834 - FF
2024-09-12 22:55:20.599 - B4 41
2024-09-12 22:55:20.610 - 74 78 47 D9 A4 AC 64 B4
2024-09-12 22:55:20.620 - 44 3A 6E E4 73 C9
2024-09-12 22:55:20.750 - 72 64 30 32 33 2D 31 32 2D 30 37 32 0D 0A 6D 6F 64 62 75 73 41 64 64 3D 37 32 0D 0A
2024-09-12 22:55:29.811 - 19 08 24 03 CC 00 D3 00 01 (调用厨房感应灯开的按键)
2024-09-12 22:55:29.865 - 55 0A 32 00 00 00 01 92 55 0A 32 00 00 00 02 93 (厨房顶灯一开, 厨房顶灯二开)
2024-09-12 22:56:08.603 - 19 08 24 03 CC 01 CC 00 01 (调用茶吧感应灯开的按键)
2024-09-12 22:56:08.633 - 1A AA AA AA 88 FF B0 01 FF B0 01 0F (调光器地址-茶吧灯带, 茶吧灯带明亮)
2024-09-12 22:56:52.973 - 19 08 24 03 CC 00 D4 00 01 (调用厨房感应灯关的按键)
2024-09-12 22:56:53.009 - 55 0A 31 00 00 00 01 91 55 0A 31 00 00 00 02 92 (厨房顶灯一关, 厨房顶灯二关)
2024-09-12 22:56:56.481 - 19 08 24 03 CC 00 D3 00 01 (调用厨房感应灯开的按键)
2024-09-12 22:56:56.517 - 55 0A 32 00 00 00 01 92 55 0A 32 00 00 00 02 93 (厨房顶灯一开, 厨房顶灯二开)
2024-09-12 22:57:06.717 - 19 08 24 03 CC 01 CD 00 01 (调用茶吧感应灯关的按键)
2024-09-12 22:57:06.748 - 1A AA AA AA 88 FF 00 01 FF 00 01 0F (调光器地址-茶吧灯带, 茶吧灯带关闭)
2024-09-12 22:58:25.205 - FF
2024-09-12 22:58:25.373 - 19 08 24 03 CC 01 CC 00 01 (调用茶吧感应灯开的按键)
2024-09-12 22:58:25.422 - 1A AA AA AA 88 FF B0 01 FF B0 01 0F (调光器地址-茶吧灯带, 茶吧灯带明亮)
2024-09-12 22:58:40.403 - 19 08 24 03 CC 01 CD 00 01 (调用茶吧感应灯关的按键)
2024-09-12 22:58:40.453 - 1A AA AA AA 88 FF 00 01 FF 00 01 0F (调光器地址-茶吧灯带, 茶吧灯带关闭)
2024-09-12 22:58:50.422 - 19 08 24 03 CC 01 CC 00 01 (调用茶吧感应灯开的按键)
2024-09-12 22:58:50.454 - 1A AA AA AA 88 FF B0 01 FF B0 01 0F (调光器地址-茶吧灯带, 茶吧灯带明亮)
2024-09-12 22:59:00.968 - 19 08 24 03 CC 01 38 00 01
2024-09-12 22:59:00.995 - 55 32 32 00 00 00 01 BA
2024-09-12 22:59:01.821 - 19 08 24 03 CC 01 39 00 01
2024-09-12 22:59:01.847 - 55 32 31 00 00 00 01 B9
2024-09-12 22:59:04.232 - 19 08 24 03 CC 00 D4 00 01 (调用厨房感应灯关的按键)
2024-09-12 22:59:04.267 - 55 0A 31 00 00 00 01 91 55 0A 31 00 00 00 02 92 (厨房顶灯一关, 厨房顶灯二关)
2024-09-12 22:59:07.739 - 19 08 24 03 CC 00 D3 00 01 (调用厨房感应灯开的按键)
2024-09-12 22:59:07.773 - 55 0A 32 00 00 00 01 92 55 0A 32 00 00 00 02 93 (厨房顶灯一开, 厨房顶灯二开)
2024-09-12 22:59:56.334 - 19 08 24 03 CC 00 D4 00 01 (调用厨房感应灯关的按键)
2024-09-12 22:59:56.369 - 55 0A 31 00 00 00 01 91 55 0A 31 00 00 00 02 92 (厨房顶灯一关, 厨房顶灯二关)
2024-09-12 23:00:15.089 - 19 08 24 03 CC 01 CD 00 01 (调用茶吧感应灯关的按键)
2024-09-12 23:00:15.121 - 1A AA AA AA 88 FF 00 01 FF 00 01 0F (调光器地址-茶吧灯带, 茶吧灯带关闭)
2024-09-12 23:00:22.604 - 19 08 24 03 CC 01 CC 00 01 (调用茶吧感应灯开的按键)
2024-09-12 23:00:22.636 - 1A AA AA AA 88 FF B0 01 FF B0 01 0F (调光器地址-茶吧灯带, 茶吧灯带明亮)
2024-09-12 23:00:42.425 - 19 08 24 03 CC 00 D3 00 01 (调用厨房感应灯开的按键)
2024-09-12 23:00:42.459 - 55 0A 32 00 00 00 01 92 55 0A 32 00 00 00 02 93 (厨房顶灯一开, 厨房顶灯二开)
2024-09-12 23:00:53.665 - 19 08 24 03 CC 01 CD 00 01 (调用茶吧感应灯关的按键)
2024-09-12 23:00:53.696 - 1A AA AA AA 88 FF 00 01 FF 00 01 0F (调光器地址-茶吧灯带, 茶吧灯带关闭)
2024-09-12 23:02:24.344 - 19 08 24 03 CC 01 CC 00 01 (调用茶吧感应灯开的按键)
2024-09-12 23:02:24.375 - 1A AA AA AA 88 FF B0 01 FF B0 01 0F (调光器地址-茶吧灯带, 茶吧灯带明亮)
2024-09-12 23:02:45.887 - 19 08 24 03 CC 01 CD 00 01 (调用茶吧感应灯关的按键)
2024-09-12 23:02:45.918 - 1A AA AA AA 88 FF 00 01 FF 00 01 0F (调光器地址-茶吧灯带, 茶吧灯带关闭)
2024-09-12 23:03:39.492 - 19 08 24 03 CC 01 CC 00 01 (调用茶吧感应灯开的按键)
2024-09-12 23:03:39.524 - 1A AA AA AA 88 FF B0 01 FF B0 01 0F (调光器地址-茶吧灯带, 茶吧灯带明亮)
2024-09-12 23:03:51.799 - 19 08 24 03 CC 00 D4 00 01 (调用厨房感应灯关的按键)
2024-09-12 23:03:51.833 - 55 0A 31 00 00 00 01 91 55 0A 31 00 00 00 02 92 (厨房顶灯一关, 厨房顶灯二关)
2024-09-12 23:04:03.039 - 19 08 24 03 CC 01 CD 00 01 (调用茶吧感应灯关的按键)
2024-09-12 23:04:03.070 - 1A AA AA AA 88 FF 00 01 FF 00 01 0F (调光器地址-茶吧灯带, 茶吧灯带关闭)
2024-09-12 23:04:22.684 - FF
