2024-09-03 12:17:39.898 - 1A FF FF FF 04 (继电器地址-东阳衣架)
2024-09-03 12:17:40.035 - 00
2024-09-03 14:12:03.031 - FF
2024-09-03 14:20:41.136 - 1A BE B0 DC 04 FF (继电器地址-西阳窗帘)
2024-09-03 14:20:41.265 - FF
2024-09-03 14:20:50.050 - FF FF FF FF 0E (继电器地址-西阳小窗帘)
2024-09-03 14:20:50.178 - FF
2024-09-03 14:21:37.983 - 1A BE B0 DC 09 (继电器地址-客厅窗帘)
2024-09-03 14:21:38.111 - FE
2024-09-03 14:22:52.038 - 1A BE B0 DC 02 (正反转地址-外卫卷帘)
2024-09-03 14:22:59.167 - 1A BE B0 DC 0A (继电器地址-客厅纱帘)
2024-09-03 14:22:59.299 - FE
2024-09-03 14:23:36.606 - 1A BE B0 DC 01 (继电器地址-回水泵点动)
2024-09-03 14:23:36.733 - FF
2024-09-03 14:23:44.068 - 1A BE B0 DC 03 (继电器地址-西阳天幕)
2024-09-03 14:23:44.197 - FE
2024-09-03 14:27:17.890 - FF FF FF FF 0A (继电器地址-东阳窗帘)
2024-09-03 14:27:18.026 - FF
2024-09-03 15:38:53.611 - 1A FF FF FF 04 FE (继电器地址-东阳衣架)
2024-09-03 15:38:53.750 - 03
2024-09-03 17:38:46.636 - C0 2E
2024-09-03 17:38:46.636 - 00 00 FE
2024-09-03 17:40:41.334 - 1A BE B0 DC 04 FE (继电器地址-西阳窗帘)
2024-09-03 17:40:41.469 - FF
2024-09-03 17:40:54.048 - FF FF FF FF 0E FC (继电器地址-西阳小窗帘)
2024-09-03 17:40:54.183 - FF
2024-09-03 17:42:01.997 - 1A BE B0 DC 09 FC (继电器地址-客厅窗帘)
2024-09-03 17:42:02.127 - FF
2024-09-03 17:43:24.073 - 1A BE B0 DC 02 (正反转地址-外卫卷帘)
2024-09-03 17:43:24.204 - FF
2024-09-03 17:43:32.609 - 1A BE B0 DC 0A FD (继电器地址-客厅纱帘)
2024-09-03 17:44:29.877 - 1A BE B0 DC 01 FC (继电器地址-回水泵点动)
2024-09-03 17:44:41.616 - 1A BE B0 DC 03 FC (继电器地址-西阳天幕)
2024-09-03 17:44:41.759 - FF
2024-09-03 17:51:16.359 - FF FF FF FF 0A (继电器地址-东阳窗帘)
2024-09-03 17:51:16.503 - FE
2024-09-03 17:52:49.849 - EE 00 00 B1 00 00 00 FF FC FF FF (情景执行提示)
2024-09-03 17:52:50.455 - 09 06 00 0F 02 01 78 21 (提示音叮)
2024-09-03 17:52:50.997 - A1 11 11 11 40 (客厅空调自动开)
2024-09-03 17:52:51.224 - 19 08 24 03 F0 BB 78 02 02 00
2024-09-03 17:52:51.275 - 23 AA 56 02 11 35 20 18 09 03 02 73 65 6F 6B 65 6E 64
2024-09-03 17:52:52.228 - 01 10 07 D0 00 03 06 70 61 00 02 00 FA 6F 26 (客厅空调冷25度)
2024-09-03 17:52:52.279 - 01 10 07 D0 00 03 06 70 61 00 02 00 FA 6F 26 (客厅空调冷25度)
2024-09-03 17:52:55.033 - A1 11 11 11 41 (餐厅空调自动开)
2024-09-03 17:52:55.257 - 19 08 24 03 F0 BB 78 02 02 00
2024-09-03 17:52:55.305 - 23 AA 56 02 11 35 24 18 09 03 02 73 65 6F 6B 65 6E 64
2024-09-03 17:52:56.262 - 01 10 07 D3 00 03 06 70 61 00 02 00 FA 9F 29 (餐厅空调冷25度)
2024-09-03 17:52:56.309 - 01 10 07 D3 00 03 06 70 61 00 02 00 FA 9F 29 (餐厅空调冷25度)
2024-09-03 17:52:59.069 - A1 11 11 11 42 (主卧空调自动开)
2024-09-03 17:52:59.303 - 19 08 24 03 F0 BB 78 02 02 00
2024-09-03 17:52:59.354 - 23 AA 56 02 11 35 28 18 09 03 02 73 65 6F 6B 65 6E 64
2024-09-03 17:53:00.313 - 01 10 07 D6 00 03 06 70 61 00 02 00 F0 0F 3E (主卧空调冷24度)
2024-09-03 17:53:00.344 - 01 10 07 D6 00 03 06 70 61 00 02 00 F0 0F 3E (主卧空调冷24度)
2024-09-03 17:53:01.158 - 09 06 00 0F 02 02 38 20 (提示音咚)
2024-09-03 17:53:01.769 - EE 00 00 B1 00 00 02 FF FC FF FF (情景完成返回主页)
2024-09-03 18:06:31.910 - 1B 03 00 00 00 02 C6 31 (查询室外光线)
2024-09-03 18:06:31.936 - 1B 03 04 00 00 00 0C 41 F7 (室外光线返回)
2024-09-03 18:06:32.255 - 1A EC A0 DC 02 00 00 01 0F (自保持开关地址-天花12V供电, 天花12V 供电开)
2024-09-03 18:06:32.766 - 1A AA AA AA 88 (调光器地址-茶吧灯带)
2024-09-03 18:06:32.958 - 1A FF 01 FF FF FF 60 01 FF 60 01 FF 00 00 0F (调光器地址-公共区域统配地址)
2024-09-03 18:06:33.952 - 19 08 24 03 DD 00 0D 00 01 (调用情景-信科调用进门暗)
2024-09-03 18:06:36.009 - 1A FF 01 FF FF FF 60 01 FF 60 01 FF 00 00 0F (调光器地址-公共区域统配地址)
2024-09-03 18:06:38.094 - 1A EC A0 DC 01 00 00 01 0F (自保持开关地址-电视、设备12V供电, 12V 电视供电开)
2024-09-03 18:06:38.636 - 1A EC A0 DC 01 00 00 01 0F (自保持开关地址-电视、设备12V供电, 12V 电视供电开)
2024-09-03 18:06:39.194 - 1A EC A0 DC 04 00 01 01 0F (自保持开关地址-次卧西阳内外卫供电, 内卫外卫开)
2024-09-03 18:06:39.737 - 1A EC A0 DC 04 00 01 01 0F (自保持开关地址-次卧西阳内外卫供电, 内卫外卫开)
2024-09-03 18:06:44.777 - 1A 27 89 12 AA 00 00 01 0F (状态寄存器地址, 有人状态)
2024-09-03 18:06:45.330 - 1A 27 89 12 AA 00 00 01 0F (状态寄存器地址, 有人状态)
2024-09-03 18:06:45.875 - 1A BE B0 DC 01 00 01 00 (继电器地址-回水泵点动, 回水泵点动)
2024-09-03 18:06:46.422 - 1A FF FF FF 56 00 00 01 0F (人体感应地址-内卫, 打开内卫感应)
2024-09-03 18:06:46.964 - 1A FF FF FF 55 00 00 01 0F (人体感应地址-外卫, 打开外卫感应)
2024-09-03 18:06:47.065 - BC BC
2024-09-03 18:06:47.522 - 1A FF FF FF 57 00 00 01 0F (人体感应地址-厨房, 打开厨房感应)
2024-09-03 18:06:48.119 - 1A FF FF FF 58 00 00 01 0F (人体感应地址-茶吧, 打开茶吧感应)
2024-09-03 18:06:48.170 - BC BC
2024-09-03 18:06:48.715 - 1A BE B0 DC 01 00 01 00 (继电器地址-回水泵点动, 回水泵点动)
2024-09-03 18:06:49.262 - A5 00 B7 FF 00 AA 22 0D (书房纱帘关)
2024-09-03 18:06:49.804 - A5 00 A2 FF 00 AA (餐厅纱帘关)
2024-09-03 18:06:50.361 - 09 06 00 0F 02 01 78 21 (提示音叮)
2024-09-03 18:06:50.908 - 09 06 00 0F 02 01 78 21 (提示音叮)
2024-09-03 18:06:51.461 - EE 00 00 B1 00 00 02 FF FC FF FF (情景完成返回主页)
2024-09-03 18:06:52.052 - A1 11 11 11 50 (天花供电打开确认)
2024-09-03 18:06:52.275 - 1A EC A0 DC 02 86 86 86 0F (查询天花供电状态, 自保持开关地址-天花12V供电)
2024-09-03 18:06:52.710 - 1A EC A0 DC 02 01 01 0F (自保持开关地址-天花12V供电)
2024-09-03 18:06:54.590 - A1 11 11 11 51 (卫生供电打开确认)
2024-09-03 18:06:54.813 - 1A EC A0 DC 04 86 86 86 0F (查询卫生间供电状态, 自保持开关地址-次卧西阳内外卫供电)
2024-09-03 18:06:55.245 - 1A EC A0 DC 04 01 01 0F (自保持开关地址-次卧西阳内外卫供电)
2024-09-03 18:06:57.130 - A1 11 11 11 52 (电视供电打开确认)
2024-09-03 18:06:57.352 - 1A EC A0 DC 01 86 86 86 0F (查询电视供电状态, 自保持开关地址-电视、设备12V供电)
2024-09-03 18:06:57.797 - 1A EC A0 DC 01 01 01 0F (自保持开关地址-电视、设备12V供电)
2024-09-03 18:06:58.562 - 19 08 24 03 CC 01 54 00 01 (调用内卫感应灯开的按键)
2024-09-03 18:06:58.610 - 1A 0C 02 08 01 FF 45 01 FF 45 01 FF 00 00 0F (调光器地址-内卫射灯, 内卫射灯微光)
2024-09-03 18:07:02.167 - A1 11 11 11 47 (天热回家开帘)
2024-09-03 18:07:02.390 - 1A 27 89 12 AA 86 86 86 0F (查询寄存器状态, 状态寄存器地址)
2024-09-03 18:07:02.777 - 1A 27 89 12 AA 01 00 00 00 00 00 00 00 00 00 00 01 00 00 00 00 0F (状态寄存器地址)
2024-09-03 18:07:03.395 - 19 08 24 03 DD 00 06 00 01 (调用情景-天热遮阳开帘)
2024-09-03 18:07:03.969 - EE 00 00 B1 00 00 00 FF FC FF FF (情景执行提示)
2024-09-03 18:07:04.561 - 09 06 00 0F 02 01 78 21 (提示音叮)
2024-09-03 18:07:05.105 - A5 00 A6 FE 01 AA (餐厅窗帘开)
2024-09-03 18:07:05.165 - 55 00 A6 02 01 67 01 75 AA 55 00 A6 02 01 67 01 75 FA (餐厅窗帘电机状态返回)
2024-09-03 18:07:06.202 - A5 00 52 FE 01 AA (主卧窗帘开)
2024-09-03 18:07:07.249 - A5 00 53 FF 00 AA (主卧纱帘开)
2024-09-03 18:07:07.303 - 55 00 53 01 00 0C 02 30 AA 55 00 53 01 00 0C 02 30 AA (主卧纱帘电机状态返回)
2024-09-03 18:07:08.340 - A5 00 76 FE 01 AA (次卧窗帘开)
2024-09-03 18:07:08.403 - 55 00 76 02 01 0E 01 1B AA 55 00 76 02 01 0E 01 1B AA (次卧窗帘电机状态返回)
2024-09-03 18:07:09.443 - A5 00 21 FE 01 AA (次卧纱帘开)
2024-09-03 18:07:09.494 - 55 00 21 02 01 27 01 34 AA 55 00 21 02 01 27 01 34 EA (次卧纱帘电机状态返回)
2024-09-03 18:07:10.541 - 1A BE B0 DC 04 00 01 00 (继电器地址-西阳窗帘, 西阳窗帘开)
2024-09-03 18:07:11.657 - FF FF FF FF 0E 00 01 00 (继电器地址-西阳小窗帘, 西阳小窗帘开)
2024-09-03 18:07:12.728 - A5 00 D2 FE 01 AA 22 0D (书房窗帘开)
2024-09-03 18:07:12.777 - 55 00 D2 02 00 E5 00 F2 AA 55 00 D2 02 00 E5 00 F2 AA (书房窗帘电机状态返回)
2024-09-03 18:07:13.832 - 09 06 00 0F 02 02 38 20 (提示音咚)
2024-09-03 18:07:14.376 - EE 00 00 B1 00 00 02 FF FC FF FF (情景完成返回主页)
2024-09-03 18:07:15.279 - 55 00 76 00 00 0E 01 1B AA 55 00 76 00 00 0E 01 1B AA (次卧窗帘电机状态返回)
2024-09-03 18:07:16.906 - 55 00 21 00 00 0D 01 34 AA 55 00 21 00 00 0D 01 34 AA (次卧纱帘电机状态返回)
2024-09-03 18:07:17.306 - FF
2024-09-03 18:07:18.996 - 55 00 53 00 02 22 02 30 AA 55 00 53 00 02 22 02 30 AA (主卧纱帘电机状态返回)
2024-09-03 18:07:20.144 - 55 00 D2 01 00 0D 00 F2 AA 55 00 D2 01 00 0D 00 F2 AA (书房窗帘电机状态返回)
2024-09-03 18:07:24.225 - 19 08 24 03 CC 00 D3 00 01 (调用厨房感应灯开的按键)
2024-09-03 18:07:24.275 - 55 0A 32 00 00 00 01 92 55 0A 32 00 00 00 02 93 (厨房顶灯一开, 厨房顶灯二开)
2024-09-03 18:07:25.153 - 55 00 D2 00 00 0E 00 F2 AA 55 00 D2 00 00 0E 00 F2 AA (书房窗帘电机状态返回)
2024-09-03 18:07:38.290 - 19 08 24 03 CC 01 CC 00 01 (调用茶吧感应灯开的按键)
2024-09-03 18:07:38.329 - 1A AA AA AA 88 FF B0 01 FF B0 01 0F (调光器地址-茶吧灯带, 茶吧灯带明亮)
2024-09-03 18:07:51.170 - 19 08 24 03 CC 01 55 00 01 (调用内卫感应灯关的按键)
2024-09-03 18:07:51.202 - 1A 0C 02 08 01 FF 00 01 FF 00 01 FF 00 00 0F (调光器地址-内卫射灯, 内卫感应灯关)
2024-09-03 18:08:06.342 - 19 08 24 03 CC 01 CD 00 01 (调用茶吧感应灯关的按键)
2024-09-03 18:08:06.374 - 1A AA AA AA 88 FF 00 01 FF 00 01 0F (调光器地址-茶吧灯带, 茶吧灯带关闭)
2024-09-03 18:09:30.359 - 19 08 24 03 CC 01 54 00 01 (调用内卫感应灯开的按键)
2024-09-03 18:09:30.405 - 1A 0C 02 08 01 FF 45 01 FF 45 01 FF 00 00 0F (调光器地址-内卫射灯, 内卫射灯微光)
2024-09-03 18:09:43.031 - 19 08 24 03 CC 01 CC 00 01 (调用茶吧感应灯开的按键)
2024-09-03 18:09:43.065 - 1A AA AA AA 88 FF B0 01 FF B0 01 0F (调光器地址-茶吧灯带, 茶吧灯带明亮)
2024-09-03 18:09:56.418 - 19 08 24 03 CC 01 55 00 01 (调用内卫感应灯关的按键)
2024-09-03 18:09:56.457 - 1A 0C 02 08 01 FF 00 01 FF 00 01 FF 00 00 0F (调光器地址-内卫射灯, 内卫感应灯关)
2024-09-03 18:10:12.591 - 19 08 24 03 CC 01 CD 00 01 (调用茶吧感应灯关的按键)
2024-09-03 18:10:12.616 - 1A AA AA AA 88 FF 00 01 FF 00 01 0F (调光器地址-茶吧灯带, 茶吧灯带关闭)
2024-09-03 18:11:32.248 - 19 08 24 03 CC 01 CC 00 01 (调用茶吧感应灯开的按键)
2024-09-03 18:11:32.280 - 1A AA AA AA 88 FF B0 01 FF B0 01 0F (调光器地址-茶吧灯带, 茶吧灯带明亮)
2024-09-03 18:11:44.274 - 19 08 24 03 CC 01 CD 00 01 (调用茶吧感应灯关的按键)
2024-09-03 18:11:44.301 - 1A AA AA AA 88 FF 00 01 FF 00 01 0F (调光器地址-茶吧灯带, 茶吧灯带关闭)
2024-09-03 18:17:30.445 - 19 08 24 03 CC 01 CC 00 01 (调用茶吧感应灯开的按键)
2024-09-03 18:17:30.479 - 1A AA AA AA 88 FF B0 01 FF B0 01 0F (调光器地址-茶吧灯带, 茶吧灯带明亮)
2024-09-03 18:17:59.015 - 19 08 24 03 CC 01 CD 00 01 (调用茶吧感应灯关的按键)
2024-09-03 18:17:59.044 - 1A AA AA AA 88 FF 00 01 FF 00 01 0F (调光器地址-茶吧灯带, 茶吧灯带关闭)
2024-09-03 18:18:28.574 - 19 08 24 03 CC 01 CC 00 01 (调用茶吧感应灯开的按键)
2024-09-03 18:18:28.590 - 1A AA AA AA 88 FF B0 01 FF B0 01 0F (调光器地址-茶吧灯带, 茶吧灯带明亮)
2024-09-03 18:18:45.596 - 19 08 24 03 CC 01 CD 00 01 (调用茶吧感应灯关的按键)
2024-09-03 18:18:45.630 - 1A AA AA AA 88 FF 00 01 FF 00 01 0F (调光器地址-茶吧灯带, 茶吧灯带关闭)
2024-09-03 18:20:50.346 - 19 08 24 03 CC 01 CC 00 01 (调用茶吧感应灯开的按键)
2024-09-03 18:20:50.378 - 1A AA AA AA 88 FF B0 01 FF B0 01 0F (调光器地址-茶吧灯带, 茶吧灯带明亮)
2024-09-03 18:21:08.883 - 19 08 24 03 CC 01 CD 00 01 (调用茶吧感应灯关的按键)
2024-09-03 18:21:08.917 - 1A AA AA AA 88 FF 00 01 FF 00 01 0F (调光器地址-茶吧灯带, 茶吧灯带关闭)
2024-09-03 18:25:19.882 - 19 08 24 03 CC 01 CC 00 01 (调用茶吧感应灯开的按键)
2024-09-03 18:25:19.913 - 1A AA AA AA 88 FF B0 01 FF B0 01 0F (调光器地址-茶吧灯带, 茶吧灯带明亮)
2024-09-03 18:25:34.413 - 19 08 24 03 CC 01 CD 00 01 (调用茶吧感应灯关的按键)
2024-09-03 18:25:34.444 - 1A AA AA AA 88 FF 00 01 FF 00 01 0F (调光器地址-茶吧灯带, 茶吧灯带关闭)
2024-09-03 18:26:19.503 - 19 08 24 03 CC 01 CC 00 01 (调用茶吧感应灯开的按键)
2024-09-03 18:26:19.524 - 1A AA AA AA 88 FF B0 01 FF B0 01 0F (调光器地址-茶吧灯带, 茶吧灯带明亮)
2024-09-03 18:27:23.623 - 19 08 24 03 CC 01 CD 00 01 (调用茶吧感应灯关的按键)
2024-09-03 18:27:23.657 - 1A AA AA AA 88 FF 00 01 FF 00 01 0F (调光器地址-茶吧灯带, 茶吧灯带关闭)
2024-09-03 18:28:54.301 - 19 08 24 03 CC 01 CC 00 01 (调用茶吧感应灯开的按键)
2024-09-03 18:28:54.335 - 1A AA AA AA 88 FF B0 01 FF B0 01 0F (调光器地址-茶吧灯带, 茶吧灯带明亮)
2024-09-03 18:29:10.831 - 19 08 24 03 CC 01 CD 00 01 (调用茶吧感应灯关的按键)
2024-09-03 18:29:10.865 - 1A AA AA AA 88 FF 00 01 FF 00 01 0F (调光器地址-茶吧灯带, 茶吧灯带关闭)
2024-09-03 18:31:03.564 - 19 08 24 03 CC 01 CC 00 01 (调用茶吧感应灯开的按键)
2024-09-03 18:31:03.592 - 1A AA AA AA 88 FF B0 01 FF B0 01 0F (调光器地址-茶吧灯带, 茶吧灯带明亮)
2024-09-03 18:31:15.582 - 19 08 24 03 CC 01 CD 00 01 (调用茶吧感应灯关的按键)
2024-09-03 18:31:15.616 - 1A AA AA AA 88 FF 00 01 FF 00 01 0F (调光器地址-茶吧灯带, 茶吧灯带关闭)
2024-09-03 18:31:32.611 - 19 08 24 03 CC 01 CC 00 01 (调用茶吧感应灯开的按键)
2024-09-03 18:31:32.644 - 1A AA AA AA 88 FF B0 01 FF B0 01 0F (调光器地址-茶吧灯带, 茶吧灯带明亮)
2024-09-03 18:31:47.146 - 19 08 24 03 CC 01 CD 00 01 (调用茶吧感应灯关的按键)
2024-09-03 18:31:47.180 - 1A AA AA AA 88 FF 00 01 FF 00 01 0F (调光器地址-茶吧灯带, 茶吧灯带关闭)
2024-09-03 18:31:51.654 - 19 08 24 03 CC 01 CC 00 01 (调用茶吧感应灯开的按键)
2024-09-03 18:31:51.688 - 1A AA AA AA 88 FF B0 01 FF B0 01 0F (调光器地址-茶吧灯带, 茶吧灯带明亮)
2024-09-03 18:32:15.700 - 19 08 24 03 CC 01 CD 00 01 (调用茶吧感应灯关的按键)
2024-09-03 18:32:15.734 - 1A AA AA AA 88 FF 00 01 FF 00 01 0F (调光器地址-茶吧灯带, 茶吧灯带关闭)
2024-09-03 18:32:18.201 - 19 08 24 03 CC 01 CC 00 01 (调用茶吧感应灯开的按键)
2024-09-03 18:32:18.233 - 1A AA AA AA 88 FF B0 01 FF B0 01 0F (调光器地址-茶吧灯带, 茶吧灯带明亮)
2024-09-03 18:32:51.223 - 19 08 24 03 CC 00 D4 00 01 (调用厨房感应灯关的按键)
2024-09-03 18:32:51.257 - 55 0A 31 00 00 00 01 91 55 0A 31 00 00 00 02 92 (厨房顶灯一关, 厨房顶灯二关)
2024-09-03 18:33:02.794 - 19 08 24 03 CC 01 CD 00 01 (调用茶吧感应灯关的按键)
2024-09-03 18:33:02.826 - 1A AA AA AA 88 FF 00 01 FF 00 01 0F (调光器地址-茶吧灯带, 茶吧灯带关闭)
2024-09-03 18:50:51.907 - 19 08 24 03 CC 01 CC 00 01 (调用茶吧感应灯开的按键)
2024-09-03 18:50:51.941 - 1A AA AA AA 88 FF B0 01 FF B0 01 0F (调光器地址-茶吧灯带, 茶吧灯带明亮)
2024-09-03 18:51:01.430 - 19 08 24 03 CC 01 CD 00 01 (调用茶吧感应灯关的按键)
2024-09-03 18:51:01.452 - 1A AA AA AA 88 FF 00 01 FF 00 01 0F (调光器地址-茶吧灯带, 茶吧灯带关闭)
2024-09-03 19:00:45.322 - 1A FF FF FF 04 (继电器地址-东阳衣架)
2024-09-03 19:00:45.466 - 03
2024-09-03 19:07:11.839 - 19 08 24 03 CC 01 CC 00 01 (调用茶吧感应灯开的按键)
2024-09-03 19:07:11.890 - 1A AA AA AA 88 FF B0 01 FF B0 01 0F (调光器地址-茶吧灯带, 茶吧灯带明亮)
2024-09-03 19:07:14.781 - 19 08 24 03 CC 00 D3 00 01 (调用厨房感应灯开的按键)
2024-09-03 19:07:14.831 - 55 0A 32 00 00 00 01 92 55 0A 32 00 00 00 02 93 (厨房顶灯一开, 厨房顶灯二开)
2024-09-03 19:07:32.884 - 19 08 24 03 CC 01 CD 00 01 (调用茶吧感应灯关的按键)
2024-09-03 19:07:32.915 - 1A AA AA AA 88 FF 00 01 FF 00 01 0F (调光器地址-茶吧灯带, 茶吧灯带关闭)
2024-09-03 19:08:14.974 - 19 08 24 03 CC 01 CC 00 01 (调用茶吧感应灯开的按键)
2024-09-03 19:08:14.991 - 1A AA AA AA 88 FF B0 01 FF B0 01 0F (调光器地址-茶吧灯带, 茶吧灯带明亮)
2024-09-03 19:08:47.027 - 19 08 24 03 CC 01 CD 00 01 (调用茶吧感应灯关的按键)
2024-09-03 19:08:47.061 - 1A AA AA AA 88 FF 00 01 FF 00 01 0F (调光器地址-茶吧灯带, 茶吧灯带关闭)
2024-09-03 19:08:48.030 - 19 08 24 03 CC 01 CC 00 01 (调用茶吧感应灯开的按键)
2024-09-03 19:08:48.065 - 1A AA AA AA 88 FF B0 01 FF B0 01 0F (调光器地址-茶吧灯带, 茶吧灯带明亮)
2024-09-03 19:09:42.640 - 19 08 24 03 CC 01 CD 00 01 (调用茶吧感应灯关的按键)
2024-09-03 19:09:42.674 - 1A AA AA AA 88 FF 00 01 FF 00 01 0F (调光器地址-茶吧灯带, 茶吧灯带关闭)
2024-09-03 19:09:48.652 - 19 08 24 03 CC 01 CC 00 01 (调用茶吧感应灯开的按键)
2024-09-03 19:09:48.684 - 1A AA AA AA 88 FF B0 01 FF B0 01 0F (调光器地址-茶吧灯带, 茶吧灯带明亮)
2024-09-03 19:10:00.056 - 19 08 24 03 CC 01 52 00 01 (调用外卫感应灯开的按键)
2024-09-03 19:10:00.090 - 1A 0D 01 07 01 FF 45 01 FF 45 01 FF 00 00 0F (调光器地址-外卫射灯, 外卫感应灯开)
2024-09-03 19:10:02.184 - 19 08 24 03 CC 01 CD 00 01 (调用茶吧感应灯关的按键)
2024-09-03 19:10:02.210 - 1A AA AA AA 88 FF 00 01 FF 00 01 0F (调光器地址-茶吧灯带, 茶吧灯带关闭)
2024-09-03 19:10:16.713 - 19 08 24 03 CC 01 CC 00 01 (调用茶吧感应灯开的按键)
2024-09-03 19:10:16.744 - 1A AA AA AA 88 FF B0 01 FF B0 01 0F (调光器地址-茶吧灯带, 茶吧灯带明亮)
2024-09-03 19:10:42.642 - 19 08 24 03 CC 01 53 00 01 (调用外卫感应灯关的按键)
2024-09-03 19:10:42.674 - 1A 0D 01 07 01 FF 00 01 FF 00 01 FF 00 00 0F (调光器地址-外卫射灯, 外卫感应灯关)
2024-09-03 19:10:42.754 - 10 2E
2024-09-03 19:10:42.765 - CD 00 01
2024-09-03 19:11:32.855 - 19 08 24 03 CC 01 CC 00 01 (调用茶吧感应灯开的按键)
2024-09-03 19:11:32.889 - 1A AA AA AA 88 FF B0 01 FF B0 01 0F (调光器地址-茶吧灯带, 茶吧灯带明亮)
2024-09-03 19:11:44.879 - 19 08 24 03 CC 01 CD 00 01 (调用茶吧感应灯关的按键)
2024-09-03 19:11:44.912 - 1A AA AA AA 88 FF 00 01 FF 00 01 0F (调光器地址-茶吧灯带, 茶吧灯带关闭)
2024-09-03 19:12:10.437 - 19 08 24 03 CC 01 CC 00 01 (调用茶吧感应灯开的按键)
2024-09-03 19:12:10.485 - 1A AA AA AA 88 FF B0 01 FF B0 01 0F (调光器地址-茶吧灯带, 茶吧灯带明亮)
2024-09-03 19:12:29.849 - 19 08 24 03 CC 01 52 00 01 (调用外卫感应灯开的按键)
2024-09-03 19:12:29.883 - 1A 0D 01 07 01 FF 45 01 FF 45 01 FF 00 00 0F (调光器地址-外卫射灯, 外卫感应灯开)
2024-09-03 19:12:33.981 - 19 08 24 03 CC 01 CD 00 01 (调用茶吧感应灯关的按键)
2024-09-03 19:12:34.015 - 1A AA AA AA 88 FF 00 01 FF 00 01 0F (调光器地址-茶吧灯带, 茶吧灯带关闭)
2024-09-03 19:12:35.411 - 19 08 24 03 CC 00 D4 00 01 (调用厨房感应灯关的按键)
2024-09-03 19:12:35.444 - 55 0A 31 00 00 00 01 91 55 0A 31 00 00 00 02 92 (厨房顶灯一关, 厨房顶灯二关)
2024-09-03 19:13:28.470 - 19 08 24 03 CC 01 53 00 01 (调用外卫感应灯关的按键)
2024-09-03 19:13:28.504 - 1A 0D 01 07 01 FF 00 01 FF 00 01 FF 00 00 0F (调光器地址-外卫射灯, 外卫感应灯关)
2024-09-03 19:13:39.613 - 19 08 24 03 CC 01 CC 00 01 (调用茶吧感应灯开的按键)
2024-09-03 19:13:39.643 - 1A AA AA AA 88 FF B0 01 FF B0 01 0F (调光器地址-茶吧灯带, 茶吧灯带明亮)
2024-09-03 19:13:52.068 - 19 08 24 03 CC 00 D3 00 01 (调用厨房感应灯开的按键)
2024-09-03 19:13:52.100 - 55 0A 32 00 00 00 01 92 55 0A 32 00 00 00 02 93 (厨房顶灯一开, 厨房顶灯二开)
2024-09-03 19:14:09.664 - 19 08 24 03 CC 01 CD 00 01 (调用茶吧感应灯关的按键)
2024-09-03 19:14:09.698 - 1A AA AA AA 88 FF 00 01 FF 00 01 0F (调光器地址-茶吧灯带, 茶吧灯带关闭)
2024-09-03 19:14:47.750 - 19 08 24 03 CC 01 CC 00 01 (调用茶吧感应灯开的按键)
2024-09-03 19:14:47.770 - 1A AA AA AA 88 FF B0 01 FF B0 01 0F (调光器地址-茶吧灯带, 茶吧灯带明亮)
2024-09-03 19:15:01.695 - EE 00 6E B1 01 00 03 FF FC FF FF
2024-09-03 19:15:02.227 - EE 00 6E B1 01 00 08 FF FC FF FF
2024-09-03 19:15:02.652 - 1A BE B0 DC 0A 00 01 00 (继电器地址-客厅纱帘, 客厅纱帘关)
2024-09-03 19:15:03.689 - EE 00 6E B1 01 00 02 FF FC FF FF
2024-09-03 19:15:04.778 - 19 08 24 03 CC 01 CD 00 01 (调用茶吧感应灯关的按键)
2024-09-03 19:15:04.829 - 1A AA AA AA 88 FF 00 01 FF 00 01 0F (调光器地址-茶吧灯带, 茶吧灯带关闭)
2024-09-03 19:15:05.798 - EE 00 6E B1 01 00 03 FF FC FF FF
2024-09-03 19:15:07.634 - EE 00 6E B1 01 00 02 FF FC FF FF
2024-09-03 19:15:08.909 - 19 08 24 03 DD 00 1A 00 01 (调用情景-客厅电视播放)
2024-09-03 19:15:09.465 - EE 00 00 B1 00 00 00 FF FC FF FF (情景执行提示)
2024-09-03 19:15:10.055 - 09 06 00 0F 02 01 78 21 (提示音叮)
2024-09-03 19:15:10.598 - 50 F0 08 (开客厅影视)
2024-09-03 19:15:17.744 - 19 08 24 03 DD 00 42 00 01 (调用情景-主卧电视空调)
2024-09-03 19:15:19.626 - 50 F1 28 (客厅—有线2)
2024-09-03 19:15:20.235 - 09 06 00 0F 02 01 78 21 (提示音叮)
2024-09-03 19:15:20.779 - EE 00 00 B1 00 00 02 FF FC FF FF (情景完成返回主页)
2024-09-03 19:15:30.439 - 1A 20 07 01 55 00 01 02 0F (自保持开关地址-主卧顶灯, 主卧顶灯开关)
2024-09-03 19:15:44.419 - 19 08 24 03 DD 00 42 00 01 (调用情景-主卧电视空调)
2024-09-03 19:15:44.960 - EE 00 00 B1 00 00 00 FF FC FF FF (情景执行提示)
2024-09-03 19:15:45.549 - 09 06 00 0F 02 01 78 21 (提示音叮)
2024-09-03 19:15:46.092 - 50 F0 05 (开主卧影视)
2024-09-03 19:15:46.647 - 50 F0 04 (开内卫影视)
2024-09-03 19:15:47.193 - 1A FF FF FF 56 00 00 00 0F (人体感应地址-内卫, 关闭内卫感应)
2024-09-03 19:15:47.750 - 1A 22 33 62 0F 00 02 01 0F (正反转地址-内卫卷帘, 内卫卷帘降)
2024-09-03 19:15:48.292 - A5 00 53 FE 01 AA (主卧纱帘关)
2024-09-03 19:15:48.347 - 55 00 53 02 02 22 02 30 AA 55 00 53 02 02 22 02 30 AA (主卧纱帘电机状态返回)
2024-09-03 19:15:49.392 - A5 00 52 FF 00 AA (主卧窗帘关)
2024-09-03 19:15:50.444 - 1A 0C 02 04 FF FF 45 01 FF 45 01 FF 00 00 0F (主卧调光微光)
2024-09-03 19:15:54.525 - 1A 0C 02 08 01 FF 45 01 FF 45 01 FF 00 00 0F (调光器地址-内卫射灯, 内卫射灯微光)
2024-09-03 19:15:55.116 - 50 F1 25 (主卧—有线2)
2024-09-03 19:15:55.658 - A1 11 11 11 42 (主卧空调自动开)
2024-09-03 19:15:55.898 - 19 08 24 03 F0 BB 78 02 02 00
2024-09-03 19:15:55.947 - 23 AA 56 02 13 10 25 18 09 03 02 73 65 6F 6B 65 6E 64
2024-09-03 19:15:56.217 - 50 F1 24 (内卫—有线2)
2024-09-03 19:15:56.903 - 01 10 07 D6 00 03 06 70 61 00 02 00 F0 0F 3E (主卧空调冷24度)
2024-09-03 19:15:56.935 - 01 10 07 D6 00 03 06 70 61 00 02 00 F0 0F 3E (主卧空调冷24度)
2024-09-03 19:15:58.260 - AF BF CF DF C2 21 (有线2/快捷-凤凰卫视)
2024-09-03 19:15:59.168 - 55 00 53 00 00 0C 02 30 AA 55 00 53 00 00 0C 02 30 AA (主卧纱帘电机状态返回)
2024-09-03 19:16:00.302 - 1A FF FF FF 60 0B 01 01 0F (红外总线地址-主卧发射设备, 主卧电视电源)
2024-09-03 19:16:01.561 - 55 20 20 00 02 09 02 16 AA 55 20 20 00 02 09 02 16 AA (主卧窗帘电机状态返回)
2024-09-03 19:16:08.329 - 09 06 00 0F 02 02 38 20 (提示音咚)
2024-09-03 19:16:08.883 - EE 00 00 B1 00 00 02 FF FC FF FF (情景完成返回主页)
2024-09-03 19:16:33.038 - FF
2024-09-03 19:16:35.684 - 1A 20 07 01 55 00 01 02 0F (自保持开关地址-主卧顶灯, 主卧顶灯开关)
2024-09-03 19:17:07.018 - 19 08 24 03 CC 01 CC 00 01 (调用茶吧感应灯开的按键)
2024-09-03 19:17:07.069 - 1A AA AA AA 88 FF B0 01 FF B0 01 0F (调光器地址-茶吧灯带, 茶吧灯带明亮)
2024-09-03 19:17:31.070 - 19 08 24 03 CC 01 CD 00 01 (调用茶吧感应灯关的按键)
2024-09-03 19:17:31.102 - 1A AA AA AA 88 FF 00 01 FF 00 01 0F (调光器地址-茶吧灯带, 茶吧灯带关闭)
2024-09-03 19:17:40.589 - 19 08 24 03 CC 01 CC 00 01 (调用茶吧感应灯开的按键)
2024-09-03 19:17:40.621 - 1A AA AA AA 88 FF B0 01 FF B0 01 0F (调光器地址-茶吧灯带, 茶吧灯带明亮)
2024-09-03 19:18:12.642 - 19 08 24 03 CC 01 CD 00 01 (调用茶吧感应灯关的按键)
2024-09-03 19:18:12.676 - 1A AA AA AA 88 FF 00 01 FF 00 01 0F (调光器地址-茶吧灯带, 茶吧灯带关闭)
2024-09-03 19:18:35.692 - 19 08 24 03 CC 01 CC 00 01 (调用茶吧感应灯开的按键)
2024-09-03 19:18:35.725 - 1A AA AA AA 88 FF B0 01 FF B0 01 0F (调光器地址-茶吧灯带, 茶吧灯带明亮)
2024-09-03 19:19:14.770 - 19 08 24 03 CC 01 CD 00 01 (调用茶吧感应灯关的按键)
2024-09-03 19:19:14.804 - 1A AA AA AA 88 FF 00 01 FF 00 01 0F (调光器地址-茶吧灯带, 茶吧灯带关闭)
2024-09-03 19:19:29.805 - 19 08 24 03 CC 01 CC 00 01 (调用茶吧感应灯开的按键)
2024-09-03 19:19:29.826 - 1A AA AA AA 88 FF B0 01 FF B0 01 0F (调光器地址-茶吧灯带, 茶吧灯带明亮)
2024-09-03 19:19:54.856 - 19 08 24 03 CC 01 CD 00 01 (调用茶吧感应灯关的按键)
2024-09-03 19:19:54.881 - 1A AA AA AA 88 FF 00 01 FF 00 01 0F (调光器地址-茶吧灯带, 茶吧灯带关闭)
2024-09-03 19:20:11.325 - 19 08 24 03 CC 00 D4 00 01 (调用厨房感应灯关的按键)
2024-09-03 19:20:11.356 - 55 0A 31 00 00 00 01 91 55 0A 31 00 00 00 02 92 (厨房顶灯一关, 厨房顶灯二关)
2024-09-03 19:54:36.251 - FF
2024-09-03 20:51:25.316 - FF
2024-09-03 20:56:14.268 - 19 08 24 03 CC 01 CC 00 01 (调用茶吧感应灯开的按键)
2024-09-03 20:56:14.316 - 1A AA AA AA 88 FF B0 01 FF B0 01 0F (调光器地址-茶吧灯带, 茶吧灯带明亮)
2024-09-03 20:56:18.168 - 19 08 24 03 CC 00 D3 00 01 (调用厨房感应灯开的按键)
2024-09-03 20:56:18.208 - 55 0A 32 00 00 00 01 92 55 0A 32 00 00 00 02 93 (厨房顶灯一开, 厨房顶灯二开)
2024-09-03 20:56:26.792 - 19 08 24 03 CC 01 CD 00 01 (调用茶吧感应灯关的按键)
2024-09-03 20:56:26.826 - 1A AA AA AA 88 FF 00 01 FF 00 01 0F (调光器地址-茶吧灯带, 茶吧灯带关闭)
2024-09-03 20:56:51.840 - 19 08 24 03 CC 01 CC 00 01 (调用茶吧感应灯开的按键)
2024-09-03 20:56:51.872 - 1A AA AA AA 88 FF B0 01 FF B0 01 0F (调光器地址-茶吧灯带, 茶吧灯带明亮)
2024-09-03 20:57:04.862 - 19 08 24 03 CC 01 CD 00 01 (调用茶吧感应灯关的按键)
2024-09-03 20:57:04.896 - 1A AA AA AA 88 FF 00 01 FF 00 01 0F (调光器地址-茶吧灯带, 茶吧灯带关闭)
2024-09-03 20:57:11.386 - 19 08 24 03 CC 01 CC 00 01 (调用茶吧感应灯开的按键)
2024-09-03 20:57:11.408 - 1A AA AA AA 88 FF B0 01 FF B0 01 0F (调光器地址-茶吧灯带, 茶吧灯带明亮)
2024-09-03 20:57:27.912 - 19 08 24 03 CC 01 CD 00 01 (调用茶吧感应灯关的按键)
2024-09-03 20:57:27.944 - 1A AA AA AA 88 FF 00 01 FF 00 01 0F (调光器地址-茶吧灯带, 茶吧灯带关闭)
2024-09-03 20:57:56.472 - 19 08 24 03 CC 01 CC 00 01 (调用茶吧感应灯开的按键)
2024-09-03 20:57:56.505 - 1A AA AA AA 88 FF B0 01 FF B0 01 0F (调光器地址-茶吧灯带, 茶吧灯带明亮)
2024-09-03 20:58:11.389 - 19 08 24 03 CC 00 D4 00 01 (调用厨房感应灯关的按键)
2024-09-03 20:58:11.423 - 55 0A 31 00 00 00 01 91 55 0A 31 00 00 00 02 92 (厨房顶灯一关, 厨房顶灯二关)
2024-09-03 20:58:15.506 - 19 08 24 03 CC 01 CD 00 01 (调用茶吧感应灯关的按键)
2024-09-03 20:58:15.540 - 1A AA AA AA 88 FF 00 01 FF 00 01 0F (调光器地址-茶吧灯带, 茶吧灯带关闭)
2024-09-03 20:58:49.664 - 1A FF FF FF 60 0B 01 01 0F (红外总线地址-主卧发射设备, 主卧电视电源)
2024-09-03 20:58:50.532 - 1A FF FF FF 60 0B 01 01 0F (红外总线地址-主卧发射设备, 主卧电视电源)
2024-09-03 20:58:50.838 - 1A FF FF FF 60 0B 01 01 0F (红外总线地址-主卧发射设备, 主卧电视电源)
2024-09-03 20:58:56.418 - E0
2024-09-03 20:59:45.263 - 00
2024-09-03 20:59:45.327 - 00
2024-09-03 20:59:53.363 - 1A FF FF FF 60 0B 01 01 0F (红外总线地址-主卧发射设备, 主卧电视电源)
2024-09-03 20:59:54.814 - 1A FF FF FF 60 0B 01 01 0F (红外总线地址-主卧发射设备, 主卧电视电源)
2024-09-03 20:59:55.420 - 1A FF FF FF 60 0B 01 01 0F (红外总线地址-主卧发射设备, 主卧电视电源)
2024-09-03 21:00:03.812 - 1A FF FF FF 60 0B 01 01 0F (红外总线地址-主卧发射设备, 主卧电视电源)
2024-09-03 21:00:15.155 - 1A 20 07 01 55 00 01 02 0F (自保持开关地址-主卧顶灯, 主卧顶灯开关)
2024-09-03 21:02:32.234 - 1A BE B0 DC 04 (继电器地址-西阳窗帘)
2024-09-03 21:02:32.367 - FE
2024-09-03 21:02:37.164 - FF FF FF FF 0E (继电器地址-西阳小窗帘)
2024-09-03 21:02:37.300 - FF
2024-09-03 21:02:55.748 - 1A FF FF FF 60 0B 01 01 0F (红外总线地址-主卧发射设备, 主卧电视电源)
2024-09-03 21:02:57.167 - 1A FF FF FF 60 0B 01 01 0F (红外总线地址-主卧发射设备, 主卧电视电源)
2024-09-03 21:02:58.826 - 1A FF FF FF 60 0B 01 01 0F (红外总线地址-主卧发射设备, 主卧电视电源)
2024-09-03 21:03:00.719 - 1A FF FF FF 60 0B 01 01 0F (红外总线地址-主卧发射设备, 主卧电视电源)
2024-09-03 21:03:01.604 - 1A FF FF FF 60 0B 01 01 0F (红外总线地址-主卧发射设备, 主卧电视电源)
2024-09-03 21:03:02.200 - 1A FF FF FF 60 0B 01 01 0F (红外总线地址-主卧发射设备, 主卧电视电源)
2024-09-03 21:03:02.577 - 1A FF FF FF 60 0B 01 01 0F (红外总线地址-主卧发射设备, 主卧电视电源)
2024-09-03 21:03:02.816 - 1A FF FF FF 60 0B 01 01 0F (红外总线地址-主卧发射设备, 主卧电视电源)
2024-09-03 21:03:03.629 - 1A FF FF FF 60 0B 01 01 0F (红外总线地址-主卧发射设备, 主卧电视电源)
2024-09-03 21:03:23.267 - 00
2024-09-03 21:03:32.938 - 1A FF FF FF 60 0B 01 01 0F (红外总线地址-主卧发射设备, 主卧电视电源)
2024-09-03 21:03:34.264 - 1A FF FF FF 60 0B 01 01 0F (红外总线地址-主卧发射设备, 主卧电视电源)
2024-09-03 21:03:34.928 - 1A FF FF FF 60 0B 01 01 0F (红外总线地址-主卧发射设备, 主卧电视电源)
2024-09-03 21:03:50.569 - 19 08 24 03 CC 01 92 00 01
2024-09-03 21:03:50.591 - 50 F1 45 (主卧—CH4)
2024-09-03 21:03:54.609 - 19 08 24 03 CC 01 8A 00 01
2024-09-03 21:03:54.631 - 50 F1 25 (主卧—有线2)
2024-09-03 21:04:02.509 - 1A FF FF FF 60 0B 01 01 0F (红外总线地址-主卧发射设备, 主卧电视电源)
2024-09-03 21:04:03.522 - 1A FF FF FF 60 0B 01 01 0F (红外总线地址-主卧发射设备, 主卧电视电源)
2024-09-03 21:04:03.953 - 1A FF FF FF 60 0B 01 01 0F (红外总线地址-主卧发射设备, 主卧电视电源)
2024-09-03 21:04:11.627 - 00
2024-09-03 21:04:15.621 - 00
2024-09-03 21:04:27.589 - 1A FF FF FF 60 0B 01 01 0F (红外总线地址-主卧发射设备, 主卧电视电源)
2024-09-03 21:04:29.265 - 1A FF FF FF 60 0B 01 01 0F (红外总线地址-主卧发射设备, 主卧电视电源)
2024-09-03 21:04:36.665 - 1A FF FF FF 60 0B 01 01 0F (红外总线地址-主卧发射设备, 主卧电视电源)
2024-09-03 21:04:45.193 - 1A BE B0 DC 09 FC (继电器地址-客厅窗帘)
2024-09-03 21:04:45.333 - FF
2024-09-03 21:04:50.764 - 1A FF FF FF 60 0B 01 01 0F (红外总线地址-主卧发射设备, 主卧电视电源)
2024-09-03 21:04:51.836 - 1A FF FF FF 60 0B 01 01 0F (红外总线地址-主卧发射设备, 主卧电视电源)
2024-09-03 21:04:52.519 - 1A FF FF FF 60 0B 01 01 0F (红外总线地址-主卧发射设备, 主卧电视电源)
2024-09-03 21:04:53.240 - 1A FF FF FF 60 0B 01 01 0F (红外总线地址-主卧发射设备, 主卧电视电源)
2024-09-03 21:04:54.193 - 1A FF FF FF 60 0B 01 01 0F (红外总线地址-主卧发射设备, 主卧电视电源)
2024-09-03 21:05:04.728 - 1A FF FF FF 60 0B 01 01 0F (红外总线地址-主卧发射设备, 主卧电视电源)
2024-09-03 21:05:05.870 - 1A FF FF FF 60 0B 01 01 0F (红外总线地址-主卧发射设备, 主卧电视电源)
2024-09-03 21:05:06.983 - 1A FF FF FF 60 0B 01 01 0F (红外总线地址-主卧发射设备, 主卧电视电源)
2024-09-03 21:05:24.711 - 1A FF FF FF 60 0B 01 01 0F (红外总线地址-主卧发射设备, 主卧电视电源)
2024-09-03 21:05:35.353 - 1A FF FF FF 60 0B 01 01 0F (红外总线地址-主卧发射设备, 主卧电视电源)
2024-09-03 21:05:36.389 - 1A FF FF FF 60 0B 01 01 0F (红外总线地址-主卧发射设备, 主卧电视电源)
2024-09-03 21:05:37.216 - 1A FF FF FF 60 0B 01 01 0F (红外总线地址-主卧发射设备, 主卧电视电源)
2024-09-03 21:05:37.584 - 1A FF FF FF 60 0B 01 01 0F (红外总线地址-主卧发射设备, 主卧电视电源)
2024-09-03 21:05:37.839 - 1A FF FF FF 60 0B 01 01 0F (红外总线地址-主卧发射设备, 主卧电视电源)
2024-09-03 21:05:38.141 - 1A FF FF FF 60 0B 01 01 0F (红外总线地址-主卧发射设备, 主卧电视电源)
2024-09-03 21:05:38.380 - 1A FF FF FF 60 0B 01 01 0F (红外总线地址-主卧发射设备, 主卧电视电源)
2024-09-03 21:05:52.144 - 1A BE B0 DC 02 FC (正反转地址-外卫卷帘)
2024-09-03 21:05:52.273 - FF
2024-09-03 21:05:53.922 - 1A BE B0 DC 0A (继电器地址-客厅纱帘)
2024-09-03 21:05:54.059 - FE
2024-09-03 21:07:03.194 - 1A BE B0 DC 01 (继电器地址-回水泵点动)
2024-09-03 21:07:03.337 - FF
2024-09-03 21:08:05.517 - 1A BE B0 DC 03 FE (继电器地址-西阳天幕)
2024-09-03 21:08:05.659 - FF
2024-09-03 21:08:47.787 - 1A FF FF FF 60 0B 01 01 0F (红外总线地址-主卧发射设备, 主卧电视电源)
2024-09-03 21:08:48.313 - F0 0B 01 08
2024-09-03 21:08:49.557 - 1A FF FF FF 60 0B 01 01 0F (红外总线地址-主卧发射设备, 主卧电视电源)
2024-09-03 21:09:03.377 - 1A FF FF FF 60 0B 01 01 0F (红外总线地址-主卧发射设备, 主卧电视电源)
2024-09-03 21:09:03.887 - F0 0B 01 08
2024-09-03 21:11:02.623 - 1A FF FF FF 60 0B 01 01 0F (红外总线地址-主卧发射设备, 主卧电视电源)
2024-09-03 21:11:03.132 - F0 0B 01 08
2024-09-03 21:11:04.297 - 1A FF FF FF 60 0B 01 01 0F (红外总线地址-主卧发射设备, 主卧电视电源)
2024-09-03 21:11:13.762 - 1A FF FF FF 60 0B 01 01 0F (红外总线地址-主卧发射设备, 主卧电视电源)
2024-09-03 21:11:14.273 - F0 0B 01 08
2024-09-03 21:11:40.381 - 19 08 24 03 CC 01 7C 00 01
2024-09-03 21:11:41.509 - 19 08 24 03 CC 01 7C 00 01
2024-09-03 21:11:42.067 - 19 08 24 03 CC 01 7C 00 01
2024-09-03 21:11:49.199 - 1A 20 07 01 40 00 01 01 0F (自保持开关地址-内卫顶灯, 内卫顶灯开)
2024-09-03 21:12:11.867 - 19 08 24 03 CC 01 7C 00 01
2024-09-03 21:12:14.299 - 19 08 24 03 CC 01 7C 00 01
2024-09-03 21:12:27.414 - 1A FF FF FF 60 0B 01 01 0F (红外总线地址-主卧发射设备, 主卧电视电源)
2024-09-03 21:12:27.924 - F0 0B 01 08
2024-09-03 21:12:29.726 - 19 08 24 03 DD 00 42 00 01 (调用情景-主卧电视空调)
2024-09-03 21:12:30.283 - EE 00 00 B1 00 00 00 FF FC FF FF (情景执行提示)
2024-09-03 21:12:30.874 - 09 06 00 0F 02 01 78 21 (提示音叮)
2024-09-03 21:12:31.416 - 50 F0 05 (开主卧影视)
2024-09-03 21:12:31.959 - 50 F0 04 (开内卫影视)
2024-09-03 21:12:32.518 - 1A FF FF FF 56 00 00 00 0F (人体感应地址-内卫, 关闭内卫感应)
2024-09-03 21:12:32.534 - BC BC
2024-09-03 21:12:33.111 - 1A 22 33 62 0F 00 02 01 0F (正反转地址-内卫卷帘, 内卫卷帘降)
2024-09-03 21:12:33.666 - A5 00 53 FE 01 AA (主卧纱帘关)
2024-09-03 21:12:34.710 - A5 00 52 FF 00 AA (主卧窗帘关)
2024-09-03 21:12:35.765 - 1A 0C 02 04 FF FF 45 01 FF 45 01 FF 00 00 0F (主卧调光微光)
2024-09-03 21:12:39.848 - 1A 0C 02 08 01 FF 45 01 FF 45 01 FF 00 00 0F (调光器地址-内卫射灯, 内卫射灯微光)
2024-09-03 21:12:40.435 - 50 F1 25 (主卧—有线2)
2024-09-03 21:12:40.988 - A1 11 11 11 42 (主卧空调自动开)
2024-09-03 21:12:41.209 - 19 08 24 03 F0 BB 78 02 02 00
2024-09-03 21:12:41.264 - 23 AA 56 02 15 0D 16 18 09 03 02 73 65 6F 6B 65 6E 64
2024-09-03 21:12:41.535 - 50 F1 24 (内卫—有线2)
2024-09-03 21:12:42.221 - 01 10 07 D6 00 03 06 70 61 00 02 00 F0 0F 3E (主卧空调冷24度)
2024-09-03 21:12:42.253 - 01 10 07 D6 00 03 06 70 61 00 02 00 F0 0F 3E (主卧空调冷24度)
2024-09-03 21:12:43.578 - AF BF CF DF C2 21 (有线2/快捷-凤凰卫视)
2024-09-03 21:12:45.619 - 1A FF FF FF 60 0B 01 01 0F (红外总线地址-主卧发射设备, 主卧电视电源)
2024-09-03 21:12:53.646 - 09 06 00 0F 02 02 38 20 (提示音咚)
2024-09-03 21:12:54.252 - EE 00 00 B1 00 00 02 FF FC FF FF (情景完成返回主页)
2024-09-03 21:13:08.599 - 1A FF FF FF 60 0B 01 01 0F (红外总线地址-主卧发射设备, 主卧电视电源)
2024-09-03 21:13:09.094 - F0 0B 01 08
2024-09-03 21:13:24.634 - 19 08 24 03 CC 01 7C 00 01
2024-09-03 21:13:27.661 - 19 08 24 03 CC 01 7C 00 01
2024-09-03 21:13:28.933 - 19 08 24 03 CC 01 7C 00 01
2024-09-03 21:13:29.719 - 19 08 24 03 CC 01 7C 00 01
2024-09-03 21:13:31.351 - 19 08 24 03 CC 01 7C 00 01
2024-09-03 21:13:36.863 - 19 08 24 03 CC 01 7C 00 01
2024-09-03 21:13:40.230 - 19 08 24 03 CC 01 7C 00 01
2024-09-03 21:13:41.900 - 19 08 24 03 CC 01 7C 00 01
2024-09-03 21:13:43.854 - 19 08 24 03 CC 01 7C 00 01
2024-09-03 21:14:05.994 - 19 08 24 03 CC 01 7C 00 01
2024-09-03 21:14:08.808 - 19 08 24 03 CC 01 7C 00 01
2024-09-03 21:14:11.243 - 19 08 24 03 CC 01 7C 00 01
2024-09-03 21:14:12.226 - 19 08 24 03 CC 01 7C 00 01
2024-09-03 21:14:15.328 - 19 08 24 03 CC 01 7C 00 01
2024-09-03 21:14:17.783 - 19 08 24 03 CC 01 7C 00 01
2024-09-03 21:14:22.075 - 1A 20 07 01 40 00 01 01 0F (自保持开关地址-内卫顶灯, 内卫顶灯开)
2024-09-03 21:14:22.655 - 1A 20 07 01 40 00 01 00 0F (自保持开关地址-内卫顶灯, 内卫顶灯关)
2024-09-03 21:14:24.491 - 19 08 24 03 CC 01 3E 00 01
2024-09-03 21:14:25.971 - 19 08 24 03 CC 01 3F 00 01
2024-09-03 21:14:29.831 - 19 08 24 03 CC 01 7C 00 01
2024-09-03 21:14:31.447 - 19 08 24 03 CC 01 7C 00 01
2024-09-03 21:14:32.195 - 19 08 24 03 CC 01 7C 00 01
2024-09-03 21:14:32.740 - 19 08 24 03 CC 01 7C 00 01
2024-09-03 21:14:35.751 - 19 08 24 03 CC 01 7C 00 01
2024-09-03 21:14:36.635 - 19 08 24 03 CC 01 7C 00 01
2024-09-03 21:14:37.741 - 19 08 24 03 CC 01 7C 00 01
2024-09-03 21:14:38.171 - 19 08 24 03 CC 01 7C 00 01
2024-09-03 21:14:38.607 - 19 08 24 03 CC 01 7C 00 01
2024-09-03 21:14:38.986 - 19 08 24 03 CC 01 7C 00 01
2024-09-03 21:14:39.382 - 19 08 24 03 CC 01 7C 00 01
2024-09-03 21:14:39.973 - 19 08 24 03 CC 01 7C 00 01
2024-09-03 21:14:40.886 - 19 08 24 03 CC 01 7C 00 01
2024-09-03 21:14:42.468 - 19 08 24 03 CC 01 7C 00 01
2024-09-03 21:14:43.595 - 19 08 24 03 CC 01 7C 00 01
2024-09-03 21:14:45.413 - 19 08 24 03 CC 01 7C 00 01
2024-09-03 21:14:49.884 - 19 08 24 03 CC 01 7C 00 01
2024-09-03 21:15:41.318 - 1A 20 07 01 40 00 01 01 0F (自保持开关地址-内卫顶灯, 内卫顶灯开)
2024-09-03 21:17:11.847 - 19 08 24 03 DD 00 3B 00 01 (调用情景-书房照明关帘)
2024-09-03 21:17:12.362 - EE 00 00 B1 00 00 00 FF FC FF FF (情景执行提示)
2024-09-03 21:17:12.953 - 09 06 00 0F 02 01 78 21 (提示音叮)
2024-09-03 21:17:13.510 - 1A 0A 04 06 01 FF F0 01 FF F0 01 FF 00 00 0F (调光器地址-书房射灯, 书房射灯明亮)
2024-09-03 21:17:17.594 - A5 00 B7 FF 00 AA 22 0D (书房纱帘关)
2024-09-03 21:17:18.635 - A5 00 D2 FF 00 AA 22 0C (书房窗帘关)
2024-09-03 21:17:18.697 - 55 00 D2 01 00 0E 00 F2 AA 55 00 D2 01 00 0E 00 F2 AA (书房窗帘电机状态返回)
2024-09-03 21:17:19.732 - 09 06 00 0F 02 02 38 20 (提示音咚)
2024-09-03 21:17:20.284 - EE 00 00 B1 00 00 02 FF FC FF FF (情景完成返回主页)
2024-09-03 21:17:26.647 - 55 00 D2 00 00 E5 00 F2 AA 55 00 D2 00 00 E5 00 F2 AA (书房窗帘电机状态返回)
2024-09-03 21:18:50.076 - FF FF FF FF 0A FE (继电器地址-东阳窗帘)
2024-09-03 21:18:50.218 - FF
2024-09-03 21:21:56.055 - FF
2024-09-03 21:22:25.374 - FF
2024-09-03 21:22:25.908 - 19 08 24 03 CC 01 CC 00 01 (调用茶吧感应灯开的按键)
2024-09-03 21:22:25.959 - 1A AA AA AA 88 FF B0 01 FF B0 01 0F (调光器地址-茶吧灯带, 茶吧灯带明亮)
2024-09-03 21:22:33.426 - 19 08 24 03 CC 01 CD 00 01 (调用茶吧感应灯关的按键)
2024-09-03 21:22:33.463 - 1A AA AA AA 88 FF 00 01 FF 00 01 0F (调光器地址-茶吧灯带, 茶吧灯带关闭)
2024-09-03 21:32:13.114 - 19 08 24 03 CC 01 7C 00 01
2024-09-03 21:32:14.485 - 19 08 24 03 CC 01 7C 00 01
2024-09-03 21:32:15.171 - 19 08 24 03 CC 01 7C 00 01
2024-09-03 21:32:15.826 - 19 08 24 03 CC 01 7C 00 01
2024-09-03 21:32:16.560 - 19 08 24 03 CC 01 7C 00 01
2024-09-03 21:32:17.153 - 19 08 24 03 CC 01 7C 00 01
2024-09-03 21:32:17.782 - 19 08 24 03 CC 01 7C 00 01
2024-09-03 21:32:19.500 - 19 08 24 03 CC 01 7C 00 01
2024-09-03 21:32:20.786 - 19 08 24 03 CC 01 7C 00 01
2024-09-03 21:32:36.022 - 19 08 24 03 CC 01 7C 00 01
2024-09-03 21:32:37.252 - 19 08 24 03 CC 01 7C 00 01
2024-09-03 21:32:38.229 - 19 08 24 03 CC 01 7C 00 01
2024-09-03 21:32:40.633 - 19 08 24 03 CC 01 7C 00 01
2024-09-03 21:32:42.138 - 19 08 24 03 CC 01 7C 00 01
2024-09-03 21:32:53.415 - 19 08 24 03 CC 01 7C 00 01
2024-09-03 21:32:55.886 - 19 08 24 03 CC 01 7C 00 01
2024-09-03 21:32:57.545 - 19 08 24 03 CC 01 7C 00 01
2024-09-03 21:32:59.108 - 19 08 24 03 CC 01 7C 00 01
2024-09-03 21:33:02.533 - 19 08 24 03 CC 01 7C 00 01
2024-09-03 21:33:04.693 - 19 08 24 03 CC 01 7C 00 01
2024-09-03 21:33:08.861 - 1A 20 07 01 40 00 01 00 0F (自保持开关地址-内卫顶灯, 内卫顶灯关)
2024-09-03 21:33:16.598 - 19 08 24 03 CC 01 7C 00 01
2024-09-03 21:33:19.202 - 19 08 24 03 CC 01 7C 00 01
2024-09-03 21:33:20.547 - 19 08 24 03 CC 01 7C 00 01
2024-09-03 21:33:21.383 - 19 08 24 03 CC 01 7C 00 01
2024-09-03 21:33:26.957 - 19 08 24 03 CC 01 7C 00 01
2024-09-03 21:33:28.557 - 19 08 24 03 CC 01 7C 00 01
2024-09-03 21:33:29.680 - 19 08 24 03 CC 01 7C 00 01
2024-09-03 21:33:30.810 - 19 08 24 03 CC 01 7C 00 01
2024-09-03 21:33:31.976 - 19 08 24 03 CC 01 7C 00 01
2024-09-03 21:33:33.370 - 19 08 24 03 CC 01 7C 00 01
2024-09-03 21:33:34.305 - 19 08 24 03 CC 01 7C 00 01
2024-09-03 21:33:35.721 - 19 08 24 03 CC 01 7C 00 01
2024-09-03 21:33:36.618 - 19 08 24 03 CC 01 7C 00 01
2024-09-03 21:33:37.669 - 19 08 24 03 CC 01 7C 00 01
2024-09-03 21:33:38.931 - 19 08 24 03 CC 01 7C 00 01
2024-09-03 21:33:53.792 - 19 08 24 03 CC 01 7C 00 01
2024-09-03 21:33:55.211 - 19 08 24 03 CC 01 7C 00 01
2024-09-03 21:33:56.330 - 19 08 24 03 CC 01 7C 00 01
2024-09-03 21:34:15.469 - 19 08 24 03 CC 01 4D 00 01
2024-09-03 21:34:16.745 - 19 08 24 03 CC 01 4D 00 01
2024-09-03 21:34:17.973 - 19 08 24 03 CC 01 4D 00 01
2024-09-03 21:34:18.565 - 19 08 24 03 CC 01 4D 00 01
2024-09-03 21:34:19.109 - 19 08 24 03 CC 01 4B 00 01
2024-09-03 21:34:19.909 - 19 08 24 03 CC 01 4D 00 01
2024-09-03 21:34:21.387 - 19 08 24 03 CC 01 4C 00 01
2024-09-03 21:34:22.519 - 19 08 24 03 CC 01 4B 00 01
2024-09-03 21:34:23.620 - 19 08 24 03 CC 01 4B 00 01
2024-09-03 21:34:24.098 - 19 08 24 03 CC 01 4B 00 01
2024-09-03 21:34:24.586 - 19 08 24 03 CC 01 4B 00 01
2024-09-03 21:34:25.471 - 19 08 24 03 CC 01 4B 00 01
2024-09-03 21:34:26.905 - 19 08 24 03 CC 01 4D 00 01
2024-09-03 21:34:28.209 - 19 08 24 03 CC 01 4D 00 01
2024-09-03 21:34:30.019 - 19 08 24 03 CC 01 4D 00 01
2024-09-03 21:34:30.880 - 19 08 24 03 CC 01 4D 00 01
2024-09-03 21:34:31.279 - 19 08 24 03 CC 01 4D 00 01
2024-09-03 21:34:31.764 - 19 08 24 03 CC 01 4C 00 01
2024-09-03 21:34:32.267 - 19 08 24 03 CC 01 4D 00 01
2024-09-03 21:34:33.607 - 19 08 24 03 CC 01 4B 00 01
2024-09-03 21:34:35.880 - 19 08 24 03 CC 01 4D 00 01
2024-09-03 21:34:39.557 - 19 08 24 03 CC 01 4D 00 01
2024-09-03 21:34:40.609 - 19 08 24 03 CC 01 4D 00 01
2024-09-03 21:34:41.422 - 19 08 24 03 CC 01 4D 00 01
2024-09-03 21:34:42.156 - 19 08 24 03 CC 01 4D 00 01
2024-09-03 21:34:43.108 - 19 08 24 03 CC 01 4D 00 01
2024-09-03 21:34:44.622 - 19 08 24 03 CC 01 4D 00 01
2024-09-03 21:34:45.676 - 19 08 24 03 CC 01 4D 00 01
2024-09-03 21:34:46.850 - 19 08 24 03 CC 01 4D 00 01
2024-09-03 21:34:48.314 - 19 08 24 03 CC 01 4D 00 01
2024-09-03 21:34:49.674 - 19 08 24 03 CC 01 4D 00 01
2024-09-03 21:34:50.933 - 19 08 24 03 CC 01 4D 00 01
2024-09-03 21:34:52.260 - 19 08 24 03 CC 01 4B 00 01
2024-09-03 21:34:53.373 - 19 08 24 03 CC 01 4C 00 01
2024-09-03 21:34:54.608 - 19 08 24 03 CC 01 4C 00 01
2024-09-03 21:35:16.041 - 19 08 24 03 CC 01 4D 00 01
2024-09-03 21:35:18.355 - 19 08 24 03 CC 01 4C 00 01
2024-09-03 21:36:01.634 - 19 08 24 03 CC 01 4D 00 01
2024-09-03 21:36:02.990 - 19 08 24 03 CC 01 4C 00 01
2024-09-03 21:36:04.385 - 19 08 24 03 CC 01 4B 00 01
2024-09-03 21:36:05.446 - 19 08 24 03 CC 01 4C 00 01
2024-09-03 21:36:06.561 - 19 08 24 03 CC 01 4C 00 01
2024-09-03 21:36:10.361 - 19 08 24 03 CC 01 7C 00 01
2024-09-03 21:36:12.482 - 19 08 24 03 CC 01 7C 00 01
2024-09-03 21:36:14.285 - 19 08 24 03 CC 01 7C 00 01
2024-09-03 21:36:35.262 - 19 08 24 03 CC 01 7C 00 01
2024-09-03 21:36:36.412 - 19 08 24 03 CC 01 7C 00 01
2024-09-03 21:36:37.296 - 19 08 24 03 CC 01 7C 00 01
2024-09-03 21:36:42.744 - 19 08 24 03 CC 01 4D 00 01
2024-09-03 21:36:44.883 - 19 08 24 03 CC 01 4D 00 01
2024-09-03 21:36:45.970 - 19 08 24 03 CC 01 4C 00 01
2024-09-03 21:36:47.434 - 19 08 24 03 CC 01 4C 00 01
2024-09-03 21:36:48.455 - 19 08 24 03 CC 01 4C 00 01
2024-09-03 21:36:49.429 - 19 08 24 03 CC 01 4C 00 01
2024-09-03 21:36:52.503 - 19 08 24 03 CC 01 7C 00 01
2024-09-03 21:36:53.932 - 19 08 24 03 CC 01 7C 00 01
2024-09-03 21:36:54.952 - 19 08 24 03 CC 01 7C 00 01
2024-09-03 21:36:56.635 - 19 08 24 03 CC 01 7C 00 01
2024-09-03 21:36:59.204 - 19 08 24 03 CC 01 7C 00 01
2024-09-03 21:37:08.405 - 19 08 24 03 CC 01 7C 00 01
2024-09-03 21:37:10.312 - 19 08 24 03 CC 01 7C 00 01
2024-09-03 21:37:12.437 - 19 08 24 03 CC 01 7C 00 01
2024-09-03 21:37:18.654 - 19 08 24 03 CC 01 7C 00 01
2024-09-03 21:37:20.218 - 19 08 24 03 CC 01 7C 00 01
2024-09-03 21:37:20.942 - 19 08 24 03 CC 01 7C 00 01
2024-09-03 21:37:21.997 - 19 08 24 03 CC 01 7C 00 01
2024-09-03 21:37:23.069 - 19 08 24 03 CC 01 7C 00 01
2024-09-03 21:37:27.986 - 19 08 24 03 CC 01 7C 00 01
2024-09-03 21:37:29.263 - 19 08 24 03 CC 01 7C 00 01
2024-09-03 21:37:43.309 - 19 08 24 03 CC 01 7C 00 01
2024-09-03 21:37:45.427 - 19 08 24 03 CC 01 7C 00 01
2024-09-03 21:37:50.738 - 19 08 24 03 CC 01 7C 00 01
2024-09-03 21:37:54.757 - 19 08 24 03 CC 01 7C 00 01
2024-09-03 21:37:56.013 - 19 08 24 03 CC 01 7C 00 01
2024-09-03 21:37:58.955 - 19 08 24 03 CC 01 7C 00 01
2024-09-03 21:38:00.819 - 19 08 24 03 CC 01 7C 00 01
2024-09-03 21:38:07.645 - 1A 20 07 01 55 00 01 02 0F (自保持开关地址-主卧顶灯, 主卧顶灯开关)
2024-09-03 21:38:27.557 - 19 08 24 03 DD 00 3A 00 01 (调用情景-离开书房)
2024-09-03 21:38:28.083 - EE 00 00 B1 00 00 00 FF FC FF FF (情景执行提示)
2024-09-03 21:38:28.674 - 09 06 00 0F 02 01 78 21 (提示音叮)
2024-09-03 21:38:29.233 - 01 06 07 DC FF 60 08 9C (书房空调关)
2024-09-03 21:38:29.249 - 01 06 07 DC FF 60 08 9C (书房空调关)
2024-09-03 21:38:29.823 - 50 F5 07 (关书房影视)
2024-09-03 21:38:30.371 - A5 00 D2 FE 01 AA 22 0D (书房窗帘开)
2024-09-03 21:38:30.429 - 55 00 D2 02 00 E5 00 F2 AA 55 00 D2 02 00 E5 00 F2 (书房窗帘电机状态返回)
2024-09-03 21:38:30.813 - 19 08 24 03 CC 01 CC 00 01 (调用茶吧感应灯开的按键)
2024-09-03 21:38:30.864 - 1A AA AA AA 88 FF B0 01 FF B0 01 0F (调光器地址-茶吧灯带, 茶吧灯带明亮)
2024-09-03 21:38:31.476 - A5 00 B7 FF 00 AA 22 0D (书房纱帘关)
2024-09-03 21:38:32.567 - 55 0D 31 00 00 00 01 94 (书房顶灯只关)
2024-09-03 21:38:33.671 - 1A 0A 04 06 01 FF 00 01 FF 00 01 FF 00 00 0F (调光器地址-书房射灯, 书房射灯关闭)
2024-09-03 21:38:37.278 - 55 00 D2 00 00 0D 00 F2 AA 55 00 D2 00 00 0D 00 F2 AA (书房窗帘电机状态返回)
2024-09-03 21:38:37.755 - 09 06 00 0F 02 02 38 20 (提示音咚)
2024-09-03 21:38:38.299 - EE 00 00 B1 00 00 02 FF FC FF FF (情景完成返回主页)
2024-09-03 21:39:03.222 - 19 08 24 03 CC 00 D3 00 01 (调用厨房感应灯开的按键)
2024-09-03 21:39:03.271 - 55 0A 32 00 00 00 01 92 55 0A 32 00 00 00 02 93 (厨房顶灯一开, 厨房顶灯二开)
2024-09-03 21:39:18.906 - 19 08 24 03 CC 01 CD 00 01 (调用茶吧感应灯关的按键)
2024-09-03 21:39:18.939 - 1A AA AA AA 88 FF 00 01 FF 00 01 0F (调光器地址-茶吧灯带, 茶吧灯带关闭)
2024-09-03 21:39:45.805 - 19 08 24 03 CC 00 D4 00 01 (调用厨房感应灯关的按键)
2024-09-03 21:39:45.837 - 55 0A 31 00 00 00 01 91 55 0A 31 00 00 00 02 92 (厨房顶灯一关, 厨房顶灯二关)
2024-09-03 21:54:23.282 - FF
2024-09-03 22:10:26.396 - 19 08 24 03 DD 00 1B 00 01 (调用情景-外卫使用)
2024-09-03 22:10:26.939 - EE 00 00 B1 00 00 00 FF FC FF FF (情景执行提示)
2024-09-03 22:10:27.532 - 09 06 00 0F 02 01 78 21 (提示音叮)
2024-09-03 22:10:28.087 - 1A BE B0 DC 02 00 01 00 (正反转地址-外卫卷帘, 外卫卷帘降)
2024-09-03 22:10:28.629 - 50 F0 03 (开外卫影视)
2024-09-03 22:10:29.182 - 1A FF FF FF 55 00 00 00 0F (人体感应地址-外卫, 关闭外卫感应)
2024-09-03 22:10:29.730 - 1A 0D 01 07 01 FF 45 01 FF 45 01 FF 00 00 0F (调光器地址-外卫射灯, 外卫感应灯开)
2024-09-03 22:10:31.821 - 1A BE B0 DC 01 00 01 00 (继电器地址-回水泵点动, 回水泵点动)
2024-09-03 22:10:32.873 - 1A BE B0 DC 01 00 01 00 (继电器地址-回水泵点动, 回水泵点动)
2024-09-03 22:10:33.912 - 1A BE B0 DC 01 00 01 00 (继电器地址-回水泵点动, 回水泵点动)
2024-09-03 22:10:34.949 - 50 F1 43 (外卫—CH4)
2024-09-03 22:10:51.958 - A1 11 11 11 11 05 (外卫使用浴霸判断)
2024-09-03 22:10:52.180 - 13 03 00 00 00 02 C7 79 (查询外卫温湿度)
2024-09-03 22:10:52.205 - 13 03 04 01 AE 01 07 E8 7D (外卫温湿度返回)
2024-09-03 22:10:54.009 - 09 06 00 0F 02 02 38 20 (提示音咚)
2024-09-03 22:10:56.052 - EE 00 00 B1 00 00 02 FF FC FF FF (情景完成返回主页)
2024-09-03 22:14:15.244 - FF
2024-09-03 22:22:51.109 - 1A FF FF FF 04 (继电器地址-东阳衣架)
2024-09-03 22:22:51.245 - 03
2024-09-03 22:23:29.568 - FF
2024-09-03 22:24:14.228 - FF
2024-09-03 22:24:48.605 - 19 08 24 03 DD 00 1C 00 01 (调用情景-外卫使用完毕)
2024-09-03 22:24:49.117 - EE 00 00 B1 00 00 00 FF FC FF FF (情景执行提示)
2024-09-03 22:24:49.722 - 09 06 00 0F 02 01 78 21 (提示音叮)
2024-09-03 22:24:50.274 - 1A 0D 01 07 01 FF 00 01 FF 00 01 FF 00 00 0F (调光器地址-外卫射灯, 外卫感应灯关)
2024-09-03 22:24:50.858 - 50 F5 03 (关外卫影视)
2024-09-03 22:24:51.414 - 1A 20 07 00 42 00 01 00 0F (自保持开关地址-外卫顶灯, 外卫顶灯关)
2024-09-03 22:24:51.957 - 1A FF FF FF 55 00 00 01 0F (人体感应地址-外卫, 打开外卫感应)
2024-09-03 22:24:52.059 - BC BC
2024-09-03 22:24:52.365 - 19 08 24 03 CC 01 52 00 01 (调用外卫感应灯开的按键)
2024-09-03 22:24:52.419 - 1A 0D 01 07 01 FF 45 01 FF 45 01 FF 00 00 0F (调光器地址-外卫射灯, 外卫感应灯开)
2024-09-03 22:24:54.811 - 09 06 00 0F 02 02 38 20 (提示音咚)
2024-09-03 22:24:55.410 - EE 00 00 B1 00 00 02 FF FC FF FF (情景完成返回主页)
2024-09-03 22:24:57.825 - 19 08 24 03 CC 01 CC 00 01 (调用茶吧感应灯开的按键)
2024-09-03 22:24:57.859 - 1A AA AA AA 88 FF B0 01 FF B0 01 0F (调光器地址-茶吧灯带, 茶吧灯带明亮)
2024-09-03 22:25:01.077 - 19 08 24 03 CC 01 53 00 01 (调用外卫感应灯关的按键)
2024-09-03 22:25:01.109 - 1A 0D 01 07 01 FF 00 01 FF 00 01 FF 00 00 0F (调光器地址-外卫射灯, 外卫感应灯关)
2024-09-03 22:26:02.284 - 19 08 24 03 CC 00 D3 00 01 (调用厨房感应灯开的按键)
2024-09-03 22:26:02.318 - 55 0A 32 00 00 00 01 92 55 0A 32 00 00 00 02 93 (厨房顶灯一开, 厨房顶灯二开)
2024-09-03 22:26:13.975 - 19 08 24 03 CC 01 CD 00 01 (调用茶吧感应灯关的按键)
2024-09-03 22:26:14.007 - 1A AA AA AA 88 FF 00 01 FF 00 01 0F (调光器地址-茶吧灯带, 茶吧灯带关闭)
2024-09-03 22:26:18.991 - 19 08 24 03 CC 01 CC 00 01 (调用茶吧感应灯开的按键)
2024-09-03 22:26:19.014 - 1A AA AA AA 88 FF B0 01 FF B0 01 0F (调光器地址-茶吧灯带, 茶吧灯带明亮)
2024-09-03 22:27:01.264 - 19 08 24 03 DD 00 13 00 01 (调用情景-公共区域关)
2024-09-03 22:27:01.801 - EE 00 00 B1 00 00 00 FF FC FF FF (情景执行提示)
2024-09-03 22:27:02.391 - 09 06 00 0F 02 01 78 21 (提示音叮)
2024-09-03 22:27:02.937 - 55 0B 31 00 00 00 01 92 (厨房风扇只关)
2024-09-03 22:27:04.036 - 01 06 07 D3 FF 60 38 9F (餐厅空调关)
2024-09-03 22:27:04.070 - 01 06 07 D3 FF 60 38 9F (餐厅空调关)
2024-09-03 22:27:04.920 - 19 08 24 03 CC 00 D4 00 01 (调用厨房感应灯关的按键)
2024-09-03 22:27:04.975 - 55 0A 31 00 00 00 01 91 55 0A 31 00 00 00 02 92 (厨房顶灯一关, 厨房顶灯二关)
2024-09-03 22:27:05.373 - 01 06 07 D0 FF 60 C8 9F (客厅空调关)
2024-09-03 22:27:05.405 - 01 06 07 D0 FF 60 C8 9F (客厅空调关)
2024-09-03 22:27:09.472 - 50 F5 02 (关厨房影视)
2024-09-03 22:27:10.517 - 50 F5 01 (关餐厅影视)
2024-09-03 22:27:11.563 - 50 F5 08 (关客厅影视)
2024-09-03 22:27:12.597 - 19 08 24 03 CC 01 CD 00 01 (调用茶吧感应灯关的按键)
2024-09-03 22:27:12.613 - 50 F5 03 (关外卫影视)
2024-09-03 22:27:12.763 - 1A AA AA AA 88 FF 00 01 FF 00 01 0F (调光器地址-茶吧灯带, 茶吧灯带关闭)
2024-09-03 22:27:14.161 - 55 0A 31 00 00 00 01 91 (厨房顶灯一关)
2024-09-03 22:27:15.198 - 55 0A 31 00 00 00 02 92 (厨房顶灯二关)
2024-09-03 22:27:16.251 - 55 0C 31 00 00 00 01 93 (餐厅顶灯关)
2024-09-03 22:27:17.303 - 1A 18 05 10 31 00 01 00 0F (自保持开关地址-门厅顶灯, 门厅顶灯关)
2024-09-03 22:27:18.342 - 1A 20 07 00 42 00 01 00 0F (自保持开关地址-外卫顶灯, 外卫顶灯关)
2024-09-03 22:27:19.397 - 1A 18 05 21 89 00 01 00 0F (自保持开关地址-客厅顶灯, 客厅顶灯一关)
2024-09-03 22:27:20.434 - 1A 18 05 01 94 00 01 00 0F (自保持开关地址-客厅顶灯, 客厅顶灯二关)
2024-09-03 22:27:21.489 - 1A 20 07 01 30 00 01 00 0F (自保持开关地址-西阳顶灯, 西阳顶灯关)
2024-09-03 22:27:22.537 - 1A FF 01 FF FF FF 00 01 FF 00 01 FF 00 00 0F (调光器地址-公共区域统配地址, 公共区域灯光全关)
2024-09-03 22:27:23.624 - 09 06 00 0F 02 02 38 20 (提示音咚)
2024-09-03 22:27:25.674 - EE 00 00 B1 00 00 02 FF FC FF FF (情景完成返回主页)
2024-09-03 22:27:35.968 - 19 08 24 03 DD 00 4F 00 01 (调用情景-内卫使用完毕)
2024-09-03 22:27:36.478 - EE 00 00 B1 00 00 00 FF FC FF FF (情景执行提示)
2024-09-03 22:27:37.085 - 09 06 00 0F 02 01 78 21 (提示音叮)
2024-09-03 22:27:37.643 - 1A 0C 02 08 01 FF 00 01 FF 00 01 FF 00 00 0F (调光器地址-内卫射灯, 内卫感应灯关)
2024-09-03 22:27:41.719 - 50 F5 04 (关内卫影视)
2024-09-03 22:27:42.270 - 1A 20 07 01 40 00 01 00 0F (自保持开关地址-内卫顶灯, 内卫顶灯关)
2024-09-03 22:27:42.812 - 1A FF FF FF 56 00 00 01 0F (人体感应地址-内卫, 打开内卫感应)
2024-09-03 22:27:42.926 - BC BC
2024-09-03 22:27:43.233 - 19 08 24 03 CC 01 54 00 01 (调用内卫感应灯开的按键)
2024-09-03 22:27:43.284 - 1A 0C 02 08 01 FF 45 01 FF 45 01 FF 00 00 0F (调光器地址-内卫射灯, 内卫射灯微光)
2024-09-03 22:27:45.651 - 09 06 00 0F 02 02 38 20 (提示音咚)
2024-09-03 22:27:46.210 - EE 00 00 B1 00 00 02 FF FC FF FF (情景完成返回主页)
2024-09-03 22:27:59.034 - FF
2024-09-03 22:34:30.384 - FF
2024-09-03 22:37:24.584 - 19 08 24 03 CC 01 55 00 01 (调用内卫感应灯关的按键)
2024-09-03 22:37:24.636 - 1A 0C 02 08 01 FF 00 01 FF 00 01 FF 00 00 0F (调光器地址-内卫射灯, 内卫感应灯关)
2024-09-03 22:40:07.407 - 19 08 24 03 CC 01 54 00 01 (调用内卫感应灯开的按键)
2024-09-03 22:40:07.439 - 1A 0C 02 08 01 FF 45 01 FF 45 01 FF 00 00 0F (调光器地址-内卫射灯, 内卫射灯微光)
2024-09-03 22:44:27.414 - 19 08 24 03 CC 01 55 00 01 (调用内卫感应灯关的按键)
2024-09-03 22:44:27.448 - 1A 0C 02 08 01 FF 00 01 FF 00 01 FF 00 00 0F (调光器地址-内卫射灯, 内卫感应灯关)
2024-09-03 22:47:03.232 - 19 08 24 03 CC 01 54 00 01 (调用内卫感应灯开的按键)
2024-09-03 22:47:03.266 - 1A 0C 02 08 01 FF 45 01 FF 45 01 FF 00 00 0F (调光器地址-内卫射灯, 内卫射灯微光)
2024-09-03 22:48:22.383 - 19 08 24 03 CC 01 55 00 01 (调用内卫感应灯关的按键)
2024-09-03 22:48:22.423 - 1A 0C 02 08 01 FF 00 01 FF 00 01 FF 00 00 0F (调光器地址-内卫射灯, 内卫感应灯关)
2024-09-03 22:54:18.588 - 19 08 24 03 CC 01 54 00 01 (调用内卫感应灯开的按键)
2024-09-03 22:54:18.622 - 1A 0C 02 08 01 FF 45 01 FF 45 01 FF 00 00 0F (调光器地址-内卫射灯, 内卫射灯微光)
2024-09-03 23:03:50.722 - 19 08 24 03 CC 01 55 00 01 (调用内卫感应灯关的按键)
2024-09-03 23:03:50.754 - 1A 0C 02 08 01 FF 00 01 FF 00 01 FF 00 00 0F (调光器地址-内卫射灯, 内卫感应灯关)
2024-09-03 23:06:37.550 - 19 08 24 03 CC 01 54 00 01 (调用内卫感应灯开的按键)
2024-09-03 23:06:37.581 - 1A 0C 02 08 01 FF 45 01 FF 45 01 FF 00 00 0F (调光器地址-内卫射灯, 内卫射灯微光)
2024-09-03 23:12:38.762 - 19 08 24 03 CC 01 55 00 01 (调用内卫感应灯关的按键)
2024-09-03 23:12:38.794 - 1A 0C 02 08 01 FF 00 01 FF 00 01 FF 00 00 0F (调光器地址-内卫射灯, 内卫感应灯关)
2024-09-03 23:20:12.924 - FF
2024-09-03 23:29:54.813 - 19 08 24 03 CC 01 54 00 01 (调用内卫感应灯开的按键)
2024-09-03 23:29:54.861 - 1A 0C 02 08 01 FF 45 01 FF 45 01 FF 00 00 0F (调光器地址-内卫射灯, 内卫射灯微光)
2024-09-03 23:30:43.355 - FF
2024-09-03 23:32:04.391 - FF
2024-09-03 23:32:29.616 - 19 08 24 03 CC 01 55 00 01 (调用内卫感应灯关的按键)
2024-09-03 23:32:29.667 - 1A 0C 02 08 01 FF 00 01 FF 00 01 FF 00 00 0F (调光器地址-内卫射灯, 内卫感应灯关)
2024-09-03 23:35:43.495 - 19 08 24 03 CC 01 54 00 01 (调用内卫感应灯开的按键)
2024-09-03 23:35:43.529 - 1A 0C 02 08 01 FF 45 01 FF 45 01 FF 00 00 0F (调光器地址-内卫射灯, 内卫射灯微光)
2024-09-03 23:41:46.071 - FF
2024-09-03 23:47:34.405 - 19 08 24 03 CC 01 55 00 01 (调用内卫感应灯关的按键)
2024-09-03 23:47:34.486 - 1A 0C 02 08 01 FF 00 01 FF 00 01 FF 00 00 0F (调光器地址-内卫射灯, 内卫感应灯关)
2024-09-03 23:57:47.110 - 19 08 24 03 CC 01 54 00 01 (调用内卫感应灯开的按键)
2024-09-03 23:57:47.169 - 1A 0C 02 08 01 FF 45 01 FF 45 01 FF 00 00 0F (调光器地址-内卫射灯, 内卫射灯微光)
2024-09-04 00:00:10.397 - 19 08 24 03 DD 00 4B 00 01 (调用情景-主卧睡觉)
2024-09-04 00:00:10.931 - EE 00 00 B1 00 00 00 FF FC FF FF (情景执行提示)
2024-09-04 00:00:11.527 - 09 06 00 0F 02 01 78 21 (提示音叮)
2024-09-04 00:00:12.060 - 50 F5 04 (关内卫影视)
2024-09-04 00:00:12.670 - A5 00 53 FE 01 AA (主卧纱帘关)
2024-09-04 00:00:13.719 - A5 00 52 FF 00 AA (主卧窗帘关)
2024-09-04 00:00:14.766 - 1A 22 33 62 0F 00 02 01 0F (正反转地址-内卫卷帘, 内卫卷帘降)
2024-09-04 00:00:15.806 - 1A 20 07 01 40 00 01 00 0F (自保持开关地址-内卫顶灯, 内卫顶灯关)
2024-09-04 00:00:16.853 - 1A 20 07 01 55 00 01 00 0F (自保持开关地址-主卧顶灯, 主卧顶灯只关)
2024-09-04 00:00:17.406 - 1A FF FF FF 56 00 00 01 0F (人体感应地址-内卫, 打开内卫感应)
2024-09-04 00:00:17.410 - BC BC
2024-09-04 00:00:20.998 - 1A 0C 02 08 01 FF 00 01 FF 00 01 FF 00 00 0F (调光器地址-内卫射灯, 内卫感应灯关)
2024-09-04 00:00:21.589 - 1A 0C 02 04 01 FF 00 01 FF 00 01 FF 00 00 0F (调光器地址-主卧筒灯, 主卧筒灯关闭)
2024-09-04 00:00:22.203 - 1A 0C 02 04 03 FF 00 01 FF 00 01 FF 00 00 0F (调光器地址-主卧灯带, 主卧灯带关闭)
2024-09-04 00:00:22.800 - 1A 0C 02 04 04 FF 00 01 FF 00 01 FF 00 00 0F (调光器地址-主卧南阅, 主卧南阅关闭)
2024-09-04 00:00:23.398 - 1A 0C 02 04 05 FF 00 01 FF 00 01 FF 00 00 0F (调光器地址-主卧北阅, 主卧北阅关闭)
2024-09-04 00:00:23.994 - 1A 0C 02 04 02 FF 00 01 FF 00 01 FF 00 00 0F (调光器地址-主卧过道, 主卧过道关闭)
2024-09-04 00:00:24.576 - 09 06 00 0F 02 02 38 20 (提示音咚)
2024-09-04 00:00:25.135 - EE 00 00 B1 00 00 02 FF FC FF FF (情景完成返回主页)
2024-09-04 00:00:41.467 - 19 08 24 03 CC 01 55 00 01 (调用内卫感应灯关的按键)
2024-09-04 00:00:41.518 - 1A 0C 02 08 01 FF 00 01 FF 00 01 FF 00 00 0F (调光器地址-内卫射灯, 内卫感应灯关)
2024-09-04 00:01:24.054 - 19 08 24 03 CC 01 54 00 01 (调用内卫感应灯开的按键)
2024-09-04 00:01:24.093 - 1A 0C 02 08 01 FF 45 01 FF 45 01 FF 00 00 0F (调光器地址-内卫射灯, 内卫射灯微光)
2024-09-04 00:02:16.161 - 19 08 24 03 CC 01 55 00 01 (调用内卫感应灯关的按键)
2024-09-04 00:02:16.193 - 1A 0C 02 08 01 FF 00 01 FF 00 01 FF 00 00 0F (调光器地址-内卫射灯, 内卫感应灯关)
2024-09-04 00:10:06.579 - 19 08 24 03 CC 01 54 00 01 (调用内卫感应灯开的按键)
2024-09-04 00:10:06.613 - 1A 0C 02 08 01 FF 45 01 FF 45 01 FF 00 00 0F (调光器地址-内卫射灯, 内卫射灯微光)
2024-09-04 00:12:42.396 - 19 08 24 03 CC 01 55 00 01 (调用内卫感应灯关的按键)
2024-09-04 00:12:42.428 - 1A 0C 02 08 01 FF 00 01 FF 00 01 FF 00 00 0F (调光器地址-内卫射灯, 内卫感应灯关)
2024-09-04 00:13:04.386 - FF
2024-09-04 00:14:08.071 - 19 08 24 03 CC 01 54 00 01 (调用内卫感应灯开的按键)
2024-09-04 00:14:08.119 - 1A 0C 02 08 01 FF 45 01 FF 45 01 FF 00 00 0F (调光器地址-内卫射灯, 内卫射灯微光)
2024-09-04 00:17:50.510 - 19 08 24 03 CC 01 55 00 01 (调用内卫感应灯关的按键)
2024-09-04 00:17:50.560 - 1A 0C 02 08 01 FF 00 01 FF 00 01 FF 00 00 0F (调光器地址-内卫射灯, 内卫感应灯关)
2024-09-04 00:18:39.103 - 19 08 24 03 CC 01 54 00 01 (调用内卫感应灯开的按键)
2024-09-04 00:18:39.135 - 1A 0C 02 08 01 FF 45 01 FF 45 01 FF 00 00 0F (调光器地址-内卫射灯, 内卫射灯微光)
2024-09-04 00:23:48.716 - 19 08 24 03 CC 01 55 00 01 (调用内卫感应灯关的按键)
2024-09-04 00:23:48.748 - 1A 0C 02 08 01 FF 00 01 FF 00 01 FF 00 00 0F (调光器地址-内卫射灯, 内卫感应灯关)
2024-09-04 00:28:54.914 - FF
2024-09-04 00:30:26.498 - 19 08 24 03 CC 01 54 00 01 (调用内卫感应灯开的按键)
2024-09-04 00:30:26.546 - 1A 0C 02 08 01 FF 45 01 FF 45 01 FF 00 00 0F (调光器地址-内卫射灯, 内卫射灯微光)
2024-09-04 00:33:09.424 - FF FF FF FF 0E (继电器地址-西阳小窗帘)
2024-09-04 00:33:09.559 - FE
2024-09-04 00:33:33.372 - 19 08 24 03 CC 01 55 00 01 (调用内卫感应灯关的按键)
2024-09-04 00:33:33.465 - 1A 0C 02 08 01 FF 00 01 FF 00 01 FF 00 00 0F (调光器地址-内卫射灯, 内卫感应灯关)
2024-09-04 00:35:07.164 - 1A BE B0 DC 04 (继电器地址-西阳窗帘)
2024-09-04 00:38:11.660 - 1A BE B0 DC 09 (继电器地址-客厅窗帘)
2024-09-04 00:38:11.804 - FE
2024-09-04 00:39:13.646 - 1A BE B0 DC 02 FC (正反转地址-外卫卷帘)
2024-09-04 00:39:13.787 - FF
2024-09-04 00:39:14.058 - 1A BE B0 DC 0A FE (继电器地址-客厅纱帘)
2024-09-04 00:40:17.604 - 1A BE B0 DC 01 FC (继电器地址-回水泵点动)
2024-09-04 00:40:17.740 - FF
2024-09-04 00:41:18.308 - 1A BE B0 DC 03 (继电器地址-西阳天幕)
2024-09-04 00:41:18.436 - FF
2024-09-04 00:43:29.067 - 19 08 24 03 CC 01 54 00 01 (调用内卫感应灯开的按键)
2024-09-04 00:43:29.108 - 1A 0C 02 08 01 FF 45 01 FF 45 01 FF 00 00 0F (调光器地址-内卫射灯, 内卫射灯微光)
2024-09-04 00:45:06.742 - 19 08 24 03 CC 01 55 00 01 (调用内卫感应灯关的按键)
2024-09-04 00:45:06.790 - 1A 0C 02 08 01 FF 00 01 FF 00 01 FF 00 00 0F (调光器地址-内卫射灯, 内卫感应灯关)
2024-09-04 00:48:23.625 - 19 08 24 03 CC 01 54 00 01 (调用内卫感应灯开的按键)
2024-09-04 00:48:23.659 - 1A 0C 02 08 01 FF 45 01 FF 45 01 FF 00 00 0F (调光器地址-内卫射灯, 内卫射灯微光)
2024-09-04 00:49:08.650 - FF FF FF FF 0A FC (继电器地址-东阳窗帘)
2024-09-04 00:49:08.781 - FE
2024-09-04 00:52:16.589 - 19 08 24 03 CC 01 55 00 01 (调用内卫感应灯关的按键)
2024-09-04 00:52:16.637 - 1A 0C 02 08 01 FF 00 01 FF 00 01 FF 00 00 0F (调光器地址-内卫射灯, 内卫感应灯关)
2024-09-04 00:54:04.808 - 19 08 24 03 CC 01 54 00 01 (调用内卫感应灯开的按键)
2024-09-04 00:54:04.862 - 1A 0C 02 08 01 FF 45 01 FF 45 01 FF 00 00 0F (调光器地址-内卫射灯, 内卫射灯微光)
2024-09-04 00:54:41.884 - 19 08 24 03 CC 01 55 00 01 (调用内卫感应灯关的按键)
2024-09-04 00:54:41.918 - 1A 0C 02 08 01 FF 00 01 FF 00 01 FF 00 00 0F (调光器地址-内卫射灯, 内卫感应灯关)
2024-09-04 01:03:52.975 - 19 08 24 03 CC 01 54 00 01 (调用内卫感应灯开的按键)
2024-09-04 01:03:53.007 - 1A 0C 02 08 01 FF 45 01 FF 45 01 FF 00 00 0F (调光器地址-内卫射灯, 内卫射灯微光)
2024-09-04 01:04:18.024 - 19 08 24 03 CC 01 55 00 01 (调用内卫感应灯关的按键)
2024-09-04 01:04:18.056 - 1A 0C 02 08 01 FF 00 01 FF 00 01 FF 00 00 0F (调光器地址-内卫射灯, 内卫感应灯关)
2024-09-04 01:06:37.795 - 19 08 24 03 CC 01 54 00 01 (调用内卫感应灯开的按键)
2024-09-04 01:06:37.827 - 1A 0C 02 08 01 FF 45 01 FF 45 01 FF 00 00 0F (调光器地址-内卫射灯, 内卫射灯微光)
2024-09-04 01:08:15.490 - 19 08 24 03 CC 01 55 00 01 (调用内卫感应灯关的按键)
2024-09-04 01:08:15.522 - 1A 0C 02 08 01 FF 00 01 FF 00 01 FF 00 00 0F (调光器地址-内卫射灯, 内卫感应灯关)
2024-09-04 01:11:51.419 - 19 08 24 03 CC 01 54 00 01 (调用内卫感应灯开的按键)
2024-09-04 01:11:51.453 - 1A 0C 02 08 01 FF 45 01 FF 45 01 FF 00 00 0F (调光器地址-内卫射灯, 内卫射灯微光)
2024-09-04 01:12:59.550 - 19 08 24 03 CC 01 55 00 01 (调用内卫感应灯关的按键)
2024-09-04 01:12:59.582 - 1A 0C 02 08 01 FF 00 01 FF 00 01 FF 00 00 0F (调光器地址-内卫射灯, 内卫感应灯关)
2024-09-04 01:14:59.364 - FF
2024-09-04 01:33:04.558 - FF
2024-09-04 01:37:05.411 - 19 08 24 03 CC 01 54 00 01 (调用内卫感应灯开的按键)
2024-09-04 01:37:05.463 - 1A 0C 02 08 01 FF 45 01 FF 45 01 FF 00 00 0F (调光器地址-内卫射灯, 内卫射灯微光)
2024-09-04 01:39:44.717 - 19 08 24 03 CC 01 55 00 01 (调用内卫感应灯关的按键)
2024-09-04 01:39:44.761 - 1A 0C 02 08 01 FF 00 01 FF 00 01 FF 00 00 0F (调光器地址-内卫射灯, 内卫感应灯关)
2024-09-04 01:40:46.840 - 19 08 24 03 CC 01 54 00 01 (调用内卫感应灯开的按键)
2024-09-04 01:40:46.885 - 1A 0C 02 08 01 FF 45 01 FF 45 01 FF 00 00 0F (调光器地址-内卫射灯, 内卫射灯微光)
2024-09-04 01:40:47.204 - FF
2024-09-04 01:41:13.900 - 19 08 24 03 CC 01 55 00 01 (调用内卫感应灯关的按键)
2024-09-04 01:41:13.934 - 1A 0C 02 08 01 FF 00 01 FF 00 01 FF 00 00 0F (调光器地址-内卫射灯, 内卫感应灯关)
2024-09-04 01:44:08.815 - 1A FF FF FF 04 (继电器地址-东阳衣架)
2024-09-04 01:44:08.951 - FF
2024-09-04 02:48:12.828 - FF
2024-09-04 02:59:19.620 - 50 F7 01 (全屋影音全关)
2024-09-04 03:38:16.773 - FF
2024-09-04 03:53:11.536 - FF FF FF FF 0E FC (继电器地址-西阳小窗帘)
2024-09-04 03:54:58.530 - 1A BE B0 DC 04 FE (继电器地址-西阳窗帘)
2024-09-04 03:54:58.658 - FE
2024-09-04 03:58:33.714 - 1A BE B0 DC 09 (继电器地址-客厅窗帘)
2024-09-04 03:58:33.856 - FE
2024-09-04 03:59:45.915 - 1A BE B0 DC 02 FE (正反转地址-外卫卷帘)
2024-09-04 03:59:46.039 - FF
2024-09-04 03:59:48.818 - 1A BE B0 DC 0A (继电器地址-客厅纱帘)
2024-09-04 03:59:48.949 - FF
2024-09-04 04:00:36.740 - FF
2024-09-04 04:01:10.556 - 1A BE B0 DC 01 FE (继电器地址-回水泵点动)
2024-09-04 04:01:10.686 - FE
2024-09-04 04:02:14.974 - 1A BE B0 DC 03 FC (继电器地址-西阳天幕)
2024-09-04 04:02:15.102 - FF
2024-09-04 04:06:37.010 - 19 08 24 03 CC 01 CC 00 01 (调用茶吧感应灯开的按键)
2024-09-04 04:06:37.061 - 1A AA AA AA 88 FF B0 01 FF B0 01 0F (调光器地址-茶吧灯带, 茶吧灯带明亮)
2024-09-04 04:06:44.019 - 19 08 24 03 CC 01 CD 00 01 (调用茶吧感应灯关的按键)
2024-09-04 04:06:44.069 - 1A AA AA AA 88 FF 00 01 FF 00 01 0F (调光器地址-茶吧灯带, 茶吧灯带关闭)
2024-09-04 04:09:24.894 - FF FF FF FF 0A (继电器地址-东阳窗帘)
2024-09-04 04:09:25.030 - FF
2024-09-04 04:19:19.699 - 1A EC A0 DC 01 00 01 00 0F (自保持开关地址-电视、设备12V供电, 12V 设备供电关)
2024-09-04 04:19:20.243 - 1A EC A0 DC 01 00 01 00 0F (自保持开关地址-电视、设备12V供电, 12V 设备供电关)
2024-09-04 04:19:30.312 - 1A EC A0 DC 01 00 01 01 0F (自保持开关地址-电视、设备12V供电, 12V 设备供电开)
2024-09-04 04:19:30.561 - 0A 00
2024-09-04 04:19:30.561 - 00 00
2024-09-04 04:19:30.681 - FF
2024-09-04 04:19:30.715 - 1A 27 89 12
2024-09-04 04:19:30.715 - FF
2024-09-04 04:19:30.776 - EE 00 7E 07 FF FC FF
2024-09-04 04:19:30.905 - EF
2024-09-04 04:19:30.921 - EB FB 0A 22 83 E3 42
2024-09-04 04:19:30.938 - EE 00 71 B1 01 00 02 FF FC FF FF
2024-09-04 04:19:30.989 - F7
2024-09-04 04:19:31.049 - FF
2024-09-04 04:19:31.049 - FE
2024-09-04 04:19:31.262 - FE
2024-09-04 04:19:31.367 - 1A EC A0 DC 01 00 01 01 0F (自保持开关地址-电视、设备12V供电, 12V 设备供电开)
2024-09-04 04:19:31.826 - FF
2024-09-04 04:19:31.879 - FC
2024-09-04 04:19:31.962 - F7
2024-09-04 04:19:32.151 - 68 86 FE
2024-09-04 04:19:32.202 - 68 86
2024-09-04 04:19:32.279 - FF
2024-09-04 04:19:32.298 - CB FC 68 86 FF
2024-09-04 04:19:32.423 - 1A BE B0 DC 03 FC (继电器地址-西阳天幕)
2024-09-04 04:19:32.850 - FF
2024-09-04 04:19:33.160 - FF
2024-09-04 04:19:33.479 - FF
2024-09-04 04:19:33.787 - 68 86 FF
2024-09-04 04:19:39.750 - 19 08 24 03 CC 01 CC 00 01 (调用茶吧感应灯开的按键)
2024-09-04 04:19:39.798 - 1A AA AA AA 88 FF B0 01 FF B0 01 0F (调光器地址-茶吧灯带, 茶吧灯带明亮)
2024-09-04 04:19:47.245 - 19 08 24 03 CC 01 CD 00 01 (调用茶吧感应灯关的按键)
2024-09-04 04:19:47.279 - 1A AA AA AA 88 FF 00 01 FF 00 01 0F (调光器地址-茶吧灯带, 茶吧灯带关闭)
2024-09-04 04:30:23.403 - FF
2024-09-04 04:40:30.720 - 19 08 24 03 CC 01 CC 00 01 (调用茶吧感应灯开的按键)
2024-09-04 04:40:30.767 - 1A AA AA AA 88 FF B0 01 FF B0 01 0F (调光器地址-茶吧灯带, 茶吧灯带明亮)
2024-09-04 04:40:37.731 - 19 08 24 03 CC 01 CD 00 01 (调用茶吧感应灯关的按键)
2024-09-04 04:40:37.782 - 1A AA AA AA 88 FF 00 01 FF 00 01 0F (调光器地址-茶吧灯带, 茶吧灯带关闭)
2024-09-04 04:49:20.113 - EE 00 00 B1 00 00 00 FF FC FF FF (情景执行提示)
2024-09-04 04:49:20.703 - A5 00 A2 FF 00 AA (餐厅纱帘关)
2024-09-04 04:49:21.795 - A5 00 A6 FF 00 AA (餐厅窗帘关)
2024-09-04 04:49:21.854 - 55 00 A6 01 00 0E 01 75 AA 55 00 A6 01 00 0E 01 75 AA (餐厅窗帘电机状态返回)
2024-09-04 04:49:22.894 - A5 00 B7 FF 00 AA 22 0D (书房纱帘关)
2024-09-04 04:49:23.990 - A5 00 D2 FF 00 AA 22 0C (书房窗帘关)
2024-09-04 04:49:24.050 - 55 00 D2 01 00 0D 00 F2 AA 55 00 D2 01 00 0D 00 F2 FE (书房窗帘电机状态返回)
2024-09-04 04:49:25.121 - EE 00 00 B1 00 00 02 FF FC FF FF (情景完成返回主页)
2024-09-04 04:49:30.364 - 55 00 A6 00 01 67 01 75 AA 55 00 A6 00 01 67 01 75 AA (餐厅窗帘电机状态返回)
2024-09-04 04:49:31.954 - 55 00 D2 00 00 E5 00 F2 AA 55 00 D2 00 00 E5 00 F2 AA (书房窗帘电机状态返回)
2024-09-04 05:05:10.859 - 1A FF FF FF 04 (继电器地址-东阳衣架)
2024-09-04 05:05:10.990 - 00
2024-09-04 05:07:07.841 - FF
2024-09-04 05:22:32.745 - 03 00 00 2F 2A E0 00 00 00 00 00 43 6F 6F 6B 69 65 3A 20 6D 73 74 73 68 61 73 68 3D 41 64 6D 69
2024-09-04 05:22:32.761 - 6E 69 73 74 72 0D 0A 01 00 08 00 03 00 00 00
2024-09-04 06:13:05.978 - FF
2024-09-04 06:14:24.799 - FF
2024-09-04 06:23:34.014 - 19 08 24 03 CC 01 54 00 01 (调用内卫感应灯开的按键)
2024-09-04 06:23:34.065 - 1A 0C 02 08 01 FF 45 01 FF 45 01 FF 00 00 0F (调光器地址-内卫射灯, 内卫射灯微光)
2024-09-04 06:25:34.186 - FF
2024-09-04 06:26:03.812 - 19 08 24 03 CC 01 55 00 01 (调用内卫感应灯关的按键)
2024-09-04 06:26:03.863 - 1A 0C 02 08 01 FF 00 01 FF 00 01 FF 00 00 0F (调光器地址-内卫射灯, 内卫感应灯关)
2024-09-04 06:26:05.662 - FF
2024-09-04 06:27:05.934 - 19 08 24 03 CC 01 54 00 01 (调用内卫感应灯开的按键)
2024-09-04 06:27:05.965 - 1A 0C 02 08 01 FF 45 01 FF 45 01 FF 00 00 0F (调光器地址-内卫射灯, 内卫射灯微光)
2024-09-04 06:27:31.992 - 19 08 24 03 CC 01 55 00 01 (调用内卫感应灯关的按键)
2024-09-04 06:27:32.043 - 1A 0C 02 08 01 FF 00 01 FF 00 01 FF 00 00 0F (调光器地址-内卫射灯, 内卫感应灯关)
2024-09-04 06:44:19.732 - EE 00 00 B1 00 00 00 FF FC FF FF (情景执行提示)
2024-09-04 06:44:20.324 - 09 06 00 0F 02 01 78 21 (提示音叮)
2024-09-04 06:44:20.917 - 50 F0 04 (开内卫影视)
2024-09-04 06:44:21.461 - 50 F0 05 (开主卧影视)
2024-09-04 06:44:22.014 - A5 00 53 FE 01 AA (主卧纱帘关)
2024-09-04 06:44:22.569 - A5 00 53 FE 01 AA (主卧纱帘关)
2024-09-04 06:44:23.114 - A5 00 52 FE 01 AA (主卧窗帘开)
2024-09-04 06:44:24.159 - A5 00 52 FE 01 AA (主卧窗帘开)
2024-09-04 06:44:25.197 - 1A 22 33 62 0F 00 02 01 0F (正反转地址-内卫卷帘, 内卫卷帘降)
2024-09-04 06:44:25.754 - 1A FF FF FF 56 00 00 00 0F (人体感应地址-内卫, 关闭内卫感应)
2024-09-04 06:44:25.865 - BC BC
2024-09-04 06:44:26.295 - 1A 20 07 01 55 00 01 00 0F (自保持开关地址-主卧顶灯, 主卧顶灯只关)
2024-09-04 06:44:27.351 - 1A 0C 02 08 01 FF F0 01 FF F0 01 FF 00 00 0F (调光器地址-内卫射灯, 内卫射灯明亮)
2024-09-04 06:44:27.957 - 1A 0C 02 04 01 FF 00 01 FF 00 01 FF 00 00 0F (调光器地址-主卧筒灯, 主卧筒灯关闭)
2024-09-04 06:44:28.549 - 1A 0C 02 04 03 FF 45 01 FF 45 01 FF 00 00 0F (调光器地址-主卧灯带, 主卧灯带微光)
2024-09-04 06:44:29.142 - 1A 0C 02 04 02 FF F0 01 FF 00 01 FF 00 00 0F (调光器地址-主卧过道, 主卧过道暖光)
2024-09-04 06:44:29.747 - 1A 0C 02 04 05 FF 00 01 FF 00 01 FF 00 00 0F (调光器地址-主卧北阅, 主卧北阅关闭)
2024-09-04 06:44:30.349 - 1A 0C 02 04 04 FF 00 01 FF 00 01 FF 00 00 0F (调光器地址-主卧南阅, 主卧南阅关闭)
2024-09-04 06:44:31.421 - 50 F1 24 (内卫—有线2)
2024-09-04 06:44:32.474 - 50 F1 25 (主卧—有线2)
2024-09-04 06:44:33.530 - AF BF CF DF C2 21 (有线2/快捷-凤凰卫视)
2024-09-04 06:44:34.075 - 1A FF FF FF 60 0B 01 01 0F (红外总线地址-主卧发射设备, 主卧电视电源)
2024-09-04 06:44:34.597 - F0 0B 01 08
2024-09-04 06:44:35.124 - 1A BE B0 DC 01 00 01 00 (继电器地址-回水泵点动, 回水泵点动)
2024-09-04 06:44:36.609 - 55 20 20 00 00 0F 02 16 AA 55 20 20 00 00 0F 02 16 AA (主卧窗帘电机状态返回)
2024-09-04 06:44:39.180 - 09 06 00 0F 02 02 38 20 (提示音咚)
2024-09-04 06:44:39.734 - EE 00 00 B1 00 00 02 FF FC FF FF (情景完成返回主页)
2024-09-04 06:44:40.820 - A1 11 11 11 11 01 (内卫浴霸取暖判断)
2024-09-04 06:44:41.054 - 14 03 00 00 00 02 C6 CE (查询内卫温湿度)
2024-09-04 06:44:41.094 - 14 03 04 01 D8 00 FC 3F 74 (内卫温湿度返回)
2024-09-04 06:45:07.220 - FF
2024-09-04 06:54:30.467 - FF
2024-09-04 07:10:54.467 - 19 08 24 03 DD 00 40 00 01 (调用情景-离开主卧)
2024-09-04 07:10:55.009 - EE 00 00 B1 00 00 00 FF FC FF FF (情景执行提示)
2024-09-04 07:10:55.600 - 09 06 00 0F 02 01 78 21 (提示音叮)
2024-09-04 07:10:56.142 - 50 F5 05 (关主卧影视)
2024-09-04 07:10:56.735 - 50 F5 04 (关内卫影视)
2024-09-04 07:10:57.297 - 01 06 07 D6 FF 60 28 9E (主卧空调关)
2024-09-04 07:10:57.332 - 01 06 07 D6 FF 60 28 9E (主卧空调关)
2024-09-04 07:10:57.894 - A5 00 52 FE 01 AA (主卧窗帘开)
2024-09-04 07:10:58.939 - A5 00 52 FE 01 AA (主卧窗帘开)
2024-09-04 07:10:59.980 - A5 00 53 FF 00 AA (主卧纱帘开)
2024-09-04 07:11:00.043 - 55 00 53 01 00 0C 02 30 AA 55 00 53 01 00 0C 02 FF (主卧纱帘电机状态返回)
2024-09-04 07:11:00.583 - A5 00 53 FF 00 AA (主卧纱帘开)
2024-09-04 07:11:01.130 - 1A 22 33 62 0F 00 00 01 0F (正反转地址-内卫卷帘, 内卫卷帘升)
2024-09-04 07:11:01.249 - 91 FD
2024-09-04 07:11:02.176 - 1A 20 07 01 40 00 01 00 0F (自保持开关地址-内卫顶灯, 内卫顶灯关)
2024-09-04 07:11:03.221 - 1A 20 07 01 55 00 01 00 0F (自保持开关地址-主卧顶灯, 主卧顶灯只关)
2024-09-04 07:11:03.772 - 1A 0C 02 08 01 FF 00 01 FF 00 01 FF 00 00 0F (调光器地址-内卫射灯, 内卫感应灯关)
2024-09-04 07:11:04.373 - 1A FF FF FF 56 00 00 01 0F (人体感应地址-内卫, 打开内卫感应)
2024-09-04 07:11:04.779 - 19 08 24 03 CC 01 54 00 01 (调用内卫感应灯开的按键)
2024-09-04 07:11:04.840 - 1A 0C 02 08 01 FF 45 01 FF 45 01 FF 00 00 0F (调光器地址-内卫射灯, 内卫射灯微光)
2024-09-04 07:11:08.263 - 1A 0C 02 04 FF FF 00 01 FF 00 01 FF 00 00 0F (主卧调光全关)
2024-09-04 07:11:09.355 - 09 06 00 0F 02 02 38 20 (提示音咚)
2024-09-04 07:11:09.907 - EE 00 00 B1 00 00 02 FF FC FF FF (情景完成返回主页)
2024-09-04 07:11:11.070 - 55 00 53 00 02 22 02 30 AA 55 00 53 00 02 22 02 30 AA (主卧纱帘电机状态返回)
2024-09-04 07:11:15.680 - 19 08 24 03 CC 01 CC 00 01 (调用茶吧感应灯开的按键)
2024-09-04 07:11:15.733 - 1A AA AA AA 88 FF B0 01 FF B0 01 0F (调光器地址-茶吧灯带, 茶吧灯带明亮)
2024-09-04 07:11:50.665 - 19 08 24 03 CC 00 D3 00 01 (调用厨房感应灯开的按键)
2024-09-04 07:11:50.699 - 55 0A 32 00 00 00 01 92 55 0A 32 00 00 00 02 93 (厨房顶灯一开, 厨房顶灯二开)
2024-09-04 07:11:51.568 - 19 08 24 03 CC 01 55 00 01 (调用内卫感应灯关的按键)
2024-09-04 07:11:51.615 - 1A 0C 02 08 01 FF 00 01 FF 00 01 FF 00 00 0F (调光器地址-内卫射灯, 内卫感应灯关)
2024-09-04 07:12:43.768 - 19 08 24 03 CC 00 D4 00 01 (调用厨房感应灯关的按键)
2024-09-04 07:12:43.806 - 55 0A 31 00 00 00 01 91 55 0A 31 00 00 00 02 92 (厨房顶灯一关, 厨房顶灯二关)
2024-09-04 07:12:46.688 - 19 08 24 03 CC 01 54 00 01 (调用内卫感应灯开的按键)
2024-09-04 07:12:46.722 - 1A 0C 02 08 01 FF 45 01 FF 45 01 FF 00 00 0F (调光器地址-内卫射灯, 内卫射灯微光)
2024-09-04 07:13:00.297 - 19 08 24 03 CC 00 D3 00 01 (调用厨房感应灯开的按键)
2024-09-04 07:13:00.330 - 55 0A 32 00 00 00 01 92 55 0A 32 00 00 00 02 93 (厨房顶灯一开, 厨房顶灯二开)
2024-09-04 07:13:11.903 - 19 08 24 03 CC 01 CD 00 01 (调用茶吧感应灯关的按键)
2024-09-04 07:13:11.936 - 1A AA AA AA 88 FF 00 01 FF 00 01 0F (调光器地址-茶吧灯带, 茶吧灯带关闭)
2024-09-04 07:13:12.239 - 19 08 24 03 CC 01 55 00 01 (调用内卫感应灯关的按键)
2024-09-04 07:14:05.511 - 19 08 24 03 CC 01 CC 00 01 (调用茶吧感应灯开的按键)
2024-09-04 07:14:05.545 - 1A AA AA AA 88 FF B0 01 FF B0 01 0F (调光器地址-茶吧灯带, 茶吧灯带明亮)
2024-09-04 07:14:12.190 - 19 08 24 03 DD 00 00 00 01 (调用情景-离家（末）)
2024-09-04 07:14:12.727 - EE 00 00 B1 00 00 00 FF FC FF FF (情景执行提示)
2024-09-04 07:14:13.318 - 09 06 00 0F 02 02 38 20 (提示音咚)
2024-09-04 07:14:13.861 - 50 F7 01 (全屋影音全关)
2024-09-04 07:14:14.424 - 01 06 07 D0 FF 60 C8 9F (客厅空调关)
2024-09-04 07:14:14.453 - 01 06 07 D0 FF 60 C8 9F (客厅空调关)
2024-09-04 07:14:15.022 - 01 06 07 D0 FF 60 C8 9F (客厅空调关)
2024-09-04 07:14:15.046 - 01 06 07 D0 FF 60 C8 9F (客厅空调关)
2024-09-04 07:14:15.607 - 01 06 07 D3 FF 60 38 9F (餐厅空调关)
2024-09-04 07:14:15.639 - 01 06 07 D3 FF 60 38 9F (餐厅空调关)
2024-09-04 07:14:16.215 - 01 06 07 D3 FF 60 38 9F (餐厅空调关)
2024-09-04 07:14:16.249 - 01 06 07 D3 FF 60 38 9F (餐厅空调关)
2024-09-04 07:14:16.811 - 01 06 07 D6 FF 60 28 9E (主卧空调关)
2024-09-04 07:14:16.845 - 01 06 07 D6 FF 60 28 9E (主卧空调关)
2024-09-04 07:14:17.408 - 01 06 07 D6 FF 60 28 9E (主卧空调关)
2024-09-04 07:14:17.441 - 01 06 07 D6 FF 60 28 9E (主卧空调关)
2024-09-04 07:14:18.002 - 01 06 07 D9 FF 60 18 9D (次卧空调关)
2024-09-04 07:14:18.036 - 01 06 07 D9 FF 60 18 9D (次卧空调关)
2024-09-04 07:14:18.542 - 19 08 24 03 CC 01 CD 00 01 (调用茶吧感应灯关的按键)
2024-09-04 07:14:18.593 - 1A AA AA AA 88 FF 00 01 FF 00 01 0F (调光器地址-茶吧灯带, 茶吧灯带关闭)
2024-09-04 07:14:18.992 - 01 06 07 D9 FF 60 18 9D (次卧空调关)
2024-09-04 07:14:19.026 - 01 06 07 D9 FF 60 18 9D (次卧空调关)
2024-09-04 07:14:19.606 - 01 06 07 DC FF 60 08 9C (书房空调关)
2024-09-04 07:14:19.630 - 01 06 07 DC FF 60 08 9C (书房空调关)
2024-09-04 07:14:20.204 - 01 06 07 DC FF 60 08 9C (书房空调关)
2024-09-04 07:14:20.226 - 01 06 07 DC FF 60 08 9C (书房空调关)
2024-09-04 07:14:20.802 - 09 06 00 0F 02 02 38 20 (提示音咚)
2024-09-04 07:14:21.349 - 1A FF FF FF 56 00 00 00 0F (人体感应地址-内卫, 关闭内卫感应)
2024-09-04 07:14:21.893 - 1A FF FF FF 55 00 00 00 0F (人体感应地址-外卫, 关闭外卫感应)
2024-09-04 07:14:21.981 - BC BC
2024-09-04 07:14:22.443 - 1A FF FF FF 57 00 00 00 0F (人体感应地址-厨房, 关闭厨房感应)
2024-09-04 07:14:22.986 - 1A FF FF FF 58 00 00 00 0F (人体感应地址-茶吧, 关闭茶吧感应)
2024-09-04 07:14:23.033 - BC BC
2024-09-04 07:14:23.592 - 1A 20 07 00 93 00 01 00 0F (自保持开关地址-设备区顶, 设备区顶灯关)
2024-09-04 07:14:24.636 - 1A 20 07 01 40 00 01 00 0F (自保持开关地址-内卫顶灯, 内卫顶灯关)
2024-09-04 07:14:25.674 - 1A 20 07 01 55 00 01 00 0F (自保持开关地址-主卧顶灯, 主卧顶灯只关)
2024-09-04 07:14:26.732 - 1A 20 07 00 42 00 01 00 0F (自保持开关地址-外卫顶灯, 外卫顶灯关)
2024-09-04 07:14:27.770 - 55 0D 31 00 00 00 01 94 (书房顶灯只关)
2024-09-04 07:14:28.819 - 55 0A 31 00 00 00 01 91 (厨房顶灯一关)
2024-09-04 07:14:29.864 - 55 0A 31 00 00 00 02 92 (厨房顶灯二关)
2024-09-04 07:14:30.908 - 55 0B 31 00 00 00 01 92 (厨房风扇只关)
2024-09-04 07:14:31.961 - 55 0C 31 00 00 00 01 93 (餐厅顶灯关)
2024-09-04 07:14:33.000 - 1A 20 07 01 30 00 01 00 0F (自保持开关地址-西阳顶灯, 西阳顶灯关)
2024-09-04 07:14:34.052 - 1A 18 05 21 89 00 01 00 0F (自保持开关地址-客厅顶灯, 客厅顶灯一关)
2024-09-04 07:14:35.089 - 1A 18 05 01 94 00 01 00 0F (自保持开关地址-客厅顶灯, 客厅顶灯二关)
2024-09-04 07:14:36.144 - 1A 20 07 00 70 00 01 00 0F (自保持开关地址-次卧顶灯, 次卧顶灯只关)
2024-09-04 07:14:37.199 - 1A 18 05 10 31 00 01 00 0F (自保持开关地址-门厅顶灯, 门厅顶灯关)
2024-09-04 07:14:38.239 - 1A FF FF FF 04 00 03 02 (继电器地址-东阳衣架, 东阳衣架照明关)
2024-09-04 07:14:38.785 - 09 06 00 0F 02 02 38 20 (提示音咚)
2024-09-04 07:14:39.331 - A5 00 A6 FE 01 AA (餐厅窗帘开)
2024-09-04 07:14:39.387 - 55 00 A6 02 01 67 01 75 AA 55 00 A6 02 01 67 FF (餐厅窗帘电机状态返回)
2024-09-04 07:14:39.927 - FF FF FF FF 0A 00 01 00 (继电器地址-东阳窗帘, 东阳窗帘开)
2024-09-04 07:14:40.470 - 1A BE B0 DC 04 00 01 00 (继电器地址-西阳窗帘, 西阳窗帘开)
2024-09-04 07:14:41.083 - FF FF FF FF 0E 00 01 00 (继电器地址-西阳小窗帘, 西阳小窗帘开)
2024-09-04 07:14:41.627 - 1A 22 33 62 0F 00 00 01 0F (正反转地址-内卫卷帘, 内卫卷帘升)
2024-09-04 07:14:42.172 - A5 00 52 FE 01 AA (主卧窗帘开)
2024-09-04 07:14:42.720 - A5 00 53 FF 00 AA (主卧纱帘开)
2024-09-04 07:14:43.262 - A5 00 76 FE 01 AA (次卧窗帘开)
2024-09-04 07:14:43.806 - A5 00 21 FE 01 AA (次卧纱帘开)
2024-09-04 07:14:44.369 - A5 00 D2 FE 01 AA 22 0D (书房窗帘开)
2024-09-04 07:14:44.420 - 55 00 D2 02 00 E5 00 F2 AA 55 00 D2 02 00 E5 00 F2 (书房窗帘电机状态返回)
2024-09-04 07:14:44.967 - 1A BE B0 DC 09 00 01 00 (继电器地址-客厅窗帘, 客厅窗帘开)
2024-09-04 07:14:45.515 - 1A BE B0 DC 0A 00 02 00 (继电器地址-客厅纱帘, 客厅纱帘开)
2024-09-04 07:14:46.058 - 09 06 00 0F 02 02 38 20 (提示音咚)
2024-09-04 07:14:47.099 - 1A EC A0 DC 02 00 00 00 0F (自保持开关地址-天花12V供电, 天花12V 供电关)
2024-09-04 07:14:47.659 - 1A EC A0 DC 02 00 00 00 0F (自保持开关地址-天花12V供电, 天花12V 供电关)
2024-09-04 07:14:48.203 - 1A EC A0 DC 01 00 00 00 0F (自保持开关地址-电视、设备12V供电, 12V 电视供电关)
2024-09-04 07:14:48.283 - 55 00 A6 00 00 0E 01 75 AA 55 00 A6 00 00 0E 01 75 AA (餐厅窗帘电机状态返回)
2024-09-04 07:14:48.802 - 1A EC A0 DC 01 00 00 00 0F (自保持开关地址-电视、设备12V供电, 12V 电视供电关)
2024-09-04 07:14:49.351 - 1A EC A0 DC 04 00 01 00 0F (自保持开关地址-次卧西阳内外卫供电, 内卫外卫关)
2024-09-04 07:14:49.893 - 1A EC A0 DC 04 00 01 00 0F (自保持开关地址-次卧西阳内外卫供电, 内卫外卫关)
2024-09-04 07:14:51.839 - 55 00 D2 00 00 0D 00 F2 AA 55 00 D2 00 00 0D 00 F2 AA (书房窗帘电机状态返回)
2024-09-04 07:15:07.934 - 09 06 00 0F 02 02 38 20 (提示音咚)
2024-09-04 07:15:08.486 - 1A 27 89 12 AA 00 00 00 0F (状态寄存器地址, 无人状态)
2024-09-04 07:15:09.034 - 1A 27 89 12 AA 00 00 00 0F (状态寄存器地址, 无人状态)
2024-09-04 07:15:09.627 - A1 11 11 11 4D (天花供电关闭确认)
2024-09-04 07:15:09.849 - 1A EC A0 DC 02 86 86 86 0F (查询天花供电状态, 自保持开关地址-天花12V供电)
2024-09-04 07:15:10.291 - 1A EC A0 DC 02 00 01 0F (自保持开关地址-天花12V供电)
2024-09-04 07:15:12.656 - A1 11 11 11 4E (卫生供电关闭确认)
2024-09-04 07:15:12.896 - 1A EC A0 DC 04 86 86 86 0F (查询卫生间供电状态, 自保持开关地址-次卧西阳内外卫供电)
2024-09-04 07:15:13.325 - 1A EC A0 DC 04 01 00 0F (自保持开关地址-次卧西阳内外卫供电)
2024-09-04 07:15:15.706 - A1 11 11 11 4F (电视供电关闭确认)
2024-09-04 07:15:15.929 - 1A EC A0 DC 01 86 86 86 0F (查询电视供电状态, 自保持开关地址-电视、设备12V供电)
2024-09-04 07:15:16.369 - 1A EC A0 DC 01 00 01 0F (自保持开关地址-电视、设备12V供电)
2024-09-04 07:15:18.743 - 09 06 00 0F 02 02 38 20 (提示音咚)
2024-09-04 07:15:19.298 - 09 06 00 0F 02 02 38 20 (提示音咚)
2024-09-04 07:15:19.847 - EE 00 00 B1 00 00 02 FF FC FF FF (情景完成返回主页)
2024-09-04 07:15:20.938 - BA BA EE EE BA BA (离家设置信科变量)
2024-09-04 07:15:21.984 - A1 11 11 11 46 (天热离家遮阳)
2024-09-04 07:15:22.208 - 1A 27 89 12 AA 86 86 86 0F (查询寄存器状态, 状态寄存器地址)
2024-09-04 07:15:22.594 - 1A 27 89 12 AA 00 00 00 00 00 00 00 00 00 00 00 01 00 00 00 00 0F (状态寄存器地址)
2024-09-04 07:15:23.213 - 19 08 24 03 DD 00 05 00 01 (调用情景-天热遮阳关帘)
2024-09-04 07:15:23.790 - EE 00 00 B1 00 00 00 FF FC FF FF (情景执行提示)
2024-09-04 07:15:24.381 - 09 06 00 0F 02 01 78 21 (提示音叮)
2024-09-04 07:15:24.973 - A5 00 A2 FF 00 AA (餐厅纱帘关)
2024-09-04 07:15:26.020 - A5 00 A6 FF 00 AA (餐厅窗帘关)
2024-09-04 07:15:26.074 - 55 00 A6 01 00 0E 01 75 AA 55 00 A6 01 00 0E 01 FF (餐厅窗帘电机状态返回)
2024-09-04 07:15:27.112 - A5 00 53 FE 01 AA (主卧纱帘关)
2024-09-04 07:15:27.175 - 55 00 53 02 02 22 02 30 AA 55 00 53 02 02 22 C2 (主卧纱帘电机状态返回)
2024-09-04 07:15:28.215 - A5 00 52 FF 00 AA (主卧窗帘关)
2024-09-04 07:15:29.251 - A5 00 21 FF 00 AA (次卧纱帘关)
2024-09-04 07:15:29.312 - 55 00 21 01 00 0D 01 34 AA 55 00 21 01 00 0D 01 34 AA (次卧纱帘电机状态返回)
2024-09-04 07:15:30.351 - A5 00 76 FF 00 AA (次卧窗帘关)
2024-09-04 07:15:30.398 - 55 00 76 01 00 0E 01 1B AA 55 00 76 01 00 0E 01 1B AA (次卧窗帘电机状态返回)
2024-09-04 07:15:31.451 - A5 00 B7 FF 00 AA 22 0D (书房纱帘关)
2024-09-04 07:15:32.503 - A5 00 D2 FF 00 AA 22 0C (书房窗帘关)
2024-09-04 07:15:32.552 - 55 00 D2 01 00 0D 00 F2 AA 55 00 D2 01 00 0D 00 F2 AA (书房窗帘电机状态返回)
2024-09-04 07:15:34.083 - 1A 22 33 62 5E 00 02 01 0F (正反转地址-厨房卷帘三, 厨房卷帘一降)
2024-09-04 07:15:34.529 - 55 00 A6 00 01 67 01 75 AA 55 00 A6 00 01 67 01 75 AA (餐厅窗帘电机状态返回)
2024-09-04 07:15:35.138 - 1A 22 33 62 56 00 02 01 0F (正反转地址-厨房卷帘二, 厨房卷帘二降)
2024-09-04 07:15:36.192 - 1A 22 33 62 4F 00 00 01 0F (正反转地址-厨房卷帘一, 厨房卷帘三降)
2024-09-04 07:15:36.625 - 55 00 21 00 01 27 01 34 AA 55 00 21 00 01 27 01 34 AA (次卧纱帘电机状态返回)
2024-09-04 07:15:37.253 - 1A BE B0 DC 04 00 02 00 01 76 00 01 0E 01 1B AA 55 00 76 00 01 0E 01 1B AA (次卧窗帘电机状态返回, 继电器地址-西阳窗帘, 西阳窗帘关)
2024-09-04 07:15:38.174 - 55 00 53 00 00 0C 02 30 AA 55 00 53 00 00 0C 02 30 AA (主卧纱帘电机状态返回)
2024-09-04 07:15:38.328 - FF FF FF FF 0E 00 02 00 (继电器地址-西阳小窗帘, 西阳小窗帘关)
2024-09-04 07:15:39.424 - 1A BE B0 DC 03 00 03 00 (继电器地址-西阳天幕, 西阳天幕关)
2024-09-04 07:15:39.965 - 55 20 20 00 02 09 02 16 AA 55 20 20 00 02 09 02 16 AA (主卧窗帘电机状态返回)
2024-09-04 07:15:40.381 - 55 00 D2 00 00 E5 00 F2 AA 55 00 D2 00 00 E5 00 F2 AA (书房窗帘电机状态返回)
2024-09-04 07:15:40.525 - 1A BE B0 DC 03 00 03 00 (继电器地址-西阳天幕, 西阳天幕关)
2024-09-04 07:15:41.617 - 09 06 00 0F 02 02 38 20 (提示音咚)
2024-09-04 07:15:42.218 - EE 00 00 B1 00 00 02 FF FC FF FF (情景完成返回主页)
2024-09-04 07:41:54.389 - 1A BE B0 DC 04 (继电器地址-西阳窗帘)
2024-09-04 07:41:54.510 - FE
2024-09-04 07:41:55.900 - FF FF FF FF 0E FC (继电器地址-西阳小窗帘)
2024-09-04 07:41:56.028 - FF
2024-09-04 07:41:59.747 - 1A BE B0 DC 02 (正反转地址-外卫卷帘)
2024-09-04 07:41:59.875 - FF
2024-09-04 07:42:01.917 - 1A BE B0 DC 09 FF (继电器地址-客厅窗帘)
2024-09-04 07:42:02.052 - FE
2024-09-04 07:42:02.797 - 1A BE B0 DC 01 (继电器地址-回水泵点动)
2024-09-04 07:42:02.927 - FF
2024-09-04 07:42:03.181 - 1A BE B0 DC 03 FE (继电器地址-西阳天幕)
2024-09-04 07:42:03.309 - FF
2024-09-04 07:42:03.622 - 1A BE B0 DC 0A (继电器地址-客厅纱帘)
2024-09-04 07:42:03.761 - FF
2024-09-04 07:44:27.063 - FF FF FF FF 0A (继电器地址-东阳窗帘)
2024-09-04 07:44:27.191 - FF
2024-09-04 08:27:06.866 - 1A FF FF FF 04 (继电器地址-东阳衣架)
2024-09-04 08:27:07.001 - FF
2024-09-04 11:01:47.533 - 1A BE B0 DC 04 (继电器地址-西阳窗帘)
2024-09-04 11:01:58.464 - FF FF FF FF 0E (继电器地址-西阳小窗帘)
2024-09-04 11:01:58.594 - FE
2024-09-04 11:02:24.804 - 1A BE B0 DC 09 FC (继电器地址-客厅窗帘)
2024-09-04 11:02:24.937 - FF
2024-09-04 11:02:31.645 - 1A BE B0 DC 02 FC (正反转地址-外卫卷帘)
2024-09-04 11:02:36.883 - 1A BE B0 DC 0A (继电器地址-客厅纱帘)
2024-09-04 11:02:37.027 - FF
2024-09-04 11:02:56.321 - 1A BE B0 DC 01 FD (继电器地址-回水泵点动)
2024-09-04 11:02:56.464 - FF
2024-09-04 11:03:00.565 - 1A BE B0 DC 03 (继电器地址-西阳天幕)
2024-09-04 11:03:00.696 - FF
