2025-09-21 16:18:46.476 - 1A 0C 02 08 01 86 86 86 0F (调光器地址-内卫射灯)
2025-09-21 16:18:46.512 - 1A 0C 02 08 01 00 4C 00 00 4C 00 00 5E 00 0F (调光器地址-内卫射灯)
2025-09-21 16:18:54.357 - 1A 0C 02 08 01 FF 00 01 FF 00 01 FF 00 00 0F (调光器地址-内卫射灯, 内卫感应灯关)
2025-09-21 16:18:59.373 - 1A 0C 02 08 01 86 86 86 0F (调光器地址-内卫射灯)
2025-09-21 16:18:59.431 - 1A 0C 02 08 01 00 4C 00 00 4C 00 00 5E 00 0F (调光器地址-内卫射灯)
2025-09-21 16:25:28.738 - 1A BE B0 DC 0A FD (继电器地址-客厅纱帘)
2025-09-21 16:25:28.872 - FF
2025-09-21 16:25:46.857 - 01 04 07 D0 00 06 70 85
2025-09-21 16:25:46.892 - 01 04 0C 70 00 42 02 00 FA 00 00 01 0E 00 00 54 86
2025-09-21 16:25:47.019 - 01 04 07 D6 00 06 90 84
2025-09-21 16:25:47.054 - 01 04 0C 70 00 42 02 00 FA 00 00 01 04 00 00 74 84
2025-09-21 16:25:47.179 - 01 04 07 DC 00 06 B0 86
2025-09-21 16:25:47.205 - 01 04 0C 50 00 42 02 01 04 00 00 01 0E 00 00 0B 3A
2025-09-21 16:25:47.332 - 01 04 07 E2 00 06 D1 4A
2025-09-21 16:25:47.368 - 01 04 0C 70 01 42 02 00 FA 00 00 00 FA 00 00 10 74
2025-09-21 16:25:47.493 - 01 04 07 E8 00 06 F1 48
2025-09-21 16:25:47.528 - 01 04 0C 70 00 42 02 00 FA 00 00 01 0E 00 00 54 86
2025-09-21 16:26:01.953 - 01 06 07 D6 FF 61 E9 5E
2025-09-21 16:26:01.983 - 01 06 07 D6 FF 61 E9 5E
2025-09-21 16:26:03.172 - 01 04 07 DC 00 06 B0 86
2025-09-21 16:26:03.202 - 01 04 0C 50 01 42 02 01 04 00 00 01 0E 00 00 0F C6
2025-09-21 16:26:05.095 - 01 04 07 DC 00 06 B0 86
2025-09-21 16:26:05.131 - 01 04 0C 50 01 42 02 01 04 00 00 01 0E 00 00 0F C6
2025-09-21 16:26:07.016 - 01 06 07 D6 FF 60 28 9E (主卧空调关)
2025-09-21 16:26:07.053 - 01 06 07 D6 FF 60 28 9E (主卧空调关)
2025-09-21 16:26:08.223 - 01 04 07 DC 00 06 B0 86
2025-09-21 16:26:08.255 - 01 04 0C 50 00 42 02 01 04 00 00 01 0E 00 00 0B 3A
2025-09-21 16:38:06.541 - 19 08 24 03 CC 01 52 00 01 (调用外卫感应灯开的按键)
2025-09-21 16:38:06.592 - 1A 0D 01 07 01 FF 45 01 FF 45 01 FF 00 00 0F (调光器地址-外卫射灯, 外卫感应灯开)
2025-09-21 16:41:18.982 - 19 08 24 03 DD 00 29 00 01 (调用情景-次卧照明关帘)
2025-09-21 16:41:19.508 - EE 00 00 B1 00 00 00 FF FC FF FF (情景执行提示)
2025-09-21 16:41:20.103 - 09 06 00 0F 02 01 78 21 (提示音叮)
2025-09-21 16:41:20.687 - 1A 0E 03 05 01 FF F0 01 FF F0 01 FF 00 00 0F (调光器地址-次卧射灯, 次卧射灯明亮)
2025-09-21 16:41:21.258 - 1A 0E 03 05 02 FF F0 01 FF F0 01 FF 00 00 0F (调光器地址-次卧灯带, 次卧灯带明亮)
2025-09-21 16:41:21.848 - A5 00 21 FF 00 AA (次卧纱帘关)
2025-09-21 16:41:22.942 - A5 00 76 FF 00 AA (次卧窗帘关)
2025-09-21 16:41:23.997 - 1A 0E 03 05 04 FF F0 01 FF F0 01 FF 00 00 0F (调光器地址-次卧北筒灯, 次卧北筒灯明亮)
2025-09-21 16:41:24.598 - 1A 0E 03 05 05 FF F0 01 FF F0 01 FF 00 00 0F (调光器地址-次卧南筒灯, 次卧南筒灯明亮)
2025-09-21 16:41:25.184 - 09 06 00 0F 02 02 38 20 (提示音咚)
2025-09-21 16:41:25.738 - EE 00 00 B1 00 00 02 FF FC FF FF (情景完成返回主页)
2025-09-21 16:41:51.984 - 19 08 24 03 CC 01 53 00 01 (调用外卫感应灯关的按键)
2025-09-21 16:41:52.019 - 1A 0D 01 07 01 FF 00 01 FF 00 01 FF 00 00 0F (调光器地址-外卫射灯, 外卫感应灯关)
2025-09-21 16:56:34.728 - 19 08 24 03 CC 01 52 00 01 (调用外卫感应灯开的按键)
2025-09-21 16:56:34.762 - 1A 0D 01 07 01 FF 45 01 FF 45 01 FF 00 00 0F (调光器地址-外卫射灯, 外卫感应灯开)
2025-09-21 16:56:35.460 - 19 08 24 03 DD 00 3E 00 01 (调用情景-外卫照明关帘)
2025-09-21 16:56:36.004 - EE 00 00 B1 00 00 00 FF FC FF FF (情景执行提示)
2025-09-21 16:56:36.600 - 09 06 00 0F 02 01 78 21 (提示音叮)
2025-09-21 16:56:37.147 - 1A FF FF FF 55 00 00 00 0F (人体感应地址-外卫, 关闭外卫感应)
2025-09-21 16:56:37.251 - BF BF
2025-09-21 16:56:38.203 - 1A 0D 01 07 01 FF F0 01 FF F0 01 FF 00 00 0F (调光器地址-外卫射灯, 外卫射灯明亮)
2025-09-21 16:56:38.792 - 09 06 00 0F 02 02 38 20 (提示音咚)
2025-09-21 16:56:39.345 - EE 00 00 B1 00 00 02 FF FC FF FF (情景完成返回主页)
2025-09-21 17:04:08.921 - FF FF FF FF 0A FC (继电器地址-东阳窗帘)
2025-09-21 17:08:03.506 - 01 04 07 D0 00 06 70 85
2025-09-21 17:08:03.538 - 01 04 0C 70 00 42 02 00 FA 00 00 01 0E 00 00 54 86
2025-09-21 17:08:03.656 - 01 04 07 D6 00 06 90 84
2025-09-21 17:08:03.689 - 01 04 0C 70 00 42 02 00 FA 00 00 01 04 00 00 74 84
2025-09-21 17:08:03.812 - 01 04 07 DC 00 06 B0 86
2025-09-21 17:08:03.853 - 01 04 0C 50 00 42 02 01 04 00 00 01 0E 00 00 0B 3A
2025-09-21 17:08:03.970 - 01 04 07 E2 00 06 D1 4A
2025-09-21 17:08:04.001 - 01 04 0C 70 01 42 02 00 FA 00 00 00 FA 00 00 10 74
2025-09-21 17:08:04.128 - 01 04 07 E8 00 06 F1 48
2025-09-21 17:08:04.165 - 01 04 0C 70 00 42 02 00 FA 00 00 01 0E 00 00 54 86
2025-09-21 17:19:37.160 - 19 08 24 03 CC 01 CC 00 01 (调用茶吧感应灯开的按键)
2025-09-21 17:19:37.208 - 1A AA AA AA 88 FF B0 01 FF B0 01 0F (调光器地址-茶吧灯带, 茶吧灯带明亮)
2025-09-21 17:20:18.740 - 19 08 24 03 CC 01 CD 00 01 (调用茶吧感应灯关的按键)
2025-09-21 17:20:18.773 - 1A AA AA AA 88 FF 00 01 FF 00 01 0F (调光器地址-茶吧灯带, 茶吧灯带关闭)
2025-09-21 17:20:53.337 - 19 08 24 03 DD 00 00 00 01 (调用情景-离家（末）)
2025-09-21 17:20:53.876 - EE 00 00 B1 00 00 00 FF FC FF FF (情景执行提示)
2025-09-21 17:20:54.472 - 09 06 00 0F 02 02 38 20 (提示音咚)
2025-09-21 17:20:55.015 - 50 F7 01 (全屋影音全关)
2025-09-21 17:20:55.618 - 01 06 07 D0 FF 60 C8 9F (客厅空调关)
2025-09-21 17:20:55.645 - 01 06 07 D0 FF 60 C8 9F (客厅空调关)
2025-09-21 17:20:56.216 - 01 06 07 D0 FF 60 C8 9F (客厅空调关)
2025-09-21 17:20:56.251 - 01 06 07 D0 FF 60 C8 9F (客厅空调关)
2025-09-21 17:20:56.813 - 01 06 07 D3 FF 60 38 9F (餐厅空调关)
2025-09-21 17:20:56.849 - 01 06 07 D3 FF 60 38 9F (餐厅空调关)
2025-09-21 17:20:57.409 - 01 06 07 D3 FF 60 38 9F (餐厅空调关)
2025-09-21 17:20:57.445 - 01 06 07 D3 FF 60 38 9F (餐厅空调关)
2025-09-21 17:20:58.058 - 01 06 07 D6 FF 60 28 9E (主卧空调关)
2025-09-21 17:20:58.089 - 01 06 07 D6 FF 60 28 9E (主卧空调关)
2025-09-21 17:20:58.658 - 01 06 07 D6 FF 60 28 9E (主卧空调关)
2025-09-21 17:20:58.683 - 01 06 07 D6 FF 60 28 9E (主卧空调关)
2025-09-21 17:20:59.258 - 01 06 07 D9 FF 60 18 9D (次卧空调关)
2025-09-21 17:20:59.289 - 01 06 07 D9 FF 60 18 9D (次卧空调关)
2025-09-21 17:20:59.852 - 01 06 07 D9 FF 60 18 9D (次卧空调关)
2025-09-21 17:20:59.887 - 01 06 07 D9 FF 60 18 9D (次卧空调关)
2025-09-21 17:21:00.449 - 01 06 07 DC FF 60 08 9C (书房空调关)
2025-09-21 17:21:00.483 - 01 06 07 DC FF 60 08 9C (书房空调关)
2025-09-21 17:21:01.046 - 01 06 07 DC FF 60 08 9C (书房空调关)
2025-09-21 17:21:01.080 - 01 06 07 DC FF 60 08 9C (书房空调关)
2025-09-21 17:21:01.645 - 09 06 00 0F 02 02 38 20 (提示音咚)
2025-09-21 17:21:02.197 - 1A FF FF FF 56 00 00 00 0F (人体感应地址-内卫, 关闭内卫感应)
2025-09-21 17:21:02.305 - BF BF
2025-09-21 17:21:02.744 - 1A FF FF FF 55 00 00 00 0F (人体感应地址-外卫, 关闭外卫感应)
2025-09-21 17:21:02.756 - BC BC
2025-09-21 17:21:03.342 - 1A FF FF FF 57 00 00 00 0F (人体感应地址-厨房, 关闭厨房感应)
2025-09-21 17:21:03.448 - BF BF
2025-09-21 17:21:03.889 - 1A FF FF FF 58 00 00 00 0F (人体感应地址-茶吧, 关闭茶吧感应)
2025-09-21 17:21:03.940 - BC BC
2025-09-21 17:21:04.487 - 1A 20 07 00 93 00 01 00 0F (自保持开关地址-设备区顶, 设备区顶灯关)
2025-09-21 17:21:05.581 - 1A 20 07 01 40 00 01 00 0F (自保持开关地址-内卫顶灯, 内卫顶灯关)
2025-09-21 17:21:06.678 - 1A 20 07 01 55 00 01 00 0F (自保持开关地址-主卧顶灯, 主卧顶灯只关)
2025-09-21 17:21:07.776 - 1A 20 07 00 42 00 01 00 0F (自保持开关地址-外卫顶灯, 外卫顶灯关)
2025-09-21 17:21:08.870 - 55 0D 31 00 00 00 01 94 (书房顶灯只关)
2025-09-21 17:21:09.967 - 55 0A 31 00 00 00 01 91 (厨房顶灯一关)
2025-09-21 17:21:11.063 - 55 0A 31 00 00 00 02 92 (厨房顶灯二关)
2025-09-21 17:21:12.189 - 55 0B 31 00 00 00 01 92 (厨房风扇只关)
2025-09-21 17:21:13.254 - 55 0C 31 00 00 00 01 93 (餐厅顶灯关)
2025-09-21 17:21:14.303 - 1A 20 07 01 30 00 01 00 0F (自保持开关地址-西阳顶灯, 西阳顶灯关)
2025-09-21 17:21:15.347 - 1A 18 05 21 89 00 01 00 0F (自保持开关地址-客厅顶灯, 客厅顶灯一关)
2025-09-21 17:21:16.395 - 1A 18 05 01 94 00 01 00 0F (自保持开关地址-客厅顶灯, 客厅顶灯二关)
2025-09-21 17:21:17.440 - 1A 20 07 00 70 00 01 00 0F (自保持开关地址-次卧顶灯, 次卧顶灯只关)
2025-09-21 17:21:18.486 - 1A 18 05 10 31 00 01 00 0F (自保持开关地址-门厅顶灯, 门厅顶灯关)
2025-09-21 17:21:19.534 - 1A FF FF FF 04 00 03 02 (继电器地址-东阳衣架, 东阳衣架照明关)
2025-09-21 17:21:20.081 - 09 06 00 0F 02 02 38 20 (提示音咚)
2025-09-21 17:21:20.625 - A5 00 A6 FE 01 AA (餐厅窗帘开)
2025-09-21 17:21:20.681 - 55 00 A6 02 01 65 01 74 AA 55 00 A6 02 01 65 01 74 AA (餐厅窗帘电机状态返回)
2025-09-21 17:21:21.227 - FF FF FF FF 0A 00 01 00 (继电器地址-东阳窗帘, 东阳窗帘开)
2025-09-21 17:21:21.776 - 1A BE B0 DC 04 00 01 00 (继电器地址-西阳窗帘, 西阳窗帘开)
2025-09-21 17:21:22.324 - FF FF FF FF 0E 00 01 00 (继电器地址-西阳小窗帘, 西阳小窗帘开)
2025-09-21 17:21:22.873 - 1A 22 33 62 0F 00 00 01 0F (正反转地址-内卫卷帘, 内卫卷帘升)
2025-09-21 17:21:23.419 - 55 12 12 03 01 4C 41 (主卧窗帘开)
2025-09-21 17:21:23.464 - 55 12 12 03 01 4C 41 (主卧窗帘开)
2025-09-21 17:21:24.017 - 55 11 1D 03 02 3C 07 (主卧纱帘开)
2025-09-21 17:21:24.057 - 55 11 1D 03 02 3C 07 (主卧纱帘开)
2025-09-21 17:21:24.613 - A5 00 76 FE 01 AA (次卧窗帘开)
2025-09-21 17:21:24.664 - 55 00 76 02 01 0E 01 1B AA 55 00 76 02 01 0E 01 1B AA (次卧窗帘电机状态返回)
2025-09-21 17:21:25.211 - A5 00 21 FE 01 AA (次卧纱帘开)
2025-09-21 17:21:25.267 - 55 00 21 02 01 27 01 34 AA 55 00 21 02 01 27 01 B4 (次卧纱帘电机状态返回)
2025-09-21 17:21:25.811 - A5 00 D2 FE 01 AA 22 0D (书房窗帘开)
2025-09-21 17:21:25.862 - 55 00 D2 02 00 FE 01 0B AA 55 00 D2 02 00 FE 01 0B AA (书房窗帘电机状态返回)
2025-09-21 17:21:26.408 - 1A BE B0 DC 09 00 01 00 (继电器地址-客厅窗帘, 客厅窗帘开)
2025-09-21 17:21:26.955 - 1A BE B0 DC 0A 00 02 00 (继电器地址-客厅纱帘, 客厅纱帘开)
2025-09-21 17:21:27.504 - 09 06 00 0F 02 02 38 20 (提示音咚)
2025-09-21 17:21:28.552 - 1A EC A0 DC 02 00 00 00 0F (自保持开关地址-天花12V供电, 天花12V 供电关)
2025-09-21 17:21:29.100 - 1A EC A0 DC 02 00 00 00 0F (自保持开关地址-天花12V供电, 天花12V 供电关)
2025-09-21 17:21:29.650 - 55 00 A6 1A EC A0 DC 01 00 00 00 0F (自保持开关地址-电视、设备12V供电, 餐厅窗帘电机状态返回, 12V 电视供电关)
2025-09-21 17:21:29.654 - 00 0E 01 74 AA
2025-09-21 17:21:30.245 - 1A EC A0 DC 01 00 00 00 0F (自保持开关地址-电视、设备12V供电, 12V 电视供电关)
2025-09-21 17:21:30.794 - 1A EC A0 DC 04 00 01 00 0F (自保持开关地址-次卧西阳内外卫供电, 内卫外卫关)
2025-09-21 17:21:31.342 - 1A EC A0 DC 04 00 01 00 0F (自保持开关地址-次卧西阳内外卫供电, 内卫外卫关)
2025-09-21 17:21:32.299 - 55 00 21 00 00 0D 01 34 AA 55 00 21 00 00 0D 01 34 AA (次卧纱帘电机状态返回)
2025-09-21 17:21:32.583 - 55 00 76 00 00 0E 01 1B AA 55 00 76 00 00 0E 01 1B AA (次卧窗帘电机状态返回)
2025-09-21 17:21:32.887 - 1A BB BB BB 01 02 00 (开水器电源关)
2025-09-21 17:21:33.324 - 55 00 A6 00 00 0F 01 74 AA 55 00 A6 00 00 0F 01 74 AA (餐厅窗帘电机状态返回)
2025-09-21 17:21:33.740 - 55 00 D2 00 00 0E 01 0B AA 55 00 D2 00 00 0E 01 0B AA (书房窗帘电机状态返回)
2025-09-21 17:21:45.885 - 09 06 00 0F 02 02 38 20 (提示音咚)
2025-09-21 17:21:46.432 - 1A 27 89 12 AA 00 00 00 0F (状态寄存器地址, 无人状态)
2025-09-21 17:21:46.980 - 1A 27 89 12 AA 00 00 00 0F (状态寄存器地址, 无人状态)
2025-09-21 17:21:47.523 - A1 11 11 11 4D (天花供电关闭确认)
2025-09-21 17:21:47.750 - 1A EC A0 DC 02 86 86 86 0F (查询天花供电状态, 自保持开关地址-天花12V供电)
2025-09-21 17:21:48.183 - 1A EC A0 DC 02 00 01 0F (自保持开关地址-天花12V供电)
2025-09-21 17:21:50.562 - A1 11 11 11 4E (卫生供电关闭确认)
2025-09-21 17:21:50.788 - 1A EC A0 DC 04 86 86 86 0F (查询卫生间供电状态, 自保持开关地址-次卧西阳内外卫供电)
2025-09-21 17:21:51.218 - 1A EC A0 DC 04 01 00 0F (自保持开关地址-次卧西阳内外卫供电)
2025-09-21 17:21:53.603 - A1 11 11 11 4F (电视供电关闭确认)
2025-09-21 17:21:53.824 - 1A EC A0 DC 01 86 86 86 0F (查询电视供电状态, 自保持开关地址-电视、设备12V供电)
2025-09-21 17:21:54.263 - 1A EC A0 DC 01 00 01 0F (自保持开关地址-电视、设备12V供电)
2025-09-21 17:21:56.645 - 09 06 00 0F 02 02 38 20 (提示音咚)
2025-09-21 17:21:57.192 - 09 06 00 0F 02 02 38 20 (提示音咚)
2025-09-21 17:21:57.745 - EE 00 00 B1 00 00 02 FF FC FF FF (情景完成返回主页)
2025-09-21 17:21:58.835 - BA BA EE EE BA BA (离家设置信科变量)
2025-09-21 17:21:59.881 - A1 11 11 11 46 (天热离家遮阳)
2025-09-21 17:22:00.104 - 1A 27 89 12 AA 86 86 86 0F (查询寄存器状态, 状态寄存器地址)
2025-09-21 17:22:00.485 - 1A 27 89 12 AA 00 00 00 00 00 00 00 00 00 00 00 01 00 00 00 00 0F (状态寄存器地址)
2025-09-21 17:22:01.105 - 19 08 24 03 DD 00 05 00 01 (调用情景-天热遮阳关帘)
2025-09-21 17:22:01.630 - EE 00 00 B1 00 00 00 FF FC FF FF (情景执行提示)
2025-09-21 17:22:02.225 - 09 06 00 0F 02 01 78 21 (提示音叮)
2025-09-21 17:22:02.770 - A5 00 A2 FF 00 AA (餐厅纱帘关)
2025-09-21 17:22:03.817 - A5 00 A6 FF 00 AA (餐厅窗帘关)
2025-09-21 17:22:03.876 - 55 00 A6 01 00 0F 01 74 AA 55 00 A6 01 00 0F 01 74 FA (餐厅窗帘电机状态返回)
2025-09-21 17:22:04.916 - 55 11 1D 03 01 7C 06 (主卧纱帘关)
2025-09-21 17:22:04.959 - 55 11 1D 03 01 7C 06 (主卧纱帘关)
2025-09-21 17:22:06.040 - 55 12 12 03 02 0C 40 (主卧窗帘关)
2025-09-21 17:22:06.078 - 55 12 12 03 02 0C 40 (主卧窗帘关)
2025-09-21 17:22:07.106 - A5 00 21 FF 00 AA (次卧纱帘关)
2025-09-21 17:22:07.157 - 55 00 21 01 00 0D 01 34 AA 55 00 21 01 00 0D 01 34 AA (次卧纱帘电机状态返回)
2025-09-21 17:22:08.202 - A5 00 76 FF 00 AA (次卧窗帘关)
2025-09-21 17:22:08.256 - 55 00 76 01 00 0E 01 1B AA 55 00 76 01 00 0E 01 1B AA (次卧窗帘电机状态返回)
2025-09-21 17:22:09.300 - A5 00 B7 FF 00 AA 22 0D (书房纱帘关)
2025-09-21 17:22:10.348 - A5 00 D2 FF 00 AA 22 0C (书房窗帘关)
2025-09-21 17:22:10.397 - 55 00 D2 01 00 0E 01 0B AA 55 00 D2 01 00 0E 01 0B AA (书房窗帘电机状态返回)
2025-09-21 17:22:11.942 - 1A 22 33 62 5E 00 02 01 0F (正反转地址-厨房卷帘三, 厨房卷帘一降)
2025-09-21 17:22:12.955 - 55 00 A6 00 01 66 01 74 AA 55 00 A6 00 01 66 01 74 AA (餐厅窗帘电机状态返回)
2025-09-21 17:22:12.988 - 1A 22 33 62 56 00 02 01 0F (正反转地址-厨房卷帘二, 厨房卷帘二降)
2025-09-21 17:22:14.034 - 1A 22 33 62 4F 00 00 01 0F (正反转地址-厨房卷帘一, 厨房卷帘三降)
2025-09-21 17:22:14.451 - 55 00 21 00 01 27 01 34 AA 55 00 21 00 01 27 01 34 AA (次卧纱帘电机状态返回)
2025-09-21 17:22:15.080 - 1A BE B0 DC 04 00 02 00 (继电器地址-西阳窗帘, 西阳窗帘关)
2025-09-21 17:22:16.125 - FF FF FF FF 0E 00 02 00 (继电器地址-西阳小窗帘, 西阳小窗帘关)
2025-09-21 17:22:16.505 - 55 00 76 00 01 0E 01 1B AA 55 00 76 00 01 0E 01 1B AA (次卧窗帘电机状态返回)
2025-09-21 17:22:17.173 - 1A BE B0 DC 03 00 03 00 (继电器地址-西阳天幕, 西阳天幕关)
2025-09-21 17:22:18.221 - 1A BE B0 DC 03 00 03 00 (继电器地址-西阳天幕, 西阳天幕关)
2025-09-21 17:22:19.265 - 09 06 00 0F 02 02 38 20 (提示音咚)
2025-09-21 17:22:19.466 - 55 00 D2 00 00 FE 01 0B AA 55 00 D2 00 00 FE 01 0B AA (书房窗帘电机状态返回)
2025-09-21 17:22:19.817 - EE 00 00 B1 00 00 02 FF FC FF FF (情景完成返回主页)
2025-09-21 17:28:38.853 - 1A BE B0 DC 04 FD (继电器地址-西阳窗帘)
2025-09-21 18:25:41.184 - 1B 03 00 00 00 02 C6 31 (查询室外光线)
2025-09-21 18:25:41.204 - 1B 03 04 00 00 00 00 41 F2 (室外光线返回)
2025-09-21 18:25:41.983 - 1A EC A0 DC 02 00 00 01 0F (自保持开关地址-天花12V供电, 天花12V 供电开)
2025-09-21 18:25:42.569 - 1A AA AA AA 88 (调光器地址-茶吧灯带)
2025-09-21 18:25:42.689 - 1A FF 01 FF FF FF 60 01 FF 60 01 FF 00 00 0F (调光器地址-公共区域统配地址)
2025-09-21 18:25:43.681 - 19 08 24 03 DD 00 0D 00 01 (调用情景-信科调用进门暗)
2025-09-21 18:25:45.735 - 1A FF 01 FF FF FF 60 01 FF 60 01 FF 00 00 0F (调光器地址-公共区域统配地址)
2025-09-21 18:25:47.822 - 1A EC A0 DC 01 00 00 01 0F (自保持开关地址-电视、设备12V供电, 12V 电视供电开)
2025-09-21 18:25:48.372 - 1A EC A0 DC 01 00 00 01 0F (自保持开关地址-电视、设备12V供电, 12V 电视供电开)
2025-09-21 18:25:48.918 - 1A EC A0 DC 04 00 01 01 0F (自保持开关地址-次卧西阳内外卫供电, 内卫外卫开)
2025-09-21 18:25:49.466 - 1A EC A0 DC 04 00 01 01 0F (自保持开关地址-次卧西阳内外卫供电, 内卫外卫开)
2025-09-21 18:25:50.013 - 1A BB BB BB 01 01 00 (开水器电源开)
2025-09-21 18:25:51.560 - 1A 27 89 12 AA 00 00 01 0F (状态寄存器地址, 有人状态)
2025-09-21 18:25:52.108 - 1A 27 89 12 AA 00 00 01 0F (状态寄存器地址, 有人状态)
2025-09-21 18:25:52.657 - 1A BE B0 DC 01 00 01 00 (继电器地址-回水泵点动, 回水泵点动)
2025-09-21 18:25:53.253 - 1A FF FF FF 56 00 00 01 0F (人体感应地址-内卫, 打开内卫感应)
2025-09-21 18:25:53.365 - BF BF
2025-09-21 18:25:53.802 - 1A FF FF FF 55 00 00 01 0F (人体感应地址-外卫, 打开外卫感应)
2025-09-21 18:25:53.911 - BC BC
2025-09-21 18:25:54.350 - 1A FF FF FF 57 00 00 01 0F (人体感应地址-厨房, 打开厨房感应)
2025-09-21 18:25:54.459 - BF BF
2025-09-21 18:25:54.897 - 1A FF FF FF 57 00 00 01 0F (人体感应地址-厨房, 打开厨房感应)
2025-09-21 18:25:54.915 - BC BC
2025-09-21 18:25:55.496 - 1A FF FF FF 58 00 00 01 0F (人体感应地址-茶吧, 打开茶吧感应)
2025-09-21 18:25:55.547 - BC BC
2025-09-21 18:25:55.925 - 19 08 24 03 CC 01 53 00 01 (调用外卫感应灯关的按键)
2025-09-21 18:25:55.978 - 1A 0D 01 07 01 FF 00 01 FF 00 01 FF 00 00 0F (调光器地址-外卫射灯, 外卫感应灯关)
2025-09-21 18:25:56.377 - 1A BE B0 DC 01 00 01 00 (继电器地址-回水泵点动, 回水泵点动)
2025-09-21 18:25:56.942 - A5 00 B7 FF 00 AA 22 0D (书房纱帘关)
2025-09-21 18:25:57.489 - A5 00 A2 FF 00 AA (餐厅纱帘关)
2025-09-21 18:25:58.038 - 09 06 00 0F 02 01 78 21 (提示音叮)
2025-09-21 18:25:58.585 - 09 06 00 0F 02 01 78 21 (提示音叮)
2025-09-21 18:25:59.138 - EE 00 00 B1 00 00 02 FF FC FF FF (情景完成返回主页)
2025-09-21 18:25:59.727 - A1 11 11 11 50 (天花供电打开确认)
2025-09-21 18:25:59.953 - 1A EC A0 DC 02 86 86 86 0F (查询天花供电状态, 自保持开关地址-天花12V供电)
2025-09-21 18:26:00.383 - 1A EC A0 DC 02 01 01 0F (自保持开关地址-天花12V供电)
2025-09-21 18:26:02.273 - A1 11 11 11 51 (卫生供电打开确认)
2025-09-21 18:26:02.497 - 1A EC A0 DC 04 86 86 86 0F (查询卫生间供电状态, 自保持开关地址-次卧西阳内外卫供电)
2025-09-21 18:26:02.930 - 1A EC A0 DC 04 01 01 0F (自保持开关地址-次卧西阳内外卫供电)
2025-09-21 18:26:04.813 - A1 11 11 11 52 (电视供电打开确认)
2025-09-21 18:26:05.035 - 1A EC A0 DC 01 86 86 86 0F (查询电视供电状态, 自保持开关地址-电视、设备12V供电)
2025-09-21 18:26:05.470 - 1A EC A0 DC 01 01 01 0F (自保持开关地址-电视、设备12V供电)
2025-09-21 18:26:09.849 - A1 11 11 11 47 (天热回家开帘)
2025-09-21 18:26:10.072 - 1A 27 89 12 AA 86 86 86 0F (查询寄存器状态, 状态寄存器地址)
2025-09-21 18:26:10.453 - 1A 27 89 12 AA 01 00 00 00 00 00 00 00 00 00 00 01 00 00 00 00 0F (状态寄存器地址)
2025-09-21 18:26:11.074 - 19 08 24 03 DD 00 06 00 01 (调用情景-天热遮阳开帘)
2025-09-21 18:26:11.599 - EE 00 00 B1 00 00 00 FF FC FF FF (情景执行提示)
2025-09-21 18:26:12.191 - 09 06 00 0F 02 01 78 21 (提示音叮)
2025-09-21 18:26:12.735 - A5 00 A6 FE 01 AA (餐厅窗帘开)
2025-09-21 18:26:12.793 - 55 00 A6 02 01 66 01 74 AA 55 00 A6 02 01 66 01 74 AA (餐厅窗帘电机状态返回)
2025-09-21 18:26:13.833 - 55 12 12 03 01 4C 41 (主卧窗帘开)
2025-09-21 18:26:13.873 - 55 12 12 03 01 4C 41 (主卧窗帘开)
2025-09-21 18:26:14.930 - 55 11 1D 03 02 3C 07 (主卧纱帘开)
2025-09-21 18:26:14.967 - 55 11 1D 03 02 3C 07 (主卧纱帘开)
2025-09-21 18:26:16.025 - A5 00 76 FE 01 AA (次卧窗帘开)
2025-09-21 18:26:16.082 - 55 00 76 02 01 0E 01 1B AA 55 00 76 02 01 0E 01 1B AA (次卧窗帘电机状态返回)
2025-09-21 18:26:17.123 - A5 00 21 FE 01 AA (次卧纱帘开)
2025-09-21 18:26:17.176 - 55 00 21 02 01 27 01 34 AA 55 00 21 02 01 27 01 34 AA (次卧纱帘电机状态返回)
2025-09-21 18:26:18.220 - 1A BE B0 DC 04 00 01 00 (继电器地址-西阳窗帘, 西阳窗帘开)
2025-09-21 18:26:19.266 - FF FF FF FF 0E 00 01 00 (继电器地址-西阳小窗帘, 西阳小窗帘开)
2025-09-21 18:26:20.313 - A5 00 D2 FE 01 AA 22 0D (书房窗帘开)
2025-09-21 18:26:20.360 - 55 00 D2 02 00 FE 01 0B AA 55 00 D2 02 00 FE 01 0B AA (书房窗帘电机状态返回)
2025-09-21 18:26:21.409 - 09 06 00 0F 02 02 38 20 (提示音咚)
2025-09-21 18:26:21.767 - 55 00 A6 00 00 0E 01 74 AA 55 00 A6 00 00 0E 01 74 AA (餐厅窗帘电机状态返回)
2025-09-21 18:26:21.961 - EE 00 00 B1 00 00 02 FF FC FF FF (情景完成返回主页)
2025-09-21 18:26:24.235 - 55 00 76 00 00 0D 01 1B AA 55 00 76 00 00 0D 01 1B AA (次卧窗帘电机状态返回)
2025-09-21 18:26:24.955 - 55 00 21 00 00 0D 01 34 AA 55 00 21 00 00 0D 01 34 AA (次卧纱帘电机状态返回)
2025-09-21 18:26:28.899 - 55 00 D2 00 00 0E 01 0B AA 55 00 D2 00 00 0E 01 0B AA (书房窗帘电机状态返回)
2025-09-21 18:30:11.420 - 19 08 24 03 DD 00 29 00 01 (调用情景-次卧照明关帘)
2025-09-21 18:30:11.988 - EE 00 00 B1 00 00 00 FF FC FF FF (情景执行提示)
2025-09-21 18:30:12.581 - 09 06 00 0F 02 01 78 21 (提示音叮)
2025-09-21 18:30:13.133 - 1A 0E 03 05 01 FF F0 01 FF F0 01 FF 00 00 0F (调光器地址-次卧射灯, 次卧射灯明亮)
2025-09-21 18:30:13.734 - 1A 0E 03 05 02 FF F0 01 FF F0 01 FF 00 00 0F (调光器地址-次卧灯带, 次卧灯带明亮)
2025-09-21 18:30:14.322 - A5 00 21 FF 00 AA (次卧纱帘关)
2025-09-21 18:30:14.375 - 55 00 21 01 00 0D 01 34 AA 55 00 21 01 00 0D 01 34 AA (次卧纱帘电机状态返回)
2025-09-21 18:30:15.416 - A5 00 76 FF 00 AA (次卧窗帘关)
2025-09-21 18:30:15.468 - 55 00 76 01 00 0E 01 1B AA 55 00 76 01 00 0E 01 1B AA (次卧窗帘电机状态返回)
2025-09-21 18:30:16.523 - 1A 0E 03 05 04 FF F0 01 FF F0 01 FF 00 00 0F (调光器地址-次卧北筒灯, 次卧北筒灯明亮)
2025-09-21 18:30:17.121 - 1A 0E 03 05 05 FF F0 01 FF F0 01 FF 00 00 0F (调光器地址-次卧南筒灯, 次卧南筒灯明亮)
2025-09-21 18:30:17.715 - 09 06 00 0F 02 02 38 20 (提示音咚)
2025-09-21 18:30:18.267 - EE 00 00 B1 00 00 02 FF FC FF FF (情景完成返回主页)
2025-09-21 18:30:22.052 - 55 00 21 00 01 27 01 34 AA 55 00 21 00 01 27 01 34 AA (次卧纱帘电机状态返回)
2025-09-21 18:30:24.010 - 55 00 76 00 01 0E 01 1B AA 55 00 76 00 01 0E 01 1B AA (次卧窗帘电机状态返回)
2025-09-21 18:40:37.854 - 1A BE B0 DC 03 FC (继电器地址-西阳天幕)
2025-09-21 18:40:37.985 - FF
2025-09-21 18:53:35.817 - 1A BE B0 DC 01 FC (继电器地址-回水泵点动)
2025-09-21 18:53:35.955 - FF
2025-09-21 19:01:25.048 - 1A BE B0 DC 02 (正反转地址-外卫卷帘)
2025-09-21 19:01:25.184 - FF
2025-09-21 19:06:43.974 - 19 08 24 03 DD 00 10 00 01 (调用情景-客餐厅空调开)
2025-09-21 19:06:44.513 - EE 00 00 B1 00 00 00 FF FC FF FF (情景执行提示)
2025-09-21 19:06:45.110 - 09 06 00 0F 02 01 78 21 (提示音叮)
2025-09-21 19:06:45.655 - A1 11 11 11 40 (客厅空调自动开)
2025-09-21 19:06:45.884 - 19 08 24 03 F0 BB 78 02 02 00
2025-09-21 19:06:45.917 - 23 AA 56 02 13 06 38 19 09 15 07 73 65 6F 6B 65 6E 64
2025-09-21 19:06:46.896 - 01 10 07 D0 00 03 06 70 61 00 02 00 FA 6F 26 (客厅空调冷25度)
2025-09-21 19:06:46.939 - 01 10 07 D0 00 03 06 70 61 00 02 00 FA 6F 26 (客厅空调冷25度)
2025-09-21 19:06:47.280 - 19 08 24 03 CC 01 52 00 01 (调用外卫感应灯开的按键)
2025-09-21 19:06:47.333 - 1A 0D 01 07 01 FF 45 01 FF 45 01 FF 00 00 0F (调光器地址-外卫射灯, 外卫感应灯开)
2025-09-21 19:06:49.690 - A1 11 11 11 41 (餐厅空调自动开)
2025-09-21 19:06:49.917 - 19 08 24 03 F0 BB 78 02 02 00
2025-09-21 19:06:49.965 - 23 AA 56 02 13 07 00 19 09 15 07 73 65 6F 6B 65 6E 64
2025-09-21 19:06:50.924 - 01 10 07 D3 00 03 06 70 61 00 02 00 FA 9F 29 (餐厅空调冷25度)
2025-09-21 19:06:50.966 - 01 10 07 D3 00 03 06 70 61 00 02 00 FA 9F 29 (餐厅空调冷25度)
2025-09-21 19:06:53.730 - 09 06 00 0F 02 02 38 20 (提示音咚)
2025-09-21 19:06:54.283 - EE 00 00 B1 00 00 02 FF FC FF FF (情景完成返回主页)
2025-09-21 19:07:03.818 - 19 08 24 03 CC 01 53 00 01 (调用外卫感应灯关的按键)
2025-09-21 19:07:03.874 - 1A 0D 01 07 01 FF 00 01 FF 00 01 FF 00 00 0F (调光器地址-外卫射灯, 外卫感应灯关)
2025-09-21 19:07:09.830 - 19 08 24 03 CC 01 52 00 01 (调用外卫感应灯开的按键)
2025-09-21 19:07:09.865 - 1A 0D 01 07 01 FF 45 01 FF 45 01 FF 00 00 0F (调光器地址-外卫射灯, 外卫感应灯开)
2025-09-21 19:07:36.886 - 19 08 24 03 CC 01 53 00 01 (调用外卫感应灯关的按键)
2025-09-21 19:07:36.917 - 1A 0D 01 07 01 FF 00 01 FF 00 01 FF 00 00 0F (调光器地址-外卫射灯, 外卫感应灯关)
2025-09-21 19:07:47.905 - 19 08 24 03 CC 01 52 00 01 (调用外卫感应灯开的按键)
2025-09-21 19:07:47.947 - 1A 0D 01 07 01 FF 45 01 FF 45 01 FF 00 00 0F (调光器地址-外卫射灯, 外卫感应灯开)
2025-09-21 19:08:03.117 - 19 08 24 03 DD 00 3E 00 01 (调用情景-外卫照明关帘)
2025-09-21 19:08:03.646 - EE 00 00 B1 00 00 00 FF FC FF FF (情景执行提示)
2025-09-21 19:08:04.237 - 09 06 00 0F 02 01 78 21 (提示音叮)
2025-09-21 19:08:04.786 - 1A FF FF FF 55 00 00 00 0F (人体感应地址-外卫, 关闭外卫感应)
2025-09-21 19:08:04.894 - BF BF
2025-09-21 19:08:05.839 - 1A 0D 01 07 01 FF F0 01 FF F0 01 FF 00 00 0F (调光器地址-外卫射灯, 外卫射灯明亮)
2025-09-21 19:08:06.426 - 09 06 00 0F 02 02 38 20 (提示音咚)
2025-09-21 19:08:06.981 - EE 00 00 B1 00 00 02 FF FC FF FF (情景完成返回主页)
2025-09-21 19:08:22.044 - 1A BE B0 DC 09 FC (继电器地址-客厅窗帘)
2025-09-21 19:11:08.162 - FF FF FF FF 0E (继电器地址-西阳小窗帘)
2025-09-21 19:11:08.299 - FF
2025-09-21 19:25:02.001 - 19 08 24 03 DD 00 1C 00 01 (调用情景-外卫使用完毕)
2025-09-21 19:25:02.545 - EE 00 00 B1 00 00 00 FF FC FF FF (情景执行提示)
2025-09-21 19:25:03.143 - 09 06 00 0F 02 01 78 21 (提示音叮)
2025-09-21 19:25:03.695 - 1A 0D 01 07 01 FF 00 01 FF 00 01 FF 00 00 0F (调光器地址-外卫射灯, 外卫感应灯关)
2025-09-21 19:25:04.280 - 50 F5 03 (关外卫影视)
2025-09-21 19:25:04.838 - 1A 20 07 00 42 00 01 00 0F (自保持开关地址-外卫顶灯, 外卫顶灯关)
2025-09-21 19:25:05.434 - 1A FF FF FF 55 00 00 01 0F (人体感应地址-外卫, 打开外卫感应)
2025-09-21 19:25:05.539 - BC BC
2025-09-21 19:25:08.077 - 09 06 00 0F 02 02 38 20 (提示音咚)
2025-09-21 19:25:08.630 - EE 00 00 B1 00 00 02 FF FC FF FF (情景完成返回主页)
2025-09-21 19:25:17.571 - 19 08 24 03 CC 01 53 00 01 (调用外卫感应灯关的按键)
2025-09-21 19:25:17.624 - 1A 0D 01 07 01 FF 00 01 FF 00 01 FF 00 00 0F (调光器地址-外卫射灯, 外卫感应灯关)
2025-09-21 19:26:49.155 - 19 08 24 03 CC 00 D3 00 01 (调用厨房感应灯开的按键)
2025-09-21 19:26:49.190 - 55 0A 32 00 00 00 01 92 55 0A 32 00 00 00 02 93 (厨房顶灯一开, 厨房顶灯二开)
2025-09-21 19:28:11.820 - 19 08 24 03 CC 00 D4 00 01 (调用厨房感应灯关的按键)
2025-09-21 19:28:11.853 - 55 0A 31 00 00 00 01 91 55 0A 31 00 00 00 02 92 (厨房顶灯一关, 厨房顶灯二关)
2025-09-21 19:29:06.926 - 1A FF FF FF 04 FD (继电器地址-东阳衣架)
2025-09-21 19:47:04.343 - 1A BE B0 DC 0A (继电器地址-客厅纱帘)
2025-09-21 19:57:37.794 - 19 08 24 03 CC 00 D3 00 01 (调用厨房感应灯开的按键)
2025-09-21 19:57:37.848 - 55 0A 32 00 00 00 01 92 55 0A 32 00 00 00 02 93 (厨房顶灯一开, 厨房顶灯二开)
2025-09-21 19:58:24.886 - 19 08 24 03 CC 00 D4 00 01 (调用厨房感应灯关的按键)
2025-09-21 19:58:24.940 - 55 0A 31 00 00 00 01 91 55 0A 31 00 00 00 02 92 (厨房顶灯一关, 厨房顶灯二关)
2025-09-21 19:59:11.023 - EE 00 6E B1 01 00 03 FF FC FF FF
2025-09-21 19:59:13.245 - 1A 20 07 01 30 00 01 02 0F (自保持开关地址-西阳顶灯, 西阳顶灯开关)
2025-09-21 20:26:37.034 - FF FF FF FF 0A FF (继电器地址-东阳窗帘)
2025-09-21 20:26:37.170 - FE
2025-09-21 20:39:41.260 - 19 08 24 03 CC 00 D3 00 01 (调用厨房感应灯开的按键)
2025-09-21 20:39:41.314 - 55 0A 32 00 00 00 01 92 55 0A 32 00 00 00 02 93 (厨房顶灯一开, 厨房顶灯二开)
2025-09-21 20:39:57.999 - 19 08 24 03 CC 01 CC 00 01 (调用茶吧感应灯开的按键)
2025-09-21 20:39:58.051 - 1A AA AA AA 88 FF B0 01 FF B0 01 0F (调光器地址-茶吧灯带, 茶吧灯带明亮)
2025-09-21 20:40:28.856 - 19 08 24 03 CC 00 D4 00 01 (调用厨房感应灯关的按键)
2025-09-21 20:40:28.889 - 55 0A 31 00 00 00 01 91 55 0A 31 00 00 00 02 92 (厨房顶灯一关, 厨房顶灯二关)
2025-09-21 20:40:45.890 - 19 08 24 03 CC 00 D3 00 01 (调用厨房感应灯开的按键)
2025-09-21 20:40:45.921 - 55 0A 32 00 00 00 01 92 55 0A 32 00 00 00 02 93 (厨房顶灯一开, 厨房顶灯二开)
2025-09-21 20:42:40.615 - 19 08 24 03 CC 00 D4 00 01 (调用厨房感应灯关的按键)
2025-09-21 20:42:40.649 - 55 0A 31 00 00 00 01 91 55 0A 31 00 00 00 02 92 (厨房顶灯一关, 厨房顶灯二关)
2025-09-21 20:43:34.426 - 19 08 24 03 CC 01 CD 00 01 (调用茶吧感应灯关的按键)
2025-09-21 20:43:34.460 - 1A AA AA AA 88 FF 00 01 FF 00 01 0F (调光器地址-茶吧灯带, 茶吧灯带关闭)
2025-09-21 20:44:22.982 - 19 08 24 03 DD 00 42 00 01 (调用情景-主卧电视空调)
2025-09-21 20:44:23.486 - EE 00 00 B1 00 00 00 FF FC FF FF (情景执行提示)
2025-09-21 20:44:24.110 - 09 06 00 0F 02 01 78 21 (提示音叮)
2025-09-21 20:44:24.676 - 50 F0 05 (开主卧影视)
2025-09-21 20:44:25.722 - 50 F0 04 (开内卫影视)
2025-09-21 20:44:26.276 - 1A FF FF FF 56 00 00 00 0F (人体感应地址-内卫, 关闭内卫感应)
2025-09-21 20:44:26.350 - BF BF
2025-09-21 20:44:26.872 - 1A 22 33 62 0F 00 02 01 0F (正反转地址-内卫卷帘, 内卫卷帘降)
2025-09-21 20:44:27.417 - 55 11 1D 03 01 7C 06 (主卧纱帘关)
2025-09-21 20:44:27.459 - 55 11 1D 03 01 7C 06 (主卧纱帘关)
2025-09-21 20:44:28.515 - 55 12 12 03 02 0C 40 (主卧窗帘关)
2025-09-21 20:44:28.556 - 55 12 12 03 02 0C 40 (主卧窗帘关)
2025-09-21 20:44:29.618 - 1A 0C 02 04 FF FF 45 01 FF 45 01 FF 00 00 0F (主卧调光微光)
2025-09-21 20:44:33.706 - 1A 0C 02 08 01 FF 45 01 FF 45 01 FF 00 00 0F (调光器地址-内卫射灯, 内卫射灯微光)
2025-09-21 20:44:34.288 - 50 F1 25 (主卧—有线2)
2025-09-21 20:44:34.840 - A1 11 11 11 42 (主卧空调自动开)
2025-09-21 20:44:35.067 - 19 08 24 03 F0 BB 78 02 02 00
2025-09-21 20:44:35.114 - 23 AA 56 02 14 2C 2E 19 09 15 07 73 65 6F 6B 65 6E 64
2025-09-21 20:44:35.385 - 50 F1 24 (内卫—有线2)
2025-09-21 20:44:36.074 - 01 10 07 D6 00 03 06 70 61 00 02 00 F0 0F 3E (主卧空调冷24度)
2025-09-21 20:44:36.121 - 01 10 07 D6 00 03 06 70 61 00 02 00 F0 0F 3E (主卧空调冷24度)
2025-09-21 20:44:37.436 - AF BF CF DF C2 21 (有线2/快捷-凤凰卫视)
2025-09-21 20:44:39.477 - 1A FF FF FF 60 0B 01 01 0F (红外总线地址-主卧发射设备, 主卧电视电源)
2025-09-21 20:44:39.994 - F0 0B 01 08
2025-09-21 20:44:47.501 - 09 06 00 0F 02 02 38 20 (提示音咚)
2025-09-21 20:44:48.051 - EE 00 00 B1 00 00 02 FF FC FF FF (情景完成返回主页)
2025-09-21 20:48:44.899 - 1A BE B0 DC 04 FC (继电器地址-西阳窗帘)
2025-09-21 20:48:45.028 - FF
2025-09-21 21:09:52.044 - 19 08 24 03 CC 01 CC 00 01 (调用茶吧感应灯开的按键)
2025-09-21 21:09:52.093 - 1A AA AA AA 88 FF B0 01 FF B0 01 0F (调光器地址-茶吧灯带, 茶吧灯带明亮)
2025-09-21 21:15:18.969 - 19 08 24 03 CC 00 D3 00 01 (调用厨房感应灯开的按键)
2025-09-21 21:15:19.021 - 55 0A 32 00 00 00 01 92 55 0A 32 00 00 00 02 93 (厨房顶灯一开, 厨房顶灯二开)
2025-09-21 21:16:21.092 - 19 08 24 03 CC 00 D4 00 01 (调用厨房感应灯关的按键)
2025-09-21 21:16:21.126 - 55 0A 31 00 00 00 01 91 55 0A 31 00 00 00 02 92 (厨房顶灯一关, 厨房顶灯二关)
2025-09-21 21:18:28.842 - 19 08 24 03 CC 00 D3 00 01 (调用厨房感应灯开的按键)
2025-09-21 21:18:28.876 - 55 0A 32 00 00 00 01 92 55 0A 32 00 00 00 02 93 (厨房顶灯一开, 厨房顶灯二开)
2025-09-21 21:18:38.086 - 19 08 24 03 CC 01 CD 00 01 (调用茶吧感应灯关的按键)
2025-09-21 21:18:38.117 - 1A AA AA AA 88 FF 00 01 FF 00 01 0F (调光器地址-茶吧灯带, 茶吧灯带关闭)
2025-09-21 21:20:12.770 - 19 08 24 03 CC 01 CC 00 01 (调用茶吧感应灯开的按键)
2025-09-21 21:20:12.803 - 1A AA AA AA 88 FF B0 01 FF B0 01 0F (调光器地址-茶吧灯带, 茶吧灯带明亮)
2025-09-21 21:20:24.796 - 19 08 24 03 CC 01 CD 00 01 (调用茶吧感应灯关的按键)
2025-09-21 21:20:24.826 - 1A AA AA AA 88 FF 00 01 FF 00 01 0F (调光器地址-茶吧灯带, 茶吧灯带关闭)
2025-09-21 21:20:51.628 - 19 08 24 03 CC 00 D4 00 01 (调用厨房感应灯关的按键)
2025-09-21 21:20:51.658 - 55 0A 31 00 00 00 01 91 55 0A 31 00 00 00 02 92 (厨房顶灯一关, 厨房顶灯二关)
2025-09-21 21:24:52.738 - 19 08 24 03 CC 01 52 00 01 (调用外卫感应灯开的按键)
2025-09-21 21:24:52.773 - 1A 0D 01 07 01 FF 45 01 FF 45 01 FF 00 00 0F (调光器地址-外卫射灯, 外卫感应灯开)
2025-09-21 21:24:54.131 - 19 08 24 03 DD 00 1B 00 01 (调用情景-外卫使用)
2025-09-21 21:24:54.666 - EE 00 00 B1 00 00 00 FF FC FF FF (情景执行提示)
2025-09-21 21:24:55.261 - 09 06 00 0F 02 01 78 21 (提示音叮)
2025-09-21 21:24:55.803 - 50 F0 03 (开外卫影视)
2025-09-21 21:24:56.410 - 1A FF FF FF 55 00 00 00 0F (人体感应地址-外卫, 关闭外卫感应)
2025-09-21 21:24:56.512 - BF BF
2025-09-21 21:24:56.961 - 1A 0D 01 07 01 FF 45 01 FF 45 01 FF 00 00 0F (调光器地址-外卫射灯, 外卫感应灯开)
2025-09-21 21:24:59.048 - 1A BE B0 DC 01 00 01 00 (继电器地址-回水泵点动, 回水泵点动)
2025-09-21 21:25:00.094 - 1A BE B0 DC 01 00 01 00 (继电器地址-回水泵点动, 回水泵点动)
2025-09-21 21:25:01.141 - 1A BE B0 DC 01 00 01 00 (继电器地址-回水泵点动, 回水泵点动)
2025-09-21 21:25:02.181 - 50 F1 43 (外卫—CH4)
2025-09-21 21:25:19.181 - A1 11 11 11 11 05 (外卫使用浴霸判断)
2025-09-21 21:25:19.402 - 13 03 00 00 00 02 C7 79 (查询外卫温湿度)
2025-09-21 21:25:19.422 - 13 03 04 01 C6 01 05 E8 60 (外卫温湿度返回)
2025-09-21 21:25:21.225 - 09 06 00 0F 02 02 38 20 (提示音咚)
2025-09-21 21:25:23.270 - EE 00 00 B1 00 00 02 FF FC FF FF (情景完成返回主页)
2025-09-21 21:35:05.155 - 19 08 24 03 DD 00 1C 00 01 (调用情景-外卫使用完毕)
2025-09-21 21:35:05.700 - EE 00 00 B1 00 00 00 FF FC FF FF (情景执行提示)
2025-09-21 21:35:06.294 - 09 06 00 0F 02 01 78 21 (提示音叮)
2025-09-21 21:35:06.878 - 1A 0D 01 07 01 FF 00 01 FF 00 01 FF 00 00 0F (调光器地址-外卫射灯, 外卫感应灯关)
2025-09-21 21:35:07.433 - 50 F5 03 (关外卫影视)
2025-09-21 21:35:07.988 - 1A 20 07 00 42 00 01 00 0F (自保持开关地址-外卫顶灯, 外卫顶灯关)
2025-09-21 21:35:08.535 - 1A FF FF FF 55 00 00 01 0F (人体感应地址-外卫, 打开外卫感应)
2025-09-21 21:35:08.645 - BC BC
2025-09-21 21:35:11.080 - 09 06 00 0F 02 02 38 20 (提示音咚)
2025-09-21 21:35:11.631 - EE 00 00 B1 00 00 02 FF FC FF FF (情景完成返回主页)
2025-09-21 21:35:20.676 - 19 08 24 03 CC 01 53 00 01 (调用外卫感应灯关的按键)
2025-09-21 21:35:20.729 - 1A 0D 01 07 01 FF 00 01 FF 00 01 FF 00 00 0F (调光器地址-外卫射灯, 外卫感应灯关)
2025-09-21 21:36:52.856 - 19 08 24 03 CC 01 52 00 01 (调用外卫感应灯开的按键)
2025-09-21 21:36:52.892 - 1A 0D 01 07 01 FF 45 01 FF 45 01 FF 00 00 0F (调光器地址-外卫射灯, 外卫感应灯开)
2025-09-21 21:36:57.770 - 19 08 24 03 CC 01 CC 00 01 (调用茶吧感应灯开的按键)
2025-09-21 21:36:57.804 - 1A AA AA AA 88 FF B0 01 FF B0 01 0F (调光器地址-茶吧灯带, 茶吧灯带明亮)
2025-09-21 21:37:00.372 - 19 08 24 03 CC 01 53 00 01 (调用外卫感应灯关的按键)
2025-09-21 21:37:00.408 - 1A 0D 01 07 01 FF 00 01 FF 00 01 FF 00 00 0F (调光器地址-外卫射灯, 外卫感应灯关)
2025-09-21 21:39:47.608 - 19 08 24 03 CC 01 CD 00 01 (调用茶吧感应灯关的按键)
2025-09-21 21:39:47.636 - 1A AA AA AA 88 FF 00 01 FF 00 01 0F (调光器地址-茶吧灯带, 茶吧灯带关闭)
2025-09-21 21:46:18.925 - 01 04 07 D0 00 06 70 85
2025-09-21 21:46:18.953 - 01 04 0C 70 01 42 02 00 FA 00 00 00 F0 00 00 30 76
2025-09-21 21:46:19.076 - 01 04 07 D6 00 06 90 84
2025-09-21 21:46:19.105 - 01 04 0C 70 01 42 02 00 FA 00 00 00 FA 00 00 10 74
2025-09-21 21:46:19.232 - 01 04 07 DC 00 06 B0 86
2025-09-21 21:46:19.266 - 01 04 0C 70 01 42 02 01 04 00 00 01 04 00 00 AE 7B
2025-09-21 21:46:19.390 - 01 04 07 E2 00 06 D1 4A
2025-09-21 21:46:19.428 - 01 04 0C 70 01 42 02 00 FA 00 00 00 FA 00 00 10 74
2025-09-21 21:46:19.547 - 01 04 07 E8 00 06 F1 48
2025-09-21 21:46:19.579 - 01 04 0C 70 00 42 02 00 FA 00 00 00 FA 00 00 14 88
2025-09-21 21:46:23.529 - 01 06 07 D6 50 FF 15 06
2025-09-21 21:46:23.560 - 01 06 07 D6 50 FF 15 06
2025-09-21 21:46:24.734 - 01 04 07 DC 00 06 B0 86
2025-09-21 21:46:24.769 - 01 04 0C 50 01 42 02 00 F0 00 00 01 04 00 00 5B C7
2025-09-21 21:46:26.649 - 01 06 07 D8 00 E6 89 0F
2025-09-21 21:46:26.679 - 01 06 07 D8 00 E6 89 0F
2025-09-21 21:46:27.486 - 01 06 07 D8 00 DC 09 1C
2025-09-21 21:46:27.552 - FD
2025-09-21 21:46:27.554 - DF
2025-09-21 21:46:27.556 - F7
2025-09-21 21:46:27.560 - D7 DF
2025-09-21 21:46:27.849 - 01 04 07 DC 00 06 B0 86
2025-09-21 21:46:27.880 - 01 04 0C 50 01 42 02 00 DC 00 00 01 04 00 00 B6 05
2025-09-21 21:46:28.686 - 01 04 07 DC 00 06 B0 86
2025-09-21 21:46:28.718 - 01 04 0C 50 01 42 02 00 DC 00 00 01 04 00 00 B6 05
2025-09-21 21:46:29.800 - 01 04 07 DC 00 06 B0 86
2025-09-21 21:46:29.832 - 01 04 0C 50 01 42 02 00 DC 00 00 01 04 00 00 B6 05
2025-09-21 21:49:18.614 - EE 00 6E B1 01 00 03 FF FC FF FF
2025-09-21 21:49:19.547 - 1A 20 07 01 30 00 01 02 0F (自保持开关地址-西阳顶灯, 西阳顶灯开关)
2025-09-21 21:49:41.785 - 19 08 24 03 CC 01 CC 00 01 (调用茶吧感应灯开的按键)
2025-09-21 21:49:41.816 - 1A AA AA AA 88 FF B0 01 FF B0 01 0F (调光器地址-茶吧灯带, 茶吧灯带明亮)
2025-09-21 21:50:07.335 - 19 08 24 03 CC 01 CD 00 01 (调用茶吧感应灯关的按键)
2025-09-21 21:50:07.366 - 1A AA AA AA 88 FF 00 01 FF 00 01 0F (调光器地址-茶吧灯带, 茶吧灯带关闭)
2025-09-21 21:54:11.822 - 19 08 24 03 CC 01 CC 00 01 (调用茶吧感应灯开的按键)
2025-09-21 21:54:11.851 - 1A AA AA AA 88 FF B0 01 FF B0 01 0F (调光器地址-茶吧灯带, 茶吧灯带明亮)
2025-09-21 21:56:11.058 - 19 08 24 03 CC 01 CD 00 01 (调用茶吧感应灯关的按键)
2025-09-21 21:56:11.087 - 1A AA AA AA 88 FF 00 01 FF 00 01 0F (调光器地址-茶吧灯带, 茶吧灯带关闭)
2025-09-21 21:56:20.573 - 19 08 24 03 CC 01 CC 00 01 (调用茶吧感应灯开的按键)
2025-09-21 21:56:20.605 - 1A AA AA AA 88 FF B0 01 FF B0 01 0F (调光器地址-茶吧灯带, 茶吧灯带明亮)
2025-09-21 21:56:47.129 - 19 08 24 03 CC 01 CD 00 01 (调用茶吧感应灯关的按键)
2025-09-21 21:56:47.157 - 1A AA AA AA 88 FF 00 01 FF 00 01 0F (调光器地址-茶吧灯带, 茶吧灯带关闭)
2025-09-21 21:58:42.855 - 19 08 24 03 CC 01 CC 00 01 (调用茶吧感应灯开的按键)
2025-09-21 21:58:42.888 - 1A AA AA AA 88 FF B0 01 FF B0 01 0F (调光器地址-茶吧灯带, 茶吧灯带明亮)
2025-09-21 21:58:45.103 - 19 08 24 03 CC 00 D3 00 01 (调用厨房感应灯开的按键)
2025-09-21 21:58:45.141 - 55 0A 32 00 00 00 01 92 55 0A 32 00 00 00 02 93 (厨房顶灯一开, 厨房顶灯二开)
2025-09-21 21:58:54.881 - 19 08 24 03 CC 01 CD 00 01 (调用茶吧感应灯关的按键)
2025-09-21 21:58:54.909 - 1A AA AA AA 88 FF 00 01 FF 00 01 0F (调光器地址-茶吧灯带, 茶吧灯带关闭)
2025-09-21 21:59:03.395 - 19 08 24 03 CC 01 CC 00 01 (调用茶吧感应灯开的按键)
2025-09-21 21:59:03.429 - 1A AA AA AA 88 FF B0 01 FF B0 01 0F (调光器地址-茶吧灯带, 茶吧灯带明亮)
2025-09-21 21:59:42.474 - 19 08 24 03 CC 01 CD 00 01 (调用茶吧感应灯关的按键)
2025-09-21 21:59:42.504 - 1A AA AA AA 88 FF 00 01 FF 00 01 0F (调光器地址-茶吧灯带, 茶吧灯带关闭)
2025-09-21 21:59:44.722 - 19 08 24 03 CC 00 D4 00 01 (调用厨房感应灯关的按键)
2025-09-21 21:59:44.756 - 55 0A 31 00 00 00 01 91 55 0A 31 00 00 00 02 92 (厨房顶灯一关, 厨房顶灯二关)
2025-09-21 22:04:08.786 - 1A BE B0 DC 03 FC (继电器地址-西阳天幕)
2025-09-21 22:04:08.920 - FF
2025-09-21 22:14:02.846 - 01 04 07 D0 00 06 70 85
2025-09-21 22:14:02.874 - 01 04 0C 70 01 42 02 00 FA 00 00 00 F0 00 00 30 76
2025-09-21 22:14:02.999 - 01 04 07 D6 00 06 90 84
2025-09-21 22:14:03.026 - 01 04 0C 70 01 42 02 00 FA 00 00 00 FA 00 00 10 74
2025-09-21 22:14:03.140 - 01 04 07 DC 00 06 B0 86
2025-09-21 22:14:03.168 - 01 04 0C 50 01 42 02 00 DC 00 00 00 FA 00 00 D6 09
2025-09-21 22:14:03.280 - 01 04 07 E2 00 06 D1 4A
2025-09-21 22:14:03.318 - 01 04 0C 70 01 42 02 00 FA 00 00 00 FA 00 00 10 74
2025-09-21 22:14:03.439 - 01 04 07 E8 00 06 F1 48
2025-09-21 22:14:03.472 - 01 04 0C 70 00 42 02 00 FA 00 00 00 FA 00 00 14 88
2025-09-21 22:14:30.779 - 1A 0C 02 04 02 86 86 86 0F (调光器地址-主卧过道)
2025-09-21 22:14:30.816 - 1A 0C 02 04 02 00 (调光器地址-主卧过道)
2025-09-21 22:14:30.826 - 1A 01 00 1A 01 00 06 00 0F
2025-09-21 22:14:35.419 - 1A 0C 02 04 02 86 86 86 0F (调光器地址-主卧过道)
2025-09-21 22:14:35.444 - 1A 0C 02 04 02 00 1A 01 00 1A 01 00 (调光器地址-主卧过道)
2025-09-21 22:14:35.448 - 06 00 0F
2025-09-21 22:14:40.015 - 1A 0C 02 04 03 86 86 86 0F (调光器地址-主卧灯带)
2025-09-21 22:14:40.053 - 1A 0C 02 04 03 00 1A 01 00 (调光器地址-主卧灯带)
2025-09-21 22:14:40.060 - 1A 01 00 3F 00 0F
2025-09-21 22:14:44.609 - 1A 0C 02 04 02 86 86 86 0F (调光器地址-主卧过道)
2025-09-21 22:14:44.655 - 1A 0C 02 04 02 00 1A 01 00 1A 01 00 06 00 0F (调光器地址-主卧过道)
2025-09-21 22:14:49.201 - 1A 0C 02 04 03 86 86 86 0F (调光器地址-主卧灯带)
2025-09-21 22:14:49.238 - 1A 0C 02 04 03 00 (调光器地址-主卧灯带)
2025-09-21 22:14:49.251 - 1A 01 00 1A 01 00 3F 00 0F
2025-09-21 22:14:53.854 - 1A 0C 02 04 03 86 86 86 0F (调光器地址-主卧灯带)
2025-09-21 22:14:53.872 - 1A 0C 02 04 03 00 (调光器地址-主卧灯带)
2025-09-21 22:14:53.876 - 1A 01 00
2025-09-21 22:14:53.884 - 1A 01 00 3F 00 0F
2025-09-21 22:17:07.570 - 1A BE B0 DC 01 FC (继电器地址-回水泵点动)
2025-09-21 22:17:17.728 - 01 04 07 D0 00 06 70 85
2025-09-21 22:17:17.763 - 01 04 0C 70 01 42 02 00 FA 00 00 00 F0 00 00 30 76
2025-09-21 22:17:17.876 - 01 04 07 D6 00 06 90 84
2025-09-21 22:17:17.906 - 01 04 0C 70 01 42 02 00 FA 00 00 00 FA 00 00 10 74
2025-09-21 22:17:18.019 - 01 04 07 DC 00 06 B0 86
2025-09-21 22:17:18.056 - 01 04 0C 50 01 42 02 00 DC 00 00 00 FA 00 00 D6 09
2025-09-21 22:17:18.179 - 01 04 07 E2 00 06 D1 4A
2025-09-21 22:17:18.208 - 01 04 0C 70 01 42 02 00 FA 00 00 00 FA 00 00 10 74
2025-09-21 22:17:18.334 - 01 04 07 E8 00 06 F1 48
2025-09-21 22:17:18.370 - 01 04 0C 70 00 42 02 00 FA 00 00 00 FA 00 00 14 88
2025-09-21 22:17:32.497 - 1A 0C 02 04 04 86 86 86 0F (调光器地址-主卧南阅)
2025-09-21 22:17:32.538 - 1A 0C 02 04 04 00 1A 01 00 (调光器地址-主卧南阅)
2025-09-21 22:17:32.540 - 1A 01 00
2025-09-21 22:17:32.544 - 0D 00 0F
2025-09-21 22:17:40.216 - 1A 0C 02 04 05 86 86 86 0F (调光器地址-主卧北阅)
2025-09-21 22:17:40.258 - 1A 0C 02 04 05 00 1A 01 00 (调光器地址-主卧北阅)
2025-09-21 22:17:40.264 - 1A 01 00 3F 00 0F
2025-09-21 22:18:12.637 - 1A AA AA AA 66 00 00 02 0F (调光器地址-东阳筒灯, 东阳筒灯开关)
2025-09-21 22:18:18.895 - 1A AA AA AA 66 00 64 01 00 64 01 0F (调光器地址-东阳筒灯)
2025-09-21 22:18:19.813 - 1A AA AA AA 66 01 0F (调光器地址-东阳筒灯)
2025-09-21 22:19:00.144 - 1A AA AA AA 66 00 00 02 0F (调光器地址-东阳筒灯, 东阳筒灯开关)
2025-09-21 22:19:06.396 - 1A AA AA AA 66 00 64 00 00 64 00 0F (调光器地址-东阳筒灯)
2025-09-21 22:19:07.312 - 1A AA AA AA 66 00 0F (调光器地址-东阳筒灯)
2025-09-21 22:19:36.338 - 19 08 24 03 CC 01 CC 00 01 (调用茶吧感应灯开的按键)
2025-09-21 22:19:36.388 - 1A AA AA AA 88 FF B0 01 FF B0 01 0F (调光器地址-茶吧灯带, 茶吧灯带明亮)
2025-09-21 22:19:39.072 - 19 08 24 03 CC 00 D3 00 01 (调用厨房感应灯开的按键)
2025-09-21 22:19:39.108 - 55 0A 32 00 00 00 01 92 55 0A 32 00 00 00 02 93 (厨房顶灯一开, 厨房顶灯二开)
2025-09-21 22:19:43.446 - 19 08 24 03 CC 01 52 00 01 (调用外卫感应灯开的按键)
2025-09-21 22:19:43.482 - 1A 0D 01 07 01 FF 45 01 FF 45 01 FF 00 00 0F (调光器地址-外卫射灯, 外卫感应灯开)
2025-09-21 22:19:48.865 - 19 08 24 03 CC 01 CD 00 01 (调用茶吧感应灯关的按键)
2025-09-21 22:19:48.894 - 1A AA AA AA 88 FF 00 01 FF 00 01 0F (调光器地址-茶吧灯带, 茶吧灯带关闭)
2025-09-21 22:19:49.984 - 19 08 24 03 DD 00 3E 00 01 (调用情景-外卫照明关帘)
2025-09-21 22:19:50.529 - EE 00 00 B1 00 00 00 FF FC FF FF (情景执行提示)
2025-09-21 22:19:51.127 - 09 06 00 0F 02 01 78 21 (提示音叮)
2025-09-21 22:19:51.676 - 1A FF FF FF 55 00 00 00 0F (人体感应地址-外卫, 关闭外卫感应)
2025-09-21 22:19:51.780 - BF BF
2025-09-21 22:19:52.725 - 1A 0D 01 07 01 FF F0 01 FF F0 01 FF 00 00 0F (调光器地址-外卫射灯, 外卫射灯明亮)
2025-09-21 22:19:53.318 - 09 06 00 0F 02 02 38 20 (提示音咚)
2025-09-21 22:19:53.866 - EE 00 00 B1 00 00 02 FF FC FF FF (情景完成返回主页)
2025-09-21 22:19:55.388 - 19 08 24 03 CC 01 CC 00 01 (调用茶吧感应灯开的按键)
2025-09-21 22:19:55.439 - 1A AA AA AA 88 FF B0 01 FF B0 01 0F (调光器地址-茶吧灯带, 茶吧灯带明亮)
2025-09-21 22:20:13.929 - 19 08 24 03 CC 01 CD 00 01 (调用茶吧感应灯关的按键)
2025-09-21 22:20:13.958 - 1A AA AA AA 88 FF 00 01 FF 00 01 0F (调光器地址-茶吧灯带, 茶吧灯带关闭)
2025-09-21 22:20:59.016 - 19 08 24 03 CC 01 CC 00 01 (调用茶吧感应灯开的按键)
2025-09-21 22:20:59.045 - 1A AA AA AA 88 FF B0 01 FF B0 01 0F (调光器地址-茶吧灯带, 茶吧灯带明亮)
2025-09-21 22:21:31.079 - 19 08 24 03 CC 01 CD 00 01 (调用茶吧感应灯关的按键)
2025-09-21 22:21:31.132 - 1A AA AA AA 88 FF 00 01 FF 00 01 0F (调光器地址-茶吧灯带, 茶吧灯带关闭)
2025-09-21 22:22:17.383 - 19 08 24 03 CC 00 D4 00 01 (调用厨房感应灯关的按键)
2025-09-21 22:22:17.420 - 55 0A 31 00 00 00 01 91 55 0A 31 00 00 00 02 92 (厨房顶灯一关, 厨房顶灯二关)
2025-09-21 22:22:41.932 - 19 08 24 03 CC 00 D3 00 01 (调用厨房感应灯开的按键)
2025-09-21 22:22:41.969 - 55 0A 32 00 00 00 01 92 55 0A 32 00 00 00 02 93 (厨房顶灯一开, 厨房顶灯二开)
2025-09-21 22:24:15.118 - 19 08 24 03 CC 00 D4 00 01 (调用厨房感应灯关的按键)
2025-09-21 22:24:15.151 - 55 0A 31 00 00 00 01 91 55 0A 31 00 00 00 02 92 (厨房顶灯一关, 厨房顶灯二关)
2025-09-21 22:25:01.572 - 1A BE B0 DC 02 FE (正反转地址-外卫卷帘)
2025-09-21 22:25:01.705 - FF
2025-09-21 22:29:08.487 - 19 08 24 03 CC 01 CC 00 01 (调用茶吧感应灯开的按键)
2025-09-21 22:29:08.530 - 1A AA AA AA 88 FF B0 01 FF B0 01 0F (调光器地址-茶吧灯带, 茶吧灯带明亮)
2025-09-21 22:29:19.503 - 19 08 24 03 CC 01 CD 00 01 (调用茶吧感应灯关的按键)
2025-09-21 22:29:19.552 - 1A AA AA AA 88 FF 00 01 FF 00 01 0F (调光器地址-茶吧灯带, 茶吧灯带关闭)
2025-09-21 22:30:32.490 - 19 08 24 03 DD 00 1C 00 01 (调用情景-外卫使用完毕)
2025-09-21 22:30:33.016 - EE 00 00 B1 00 00 00 FF FC FF FF (情景执行提示)
2025-09-21 22:30:33.615 - 09 06 00 0F 02 01 78 21 (提示音叮)
2025-09-21 22:30:34.215 - 1A 0D 01 07 01 FF 00 01 FF 00 01 FF 00 00 0F (调光器地址-外卫射灯, 外卫感应灯关)
2025-09-21 22:30:34.801 - 50 F5 03 (关外卫影视)
2025-09-21 22:30:35.359 - 1A 20 07 00 42 00 01 00 0F (自保持开关地址-外卫顶灯, 外卫顶灯关)
2025-09-21 22:30:35.907 - 1A FF FF FF 55 00 00 01 0F (人体感应地址-外卫, 打开外卫感应)
2025-09-21 22:30:35.990 - BC BC
2025-09-21 22:30:38.448 - 09 06 00 0F 02 02 38 20 (提示音咚)
2025-09-21 22:30:39.000 - EE 00 00 B1 00 00 02 FF FC FF FF (情景完成返回主页)
2025-09-21 22:30:47.035 - 19 08 24 03 CC 01 53 00 01 (调用外卫感应灯关的按键)
2025-09-21 22:30:47.089 - 1A 0D 01 07 01 FF 00 01 FF 00 01 FF 00 00 0F (调光器地址-外卫射灯, 外卫感应灯关)
2025-09-21 22:30:49.845 - 19 08 24 03 DD 00 33 00 01 (调用情景-次卧睡觉)
2025-09-21 22:30:50.363 - EE 00 00 B1 00 00 00 FF FC FF FF (情景执行提示)
2025-09-21 22:30:50.955 - 09 06 00 0F 02 01 78 21 (提示音叮)
2025-09-21 22:30:51.504 - 1A 20 07 00 70 00 01 00 0F (自保持开关地址-次卧顶灯, 次卧顶灯只关)
2025-09-21 22:30:52.049 - A5 00 21 FF 00 AA (次卧纱帘关)
2025-09-21 22:30:53.096 - A5 00 76 FF 00 AA (次卧窗帘关)
2025-09-21 22:30:54.138 - 50 F5 06 (关次卧影视)
2025-09-21 22:30:54.747 - 1A 0E 03 05 03 FF 00 01 FF 00 01 FF 00 00 0F (调光器地址-次卧阅读灯, 次卧阅读关闭)
2025-09-21 22:30:55.348 - 1A 0E 03 05 02 FF 00 01 FF 00 01 FF 00 00 0F (调光器地址-次卧灯带, 次卧灯带关闭)
2025-09-21 22:30:55.946 - 1A 0E 03 05 04 FF 00 01 FF 00 01 FF 00 00 0F (调光器地址-次卧北筒灯, 次卧北筒灯关闭)
2025-09-21 22:30:56.542 - 1A 0E 03 05 05 FF 00 01 FF 00 01 FF 00 00 0F (调光器地址-次卧南筒灯, 次卧南筒灯关闭)
2025-09-21 22:30:57.140 - 1A 0E 03 05 01 FF 00 01 FF 00 01 FF 00 00 0F (调光器地址-次卧射灯, 次卧射灯关闭)
2025-09-21 22:30:57.734 - 09 06 00 0F 02 02 38 20 (提示音咚)
2025-09-21 22:30:58.282 - EE 00 00 B1 00 00 02 FF FC FF FF (情景完成返回主页)
2025-09-21 22:31:23.750 - 19 08 24 03 CC 01 CC 00 01 (调用茶吧感应灯开的按键)
2025-09-21 22:31:23.779 - 1A AA AA AA 88 FF B0 01 FF B0 01 0F (调光器地址-茶吧灯带, 茶吧灯带明亮)
2025-09-21 22:32:36.995 - 1A BE B0 DC 09 FC (继电器地址-客厅窗帘)
2025-09-21 22:32:37.130 - FE
2025-09-21 22:33:36.394 - FF FF FF FF 0E FC (继电器地址-西阳小窗帘)
2025-09-21 22:33:36.526 - FF
2025-09-21 22:33:41.524 - 19 08 24 03 CC 01 CD 00 01 (调用茶吧感应灯关的按键)
2025-09-21 22:33:41.575 - 1A AA AA AA 88 FF 00 01 FF 00 01 0F (调光器地址-茶吧灯带, 茶吧灯带关闭)
2025-09-21 22:35:00.180 - 19 08 24 03 CC 01 CC 00 01 (调用茶吧感应灯开的按键)
2025-09-21 22:35:00.231 - 1A AA AA AA 88 FF B0 01 FF B0 01 0F (调光器地址-茶吧灯带, 茶吧灯带明亮)
2025-09-21 22:35:29.637 - 19 08 24 03 DD 00 13 00 01 (调用情景-公共区域关)
2025-09-21 22:35:30.185 - EE 00 00 B1 00 00 00 FF FC FF FF (情景执行提示)
2025-09-21 22:35:30.782 - 09 06 00 0F 02 01 78 21 (提示音叮)
2025-09-21 22:35:31.330 - 55 0B 31 00 00 00 01 92 (厨房风扇只关)
2025-09-21 22:35:32.377 - 01 06 07 D3 FF 60 38 9F (餐厅空调关)
2025-09-21 22:35:32.411 - 01 06 07 D3 FF 60 38 9F (餐厅空调关)
2025-09-21 22:35:33.475 - 01 06 07 D0 FF 60 C8 9F (客厅空调关)
2025-09-21 22:35:33.501 - 01 06 07 D0 FF 60 C8 9F (客厅空调关)
2025-09-21 22:35:37.558 - 50 F5 02 (关厨房影视)
2025-09-21 22:35:38.603 - 50 F5 01 (关餐厅影视)
2025-09-21 22:35:39.699 - 50 F5 08 (关客厅影视)
2025-09-21 22:35:40.747 - 50 F5 03 (关外卫影视)
2025-09-21 22:35:41.796 - 55 0A 31 00 00 00 01 91 (厨房顶灯一关)
2025-09-21 22:35:42.844 - 55 0A 31 00 00 00 02 92 (厨房顶灯二关)
2025-09-21 22:35:43.887 - 55 0C 31 00 00 00 01 93 (餐厅顶灯关)
2025-09-21 22:35:44.936 - 1A 18 05 10 31 00 01 00 0F (自保持开关地址-门厅顶灯, 门厅顶灯关)
2025-09-21 22:35:45.982 - 1A 20 07 00 42 00 01 00 0F (自保持开关地址-外卫顶灯, 外卫顶灯关)
2025-09-21 22:35:47.030 - 1A 18 05 21 89 00 01 00 0F (自保持开关地址-客厅顶灯, 客厅顶灯一关)
2025-09-21 22:35:48.127 - 1A 18 05 01 94 00 01 00 0F (自保持开关地址-客厅顶灯, 客厅顶灯二关)
2025-09-21 22:35:49.171 - 1A 20 07 01 30 00 01 00 0F (自保持开关地址-西阳顶灯, 西阳顶灯关)
2025-09-21 22:35:50.225 - 1A FF 01 FF FF FF 00 01 FF 00 01 FF 00 00 0F (调光器地址-公共区域统配地址, 公共区域灯光全关)
2025-09-21 22:35:51.313 - 09 06 00 0F 02 02 38 20 (提示音咚)
2025-09-21 22:35:53.358 - EE 00 00 B1 00 00 02 FF FC FF FF (情景完成返回主页)
2025-09-21 22:35:55.793 - 19 08 24 03 CC 01 CD 00 01 (调用茶吧感应灯关的按键)
2025-09-21 22:35:55.843 - 1A AA AA AA 88 FF 00 01 FF 00 01 0F (调光器地址-茶吧灯带, 茶吧灯带关闭)
2025-09-21 22:42:49.173 - 19 08 24 03 DD 00 4F 00 01 (调用情景-内卫使用完毕)
2025-09-21 22:42:49.720 - EE 00 00 B1 00 00 00 FF FC FF FF (情景执行提示)
2025-09-21 22:42:50.318 - 09 06 00 0F 02 01 78 21 (提示音叮)
2025-09-21 22:42:50.870 - 1A 0C 02 08 01 FF 00 01 FF 00 01 FF 00 00 0F (调光器地址-内卫射灯, 内卫感应灯关)
2025-09-21 22:42:54.946 - 50 F5 04 (关内卫影视)
2025-09-21 22:42:55.499 - 1A 20 07 01 40 00 01 00 0F (自保持开关地址-内卫顶灯, 内卫顶灯关)
2025-09-21 22:42:56.044 - 1A FF FF FF 56 00 00 01 0F (人体感应地址-内卫, 打开内卫感应)
2025-09-21 22:42:56.120 - BC BC
2025-09-21 22:42:56.427 - 19 08 24 03 CC 01 54 00 01 (调用内卫感应灯开的按键)
2025-09-21 22:42:56.479 - 1A 0C 02 08 01 FF 45 01 FF 45 01 FF 00 00 0F (调光器地址-内卫射灯, 内卫射灯微光)
2025-09-21 22:42:58.864 - 09 06 00 0F 02 02 38 20 (提示音咚)
2025-09-21 22:42:59.461 - EE 00 00 B1 00 00 02 FF FC FF FF (情景完成返回主页)
2025-09-21 22:43:12.661 - 19 08 24 03 CC 01 55 00 01 (调用内卫感应灯关的按键)
2025-09-21 22:43:12.695 - 1A 0C 02 08 01 FF 00 01 FF 00 01 FF 00 00 0F (调光器地址-内卫射灯, 内卫感应灯关)
2025-09-21 22:53:57.246 - 1A FF FF FF 04 FC (继电器地址-东阳衣架)
2025-09-21 22:53:57.380 - FF
2025-09-21 23:11:54.194 - 1A BE B0 DC 0A (继电器地址-客厅纱帘)
2025-09-21 23:44:21.224 - 19 08 24 03 DD 00 4B 00 01 (调用情景-主卧睡觉)
2025-09-21 23:44:21.793 - EE 00 00 B1 00 00 00 FF FC FF FF (情景执行提示)
2025-09-21 23:44:22.386 - 09 06 00 0F 02 01 78 21 (提示音叮)
2025-09-21 23:44:22.981 - 50 F5 04 (关内卫影视)
2025-09-21 23:44:23.584 - 55 11 1D 03 01 7C 06 (主卧纱帘关)
2025-09-21 23:44:23.625 - 55 11 1D 03 01 7C 06 (主卧纱帘关)
2025-09-21 23:44:24.678 - 55 12 12 03 02 0C 40 (主卧窗帘关)
2025-09-21 23:44:24.724 - 55 12 12 03 02 0C 40 (主卧窗帘关)
2025-09-21 23:44:25.778 - 1A 22 33 62 0F 00 02 01 0F (正反转地址-内卫卷帘, 内卫卷帘降)
2025-09-21 23:44:26.825 - 1A 20 07 01 40 00 01 00 0F (自保持开关地址-内卫顶灯, 内卫顶灯关)
2025-09-21 23:44:27.871 - 1A 20 07 01 55 00 01 00 0F (自保持开关地址-主卧顶灯, 主卧顶灯只关)
2025-09-21 23:44:28.419 - 1A FF FF FF 56 00 00 01 0F (人体感应地址-内卫, 打开内卫感应)
2025-09-21 23:44:28.430 - BC BC
2025-09-21 23:44:32.017 - 1A 0C 02 08 01 FF 00 01 FF 00 01 FF 00 00 0F (调光器地址-内卫射灯, 内卫感应灯关)
2025-09-21 23:44:32.611 - 1A 0C 02 04 01 FF 00 01 FF 00 01 FF 00 00 0F (调光器地址-主卧筒灯, 主卧筒灯关闭)
2025-09-21 23:44:33.214 - 1A 0C 02 04 03 FF 00 01 FF 00 01 FF 00 00 0F (调光器地址-主卧灯带, 主卧灯带关闭)
2025-09-21 23:44:33.810 - 1A 0C 02 04 04 FF 00 01 FF 00 01 FF 00 00 0F (调光器地址-主卧南阅, 主卧南阅关闭)
2025-09-21 23:44:34.408 - 1A 0C 02 04 05 FF 00 01 FF 00 01 FF 00 00 0F (调光器地址-主卧北阅, 主卧北阅关闭)
2025-09-21 23:44:35.007 - 1A 0C 02 04 02 FF 00 01 FF 00 01 FF 00 00 0F (调光器地址-主卧过道, 主卧过道关闭)
2025-09-21 23:44:35.597 - 09 06 00 0F 02 02 38 20 (提示音咚)
2025-09-21 23:44:36.146 - EE 00 00 B1 00 00 02 FF FC FF FF (情景完成返回主页)
2025-09-21 23:51:28.095 - FF FF FF FF 0A FF (继电器地址-东阳窗帘)
2025-09-21 23:51:28.231 - FF
2025-09-22 00:13:18.390 - 1A BE B0 DC 04 (继电器地址-西阳窗帘)
2025-09-22 00:35:41.385 - 19 08 24 03 CC 01 52 00 01 (调用外卫感应灯开的按键)
2025-09-22 00:35:41.435 - 1A 0D 01 07 01 FF 45 01 FF 45 01 FF 00 00 0F (调光器地址-外卫射灯, 外卫感应灯开)
2025-09-22 00:38:34.724 - 19 08 24 03 CC 01 53 00 01 (调用外卫感应灯关的按键)
2025-09-22 00:38:34.781 - 1A 0D 01 07 01 FF 00 01 FF 00 01 FF 00 00 0F (调光器地址-外卫射灯, 外卫感应灯关)
2025-09-22 00:49:19.095 - 19 08 24 03 CC 01 54 00 01 (调用内卫感应灯开的按键)
2025-09-22 00:49:19.123 - 1A 0C 02 08 01 FF 45 01 FF 45 01 FF 00 00 0F (调光器地址-内卫射灯, 内卫射灯微光)
2025-09-22 00:51:17.824 - 19 08 24 03 CC 01 55 00 01 (调用内卫感应灯关的按键)
2025-09-22 00:51:17.857 - 1A 0C 02 08 01 FF 00 01 FF 00 01 FF 00 00 0F (调光器地址-内卫射灯, 内卫感应灯关)
2025-09-22 00:52:59.524 - 19 08 24 03 CC 01 54 00 01 (调用内卫感应灯开的按键)
2025-09-22 00:52:59.557 - 1A 0C 02 08 01 FF 45 01 FF 45 01 FF 00 00 0F (调光器地址-内卫射灯, 内卫射灯微光)
2025-09-22 00:53:20.063 - 19 08 24 03 CC 01 55 00 01 (调用内卫感应灯关的按键)
2025-09-22 00:53:20.099 - 1A 0C 02 08 01 FF 00 01 FF 00 01 FF 00 00 0F (调光器地址-内卫射灯, 内卫感应灯关)
2025-09-22 01:27:25.768 - 1A BE B0 DC 03 FC (继电器地址-西阳天幕)
2025-09-22 01:27:25.903 - FF
2025-09-22 01:40:22.943 - 1A BE B0 DC 01 FC (继电器地址-回水泵点动)
2025-09-22 01:40:23.079 - FF
2025-09-22 01:48:09.168 - 1A BE B0 DC 02 FC (正反转地址-外卫卷帘)
2025-09-22 01:48:09.304 - FF
2025-09-22 01:55:01.065 - 1A BE B0 DC 09 (继电器地址-客厅窗帘)
2025-09-22 01:55:01.199 - FF
2025-09-22 01:55:49.757 - FF FF FF FF 0E (继电器地址-西阳小窗帘)
2025-09-22 01:55:49.893 - FF
2025-09-22 02:15:22.109 - 1A FF FF FF 04 FC (继电器地址-东阳衣架)
2025-09-22 02:33:07.808 - 1A BE B0 DC 0A (继电器地址-客厅纱帘)
2025-09-22 02:33:07.948 - FC
2025-09-22 02:59:49.395 - 50 F7 01 (全屋影音全关)
2025-09-22 03:11:33.463 - FF FF FF FF 0A (继电器地址-东阳窗帘)
2025-09-22 03:32:57.907 - 1A BE B0 DC 04 (继电器地址-西阳窗帘)
2025-09-22 03:32:58.037 - FF
2025-09-22 04:29:50.071 - EE 00 00 B1 00 00 00 FF FC FF FF (情景执行提示)
2025-09-22 04:29:50.664 - A5 00 A2 FF 00 AA (餐厅纱帘关)
2025-09-22 04:29:51.761 - A5 00 A6 FF 00 AA (餐厅窗帘关)
2025-09-22 04:29:51.813 - 55 00 A6 01 00 0E 01 74 AA 55 00 A6 01 00 0E 01 74 AA (餐厅窗帘电机状态返回)
2025-09-22 04:29:52.889 - A5 00 B7 FF 00 AA 22 0D (书房纱帘关)
2025-09-22 04:29:53.956 - A5 00 D2 FF 00 AA 22 0C (书房窗帘关)
2025-09-22 04:29:54.007 - 55 00 D2 01 00 0E 01 0B AA 55 00 D2 01 00 0E 01 0B AA (书房窗帘电机状态返回)
2025-09-22 04:29:55.057 - EE 00 00 B1 00 00 02 FF FC FF FF (情景完成返回主页)
2025-09-22 04:30:00.546 - 55 00 A6 00 01 66 01 74 AA 55 00 A6 00 01 66 01 74 AA (餐厅窗帘电机状态返回)
2025-09-22 04:30:03.392 - 55 00 D2 00 00 FE 01 0B AA 55 00 D2 00 00 FE 01 0B AA (书房窗帘电机状态返回)
2025-09-22 04:30:13.080 - 55 00 A6 00 01 65 01 74 AA 55 00 A6 00 01 65 01 74 AA (餐厅窗帘电机状态返回)
2025-09-22 04:48:17.049 - 1A BE B0 DC 03 FE (继电器地址-西阳天幕)
2025-09-22 05:01:10.710 - 1A BE B0 DC 01 (继电器地址-回水泵点动)
2025-09-22 05:01:10.845 - FF
2025-09-22 05:08:35.456 - 1A BE B0 DC 02 FF (正反转地址-外卫卷帘)
2025-09-22 05:08:35.593 - FE
2025-09-22 05:15:16.795 - 1A BE B0 DC 09 FF (继电器地址-客厅窗帘)
2025-09-22 05:15:16.929 - FF
2025-09-22 05:15:48.436 - FF FF FF FF 0E FC (继电器地址-西阳小窗帘)
2025-09-22 05:15:48.570 - FE
2025-09-22 05:21:56.845 - 19 08 24 03 CC 01 54 00 01 (调用内卫感应灯开的按键)
2025-09-22 05:21:56.899 - 1A 0C 02 08 01 FF 45 01 FF 45 01 FF 00 00 0F (调光器地址-内卫射灯, 内卫射灯微光)
2025-09-22 05:24:34.657 - 19 08 24 03 CC 01 55 00 01 (调用内卫感应灯关的按键)
2025-09-22 05:24:34.713 - 1A 0C 02 08 01 FF 00 01 FF 00 01 FF 00 00 0F (调光器地址-内卫射灯, 内卫感应灯关)
2025-09-22 05:36:11.574 - 1A FF FF FF 04 (继电器地址-东阳衣架)
2025-09-22 05:53:41.206 - 1A BE B0 DC 0A FC (继电器地址-客厅纱帘)
2025-09-22 06:31:38.595 - FF FF FF FF 0A FE (继电器地址-东阳窗帘)
2025-09-22 06:31:38.727 - FF
2025-09-22 06:44:49.208 - EE 00 00 B1 00 00 00 FF FC FF FF (情景执行提示)
2025-09-22 06:44:49.800 - 09 06 00 0F 02 01 78 21 (提示音叮)
2025-09-22 06:44:50.393 - 50 F0 04 (开内卫影视)
2025-09-22 06:44:50.941 - 50 F0 05 (开主卧影视)
2025-09-22 06:44:51.496 - 55 11 1D 03 01 7C 06 (主卧纱帘关)
2025-09-22 06:44:51.538 - 55 11 1D 03 01 7C 06 (主卧纱帘关)
2025-09-22 06:44:52.092 - 55 11 1D 03 01 7C 06 (主卧纱帘关)
2025-09-22 06:44:52.134 - 55 11 1D 03 01 7C 06 (主卧纱帘关)
2025-09-22 06:44:52.689 - 55 12 12 03 01 4C 41 (主卧窗帘开)
2025-09-22 06:44:52.732 - 55 12 12 03 01 4C 41 (主卧窗帘开)
2025-09-22 06:44:53.787 - 55 12 12 03 01 4C 41 (主卧窗帘开)
2025-09-22 06:44:53.830 - 55 12 12 03 01 4C 41 (主卧窗帘开)
2025-09-22 06:44:54.888 - 1A 22 33 62 0F 00 02 01 0F (正反转地址-内卫卷帘, 内卫卷帘降)
2025-09-22 06:44:55.431 - 1A FF FF FF 56 00 00 00 0F (人体感应地址-内卫, 关闭内卫感应)
2025-09-22 06:44:55.544 - BC BC
2025-09-22 06:44:55.983 - 1A 20 07 01 55 00 01 00 0F (自保持开关地址-主卧顶灯, 主卧顶灯只关)
2025-09-22 06:44:57.035 - 1A 0C 02 08 01 FF F0 01 FF F0 01 FF 00 00 0F (调光器地址-内卫射灯, 内卫射灯明亮)
2025-09-22 06:44:57.635 - 1A 0C 02 04 01 FF 00 01 FF 00 01 FF 00 00 0F (调光器地址-主卧筒灯, 主卧筒灯关闭)
2025-09-22 06:44:58.260 - 1A 0C 02 04 03 FF 45 01 FF 45 01 FF 00 00 0F (调光器地址-主卧灯带, 主卧灯带微光)
2025-09-22 06:44:58.828 - 1A 0C 02 04 02 FF F0 01 FF 00 01 FF 00 00 0F (调光器地址-主卧过道, 主卧过道暖光)
2025-09-22 06:44:59.426 - 1A 0C 02 04 05 FF 00 01 FF 00 01 FF 00 00 0F (调光器地址-主卧北阅, 主卧北阅关闭)
2025-09-22 06:45:00.024 - 1A 0C 02 04 04 FF 00 01 FF 00 01 FF 00 00 0F (调光器地址-主卧南阅, 主卧南阅关闭)
2025-09-22 06:45:01.107 - 50 F1 24 (内卫—有线2)
2025-09-22 06:45:02.156 - 50 F1 25 (主卧—有线2)
2025-09-22 06:45:03.203 - AF BF CF DF C2 21 (有线2/快捷-凤凰卫视)
2025-09-22 06:45:03.753 - 1A FF FF FF 60 0B 01 01 0F (红外总线地址-主卧发射设备, 主卧电视电源)
2025-09-22 06:45:04.800 - 1A BE B0 DC 01 00 01 00 (继电器地址-回水泵点动, 回水泵点动)
2025-09-22 06:45:08.841 - 09 06 00 0F 02 02 38 20 (提示音咚)
2025-09-22 06:45:09.392 - EE 00 00 B1 00 00 02 FF FC FF FF (情景完成返回主页)
2025-09-22 06:45:10.483 - A1 11 11 11 11 01 (内卫浴霸取暖判断)
2025-09-22 06:45:10.710 - 14 03 00 00 00 02 C6 CE (查询内卫温湿度)
2025-09-22 06:45:10.731 - 14 03 04 01 E2 00 F3 5F 7D (内卫温湿度返回)
2025-09-22 06:53:04.675 - 1A BE B0 DC 04 FC (继电器地址-西阳窗帘)
2025-09-22 07:16:21.132 - 19 08 24 03 DD 00 40 00 01 (调用情景-离开主卧)
2025-09-22 07:16:21.670 - EE 00 00 B1 00 00 00 FF FC FF FF (情景执行提示)
2025-09-22 07:16:22.264 - 09 06 00 0F 02 01 78 21 (提示音叮)
2025-09-22 07:16:22.809 - 50 F5 05 (关主卧影视)
2025-09-22 07:16:23.355 - 50 F5 04 (关内卫影视)
2025-09-22 07:16:23.910 - 01 06 07 D6 FF 60 28 9E (主卧空调关)
2025-09-22 07:16:23.941 - 01 06 07 D6 FF 60 28 9E (主卧空调关)
2025-09-22 07:16:24.505 - 55 12 12 03 01 4C 41 (主卧窗帘开)
2025-09-22 07:16:24.548 - 55 12 12 03 01 4C 41 (主卧窗帘开)
2025-09-22 07:16:25.602 - 55 12 12 03 01 4C 41 (主卧窗帘开)
2025-09-22 07:16:25.644 - 55 12 12 03 01 4C 41 (主卧窗帘开)
2025-09-22 07:16:26.704 - 55 11 1D 03 02 3C 07 (主卧纱帘开)
2025-09-22 07:16:26.741 - 55 11 1D 03 02 3C 07 (主卧纱帘开)
2025-09-22 07:16:27.297 - 55 11 1D 03 02 3C 07 (主卧纱帘开)
2025-09-22 07:16:27.337 - 55 11 1D 03 02 3C 07 (主卧纱帘开)
2025-09-22 07:16:27.929 - 1A 22 33 62 0F 00 00 01 0F (正反转地址-内卫卷帘, 内卫卷帘升)
2025-09-22 07:16:28.993 - 1A 20 07 01 40 00 01 00 0F (自保持开关地址-内卫顶灯, 内卫顶灯关)
2025-09-22 07:16:30.039 - 1A 20 07 01 55 00 01 00 0F (自保持开关地址-主卧顶灯, 主卧顶灯只关)
2025-09-22 07:16:30.595 - 1A 0C 02 08 01 FF 00 01 FF 00 01 FF 00 00 0F (调光器地址-内卫射灯, 内卫感应灯关)
2025-09-22 07:16:31.185 - 1A FF FF FF 56 00 00 01 0F (人体感应地址-内卫, 打开内卫感应)
2025-09-22 07:16:31.300 - BF BF
2025-09-22 07:16:31.610 - 19 08 24 03 CC 01 54 00 01 (调用内卫感应灯开的按键)
2025-09-22 07:16:31.659 - 1A 0C 02 08 01 FF 45 01 FF 45 01 FF 00 00 0F (调光器地址-内卫射灯, 内卫射灯微光)
2025-09-22 07:16:35.052 - 1A 0C 02 04 FF FF 00 01 FF 00 01 FF 00 00 0F (主卧调光全关)
2025-09-22 07:16:36.140 - 09 06 00 0F 02 02 38 20 (提示音咚)
2025-09-22 07:16:36.743 - EE 00 00 B1 00 00 02 FF FC FF FF (情景完成返回主页)
2025-09-22 07:16:38.580 - 19 08 24 03 CC 01 CC 00 01 (调用茶吧感应灯开的按键)
2025-09-22 07:16:38.611 - 1A AA AA AA 88 FF B0 01 FF B0 01 0F (调光器地址-茶吧灯带, 茶吧灯带明亮)
2025-09-22 07:17:07.884 - 19 08 24 03 CC 01 55 00 01 (调用内卫感应灯关的按键)
2025-09-22 07:17:07.915 - 1A 0C 02 08 01 FF 00 01 FF 00 01 FF 00 00 0F (调光器地址-内卫射灯, 内卫感应灯关)
2025-09-22 07:17:16.153 - 19 08 24 03 CC 01 CD 00 01 (调用茶吧感应灯关的按键)
2025-09-22 07:17:16.184 - 1A AA AA AA 88 FF 00 01 FF 00 01 0F (调光器地址-茶吧灯带, 茶吧灯带关闭)
2025-09-22 07:18:20.022 - 19 08 24 03 CC 01 54 00 01 (调用内卫感应灯开的按键)
2025-09-22 07:18:20.058 - 1A 0C 02 08 01 FF 45 01 FF 45 01 FF 00 00 0F (调光器地址-内卫射灯, 内卫射灯微光)
2025-09-22 07:18:41.065 - 19 08 24 03 CC 01 55 00 01 (调用内卫感应灯关的按键)
2025-09-22 07:18:41.098 - 1A 0C 02 08 01 FF 00 01 FF 00 01 FF 00 00 0F (调光器地址-内卫射灯, 内卫感应灯关)
2025-09-22 07:20:22.820 - 19 08 24 03 CC 01 52 00 01 (调用外卫感应灯开的按键)
2025-09-22 07:20:22.857 - 1A 0D 01 07 01 FF 45 01 FF 45 01 FF 00 00 0F (调光器地址-外卫射灯, 外卫感应灯开)
2025-09-22 07:25:02.373 - 19 08 24 03 CC 01 53 00 01 (调用外卫感应灯关的按键)
2025-09-22 07:25:02.407 - 1A 0D 01 07 01 FF 00 01 FF 00 01 FF 00 00 0F (调光器地址-外卫射灯, 外卫感应灯关)
2025-09-22 07:25:22.409 - 19 08 24 03 DD 00 29 00 01 (调用情景-次卧照明关帘)
2025-09-22 07:25:22.953 - EE 00 00 B1 00 00 00 FF FC FF FF (情景执行提示)
2025-09-22 07:25:23.550 - 09 06 00 0F 02 01 78 21 (提示音叮)
2025-09-22 07:25:24.104 - 1A 0E 03 05 01 FF F0 01 FF F0 01 FF 00 00 0F (调光器地址-次卧射灯, 次卧射灯明亮)
2025-09-22 07:25:24.700 - 1A 0E 03 05 02 FF F0 01 FF F0 01 FF 00 00 0F (调光器地址-次卧灯带, 次卧灯带明亮)
2025-09-22 07:25:25.290 - A5 00 21 FF 00 AA (次卧纱帘关)
2025-09-22 07:25:26.338 - A5 00 76 FF 00 AA (次卧窗帘关)
2025-09-22 07:25:27.395 - 1A 0E 03 05 04 FF F0 01 FF F0 01 FF 00 00 0F (调光器地址-次卧北筒灯, 次卧北筒灯明亮)
2025-09-22 07:25:27.990 - 1A 0E 03 05 05 FF F0 01 FF F0 01 FF 00 00 0F (调光器地址-次卧南筒灯, 次卧南筒灯明亮)
2025-09-22 07:25:28.581 - 09 06 00 0F 02 02 38 20 (提示音咚)
2025-09-22 07:25:29.133 - EE 00 00 B1 00 00 02 FF FC FF FF (情景完成返回主页)
2025-09-22 07:31:31.641 - 19 08 24 03 CC 01 52 00 01 (调用外卫感应灯开的按键)
2025-09-22 07:31:31.674 - 1A 0D 01 07 01 FF 45 01 FF 45 01 FF 00 00 0F (调光器地址-外卫射灯, 外卫感应灯开)
2025-09-22 07:31:46.169 - 19 08 24 03 CC 01 53 00 01 (调用外卫感应灯关的按键)
2025-09-22 07:31:46.204 - 1A 0D 01 07 01 FF 00 01 FF 00 01 FF 00 00 0F (调光器地址-外卫射灯, 外卫感应灯关)
2025-09-22 07:33:58.658 - 19 08 24 03 CC 01 CC 00 01 (调用茶吧感应灯开的按键)
2025-09-22 07:33:58.692 - 1A AA AA AA 88 FF B0 01 FF B0 01 0F (调光器地址-茶吧灯带, 茶吧灯带明亮)
2025-09-22 07:35:04.788 - 19 08 24 03 CC 01 CD 00 01 (调用茶吧感应灯关的按键)
2025-09-22 07:35:04.817 - 1A AA AA AA 88 FF 00 01 FF 00 01 0F (调光器地址-茶吧灯带, 茶吧灯带关闭)
2025-09-22 07:36:23.557 - 19 08 24 03 DD 00 00 00 01 (调用情景-离家（末）)
2025-09-22 07:36:24.089 - EE 00 00 B1 00 00 00 FF FC FF FF (情景执行提示)
2025-09-22 07:36:24.684 - 09 06 00 0F 02 02 38 20 (提示音咚)
2025-09-22 07:36:25.227 - 50 F7 01 (全屋影音全关)
2025-09-22 07:36:25.780 - 01 06 07 D0 FF 60 C8 9F (客厅空调关)
2025-09-22 07:36:25.805 - 01 06 07 D0 FF 60 C8 9F (客厅空调关)
2025-09-22 07:36:26.377 - 01 06 07 D0 FF 60 C8 9F (客厅空调关)
2025-09-22 07:36:26.486 - FD E7 F7 DF FF 7F CE 9F
2025-09-22 07:36:26.924 - 01 06 07 D3 FF 60 38 9F (餐厅空调关)
2025-09-22 07:36:26.965 - 01 06 07 D3 FF 60 38 9F (餐厅空调关)
2025-09-22 07:36:27.553 - 01 06 07 D3 FF 60 38 9F (餐厅空调关)
2025-09-22 07:36:27.586 - 01 06 07 D3 FF 60 38 9F (餐厅空调关)
2025-09-22 07:36:28.122 - 01 06 07 D6 FF 60 28 9E (主卧空调关)
2025-09-22 07:36:28.151 - 01 06 07 D6 FF 60 28 9E (主卧空调关)
2025-09-22 07:36:28.720 - 01 06 07 D6 FF 60 28 9E (主卧空调关)
2025-09-22 07:36:28.744 - 01 06 07 D6 FF 60 28 9E (主卧空调关)
2025-09-22 07:36:29.319 - 01 06 07 D9 FF 60 18 9D (次卧空调关)
2025-09-22 07:36:29.354 - 01 06 07 D9 FF 60 18 9D (次卧空调关)
2025-09-22 07:36:29.915 - 01 06 07 D9 FF 60 18 9D (次卧空调关)
2025-09-22 07:36:29.949 - 01 06 07 D9 FF 60 18 9D (次卧空调关)
2025-09-22 07:36:30.513 - 01 06 07 DC FF 60 08 9C (书房空调关)
2025-09-22 07:36:30.546 - 01 06 07 DC FF 60 08 9C (书房空调关)
2025-09-22 07:36:31.109 - 01 06 07 DC FF 60 08 9C (书房空调关)
2025-09-22 07:36:31.142 - 01 06 07 DC FF 60 08 9C (书房空调关)
2025-09-22 07:36:31.707 - 09 06 00 0F 02 02 38 20 (提示音咚)
2025-09-22 07:36:32.257 - 1A FF FF FF 56 00 00 00 0F (人体感应地址-内卫, 关闭内卫感应)
2025-09-22 07:36:32.371 - BF BF
2025-09-22 07:36:32.807 - 1A FF FF FF 55 00 00 00 0F (人体感应地址-外卫, 关闭外卫感应)
2025-09-22 07:36:32.908 - BC BC
2025-09-22 07:36:33.354 - 1A FF FF FF 57 00 00 00 0F (人体感应地址-厨房, 关闭厨房感应)
2025-09-22 07:36:33.457 - BE BE
2025-09-22 07:36:33.903 - 1A FF FF FF 58 00 00 00 0F (人体感应地址-茶吧, 关闭茶吧感应)
2025-09-22 07:36:33.958 - BC BC
2025-09-22 07:36:34.499 - 1A 20 07 00 93 00 01 00 0F (自保持开关地址-设备区顶, 设备区顶灯关)
2025-09-22 07:36:35.597 - 1A 20 07 01 40 00 01 00 0F (自保持开关地址-内卫顶灯, 内卫顶灯关)
2025-09-22 07:36:36.695 - 1A 20 07 01 55 00 01 00 0F (自保持开关地址-主卧顶灯, 主卧顶灯只关)
2025-09-22 07:36:37.789 - 1A 20 07 00 42 00 01 00 0F (自保持开关地址-外卫顶灯, 外卫顶灯关)
2025-09-22 07:36:38.915 - 55 0D 31 00 00 00 01 94 (书房顶灯只关)
2025-09-22 07:36:39.982 - 55 0A 31 00 00 00 01 91 (厨房顶灯一关)
2025-09-22 07:36:41.029 - 55 0A 31 00 00 00 02 92 (厨房顶灯二关)
2025-09-22 07:36:42.073 - 55 0B 31 00 00 00 01 92 (厨房风扇只关)
2025-09-22 07:36:43.119 - 55 0C 31 00 00 00 01 93 (餐厅顶灯关)
2025-09-22 07:36:44.166 - 1A 20 07 01 30 00 01 00 0F (自保持开关地址-西阳顶灯, 西阳顶灯关)
2025-09-22 07:36:45.213 - 1A 18 05 21 89 00 01 00 0F (自保持开关地址-客厅顶灯, 客厅顶灯一关)
2025-09-22 07:36:46.258 - 1A 18 05 01 94 00 01 00 0F (自保持开关地址-客厅顶灯, 客厅顶灯二关)
2025-09-22 07:36:47.307 - 1A 20 07 00 70 00 01 00 0F (自保持开关地址-次卧顶灯, 次卧顶灯只关)
2025-09-22 07:36:48.354 - 1A 18 05 10 31 00 01 00 0F (自保持开关地址-门厅顶灯, 门厅顶灯关)
2025-09-22 07:36:49.396 - 1A FF FF FF 04 00 03 02 (继电器地址-东阳衣架, 东阳衣架照明关)
2025-09-22 07:36:49.948 - 09 06 00 0F 02 02 38 20 (提示音咚)
2025-09-22 07:36:50.495 - A5 00 A6 FE 01 AA (餐厅窗帘开)
2025-09-22 07:36:50.542 - 55 00 A6 02 01 65 01 74 AA 55 00 A6 02 01 65 01 74 AA (餐厅窗帘电机状态返回)
2025-09-22 07:36:51.092 - FF FF FF FF 0A 00 01 00 (继电器地址-东阳窗帘, 东阳窗帘开)
2025-09-22 07:36:51.639 - 1A BE B0 DC 04 00 01 00 (继电器地址-西阳窗帘, 西阳窗帘开)
2025-09-22 07:36:52.191 - FF FF FF FF 0E 00 01 00 (继电器地址-西阳小窗帘, 西阳小窗帘开)
2025-09-22 07:36:52.739 - 1A 22 33 62 0F 00 00 01 0F (正反转地址-内卫卷帘, 内卫卷帘升)
2025-09-22 07:36:53.285 - 55 12 12 03 01 4C 41 (主卧窗帘开)
2025-09-22 07:36:53.324 - 55 12 12 03 01 4C 41 (主卧窗帘开)
2025-09-22 07:36:53.884 - 55 11 1D 03 02 3C 07 (主卧纱帘开)
2025-09-22 07:36:53.924 - 55 11 1D 03 02 3C 07 (主卧纱帘开)
2025-09-22 07:36:54.481 - A5 00 76 FE 01 AA (次卧窗帘开)
2025-09-22 07:36:54.528 - 55 00 76 02 01 0E 01 1B AA 55 00 76 02 01 0E 01 1B AA (次卧窗帘电机状态返回)
2025-09-22 07:36:55.079 - A5 00 21 FE 01 AA (次卧纱帘开)
2025-09-22 07:36:55.128 - 55 00 21 02 01 27 01 34 AA 55 00 21 02 01 27 01 34 AA (次卧纱帘电机状态返回)
2025-09-22 07:36:55.676 - A5 00 D2 FE 01 AA 22 0D (书房窗帘开)
2025-09-22 07:36:55.723 - 55 00 D2 02 00 FE 01 0B AA 55 00 D2 02 00 FE 01 0B AA (书房窗帘电机状态返回)
2025-09-22 07:36:56.274 - 1A BE B0 DC 09 00 01 00 (继电器地址-客厅窗帘, 客厅窗帘开)
2025-09-22 07:36:56.824 - 1A BE B0 DC 0A 00 02 00 (继电器地址-客厅纱帘, 客厅纱帘开)
2025-09-22 07:36:57.369 - 09 06 00 0F 02 02 38 20 (提示音咚)
2025-09-22 07:36:58.417 - 1A EC A0 DC 02 00 00 00 0F (自保持开关地址-天花12V供电, 天花12V 供电关)
2025-09-22 07:36:58.965 - 1A EC A0 DC 02 00 00 00 0F (自保持开关地址-天花12V供电, 天花12V 供电关)
2025-09-22 07:36:59.507 - 55 00 A6 00 00 0E 01 74 AA 55 00 A6 00 00 0E 01 74 AA (餐厅窗帘电机状态返回)
2025-09-22 07:36:59.531 - 1A EC A0 DC 01 00 00 00 0F (自保持开关地址-电视、设备12V供电, 12V 电视供电关)
2025-09-22 07:37:00.113 - 1A EC A0 DC 01 00 00 00 0F (自保持开关地址-电视、设备12V供电, 12V 电视供电关)
2025-09-22 07:37:00.660 - 1A EC A0 DC 04 00 01 00 0F (自保持开关地址-次卧西阳内外卫供电, 内卫外卫关)
2025-09-22 07:37:01.209 - 1A EC A0 DC 04 00 01 00 0F (自保持开关地址-次卧西阳内外卫供电, 内卫外卫关)
2025-09-22 07:37:02.177 - 55 00 21 00 00 0D 01 34 AA 55 00 21 00 00 0D 01 34 AA (次卧纱帘电机状态返回)
2025-09-22 07:37:02.467 - 55 00 76 00 00 0E 01 1B AA 55 00 76 00 00 0E 01 1B AA (次卧窗帘电机状态返回)
2025-09-22 07:37:02.751 - 1A BB BB BB 01 02 00 (开水器电源关)
2025-09-22 07:37:03.706 - 55 00 D2 00 00 0E 01 0B AA 55 00 D2 00 00 0E 01 0B AA (书房窗帘电机状态返回)
2025-09-22 07:37:15.851 - 09 06 00 0F 02 02 38 20 (提示音咚)
2025-09-22 07:37:16.398 - 1A 27 89 12 AA 00 00 00 0F (状态寄存器地址, 无人状态)
2025-09-22 07:37:16.953 - 1A 27 89 12 AA 00 00 00 0F (状态寄存器地址, 无人状态)
2025-09-22 07:37:17.490 - A1 11 11 11 4D (天花供电关闭确认)
2025-09-22 07:37:17.715 - 1A EC A0 DC 02 86 86 86 0F (查询天花供电状态, 自保持开关地址-天花12V供电)
2025-09-22 07:37:18.148 - 1A EC A0 DC 02 00 01 0F (自保持开关地址-天花12V供电)
2025-09-22 07:37:20.535 - A1 11 11 11 4E (卫生供电关闭确认)
2025-09-22 07:37:20.754 - 1A EC A0 DC 04 86 86 86 0F (查询卫生间供电状态, 自保持开关地址-次卧西阳内外卫供电)
2025-09-22 07:37:21.185 - 1A EC A0 DC 04 01 00 0F (自保持开关地址-次卧西阳内外卫供电)
2025-09-22 07:37:23.577 - A1 11 11 11 4F (电视供电关闭确认)
2025-09-22 07:37:23.801 - 1A EC A0 DC 01 86 86 86 0F (查询电视供电状态, 自保持开关地址-电视、设备12V供电)
2025-09-22 07:37:24.236 - 1A EC A0 DC 01 00 01 0F (自保持开关地址-电视、设备12V供电)
2025-09-22 07:37:26.617 - 09 06 00 0F 02 02 38 20 (提示音咚)
2025-09-22 07:37:27.163 - 09 06 00 0F 02 02 38 20 (提示音咚)
2025-09-22 07:37:27.714 - EE 00 00 B1 00 00 02 FF FC FF FF (情景完成返回主页)
2025-09-22 07:37:28.804 - BA BA EE EE BA BA (离家设置信科变量)
2025-09-22 07:37:29.853 - A1 11 11 11 46 (天热离家遮阳)
2025-09-22 07:37:30.076 - 1A 27 89 12 AA 86 86 86 0F (查询寄存器状态, 状态寄存器地址)
2025-09-22 07:37:30.462 - 1A 27 89 12 AA 00 00 00 00 00 00 00 00 00 00 00 01 00 00 00 00 0F (状态寄存器地址)
2025-09-22 07:37:31.082 - 19 08 24 03 DD 00 05 00 01 (调用情景-天热遮阳关帘)
2025-09-22 07:37:31.653 - EE 00 00 B1 00 00 00 FF FC FF FF (情景执行提示)
2025-09-22 07:37:32.245 - 09 06 00 0F 02 01 78 21 (提示音叮)
2025-09-22 07:37:32.820 - A5 00 A2 FF 00 AA (餐厅纱帘关)
2025-09-22 07:37:33.886 - A5 00 A6 FF 00 AA (餐厅窗帘关)
2025-09-22 07:37:33.943 - 55 00 A6 01 00 0E 01 74 AA 55 00 A6 01 00 0E 01 74 AA (餐厅窗帘电机状态返回)
2025-09-22 07:37:34.986 - 55 11 1D 03 01 7C 06 (主卧纱帘关)
2025-09-22 07:37:35.026 - 55 11 1D 03 01 7C 06 (主卧纱帘关)
2025-09-22 07:37:36.081 - 55 12 12 03 02 0C 40 (主卧窗帘关)
2025-09-22 07:37:36.122 - 55 12 12 03 02 0C 40 (主卧窗帘关)
2025-09-22 07:37:37.175 - A5 00 21 FF 00 AA (次卧纱帘关)
2025-09-22 07:37:37.230 - 55 00 21 01 00 0D 01 34 AA 55 00 21 01 00 0D 01 34 AA (次卧纱帘电机状态返回)
2025-09-22 07:37:38.276 - A5 00 76 FF 00 AA (次卧窗帘关)
2025-09-22 07:37:38.325 - 55 00 76 01 00 0E 01 1B AA 55 00 76 01 00 0E 01 1B AA (次卧窗帘电机状态返回)
2025-09-22 07:37:39.372 - A5 00 B7 FF 00 AA 22 0D (书房纱帘关)
2025-09-22 07:37:40.419 - A5 00 D2 FF 00 AA 22 0C (书房窗帘关)
2025-09-22 07:37:40.475 - 55 00 D2 01 00 0E 01 0B AA 55 00 D2 01 00 0E 01 EB AB (书房窗帘电机状态返回)
2025-09-22 07:37:42.013 - 1A 22 33 62 5E 00 02 01 0F (正反转地址-厨房卷帘三, 厨房卷帘一降)
2025-09-22 07:37:42.993 - 55 00 A6 00 01 66 01 74 AA 55 00 A6 00 01 66 01 74 AA (餐厅窗帘电机状态返回)
2025-09-22 07:37:43.060 - 1A 22 33 62 56 00 02 01 0F (正反转地址-厨房卷帘二, 厨房卷帘二降)
2025-09-22 07:37:44.108 - 1A 22 33 62 4F 00 00 01 0F (正反转地址-厨房卷帘一, 厨房卷帘三降)
2025-09-22 07:37:44.734 - 55 00 21 00 01 27 01 34 AA 55 00 21 00 01 27 01 34 AA (次卧纱帘电机状态返回)
2025-09-22 07:37:45.156 - 1A BE B0 DC 04 00 02 00 (继电器地址-西阳窗帘, 西阳窗帘关)
2025-09-22 07:37:46.196 - FF FF FF FF 0E 00 02 00 (继电器地址-西阳小窗帘, 西阳小窗帘关)
2025-09-22 07:37:46.693 - 55 00 76 00 01 0E 01 1B AA 55 00 76 00 01 0E 01 1B AA (次卧窗帘电机状态返回)
2025-09-22 07:37:47.243 - 1A BE B0 DC 03 00 03 00 (继电器地址-西阳天幕, 西阳天幕关)
2025-09-22 07:37:48.291 - 1A BE B0 DC 03 00 03 00 (继电器地址-西阳天幕, 西阳天幕关)
2025-09-22 07:37:49.338 - 09 06 00 0F 02 02 38 20 (提示音咚)
2025-09-22 07:37:49.644 - 55 00 D2 00 00 FE 01 0B AA 55 00 D2 00 00 FE 01 0B AA (书房窗帘电机状态返回)
2025-09-22 07:37:49.888 - EE 00 00 B1 00 00 02 FF FC FF FF (情景完成返回主页)
2025-09-22 08:02:54.744 - 01 04 07 D0 00 06 70 85
2025-09-22 08:02:54.774 - 01 04 0C 70 00 42 02 00 FA 00 00 01 04 00 00 74 84
2025-09-22 08:02:54.903 - 01 04 07 D6 00 06 90 84
2025-09-22 08:02:54.937 - 01 04 0C 70 00 42 02 00 FA 00 00 01 04 00 00 74 84
2025-09-22 08:02:55.061 - 01 04 07 DC 00 06 B0 86
2025-09-22 08:02:55.097 - 01 04 0C 50 00 42 02 00 DC 00 00 01 04 00 00 B2 F9
2025-09-22 08:02:55.219 - 01 04 07 E2 00 06 D1 4A
2025-09-22 08:02:55.249 - 01 04 0C 70 00 42 02 00 FA 00 00 00 FA 00 00 14 88
2025-09-22 08:02:55.362 - 01 04 07 E8 00 06 F1 48
2025-09-22 08:02:55.391 - 01 04 0C 70 00 42 02 00 FA 00 00 01 0E 00 00 54 86
2025-09-22 08:11:10.053 - 1A BE B0 DC 03 (继电器地址-西阳天幕)
2025-09-22 08:11:10.188 - FF
2025-09-22 08:23:10.022 - 1A BE B0 DC 01 (继电器地址-回水泵点动)
2025-09-22 08:23:10.158 - FF
2025-09-22 08:31:02.480 - 1A BE B0 DC 02 (正反转地址-外卫卷帘)
2025-09-22 08:37:01.824 - 1A BE B0 DC 09 FC (继电器地址-客厅窗帘)
2025-09-22 08:37:01.956 - FE
2025-09-22 08:37:52.919 - FF FF FF FF 0E FC (继电器地址-西阳小窗帘)
2025-09-22 08:37:53.052 - FE
2025-09-22 08:59:07.536 - 1A FF FF FF 04 (继电器地址-东阳衣架)
2025-09-22 09:16:02.251 - 1A BE B0 DC 0A (继电器地址-客厅纱帘)
2025-09-22 09:16:02.388 - FE
2025-09-22 09:57:44.525 - FF FF FF FF 0A (继电器地址-东阳窗帘)
2025-09-22 09:57:44.659 - FF
2025-09-22 10:14:09.360 - 1A BE B0 DC 04 (继电器地址-西阳窗帘)
