2025-09-25 16:28:55.121 - 1A 18 05 10 31 00 01 00 0F (自保持开关地址-门厅顶灯, 门厅顶灯关)
2025-09-25 16:29:06.033 - 1A 18 05 10 31 86 86 86 0F (自保持开关地址-门厅顶灯)
2025-09-25 16:29:06.189 - 1A 18 05 10 31 00 00 00 00 0F (自保持开关地址-门厅顶灯)
2025-09-25 16:31:24.968 - 1A 18 05 10 31 00 01 01 0F (自保持开关地址-门厅顶灯, 门厅顶灯开)
2025-09-25 16:31:26.545 - 1A 18 05 10 31 00 01 00 0F (自保持开关地址-门厅顶灯, 门厅顶灯关)
2025-09-25 16:35:09.005 - 1A EC A0 DC 01 86 86 86 0F (查询电视供电状态, 自保持开关地址-电视、设备12V供电)
2025-09-25 16:35:09.437 - 1A EC A0 DC 01 00 01 0F (自保持开关地址-电视、设备12V供电)
2025-09-25 16:39:55.128 - FF FF FF FF 0A FF (继电器地址-东阳窗帘)
2025-09-25 16:49:03.516 - 1A BE B0 DC 03 FC (继电器地址-西阳天幕)
2025-09-25 16:49:03.650 - FF
2025-09-25 16:56:31.489 - FF FF FF FF 0E (继电器地址-西阳小窗帘)
2025-09-25 16:59:55.815 - 1A BE B0 DC 01 FE (继电器地址-回水泵点动)
2025-09-25 16:59:55.951 - FF
2025-09-25 17:00:49.596 - 1A BE B0 DC 02 FC (正反转地址-外卫卷帘)
2025-09-25 17:07:34.107 - 1A BE B0 DC 09 FC (继电器地址-客厅窗帘)
2025-09-25 17:07:34.242 - FF
2025-09-25 17:35:27.101 - 1A FF FF FF 04 (继电器地址-东阳衣架)
2025-09-25 17:35:27.239 - 00
2025-09-25 17:48:57.093 - 1A BE B0 DC 0A FC (继电器地址-客厅纱帘)
2025-09-25 18:25:36.293 - 1A BE B0 DC 04 (继电器地址-西阳窗帘)
2025-09-25 18:25:36.427 - FF
2025-09-25 19:48:28.916 - 01 04 07 D0 00 06 70 85
2025-09-25 19:48:28.946 - 01 04 0C 70 00 42 02 00 FA 00 00 01 22 00 00 95 4F
2025-09-25 19:48:29.073 - 01 04 07 D6 00 06 90 84
2025-09-25 19:48:29.107 - 01 04 0C 70 00 42 02 00 FA 00 00 01 22 00 00 95 4F
2025-09-25 19:48:29.228 - 01 04 07 DC 00 06 B0 86
2025-09-25 19:48:29.259 - 01 04 0C 50 00 42 02 00 DC 00 00 01 22 00 00 53 32
2025-09-25 19:48:29.386 - 01 04 07 E2 00 06 D1 4A
2025-09-25 19:48:29.420 - 01 04 0C 70 00 42 02 00 FA 00 00 01 18 00 00 B5 42
2025-09-25 19:48:29.542 - 01 04 07 E8 00 06 F1 48
2025-09-25 19:48:29.572 - 01 04 0C 70 00 42 02 00 FA 00 00 01 22 00 00 95 4F
2025-09-25 19:48:36.284 - 01 06 07 D0 FF 61 09 5F
2025-09-25 19:48:36.318 - 01 06 07 D0 FF 61 09 5F
2025-09-25 19:48:37.603 - 01 04 07 D0 00 06 70 85
2025-09-25 19:48:37.631 - 01 04 0C 70 01 42 02 00 FA 00 00 01 22 00 00 91 B3
2025-09-25 19:48:42.617 - 01 06 07 D3 FF 61 F9 5F
2025-09-25 19:48:42.671 - 01 06 07 D3 FF 61 F9
2025-09-25 19:48:43.931 - 01 04 07 D6 00 06 90 84
2025-09-25 19:48:43.963 - 01 04 0C 70 01 42 02 00 FA 00 00 01 22 00 00 91 B3
2025-09-25 19:48:50.423 - 01 06 07 D6 FF 61 E9 5E
2025-09-25 19:48:50.458 - 01 06 07 D6 FF 61 E9 5E
2025-09-25 19:48:51.722 - 01 04 07 DC 00 06 B0 86
2025-09-25 19:48:51.759 - 01 04 0C 50 01 42 02 00 DC 00 00 01 22 00 00 57 CE
2025-09-25 20:01:28.074 - FF FF FF FF 0A (继电器地址-东阳窗帘)
2025-09-25 20:09:56.272 - 1A BE B0 DC 03 FC (继电器地址-西阳天幕)
2025-09-25 20:09:56.405 - FE
2025-09-25 20:13:06.031 - 1B 03 00 00 00 02 C6 31 (查询室外光线)
2025-09-25 20:13:06.052 - 1B 03 04 00 00 00 00 41 F2 (室外光线返回)
2025-09-25 20:13:06.831 - 1A EC A0 DC 02 00 00 01 0F (自保持开关地址-天花12V供电, 天花12V 供电开)
2025-09-25 20:13:07.349 - 1A AA AA AA 88 (调光器地址-茶吧灯带)
2025-09-25 20:13:07.537 - 1A FF 01 FF FF FF 60 01 FF 60 01 FF 00 00 0F (调光器地址-公共区域统配地址)
2025-09-25 20:13:08.528 - 19 08 24 03 DD 00 0D 00 01 (调用情景-信科调用进门暗)
2025-09-25 20:13:10.587 - 1A FF 01 FF FF FF 60 01 FF 60 01 FF 00 00 0F (调光器地址-公共区域统配地址)
2025-09-25 20:13:12.642 - 1A EC A0 DC 01 00 00 01 0F (自保持开关地址-电视、设备12V供电, 12V 电视供电开)
2025-09-25 20:13:13.241 - 1A EC A0 DC 01 00 00 01 0F (自保持开关地址-电视、设备12V供电, 12V 电视供电开)
2025-09-25 20:13:13.789 - 1A EC A0 DC 04 00 01 01 0F (自保持开关地址-次卧西阳内外卫供电, 内卫外卫开)
2025-09-25 20:13:14.388 - 1A EC A0 DC 04 00 01 01 0F (自保持开关地址-次卧西阳内外卫供电, 内卫外卫开)
2025-09-25 20:13:14.932 - 1A BB BB BB 01 01 00 (开水器电源开)
2025-09-25 20:13:16.479 - 1A 27 89 12 AA 00 00 01 0F (状态寄存器地址, 有人状态)
2025-09-25 20:13:17.028 - 1A 27 89 12 AA 00 00 01 0F (状态寄存器地址, 有人状态)
2025-09-25 20:13:17.575 - 1A BE B0 DC 01 00 01 00 (继电器地址-回水泵点动, 回水泵点动)
2025-09-25 20:13:18.125 - 1A FF FF FF 56 00 00 01 0F (人体感应地址-内卫, 打开内卫感应)
2025-09-25 20:13:18.234 - BF BF
2025-09-25 20:13:18.673 - 1A FF FF FF 55 00 00 01 0F (人体感应地址-外卫, 打开外卫感应)
2025-09-25 20:13:18.780 - BC BC
2025-09-25 20:13:19.221 - 1A FF FF FF 57 00 00 01 0F (人体感应地址-厨房, 打开厨房感应)
2025-09-25 20:13:19.326 - BF BF
2025-09-25 20:13:19.634 - 19 08 24 03 CC 00 D3 00 01 (调用厨房感应灯开的按键)
2025-09-25 20:13:19.688 - 55 0A 32 00 00 00 01 92 55 0A 32 00 00 00 02 93 (厨房顶灯一开, 厨房顶灯二开)
2025-09-25 20:13:20.088 - 1A FF FF FF 57 00 00 01 0F (人体感应地址-厨房, 打开厨房感应)
2025-09-25 20:13:20.101 - BC BC
2025-09-25 20:13:20.714 - 1A FF FF FF 58 00 00 01 0F (人体感应地址-茶吧, 打开茶吧感应)
2025-09-25 20:13:20.766 - BC BC
2025-09-25 20:13:21.074 - 19 08 24 03 CC 01 CC 00 01 (调用茶吧感应灯开的按键)
2025-09-25 20:13:21.124 - 1A AA AA AA 88 FF B0 01 FF B0 01 0F (调光器地址-茶吧灯带, 茶吧灯带明亮)
2025-09-25 20:13:21.523 - 1A BE B0 DC 01 00 01 00 (继电器地址-回水泵点动, 回水泵点动)
2025-09-25 20:13:22.110 - A5 00 B7 FF 00 AA 22 0D (书房纱帘关)
2025-09-25 20:13:22.655 - A5 00 A2 FF 00 AA (餐厅纱帘关)
2025-09-25 20:13:22.704 - 55 00 A2 01 01 64 01 73 AA 55 00 A2 01 01 64 01 73 AA (餐厅纱帘电机状态返回)
2025-09-25 20:13:23.255 - 09 06 00 0F 02 01 78 21 (提示音叮)
2025-09-25 20:13:23.804 - 09 06 00 0F 02 01 78 21 (提示音叮)
2025-09-25 20:13:24.354 - EE 00 00 B1 00 00 02 FF FC FF FF (情景完成返回主页)
2025-09-25 20:13:24.671 - 55 00 A2 00 01 66 01 73 AA 55 00 A2 00 01 66 01 73 AA (餐厅纱帘电机状态返回)
2025-09-25 20:13:24.946 - A1 11 11 11 50 (天花供电打开确认)
2025-09-25 20:13:25.176 - 1A EC A0 DC 02 86 86 86 0F (查询天花供电状态, 自保持开关地址-天花12V供电)
2025-09-25 20:13:25.608 - 1A EC A0 DC 02 01 00 0F (自保持开关地址-天花12V供电)
2025-09-25 20:13:27.488 - A1 11 11 11 51 (卫生供电打开确认)
2025-09-25 20:13:27.711 - 1A EC A0 DC 04 86 86 86 0F (查询卫生间供电状态, 自保持开关地址-次卧西阳内外卫供电)
2025-09-25 20:13:28.145 - 1A EC A0 DC 04 01 01 0F (自保持开关地址-次卧西阳内外卫供电)
2025-09-25 20:13:30.027 - A1 11 11 11 52 (电视供电打开确认)
2025-09-25 20:13:30.249 - 1A EC A0 DC 01 86 86 86 0F (查询电视供电状态, 自保持开关地址-电视、设备12V供电)
2025-09-25 20:13:30.684 - 1A EC A0 DC 01 01 01 0F (自保持开关地址-电视、设备12V供电)
2025-09-25 20:13:35.112 - A1 11 11 11 47 (天热回家开帘)
2025-09-25 20:13:35.333 - 1A 27 89 12 AA 86 86 86 0F (查询寄存器状态, 状态寄存器地址)
2025-09-25 20:13:35.716 - 1A 27 89 12 AA 01 00 00 00 00 00 00 00 00 00 00 01 00 00 00 00 0F (状态寄存器地址)
2025-09-25 20:13:36.338 - 19 08 24 03 DD 00 06 00 01 (调用情景-天热遮阳开帘)
2025-09-25 20:13:36.911 - EE 00 00 B1 00 00 00 FF FC FF FF (情景执行提示)
2025-09-25 20:13:37.505 - 09 06 00 0F 02 01 78 21 (提示音叮)
2025-09-25 20:13:38.051 - A5 00 A6 FE 01 AA (餐厅窗帘开)
2025-09-25 20:13:38.104 - 55 00 A6 02 01 66 01 74 AA 55 00 A6 02 01 66 01 74 AA (餐厅窗帘电机状态返回)
2025-09-25 20:13:39.150 - 55 12 12 03 01 4C 41 (主卧窗帘开)
2025-09-25 20:13:39.191 - 55 12 12 03 01 4C 41 (主卧窗帘开)
2025-09-25 20:13:40.246 - 55 11 1D 03 02 3C 07 (主卧纱帘开)
2025-09-25 20:13:40.283 - 55 11 1D 03 02 3C 07 (主卧纱帘开)
2025-09-25 20:13:41.341 - A5 00 76 FE 01 AA (次卧窗帘开)
2025-09-25 20:13:41.394 - 55 00 76 02 01 0E 01 1B AA 55 00 76 02 01 0E 01 1B AA (次卧窗帘电机状态返回)
2025-09-25 20:13:42.437 - A5 00 21 FE 01 AA (次卧纱帘开)
2025-09-25 20:13:42.495 - 55 00 21 02 01 27 01 34 AA 55 00 21 02 01 27 01 B4 AB (次卧纱帘电机状态返回)
2025-09-25 20:13:43.536 - 1A BE B0 DC 04 00 01 00 (继电器地址-西阳窗帘, 西阳窗帘开)
2025-09-25 20:13:44.581 - FF FF FF FF 0E 00 01 00 (继电器地址-西阳小窗帘, 西阳小窗帘开)
2025-09-25 20:13:45.628 - A5 00 D2 FE 01 AA 22 0D (书房窗帘开)
2025-09-25 20:13:45.677 - 55 00 D2 02 00 FE 01 0B AA 55 00 D2 02 00 FE 01 0B AA (书房窗帘电机状态返回)
2025-09-25 20:13:46.724 - 09 06 00 0F 02 02 38 20 (提示音咚)
2025-09-25 20:13:46.957 - 55 00 A6 00 00 0E 01 74 AA 55 00 A6 00 00 0E 01 74 AA (餐厅窗帘电机状态返回)
2025-09-25 20:13:47.274 - EE 00 00 B1 00 00 02 FF FC FF FF (情景完成返回主页)
2025-09-25 20:13:48.931 - 55 00 76 00 00 0E 01 1B AA 55 00 76 00 00 0E 01 1B AA (次卧窗帘电机状态返回)
2025-09-25 20:13:50.061 - 55 00 21 00 00 0D 01 34 AA 55 00 21 00 00 0D 01 34 AA (次卧纱帘电机状态返回)
2025-09-25 20:13:53.426 - 55 00 D2 00 00 0E 01 0B AA 55 00 D2 00 00 0E 01 0B AA (书房窗帘电机状态返回)
2025-09-25 20:14:22.961 - 19 08 24 03 CC 00 D4 00 01 (调用厨房感应灯关的按键)
2025-09-25 20:14:23.013 - 55 0A 31 00 00 00 01 91 55 0A 31 00 00 00 02 92 (厨房顶灯一关, 厨房顶灯二关)
2025-09-25 20:14:31.081 - 19 08 24 03 DD 00 41 00 01 (调用情景-主卧照明电视)
2025-09-25 20:14:31.621 - EE 00 00 B1 00 00 00 FF FC FF FF (情景执行提示)
2025-09-25 20:14:32.216 - 09 06 00 0F 02 01 78 21 (提示音叮)
2025-09-25 20:14:32.757 - 50 F0 05 (开主卧影视)
2025-09-25 20:14:33.306 - 50 F0 04 (开内卫影视)
2025-09-25 20:14:33.861 - 1A FF FF FF 56 00 00 00 0F (人体感应地址-内卫, 关闭内卫感应)
2025-09-25 20:14:33.973 - BF BE
2025-09-25 20:14:34.419 - 19 08 24 03 CC 01 CD 00 01 (调用茶吧感应灯关的按键)
2025-09-25 20:14:34.469 - 1A AA AA AA 88 FF 00 01 FF 00 01 0F (调光器地址-茶吧灯带, 茶吧灯带关闭)
2025-09-25 20:14:34.870 - 1A 22 33 62 0F 00 02 01 0F (正反转地址-内卫卷帘, 内卫卷帘降)
2025-09-25 20:14:35.453 - 55 11 1D 03 01 7C 06 (主卧纱帘关)
2025-09-25 20:14:35.498 - 55 11 1D 03 01 7C 06 (主卧纱帘关)
2025-09-25 20:14:36.550 - 55 12 12 03 02 0C 40 (主卧窗帘关)
2025-09-25 20:14:36.589 - 55 12 12 03 02 0C 40 (主卧窗帘关)
2025-09-25 20:14:37.655 - 1A 0C 02 04 FF FF 45 01 FF 45 01 FF 00 00 0F (主卧调光微光)
2025-09-25 20:14:43.733 - 1A 0C 02 08 01 FF 45 01 FF 45 01 FF 00 00 0F (调光器地址-内卫射灯, 内卫射灯微光)
2025-09-25 20:14:44.320 - 50 F1 25 (主卧—有线2)
2025-09-25 20:14:44.867 - 50 F1 24 (内卫—有线2)
2025-09-25 20:14:46.913 - AF BF CF DF C2 21 (有线2/快捷-凤凰卫视)
2025-09-25 20:14:48.961 - 1A FF FF FF 60 0B 01 01 0F (红外总线地址-主卧发射设备, 主卧电视电源)
2025-09-25 20:14:49.475 - F0 0B 01 08
2025-09-25 20:14:56.985 - 09 06 00 0F 02 02 38 20 (提示音咚)
2025-09-25 20:14:57.536 - EE 00 00 B1 00 00 02 FF FC FF FF (情景完成返回主页)
2025-09-25 20:16:55.446 - FF FF FF FF 0E (继电器地址-西阳小窗帘)
2025-09-25 20:16:55.582 - FE
2025-09-25 20:20:55.774 - 1A BE B0 DC 01 FC (继电器地址-回水泵点动)
2025-09-25 20:20:55.907 - FF
2025-09-25 20:21:54.851 - 1A BE B0 DC 02 (正反转地址-外卫卷帘)
2025-09-25 20:29:01.775 - 1A BE B0 DC 09 (继电器地址-客厅窗帘)
2025-09-25 20:29:01.911 - FF
2025-09-25 20:40:40.209 - 19 08 24 03 DD 00 1B 00 01 (调用情景-外卫使用)
2025-09-25 20:40:40.748 - EE 00 00 B1 00 00 00 FF FC FF FF (情景执行提示)
2025-09-25 20:40:41.342 - 09 06 00 0F 02 01 78 21 (提示音叮)
2025-09-25 20:40:41.885 - 50 F0 03 (开外卫影视)
2025-09-25 20:40:42.439 - 1A FF FF FF 55 00 00 00 0F (人体感应地址-外卫, 关闭外卫感应)
2025-09-25 20:40:42.547 - BF BF
2025-09-25 20:40:42.994 - 1A 0D 01 07 01 FF 45 01 FF 45 01 FF 00 00 0F (调光器地址-外卫射灯, 外卫感应灯开)
2025-09-25 20:40:45.080 - 1A BE B0 DC 01 00 01 00 (继电器地址-回水泵点动, 回水泵点动)
2025-09-25 20:40:46.127 - 1A BE B0 DC 01 00 01 00 (继电器地址-回水泵点动, 回水泵点动)
2025-09-25 20:40:47.172 - 1A BE B0 DC 01 00 01 00 (继电器地址-回水泵点动, 回水泵点动)
2025-09-25 20:40:48.213 - 50 F1 43 (外卫—CH4)
2025-09-25 20:41:05.212 - A1 11 11 11 11 05 (外卫使用浴霸判断)
2025-09-25 20:41:05.434 - 13 03 00 00 00 02 C7 79 (查询外卫温湿度)
2025-09-25 20:41:05.453 - 13 03 04 01 B0 01 16 48 77 (外卫温湿度返回)
2025-09-25 20:41:07.256 - 09 06 00 0F 02 02 38 20 (提示音咚)
2025-09-25 20:41:09.351 - EE 00 00 B1 00 00 02 FF FC FF FF (情景完成返回主页)
2025-09-25 20:51:58.732 - 19 08 24 03 DD 00 1C 00 01 (调用情景-外卫使用完毕)
2025-09-25 20:51:59.295 - EE 00 00 B1 00 00 00 FF FC FF FF (情景执行提示)
2025-09-25 20:51:59.890 - 09 06 00 0F 02 01 78 21 (提示音叮)
2025-09-25 20:52:00.446 - 1A 0D 01 07 01 FF 00 01 FF 00 01 FF 00 00 0F (调光器地址-外卫射灯, 外卫感应灯关)
2025-09-25 20:52:01.031 - 50 F5 03 (关外卫影视)
2025-09-25 20:52:01.617 - 1A 20 07 00 42 00 01 00 0F (自保持开关地址-外卫顶灯, 外卫顶灯关)
2025-09-25 20:52:02.184 - 1A FF FF FF 55 00 00 01 0F (人体感应地址-外卫, 打开外卫感应)
2025-09-25 20:52:02.292 - BC BC
2025-09-25 20:52:02.596 - 19 08 24 03 CC 01 52 00 01 (调用外卫感应灯开的按键)
2025-09-25 20:52:02.651 - 1A 0D 01 07 01 FF 45 01 FF 45 01 FF 00 00 0F (调光器地址-外卫射灯, 外卫感应灯开)
2025-09-25 20:52:05.076 - 09 06 00 0F 02 02 38 20 (提示音咚)
2025-09-25 20:52:05.676 - EE 00 00 B1 00 00 02 FF FC FF FF (情景完成返回主页)
2025-09-25 20:52:14.325 - 19 08 24 03 CC 01 53 00 01 (调用外卫感应灯关的按键)
2025-09-25 20:52:14.358 - 1A 0D 01 07 01 FF 00 01 FF 00 01 FF 00 00 0F (调光器地址-外卫射灯, 外卫感应灯关)
2025-09-25 20:52:47.949 - 19 08 24 03 CC 01 CC 00 01 (调用茶吧感应灯开的按键)
2025-09-25 20:52:47.979 - 1A AA AA AA 88 FF B0 01 FF B0 01 0F (调光器地址-茶吧灯带, 茶吧灯带明亮)
2025-09-25 20:52:51.512 - 19 08 24 03 CC 00 D3 00 01 (调用厨房感应灯开的按键)
2025-09-25 20:52:51.571 - 55 0A 32 00 00 00 01 92 55 0A 32 00 00 00 02 93 (厨房顶灯一开, 厨房顶灯二开)
2025-09-25 20:53:44.113 - 19 08 24 03 CC 00 D4 00 01 (调用厨房感应灯关的按键)
2025-09-25 20:53:44.148 - 55 0A 31 00 00 00 01 91 55 0A 31 00 00 00 02 92 (厨房顶灯一关, 厨房顶灯二关)
2025-09-25 20:54:08.107 - 19 08 24 03 CC 01 CD 00 01 (调用茶吧感应灯关的按键)
2025-09-25 20:54:08.138 - 1A AA AA AA 88 FF 00 01 FF 00 01 0F (调光器地址-茶吧灯带, 茶吧灯带关闭)
2025-09-25 20:58:03.916 - 1A FF FF FF 04 (继电器地址-东阳衣架)
2025-09-25 20:58:04.051 - FE
